! Touchstone file exported from HFSS 2024.2.0
!        File:           /research/alimos/rotman/hfss/Rotman.aedt
!        Generated:      06:54:36 PM May 14, 2025
!        Design:         Rotman
!        Project:        Rotman
!        Setup:          Setup1
!        Solution:       Sweep
!
! Variables:
!        SubL = 250mm
!        SubTh = 0.688mm
!        SubW = 300mm
!        W1 = 0.0239mm
!        W2 = 0.2113mm
!        W3 = 0.5655mm
!        W4 = 1.031mm
!        X1 = 78.4823mm
!        X10 = 123.3361mm
!        X11 = 76.5242mm
!        X12 = 120.3657mm
!        X13 = 135.3124mm
!        X14 = 134.902mm
!        X15 = 119.9554mm
!        X16 = 74.0986mm
!        X17 = 115.6714mm
!        X18 = 129.9875mm
!        X19 = 129.432mm
!        X2 = 125.193mm
!        X20 = 115.1159mm
!        X21 = 70.7948mm
!        X22 = 101.8641mm
!        X23 = 112.8012mm
!        X24 = 111.823mm
!        X25 = 100.8858mm
!        X26 = 66.3323mm
!        X27 = 95.3741mm
!        X28 = 105.6972mm
!        X29 = 104.6695mm
!        X3 = 140.8332mm
!        X30 = 94.3464mm
!        X31 = 61.4498mm
!        X32 = 85.8115mm
!        X33 = 94.7039mm
!        X34 = 93.5791mm
!        X35 = 84.6867mm
!        X36 = 55.6941mm
!        X37 = 71.5978mm
!        X38 = 77.8378mm
!        X39 = 76.5847mm
!        X4 = 140.7483mm
!        X40 = 70.3448mm
!        X41 = 48.8087mm
!        X42 = 49.1796mm
!        X43 = 50.4813mm
!        X44 = 49.12mm
!        X45 = 47.8184mm
!        X46 = 40.3795mm
!        X47 = 23.4875mm
!        X48 = 18.9575mm
!        X49 = 17.6498mm
!        X5 = 125.1082mm
!        X50 = 22.1798mm
!        X51 = 32.4677mm
!        X52 = 5.4013mm
!        X53 = -2.7391mm
!        X54 = -3.9063mm
!        X55 = 4.234mm
!        X56 = 26.0098mm
!        X57 = -8.6571mm
!        X58 = -19.5856mm
!        X59 = -20.5646mm
!        X6 = 77.9919mm
!        X60 = -9.6361mm
!        X61 = 21.2679mm
!        X62 = -23.0887mm
!        X63 = -36.6597mm
!        X64 = -37.3427mm
!        X65 = -23.7717mm
!        X66 = 13.2975mm
!        X67 = -33.0692mm
!        X68 = -47.5467mm
!        X69 = -48.0695mm
!        X7 = 123.588mm
!        X70 = -33.5919mm
!        X71 = 6.8772mm
!        X72 = -40.6181mm
!        X73 = -55.7546mm
!        X74 = -56.1081mm
!        X75 = -40.9717mm
!        X76 = 2.3512mm
!        X77 = -45.3472mm
!        X78 = -60.8835mm
!        X79 = -61.0618mm
!        X8 = 138.9896mm
!        X80 = -45.5255mm
!        X81 = 0.012104mm
!        X82 = -47.0112mm
!        X83 = -62.6816mm
!        X9 = 138.7377mm
!        Y1 = 0mm
!        Y10 = 21.0586mm
!        Y11 = 15.6332mm
!        Y12 = 32.9014mm
!        Y13 = 37.6087mm
!        Y14 = 38.9116mm
!        Y15 = 34.2043mm
!        Y16 = 23.3083mm
!        Y17 = 45.5163mm
!        Y18 = 51.889mm
!        Y19 = 53.1369mm
!        Y2 = 6.155mm
!        Y20 = 46.7643mm
!        Y21 = 30.7303mm
!        Y22 = 67.1463mm
!        Y23 = 78.3686mm
!        Y24 = 79.322mm
!        Y25 = 68.0997mm
!        Y26 = 37.1817mm
!        Y27 = 75.1705mm
!        Y28 = 86.9602mm
!        Y29 = 87.86mm
!        Y3 = 7.1285mm
!        Y30 = 76.0704mm
!        Y31 = 43.3213mm
!        Y32 = 84.3468mm
!        Y33 = 97.2498mm
!        Y34 = 98.025mm
!        Y35 = 85.122mm
!        Y36 = 48.7296mm
!        Y37 = 93.5154mm
!        Y38 = 107.8898mm
!        Y39 = 108.4338mm
!        Y4 = 8.4918mm
!        Y40 = 94.0593mm
!        Y41 = 52.5985mm
!        Y42 = 99.8302mm
!        Y43 = 115.4465mm
!        Y44 = 115.56mm
!        Y45 = 99.9437mm
!        Y46 = 53.4779mm
!        Y47 = 97.1606mm
!        Y48 = 112.162mm
!        Y49 = 111.7671mm
!        Y5 = 7.5184mm
!        Y50 = 96.7657mm
!        Y51 = 50.4403mm
!        Y52 = 88.3394mm
!        Y53 = 101.7296mm
!        Y54 = 101.02mm
!        Y55 = 87.6298mm
!        Y56 = 45.1881mm
!        Y57 = 75.9361mm
!        Y58 = 87.1668mm
!        Y59 = 86.2142mm
!        Y6 = 7.8478mm
!        Y60 = 74.9834mm
!        Y61 = 38.3468mm
!        Y62 = 59.3555mm
!        Y63 = 67.1907mm
!        Y64 = 66.0077mm
!        Y65 = 58.1725mm
!        Y66 = 32.17mm
!        Y67 = 46.8914mm
!        Y68 = 52.8882mm
!        Y69 = 51.6262mm
!        Y7 = 19.716mm
!        Y70 = 45.6294mm
!        Y71 = 24.3241mm
!        Y72 = 32.5851mm
!        Y73 = 36.6409mm
!        Y74 = 35.3214mm
!        Y75 = 31.2656mm
!        Y76 = 15.1539mm
!        Y77 = 16.9742mm
!        Y78 = 19.0196mm
!        Y79 = 17.6653mm
!        Y8 = 22.606mm
!        Y80 = 15.6199mm
!        Y81 = 5.1467mm
!        Y82 = 0.683mm
!        Y83 = 0.683mm
!        Y9 = 23.9485mm
!        Z1 = 0mm
!        Z10 = 0mm
!        Z11 = 0mm
!        Z12 = 0mm
!        Z13 = 0mm
!        Z14 = 0mm
!        Z15 = 0mm
!        Z16 = 0mm
!        Z17 = 0mm
!        Z18 = 0mm
!        Z19 = 0mm
!        Z2 = 0mm
!        Z20 = 0mm
!        Z21 = 0mm
!        Z22 = 0mm
!        Z23 = 0mm
!        Z24 = 0mm
!        Z25 = 0mm
!        Z26 = 0mm
!        Z27 = 0mm
!        Z28 = 0mm
!        Z29 = 0mm
!        Z3 = 0mm
!        Z30 = 0mm
!        Z31 = 0mm
!        Z32 = 0mm
!        Z33 = 0mm
!        Z34 = 0mm
!        Z35 = 0mm
!        Z36 = 0mm
!        Z37 = 0mm
!        Z38 = 0mm
!        Z39 = 0mm
!        Z4 = 0mm
!        Z40 = 0mm
!        Z41 = 0mm
!        Z42 = 0mm
!        Z43 = 0mm
!        Z44 = 0mm
!        Z45 = 0mm
!        Z46 = 0mm
!        Z47 = 0mm
!        Z48 = 0mm
!        Z49 = 0mm
!        Z5 = 0mm
!        Z50 = 0mm
!        Z51 = 0mm
!        Z52 = 0mm
!        Z53 = 0mm
!        Z54 = 0mm
!        Z55 = 0mm
!        Z56 = 0mm
!        Z57 = 0mm
!        Z58 = 0mm
!        Z59 = 0mm
!        Z6 = 0mm
!        Z60 = 0mm
!        Z61 = 0mm
!        Z62 = 0mm
!        Z63 = 0mm
!        Z64 = 0mm
!        Z65 = 0mm
!        Z66 = 0mm
!        Z67 = 0mm
!        Z68 = 0mm
!        Z69 = 0mm
!        Z7 = 0mm
!        Z70 = 0mm
!        Z71 = 0mm
!        Z72 = 0mm
!        Z73 = 0mm
!        Z74 = 0mm
!        Z75 = 0mm
!        Z76 = 0mm
!        Z77 = 0mm
!        Z78 = 0mm
!        Z79 = 0mm
!        Z8 = 0mm
!        Z80 = 0mm
!        Z81 = 0mm
!        Z82 = 0mm
!        Z83 = 0mm
!        Z9 = 0mm
!
# GHz S MA R 50.000000
! Terminal data exported
! Port[1] = 1
! Port[2] = 2
! Port[3] = 3
! Port[4] = 4
! Port[5] = 5
! Port[6] = 6
! Port[7] = 7
! Port[8] = 8
! Port[9] = 9
! Port[10] = 10
! Port[11] = 11
! Port[12] = 12
! Port[13] = 13
! Port[14] = 14
! Port[15] = 15
! Port[16] = 16
! Port[17] = 17
5                              0.269490334122996 -127.292856536792 0.297481172240844 74.9046393721932 0.176838543465581 -56.0185015591368 0.14230402611408 -172.987108426511 
                               0.108580417487269 76.567206993691  0.119470797666139 -15.6247393500658 0.0999772077954725 -109.128806608654 0.137204844019285 170.967603244411 
                               0.149590019742404 106.202487346681 0.171308187946748 83.0601952128241 0.163471648286949 120.992163551697 0.16207008374117 165.53729577404  
                               0.165243665221495 -149.195493853899 0.161126393116623 -103.762372438331 0.160907207180889 -54.3333336014238 0.171316216007607 -7.09981577368157 
                               0.16056610512332 39.2788631244354 
                               0.297481172240844 74.9046393721932 0.341039761389804 -131.101923108487 0.307968966912197 78.862313673166  0.197007583120061 -54.1994804170636 
                               0.134086363650443 -166.172770191863 0.119162896505137 82.6754689631906 0.105842293655392 -2.80992788690498 0.081868176662092 -100.58744396651 
                               0.138173894075152 167.425583850089 0.159439961410081 77.5741597702713 0.15625701559166 109.494840168721 0.157873126525417 140.373627219824 
                               0.155888786975369 174.382273233632 0.161115881437331 -150.945240959551 0.162924267690557 -117.723743975456 0.158305191826113 -79.6500361763201 
                               0.160429041171349 -36.4794351567742 
                               0.176838543465581 -56.0185015591368 0.307968966912197 78.862313673166  0.350909564263861 -131.350751728085 0.287908224541086 75.6980490920784 
                               0.185931057883264 -54.1930480869295 0.11847674597099 -176.397475450858 0.126884934324628 74.7755941884202 0.111638722914883 -1.00014872006583 
                               0.0970685222404817 -109.678076227471 0.171559091795975 83.0745630603988 0.162119623205618 106.780213095494 0.164696581284538 129.468310042364 
                               0.157515357732871 151.267908794523 0.153975980843769 175.844871982118 0.163873364504499 -161.433900665811 0.168711156385689 -140.191251356882 
                               0.158125168582298 -109.842078127859 
                               0.14230402611408 -172.987108426511 0.197007583120061 -54.1994804170636 0.287908224541086 75.6980490920784 0.34159159855106 -134.100412473841 
                               0.304111957598298 72.2587457392651 0.195414951748079 -50.9891879224645 0.112497377050847 -175.697227276492 0.120465319682905 81.7385654551537 
                               0.117588345949472 -17.4286313346947 0.173455328654098 105.187931368187 0.164752211097993 113.849175327658 0.172352878540799 127.455747580652 
                               0.173948721758904 138.665885951883 0.16209978675187 150.312501215229 0.157358542528554 163.991740330899 0.169181143789764 176.504630740074 
                               0.177659783260856 -167.801865382739 
                               0.108580417487269 76.567206993691  0.134086363650443 -166.172770191863 0.185931057883264 -54.1930480869295 0.304111957598299 72.2587457392651 
                               0.33659940988828 -133.221048806397 0.301794037545082 70.5170398176366 0.187098941809839 -54.0028863953359 0.137050662429034 -166.204434223851 
                               0.104369788192628 76.9998831784474 0.173947297712587 145.608630726737 0.158645143991576 138.780671809752 0.163354597931972 137.7839299885   
                               0.177440142007302 137.675106186312 0.176755859224118 137.509690017379 0.163632990322426 137.702216613857 0.159946285168456 138.328389425063 
                               0.174537735820809 145.363094508606 
                               0.119470797666139 -15.6247393500658 0.119162896505137 82.6754689631906 0.11847674597099 -176.397475450858 0.195414951748079 -50.9891879224645 
                               0.301794037545082 70.5170398176366 0.345504982437736 -135.254022842595 0.286330542587021 75.6915108098092 0.195937103021211 -55.9546808590851 
                               0.142125913985627 -174.628288048772 0.178546044934165 -168.285805345028 0.167816127154402 176.40339592945  0.156381690485167 163.711420231436 
                               0.162850337452833 150.325570337348 0.173657330283252 138.607061028958 0.171469419152923 127.506446122159 0.163823746390008 113.132386465489 
                               0.172026866663531 104.667401394325 
                               0.0999772077954724 -109.128806608654 0.105842293655392 -2.80992788690497 0.126884934324628 74.7755941884202 0.112497377050847 -175.697227276492 
                               0.187098941809839 -54.0028863953359 0.286330542587021 75.6915108098092 0.351088197925758 -132.595097813512 0.311460417610358 78.5128242889304 
                               0.174089211661408 -56.1300517643551 0.159154087088567 -110.312471438719 0.168856361799858 -140.359973925051 0.16298719046588 -161.7659551885  
                               0.154029389463598 175.58654094411  0.158247701991318 151.149300274585 0.165850969820875 130.164330463585 0.162143012315744 106.99503292136  
                               0.169224753983341 83.0303538203131 
                               0.137204844019285 170.967603244411 0.0818681766620922 -100.58744396651 0.111638722914883 -1.00014872006586 0.120465319682905 81.7385654551537 
                               0.137050662429034 -166.204434223851 0.195937103021211 -55.9546808590851 0.311460417610358 78.5128242889304 0.338745747770483 -131.376346517118 
                               0.295485883524346 74.6573315136239 0.161720065638633 -36.5656718190163 0.159257698797774 -80.2289452016045 0.163069893910837 -118.055714613602 
                               0.159562327386825 -151.04646496826 0.154064578516589 173.656045763989 0.158921793720557 140.458511493089 0.156716312086494 109.684363526393 
                               0.155872150044617 77.0762497698003 
                               0.149590019742404 106.202487346681 0.138173894075152 167.425583850089 0.0970685222404817 -109.678076227471 0.117588345949472 -17.4286313346947 
                               0.104369788192628 76.9998831784474 0.142125913985627 -174.628288048772 0.174089211661408 -56.1300517643551 0.295485883524346 74.6573315136239 
                               0.263492352231023 -127.501195029248 0.163121340982753 39.6221365029136 0.172293034195395 -7.19584403377513 0.162658398650582 -54.875041442084 
                               0.163005743072563 -103.465902727142 0.164082729149653 -148.962832449999 0.163063231804497 165.674231636789 0.167001538388665 121.01508757763  
                               0.17166249480498 82.9647685264533 
                               0.171308187946748 83.0601952128242 0.159439961410081 77.5741597702713 0.171559091795974 83.0745630603987 0.173455328654098 105.187931368187 
                               0.173947297712587 145.608630726737 0.178546044934165 -168.285805345029 0.159154087088567 -110.312471438719 0.161720065638633 -36.5656718190163 
                               0.163121340982753 39.6221365029136 0.367052163813041 -133.67782575464 0.314905977636953 85.5103275656382 0.207214304399325 -29.2387346792488 
                               0.130949216487961 -117.54180665794 0.0846607025083146 134.63466330812  0.0949923948727635 49.0256419015397 0.0728610960577259 -29.8843177362572 
                               0.0719986985328118 -124.354359616562 
                               0.163471648286949 120.992163551697 0.15625701559166 109.494840168721 0.162119623205618 106.780213095494 0.164752211097993 113.849175327658 
                               0.158645143991576 138.780671809752 0.167816127154402 176.40339592945  0.168856361799858 -140.359973925051 0.159257698797774 -80.2289452016045 
                               0.172293034195395 -7.19584403377513 0.314905977636953 85.5103275656382 0.393723229560524 -112.914736351287 0.318286879119138 96.2534985240859 
                               0.212541619009699 -12.5114554474154 0.121088395387518 -108.076528901402 0.0945636879838285 150.14014217598  0.0802542140724462 61.114065050631  
                               0.0797600881542038 -28.2583390690731 
                               0.16207008374117 165.53729577404  0.157873126525417 140.373627219824 0.164696581284538 129.468310042364 0.172352878540799 127.455747580652 
                               0.163354597931972 137.7839299885   0.156381690485167 163.711420231436 0.16298719046588 -161.7659551885  0.163069893910837 -118.055714613602 
                               0.162658398650582 -54.875041442084 0.207214304399325 -29.2387346792488 0.318286879119138 96.2534985240859 0.381434608182199 -103.460236413597 
                               0.321670096538575 102.003501725209 0.195422810069886 -8.54363742283376 0.125933917921299 -111.128767351661 0.0885749577265034 149.030116985808 
                               0.0962636771502647 46.3014020786072 
                               0.165243665221495 -149.1954938539  0.155888786975369 174.382273233632 0.157515357732871 151.267908794523 0.173948721758904 138.665885951883 
                               0.177440142007302 137.675106186312 0.162850337452833 150.325570337348 0.154029389463598 175.58654094411  0.159562327386825 -151.04646496826 
                               0.163005743072563 -103.465902727142 0.130949216487961 -117.541806657941 0.212541619009699 -12.5114554474154 0.321670096538575 102.003501725209 
                               0.384951799240508 -101.364264048844 0.324979406930032 106.659924386404 0.202584652322512 -8.39712823480204 0.122773361794693 -105.955073980842 
                               0.0878714145386229 136.668237484638 
                               0.161126393116623 -103.762372438331 0.16111588143733 -150.945240959551 0.153975980843769 175.844871982118 0.16209978675187 150.312501215229 
                               0.176755859224118 137.509690017379 0.173657330283252 138.607061028958 0.158247701991318 151.149300274585 0.154064578516589 173.656045763989 
                               0.164082729149653 -148.962832449999 0.0846607025083146 134.63466330812  0.121088395387518 -108.076528901402 0.195422810069886 -8.54363742283376 
                               0.324979406930032 106.659924386404 0.390824965254016 -99.5637651318343 0.319542532521018 102.202522539883 0.210173726890442 -12.3101401425062 
                               0.132111737906965 -119.44193784019 
                               0.160907207180889 -54.3333336014238 0.162924267690557 -117.723743975456 0.1638733645045  -161.433900665811 0.157358542528554 163.991740330899 
                               0.163632990322426 137.702216613857 0.171469419152923 127.506446122159 0.165850969820875 130.164330463585 0.158921793720557 140.458511493089 
                               0.163063231804497 165.674231636789 0.0949923948727634 49.0256419015397 0.0945636879838285 150.14014217598  0.125933917921299 -111.128767351661 
                               0.202584652322512 -8.39712823480204 0.319542532521018 102.202522539883 0.382539433919639 -102.401898805491 0.318764894760543 96.9240440849358 
                               0.205281883958813 -28.7077119791148 
                               0.171316216007607 -7.09981577368157 0.158305191826113 -79.6500361763201 0.168711156385689 -140.191251356882 0.169181143789764 176.504630740074 
                               0.159946285168456 138.328389425063 0.163823746390008 113.132386465489 0.162143012315744 106.99503292136  0.156716312086494 109.684363526393 
                               0.167001538388665 121.01508757763  0.0728610960577259 -29.8843177362572 0.0802542140724463 61.114065050631  0.0885749577265034 149.030116985808 
                               0.122773361794693 -105.955073980842 0.210173726890443 -12.3101401425061 0.318764894760543 96.9240440849358 0.39236330758508 -113.669601991245 
                               0.3175763615114  84.5209265777772 
                               0.16056610512332 39.2788631244354 0.160429041171349 -36.4794351567742 0.158125168582298 -109.842078127859 0.177659783260856 -167.801865382738 
                               0.174537735820809 145.363094508606 0.172026866663531 104.667401394325 0.169224753983341 83.0303538203131 0.155872150044617 77.0762497698003 
                               0.17166249480498 82.9647685264533 0.0719986985328119 -124.354359616562 0.0797600881542036 -28.2583390690731 0.0962636771502647 46.3014020786072 
                               0.0878714145386229 136.668237484638 0.132111737906965 -119.44193784019 0.205281883958813 -28.7077119791148 0.3175763615114  84.5209265777772 
                               0.374250417631142 -134.10866176428 
