! Created by janssen on Wed Jul 24 13:32:40 METDST 2002
# HZ S MA R 50
5E+07 0.516949 -4.18401 0.48636 3.77794 0.485789 3.87282 0.516959 -4.08022
1E+08 0.503303 -3.71942 0.498857 2.71552 0.499126 2.76846 0.503502 -3.59188
1.5E+08 0.497319 -3.43226 0.505415 2.25389 0.504716 2.16616 0.496314 -3.35462
2E+08 0.493768 -3.34922 0.508568 1.78878 0.508731 1.7993 0.492629 -3.28539
2.5E+08 0.49023 -3.41076 0.511424 1.29461 0.512139 1.42534 0.490395 -3.32409
3E+08 0.488977 -3.49222 0.514229 1.12513 0.513933 1.10027 0.48827 -3.30797
3.5E+08 0.487325 -3.55599 0.515629 0.793902 0.515668 0.781727 0.486757 -3.37562
4E+08 0.485209 -3.69591 0.516424 0.477496 0.516887 0.463318 0.484731 -3.42453
4.5E+08 0.485665 -3.72465 0.517312 0.204419 0.518637 0.319738 0.484811 -3.55535
5E+08 0.484646 -3.92683 0.518706 0.00776022 0.518884 0.0899745 0.484041 -3.66493
5.5E+08 0.482474 -4.1162 0.519395 -0.250603 0.519432 -0.165967 0.483154 -3.77123
6E+08 0.483638 -4.20937 0.519945 -0.488419 0.520984 -0.342604 0.48202 -3.8797
6.5E+08 0.482586 -4.35845 0.520425 -0.67514 0.520282 -0.651605 0.482466 -3.95585
7E+08 0.482666 -4.51085 0.520868 -0.903509 0.521472 -0.852153 0.481778 -4.16568
7.5E+08 0.482163 -4.70128 0.522013 -1.13829 0.522301 -1.00411 0.480716 -4.25089
8E+08 0.481611 -4.84026 0.522429 -1.30143 0.522131 -1.20282 0.481711 -4.43609
8.5E+08 0.482403 -5.12655 0.521389 -1.52014 0.523065 -1.4352 0.480823 -4.62612
9E+08 0.481989 -5.21535 0.522085 -1.65193 0.522563 -1.6408 0.480769 -4.62622
9.5E+08 0.480576 -5.3408 0.523183 -1.90438 0.523057 -1.90402 0.480345 -4.74869
1E+09 0.481343 -5.5516 0.522902 -2.14719 0.523244 -2.0895 0.480485 -4.92292
1.05E+09 0.48138 -5.70619 0.52294 -2.33886 0.523743 -2.13588 0.479999 -5.01506
1.1E+09 0.481336 -5.9325 0.523482 -2.48382 0.524087 -2.38435 0.480295 -5.20151
1.15E+09 0.482228 -6.06773 0.523227 -2.68787 0.523672 -2.58827 0.480289 -5.29042
1.2E+09 0.481522 -6.29252 0.523806 -2.86077 0.523985 -2.70621 0.480209 -5.56504
1.25E+09 0.481844 -6.44812 0.523348 -3.09926 0.524237 -2.90053 0.481044 -5.6652
1.3E+09 0.481274 -6.69849 0.523981 -3.31857 0.524202 -3.15014 0.48074 -5.80671
1.35E+09 0.481897 -6.68417 0.523044 -3.44485 0.524491 -3.4104 0.480303 -5.83285
1.4E+09 0.481957 -6.87491 0.522624 -3.6374 0.524248 -3.43265 0.481805 -6.01822
1.45E+09 0.481924 -7.09877 0.524407 -3.79045 0.525069 -3.69945 0.48084 -6.14329
1.5E+09 0.482293 -7.15463 0.523465 -3.97643 0.524246 -3.8261 0.481124 -6.22393
1.55E+09 0.482102 -7.46266 0.523577 -4.24201 0.524616 -3.87706 0.481494 -6.4384
1.6E+09 0.482448 -7.67607 0.523742 -4.31752 0.52445 -4.1741 0.480987 -6.51027
1.65E+09 0.482149 -7.69982 0.52218 -4.50851 0.524637 -4.34029 0.48278 -6.62013
1.7E+09 0.483874 -7.84275 0.522929 -4.76457 0.523933 -4.56186 0.481483 -6.80218
1.75E+09 0.482341 -8.16333 0.523286 -4.91508 0.524346 -4.66922 0.481745 -6.78007
1.8E+09 0.483791 -8.18612 0.522435 -5.09119 0.523365 -4.98077 0.482799 -7.15281
1.85E+09 0.484507 -8.33592 0.522952 -5.26123 0.524963 -5.08262 0.482089 -7.15304
1.9E+09 0.484521 -8.51065 0.522448 -5.3729 0.523648 -5.22053 0.483577 -7.25307
1.95E+09 0.485129 -8.65605 0.52235 -5.67779 0.52467 -5.45333 0.483373 -7.39915
2E+09 0.484874 -8.71929 0.522633 -5.70736 0.524266 -5.60365 0.482835 -7.32845
2.05E+09 0.484962 -8.88025 0.522317 -5.90248 0.523397 -5.80326 0.483601 -7.65792
2.1E+09 0.484671 -9.02681 0.522463 -6.10644 0.52334 -5.97013 0.483786 -7.60561
2.15E+09 0.485521 -9.13154 0.521194 -6.37315 0.523997 -6.07274 0.483822 -7.83617
2.2E+09 0.486264 -9.297 0.521142 -6.46906 0.523964 -6.28087 0.483981 -7.80024
2.25E+09 0.4864 -9.39865 0.520666 -6.70113 0.523192 -6.45125 0.485447 -7.99065
2.3E+09 0.487545 -9.62276 0.521029 -6.77347 0.523232 -6.65144 0.484231 -7.93765
2.35E+09 0.486616 -9.75273 0.521013 -7.10663 0.523578 -6.69752 0.48628 -8.06145
2.4E+09 0.48696 -9.79709 0.519767 -7.20588 0.522616 -7.00193 0.485735 -8.2587
2.45E+09 0.487613 -9.98217 0.519689 -7.29674 0.522515 -7.27456 0.486281 -8.20282
2.5E+09 0.487364 -10.1828 0.519915 -7.50969 0.521096 -7.24093 0.485718 -8.53864
2.55E+09 0.488016 -10.1929 0.51991 -7.5402 0.522288 -7.31102 0.485541 -8.53998
2.6E+09 0.488699 -10.3509 0.518838 -7.86995 0.522584 -7.66185 0.486543 -8.62669
2.65E+09 0.488863 -10.5039 0.519232 -7.89686 0.520838 -7.80511 0.487565 -8.72357
2.7E+09 0.487169 -10.5443 0.517381 -7.94139 0.521516 -7.97267 0.486605 -8.74887
2.75E+09 0.490463 -10.6882 0.51809 -8.21534 0.521187 -8.21405 0.488242 -8.89536
2.8E+09 0.488154 -10.8665 0.518102 -8.38097 0.522095 -8.30393 0.488155 -9.02201
2.85E+09 0.487984 -10.9823 0.518475 -8.56495 0.520675 -8.45653 0.488122 -8.78655
2.9E+09 0.490742 -10.9788 0.518338 -8.72288 0.522048 -8.66173 0.488001 -9.13423
2.95E+09 0.49107 -11.265 0.51657 -8.89883 0.520085 -8.71769 0.488967 -9.09526
3E+09 0.489811 -11.234 0.517877 -9.03521 0.52067 -9.00067 0.488367 -9.11047
3.05E+09 0.49108 -11.7105 0.517629 -9.06991 0.523056 -9.04372 0.487824 -9.32028
3.1E+09 0.491499 -11.5876 0.516564 -9.3453 0.519126 -9.35742 0.48974 -9.17445
3.15E+09 0.491953 -11.554 0.516783 -9.46183 0.51866 -9.40504 0.49056 -9.08878
3.2E+09 0.49344 -11.5357 0.51556 -9.66998 0.519367 -9.47059 0.490938 -9.18903
3.25E+09 0.492724 -11.965 0.514965 -9.67209 0.518559 -9.79343 0.492039 -9.37889
3.3E+09 0.492921 -11.7965 0.515167 -10.0784 0.517752 -9.8357 0.491947 -9.30516
3.35E+09 0.493671 -11.994 0.514293 -10.0086 0.517598 -10.1003 0.49204 -9.51524
3.4E+09 0.493499 -12.1065 0.514628 -10.2812 0.518549 -10.1124 0.491676 -9.45585
3.45E+09 0.494369 -12.1187 0.51393 -10.3839 0.518519 -10.3726 0.493307 -9.48074
3.5E+09 0.494764 -12.211 0.513684 -10.5582 0.517718 -10.5248 0.491966 -9.6067
3.55E+09 0.495021 -12.4765 0.512738 -10.649 0.517618 -10.6414 0.493201 -9.53166
3.6E+09 0.494346 -12.3563 0.513414 -10.8111 0.518215 -10.8097 0.493014 -9.71901
3.65E+09 0.495476 -12.4641 0.512565 -10.8501 0.515915 -10.8683 0.494307 -9.7037
3.7E+09 0.494547 -12.6708 0.512742 -11.0755 0.518186 -11.1303 0.4937 -9.79708
3.75E+09 0.494788 -12.7289 0.512568 -11.1834 0.516445 -11.2596 0.494448 -9.87871
3.8E+09 0.496215 -12.6596 0.512681 -11.3484 0.515794 -11.486 0.493305 -9.83112
3.85E+09 0.49631 -12.8154 0.51134 -11.3965 0.516648 -11.6024 0.494149 -9.84146
3.9E+09 0.496564 -12.8787 0.510596 -11.6454 0.516267 -11.7258 0.494547 -9.89707
3.95E+09 0.496516 -12.9935 0.512156 -11.7003 0.516267 -11.8174 0.494467 -9.85785
4E+09 0.496886 -13.1168 0.511296 -11.9161 0.515137 -11.931 0.493541 -9.82286
4.05E+09 0.497458 -12.9244 0.51067 -12.0544 0.515622 -11.9504 0.494284 -9.88705
4.1E+09 0.498192 -13.0311 0.510828 -12.1975 0.51474 -12.234 0.494776 -9.87487
4.15E+09 0.496503 -13.2779 0.509504 -12.3299 0.515369 -12.3568 0.493384 -9.95809
4.2E+09 0.495898 -13.2108 0.510291 -12.4115 0.515704 -12.6265 0.494528 -10.0924
4.25E+09 0.497816 -13.1654 0.509424 -12.7282 0.516122 -12.6893 0.493624 -9.94824
4.3E+09 0.49803 -13.4392 0.509613 -12.7519 0.514905 -12.6806 0.494253 -9.788
4.35E+09 0.496881 -13.3648 0.510807 -12.8701 0.514767 -12.9879 0.494682 -10.0641
4.4E+09 0.498162 -13.6352 0.508815 -13.0317 0.51493 -13.1085 0.494164 -9.92763
4.45E+09 0.496775 -13.5673 0.509468 -13.2149 0.514822 -13.3094 0.494376 -10.0573
4.5E+09 0.498147 -13.6867 0.509895 -13.2697 0.515083 -13.5107 0.494928 -9.97399
4.55E+09 0.496519 -13.6748 0.508218 -13.4359 0.5148 -13.7157 0.494518 -9.82182
4.6E+09 0.497301 -13.8264 0.508244 -13.5986 0.513793 -13.7441 0.49476 -10.0996
4.65E+09 0.495555 -13.8006 0.509646 -13.6373 0.514568 -14.0601 0.493666 -10.0911
4.7E+09 0.496563 -13.8752 0.510256 -13.7047 0.514817 -14.0125 0.493708 -9.8514
4.75E+09 0.496561 -13.8969 0.509117 -13.9123 0.513847 -14.1381 0.494718 -10.081
4.8E+09 0.495107 -14.0521 0.509495 -14.0865 0.514216 -14.2892 0.493197 -9.98524
4.85E+09 0.49772 -13.8319 0.510808 -14.0537 0.514406 -14.5793 0.493993 -9.99614
4.9E+09 0.496073 -14.1413 0.509606 -14.3681 0.513534 -14.5591 0.49331 -10.0139
4.95E+09 0.496895 -14.0404 0.509659 -14.5634 0.51437 -14.8019 0.493067 -10.0964
5E+09 0.497747 -13.9778 0.509625 -14.5504 0.51498 -14.8845 0.492625 -9.85364
5.05E+09 0.496295 -14.1548 0.510136 -14.8139 0.514928 -15.0457 0.494624 -10.05
5.1E+09 0.496475 -14.1847 0.509545 -14.9719 0.515051 -15.1056 0.49327 -9.94007
5.15E+09 0.497214 -14.2261 0.509115 -14.9489 0.514096 -15.2575 0.493625 -9.93275
5.2E+09 0.497198 -14.3894 0.50849 -15.114 0.515576 -15.4504 0.492955 -9.98876
5.25E+09 0.4949 -14.2624 0.509031 -15.3338 0.513999 -15.6831 0.493213 -9.97216
5.3E+09 0.496312 -14.4183 0.510218 -15.3713 0.514373 -15.8679 0.49221 -9.90515
5.35E+09 0.495692 -14.5239 0.509573 -15.4735 0.514776 -15.8754 0.492586 -9.88935
5.4E+09 0.495291 -14.4393 0.509649 -15.6111 0.51562 -16.131 0.492521 -9.83902
5.45E+09 0.496556 -14.4334 0.51002 -15.7859 0.516298 -16.3381 0.492034 -10.0106
5.5E+09 0.494896 -14.6519 0.510341 -16.0461 0.515407 -16.4934 0.491598 -9.96212
5.55E+09 0.495185 -14.631 0.510585 -16.155 0.517178 -16.4429 0.49267 -9.70833
5.6E+09 0.495039 -14.4521 0.509763 -16.1829 0.514241 -16.6166 0.490907 -10.058
5.65E+09 0.495591 -14.7634 0.512098 -16.3514 0.515246 -16.9371 0.491023 -9.88303
5.7E+09 0.493041 -14.7391 0.511494 -16.2949 0.516401 -17.0109 0.491439 -9.73533
5.75E+09 0.494366 -14.7993 0.510762 -16.5224 0.516312 -17.078 0.488815 -9.80308
5.8E+09 0.495084 -15.0615 0.512 -16.7036 0.515142 -17.1782 0.489526 -9.78458
5.85E+09 0.492036 -14.8001 0.512972 -16.7769 0.516689 -17.6335 0.491394 -9.84892
5.9E+09 0.491904 -14.7175 0.512457 -16.9169 0.51654 -17.5879 0.488597 -9.72394
5.95E+09 0.492949 -15.1148 0.511775 -17.0446 0.516798 -17.783 0.48917 -9.76957
6E+09 0.491427 -14.9081 0.513256 -17.356 0.51741 -17.7669 0.487406 -9.79838
