! Created by janssen on Wed Jul 24 13:34:06 METDST 2002
# HZ S MA R 50
5E+07 0.0279187 -1.22951 0.973221 -0.323769 0.972137 -0.386323 0.0276447 -1.48159
1E+08 0.0269008 0.700208 0.973555 -0.548624 0.973187 -0.588311 0.0275757 0.0923441
1.5E+08 0.0281719 2.50533 0.974019 -0.77878 0.973083 -0.845793 0.0276883 1.79198
2E+08 0.0282489 3.8979 0.973699 -1.04012 0.97351 -1.08261 0.0279762 2.75673
2.5E+08 0.0279195 3.64542 0.973535 -1.35143 0.974059 -1.36926 0.0285471 2.82441
3E+08 0.0284406 4.54736 0.973915 -1.57706 0.973876 -1.6013 0.0286242 3.85509
3.5E+08 0.0290897 3.27349 0.974813 -1.87563 0.974179 -1.93917 0.0295713 5.96396
4E+08 0.0291468 7.15084 0.9744 -2.1369 0.974078 -2.20453 0.0291861 5.25064
4.5E+08 0.029804 6.27798 0.974648 -2.40766 0.974473 -2.48982 0.0302394 5.3152
5E+08 0.0299026 6.50048 0.974397 -2.65435 0.973736 -2.70989 0.0302652 6.87665
5.5E+08 0.029343 7.77078 0.974252 -2.93216 0.974586 -2.97227 0.0298602 6.68035
6E+08 0.0309374 7.18107 0.974172 -3.20579 0.974129 -3.24901 0.0303671 6.0833
6.5E+08 0.0305478 7.01418 0.974758 -3.49956 0.973962 -3.55884 0.0304871 8.50305
7E+08 0.0302958 7.73567 0.974273 -3.76516 0.973866 -3.80132 0.0307286 6.11032
7.5E+08 0.0306043 7.22105 0.974957 -4.04119 0.973972 -4.09034 0.031574 8.0875
8E+08 0.0302631 8.83431 0.975233 -4.32007 0.974063 -4.36004 0.0320722 8.1437
8.5E+08 0.0319817 7.44286 0.974287 -4.61928 0.974027 -4.63543 0.0315166 7.86397
9E+08 0.0307354 10.0876 0.974233 -4.84928 0.97432 -4.924 0.031218 7.99661
9.5E+08 0.0316082 10.0987 0.974657 -5.07864 0.973987 -5.1987 0.0320343 10.4985
1E+09 0.0309543 11.064 0.974123 -5.42185 0.975206 -5.46928 0.031434 7.30328
1.05E+09 0.0309777 11.004 0.975219 -5.67558 0.974784 -5.64807 0.0316692 9.9982
1.1E+09 0.0325222 10.1953 0.974407 -5.97221 0.974548 -5.99202 0.0330832 12.7488
1.15E+09 0.0322438 11.1392 0.975376 -6.22297 0.974622 -6.22842 0.033085 12.1811
1.2E+09 0.0325595 12.908 0.975216 -6.56567 0.973714 -6.52735 0.0336904 11.6437
1.25E+09 0.0324722 13.1377 0.975055 -6.7756 0.974221 -6.7967 0.0327685 12.9737
1.3E+09 0.0321029 13.55 0.974547 -7.08823 0.9741 -7.11042 0.0337511 12.2151
1.35E+09 0.0337448 18.4484 0.975143 -7.35736 0.974487 -7.38417 0.0338635 15.8314
1.4E+09 0.0340922 17.6115 0.974397 -7.62772 0.974221 -7.5972 0.0352185 17.2374
1.45E+09 0.0338787 17.4753 0.974214 -7.86298 0.97365 -7.88861 0.034983 18.4587
1.5E+09 0.0337737 19.5728 0.974919 -8.19668 0.973784 -8.19223 0.035912 19.4099
1.55E+09 0.0336202 20.3616 0.974882 -8.49368 0.973398 -8.44425 0.0364337 21.9115
1.6E+09 0.0345035 20.0975 0.974459 -8.74568 0.9732 -8.76075 0.0364381 21.5762
1.65E+09 0.0354801 23.8744 0.973831 -9.04545 0.973697 -9.06361 0.0384245 21.3463
1.7E+09 0.0371289 25.4775 0.974327 -9.28693 0.973865 -9.33038 0.0377307 26.375
1.75E+09 0.0361791 24.7684 0.974777 -9.59003 0.973552 -9.59105 0.038167 26.1878
1.8E+09 0.0377195 27.1362 0.974069 -9.8438 0.974177 -9.85243 0.0379112 25.6741
1.85E+09 0.0387886 28.3251 0.973984 -10.1433 0.973641 -10.1579 0.0389864 28.0093
1.9E+09 0.0383082 29.9209 0.974464 -10.4222 0.973293 -10.4533 0.041068 27.8604
1.95E+09 0.0384509 31.558 0.973374 -10.701 0.974093 -10.7216 0.042216 28.2636
2E+09 0.0414783 34.1431 0.973326 -10.9861 0.973381 -10.9926 0.042663 32.9836
2.05E+09 0.0422761 34.3221 0.974297 -11.2956 0.973063 -11.2652 0.0422882 32.2044
2.1E+09 0.0423441 37.3103 0.974141 -11.5434 0.973038 -11.5467 0.043684 34.7998
2.15E+09 0.043335 38.0051 0.972404 -11.8412 0.972692 -11.8563 0.0456974 35.763
2.2E+09 0.0451494 39.2461 0.973172 -12.1454 0.973035 -12.098 0.0470998 36.8472
2.25E+09 0.0466074 40.9139 0.972904 -12.4231 0.97305 -12.3635 0.0490245 37.4183
2.3E+09 0.0485883 38.991 0.973395 -12.7312 0.972525 -12.693 0.0499725 39.7573
2.35E+09 0.0475437 43.3998 0.973343 -12.9666 0.972082 -12.9295 0.0520117 39.5915
2.4E+09 0.0503019 43.9208 0.972489 -13.2915 0.972049 -13.2432 0.0512503 40.2191
2.45E+09 0.0537942 43.0253 0.971839 -13.5673 0.970762 -13.5831 0.0538115 42.8848
2.5E+09 0.0529943 44.2806 0.971952 -13.9047 0.971042 -13.8486 0.0547641 44.1855
2.55E+09 0.0561175 45.1801 0.971648 -14.1474 0.971775 -14.0416 0.0560953 42.7454
2.6E+09 0.0574132 46.5469 0.971555 -14.3397 0.972622 -14.4216 0.0571871 45.1562
2.65E+09 0.0586228 49.6952 0.973431 -14.666 0.971274 -14.6846 0.061202 43.1555
2.7E+09 0.060065 50.6092 0.970735 -14.967 0.970187 -14.9147 0.0619721 46.6901
2.75E+09 0.063922 49.7666 0.969258 -15.2404 0.970043 -15.3394 0.0647594 47.4739
2.8E+09 0.0641391 53.0978 0.970726 -15.5111 0.97155 -15.539 0.0651626 48.7361
2.85E+09 0.0671726 54.2413 0.970656 -15.8725 0.970795 -15.7669 0.069099 50.6669
2.9E+09 0.070118 52.3549 0.969232 -16.032 0.969694 -16.0471 0.0714423 50.2043
2.95E+09 0.0681648 54.0888 0.970887 -16.4065 0.970409 -16.3724 0.0747139 51.7353
3E+09 0.0746619 55.0015 0.969942 -16.679 0.970915 -16.7273 0.0766887 52.9807
3.05E+09 0.0760259 53.9344 0.969003 -17.0574 0.968815 -16.8684 0.0780176 50.9907
3.1E+09 0.0781199 54.6417 0.968306 -17.2859 0.967281 -17.3559 0.0810549 53.8365
3.15E+09 0.0811508 55.3495 0.96857 -17.5233 0.968609 -17.5273 0.0844756 55.0309
3.2E+09 0.0834688 55.6287 0.96955 -17.8468 0.96792 -17.772 0.0883976 53.8516
3.25E+09 0.0840185 57.3505 0.9662 -18.1896 0.967179 -18.1499 0.0895864 54.4455
3.3E+09 0.0909685 57.0534 0.967744 -18.4952 0.966882 -18.4049 0.0933728 54.7828
3.35E+09 0.0932425 56.4274 0.966756 -18.7292 0.966714 -18.7279 0.0946824 56.6187
3.4E+09 0.0959034 58.4607 0.967309 -19.0691 0.966044 -18.9469 0.0970587 56.3557
3.45E+09 0.098452 58.3011 0.967102 -19.4023 0.96723 -19.3051 0.102446 55.7715
3.5E+09 0.101569 59.0264 0.966541 -19.5996 0.965965 -19.5625 0.104129 57.8797
3.55E+09 0.10291 58.7123 0.964628 -19.9469 0.96388 -19.8828 0.106432 57.0114
3.6E+09 0.108329 60.4087 0.965528 -20.1903 0.964981 -20.1401 0.110815 57.5949
3.65E+09 0.110603 59.4602 0.963807 -20.5146 0.962999 -20.4376 0.115753 58.5527
3.7E+09 0.113408 59.9242 0.965215 -20.8646 0.965253 -20.6822 0.115391 58.0696
3.75E+09 0.117808 60.8467 0.964116 -21.1248 0.964836 -21.048 0.121219 58.7451
3.8E+09 0.123157 60.2128 0.963661 -21.4877 0.962952 -21.3792 0.124086 59.1835
3.85E+09 0.125804 60.2239 0.962514 -21.7029 0.962639 -21.684 0.129446 58.315
3.9E+09 0.129314 60.4516 0.96083 -22.0231 0.961469 -21.8932 0.131352 59.7952
3.95E+09 0.135895 60.5414 0.961674 -22.3277 0.961714 -22.1428 0.137054 59.117
4E+09 0.138003 59.7586 0.960992 -22.6612 0.961411 -22.4996 0.139024 60.6084
4.05E+09 0.143721 60.2525 0.960407 -22.903 0.960045 -22.7275 0.144617 59.7911
4.1E+09 0.147239 60.4009 0.959095 -23.2642 0.960757 -23.0911 0.146607 59.8131
4.15E+09 0.150426 60.5856 0.958253 -23.6005 0.959864 -23.3489 0.151016 59.8117
4.2E+09 0.155185 60.184 0.955992 -23.6858 0.959328 -23.6729 0.154471 59.3981
4.25E+09 0.159915 59.8946 0.956347 -24.139 0.958137 -23.9422 0.160204 60.7257
4.3E+09 0.162941 59.6839 0.957243 -24.4723 0.958108 -24.1812 0.166113 60.4304
4.35E+09 0.167395 59.5813 0.956654 -24.6701 0.958266 -24.5725 0.164841 59.6465
4.4E+09 0.169281 59.8389 0.955318 -24.9289 0.957046 -24.7496 0.171215 60.1346
4.45E+09 0.175058 59.4244 0.954103 -25.2866 0.955393 -25.0677 0.174256 59.9887
4.5E+09 0.17816 59.2572 0.953386 -25.5154 0.955894 -25.4292 0.178473 59.1547
4.55E+09 0.183564 60.0513 0.951957 -25.8074 0.955549 -25.6855 0.184764 60.0519
4.6E+09 0.187555 59.2339 0.952198 -26.143 0.954191 -25.911 0.187908 59.7728
4.65E+09 0.191352 59.2529 0.953234 -26.3526 0.954203 -26.2878 0.189029 59.9824
4.7E+09 0.196207 59.6003 0.951087 -26.6217 0.951098 -26.5508 0.198128 59.5458
4.75E+09 0.200991 59.037 0.949981 -27.032 0.953006 -26.8099 0.199325 59.379
4.8E+09 0.203207 58.996 0.949579 -27.3057 0.952149 -27.0767 0.205106 59.6633
4.85E+09 0.210064 58.3352 0.950307 -27.5159 0.951228 -27.4078 0.208801 59.348
4.9E+09 0.21152 58.6132 0.94852 -27.8907 0.950485 -27.7015 0.212579 59.4012
4.95E+09 0.216861 57.9095 0.946939 -28.1832 0.950219 -27.97 0.217045 59.5308
5E+09 0.222635 57.7453 0.947368 -28.4126 0.949826 -28.2359 0.223412 59.0712
5.05E+09 0.225564 57.9237 0.946222 -28.8146 0.949404 -28.5258 0.226349 58.5971
5.1E+09 0.231448 57.2726 0.945678 -29.0772 0.948323 -28.7279 0.232075 58.9707
5.15E+09 0.234366 56.9032 0.943958 -29.2719 0.947583 -29.1184 0.234556 58.794
5.2E+09 0.238143 56.746 0.943437 -29.5169 0.947739 -29.2431 0.239673 58.1701
5.25E+09 0.244376 56.893 0.94335 -29.9419 0.945751 -29.6836 0.244114 58.4245
5.3E+09 0.247959 56.3695 0.941468 -30.0937 0.947092 -29.9792 0.246772 58.3649
5.35E+09 0.254055 56.4011 0.94153 -30.4225 0.945737 -30.2533 0.253149 58.141
5.4E+09 0.25733 56.5561 0.938636 -30.6492 0.946119 -30.4014 0.255835 57.9808
5.45E+09 0.261489 55.6642 0.939794 -30.9458 0.944188 -30.744 0.262195 58.0609
5.5E+09 0.264517 55.0903 0.939517 -31.2745 0.945545 -31.1229 0.265456 57.5934
5.55E+09 0.269511 55.3005 0.93839 -31.527 0.943654 -31.3233 0.271251 57.2208
5.6E+09 0.274482 54.9551 0.938278 -31.8505 0.942161 -31.6817 0.27234 57.2167
5.65E+09 0.27734 54.4285 0.938621 -32.0873 0.94295 -31.9381 0.275203 57.2437
5.7E+09 0.280771 55.2043 0.935175 -32.3095 0.941141 -32.1398 0.282482 56.6587
5.75E+09 0.288724 54.2538 0.935516 -32.6821 0.940805 -32.4028 0.287604 56.9564
5.8E+09 0.291137 53.6595 0.934954 -32.9045 0.937872 -32.7345 0.291128 56.5997
5.85E+09 0.297672 53.8383 0.934953 -33.0504 0.939799 -33.1026 0.294532 56.0223
5.9E+09 0.301805 53.2253 0.934088 -33.495 0.93879 -33.3185 0.299235 56.3187
5.95E+09 0.302518 52.6747 0.931889 -33.6892 0.939215 -33.4781 0.301943 56.1392
6E+09 0.308647 52.5966 0.932843 -33.9541 0.938804 -33.8603 0.305621 55.9816
