! Created by janssen on Wed Jul 24 13:32:48 METDST 2002
# HZ S MA R 50
5E+07 0.203586 -5.5879 0.797966 1.00237 0.797602 0.969093 0.203613 -5.42153
1E+08 0.195826 -4.55494 0.805075 0.451539 0.804726 0.494593 0.19607 -4.36411
1.5E+08 0.193362 -3.95784 0.807814 0.102109 0.807852 0.075096 0.19306 -3.85369
2E+08 0.192055 -3.32986 0.810318 -0.25108 0.810027 -0.234602 0.191109 -3.51817
2.5E+08 0.189807 -3.39115 0.811404 -0.58536 0.811771 -0.602723 0.190363 -3.47824
3E+08 0.189951 -3.01319 0.812394 -0.880862 0.812554 -0.858501 0.189294 -3.12514
3.5E+08 0.189404 -3.16455 0.813565 -1.18305 0.813426 -1.1751 0.189345 -3.15313
4E+08 0.188379 -2.94432 0.813544 -1.46673 0.813708 -1.5181 0.18767 -2.8632
4.5E+08 0.189441 -2.92617 0.814802 -1.7429 0.814824 -1.74324 0.188243 -2.99911
5E+08 0.188299 -3.20267 0.814891 -2.00784 0.814629 -1.9461 0.188043 -2.69142
5.5E+08 0.187586 -3.15985 0.815384 -2.32374 0.815335 -2.28191 0.187685 -2.7646
6E+08 0.188587 -3.12212 0.81538 -2.59558 0.815684 -2.54972 0.187938 -3.01356
6.5E+08 0.187848 -3.11972 0.815688 -2.85967 0.814905 -2.83855 0.187459 -2.81133
7E+08 0.187605 -3.11637 0.815761 -3.11004 0.81583 -3.12617 0.187673 -3.06107
7.5E+08 0.188227 -3.21866 0.816215 -3.40963 0.816265 -3.38908 0.18815 -2.85968
8E+08 0.187037 -3.22684 0.816679 -3.65253 0.816594 -3.61429 0.188031 -2.95833
8.5E+08 0.187882 -3.60684 0.815571 -3.91417 0.81685 -3.88947 0.18807 -3.07919
9E+08 0.187769 -3.34513 0.816404 -4.16611 0.81591 -4.19671 0.18741 -2.86989
9.5E+08 0.186792 -3.20542 0.817326 -4.43229 0.816615 -4.44548 0.188024 -2.84036
1E+09 0.1881 -3.34179 0.816373 -4.72398 0.817277 -4.75762 0.187521 -3.3511
1.05E+09 0.188282 -3.45625 0.817234 -4.98916 0.816484 -4.92499 0.187955 -2.90209
1.1E+09 0.188406 -3.57776 0.81648 -5.25511 0.816345 -5.18714 0.188434 -2.98451
1.15E+09 0.188647 -3.53399 0.816287 -5.50005 0.816564 -5.45351 0.188804 -2.84538
1.2E+09 0.189025 -3.67888 0.817095 -5.79641 0.816147 -5.66785 0.188759 -3.05578
1.25E+09 0.18882 -3.72331 0.816838 -6.03146 0.816756 -5.9575 0.188667 -3.2381
1.3E+09 0.188095 -3.78756 0.816656 -6.28163 0.81632 -6.30868 0.189161 -2.97159
1.35E+09 0.189261 -3.26988 0.81667 -6.58215 0.817488 -6.58026 0.188463 -2.6259
1.4E+09 0.189397 -3.36715 0.816314 -6.82192 0.816282 -6.78767 0.189837 -2.56154
1.45E+09 0.188946 -3.41963 0.816825 -7.08459 0.816294 -6.9804 0.188413 -2.60854
1.5E+09 0.188719 -3.29739 0.816725 -7.34234 0.816139 -7.23344 0.190164 -2.72728
1.55E+09 0.189467 -3.53383 0.816866 -7.63922 0.815877 -7.49616 0.189889 -2.56108
1.6E+09 0.190196 -3.50864 0.815759 -7.86415 0.816539 -7.81974 0.190114 -2.31117
1.65E+09 0.189581 -2.97083 0.814632 -8.15015 0.815776 -8.07553 0.190922 -2.13943
1.7E+09 0.190272 -3.00778 0.816302 -8.44385 0.816375 -8.33479 0.190793 -1.95543
1.75E+09 0.189759 -3.14838 0.81595 -8.69201 0.816028 -8.53768 0.190568 -1.83818
1.8E+09 0.19045 -2.95021 0.814664 -8.90443 0.815219 -8.87454 0.191196 -2.06909
1.85E+09 0.190975 -2.88116 0.815611 -9.19009 0.816173 -9.12655 0.191275 -1.91379
1.9E+09 0.190622 -2.87278 0.815086 -9.45516 0.815728 -9.40418 0.191962 -1.6509
1.95E+09 0.190797 -2.54436 0.8148 -9.70914 0.816469 -9.63743 0.193003 -1.62243
2E+09 0.191835 -2.18463 0.814502 -10.0433 0.815295 -9.93824 0.192567 -1.17164
2.05E+09 0.191928 -2.17605 0.813689 -10.2419 0.814563 -10.1769 0.19208 -1.2896
2.1E+09 0.192025 -1.84337 0.814048 -10.5245 0.813779 -10.4588 0.192639 -0.829906
2.15E+09 0.192943 -1.73367 0.813725 -10.7599 0.815439 -10.6572 0.193652 -0.765799
2.2E+09 0.192529 -1.51443 0.813336 -11.0441 0.814036 -10.9732 0.193911 -0.316893
2.25E+09 0.193121 -1.34437 0.8127 -11.3431 0.813939 -11.1596 0.19556 -0.296375
2.3E+09 0.194908 -1.24051 0.812085 -11.5251 0.813853 -11.4709 0.19377 0.0391567
2.35E+09 0.193441 -1.02272 0.812687 -11.8299 0.814161 -11.6943 0.196249 0.288402
2.4E+09 0.195235 -0.579806 0.810992 -12.1581 0.813334 -12.0041 0.195887 0.376933
2.45E+09 0.195439 -0.618289 0.811519 -12.3985 0.811234 -12.2429 0.196131 1.00047
2.5E+09 0.195291 -0.782725 0.812255 -12.6201 0.811241 -12.5362 0.196108 0.920704
2.55E+09 0.196791 0.00156217 0.809599 -12.8977 0.811843 -12.7038 0.196915 1.22584
2.6E+09 0.197225 0.0457789 0.809586 -13.0269 0.812131 -13.0423 0.197714 1.35379
2.65E+09 0.197193 0.00418469 0.810772 -13.3576 0.811816 -13.2815 0.199908 1.58224
2.7E+09 0.196543 0.737446 0.808882 -13.6381 0.809562 -13.5429 0.198788 2.23557
2.75E+09 0.199062 1.36071 0.808469 -13.8721 0.811391 -13.8865 0.199897 2.57207
2.8E+09 0.19719 1.21684 0.809136 -14.139 0.811365 -14.1008 0.200811 2.66524
2.85E+09 0.197096 1.74664 0.809434 -14.4586 0.810348 -14.2894 0.201368 3.66202
2.9E+09 0.200776 1.83968 0.80847 -14.6542 0.809399 -14.547 0.201675 3.52646
2.95E+09 0.198594 1.59205 0.808064 -14.9655 0.809403 -14.8265 0.202365 4.26858
3E+09 0.202064 2.78276 0.808053 -15.135 0.809066 -15.1508 0.203768 4.78878
3.05E+09 0.202822 2.20087 0.808237 -15.393 0.810295 -15.2773 0.203898 4.12804
3.1E+09 0.203181 2.82444 0.80628 -15.7015 0.807661 -15.6987 0.205285 4.93322
3.15E+09 0.203556 3.64348 0.805583 -15.9547 0.807466 -15.9188 0.205802 6.12469
3.2E+09 0.205357 3.80013 0.806055 -16.2306 0.807674 -16.1361 0.208859 5.88685
3.25E+09 0.204602 3.72208 0.80394 -16.4586 0.805811 -16.4249 0.209201 6.29204
3.3E+09 0.207392 4.7575 0.804101 -16.7469 0.805905 -16.6852 0.211019 6.88828
3.35E+09 0.209068 4.7443 0.804603 -16.9672 0.804859 -17.0219 0.209974 6.94976
3.4E+09 0.207888 5.609 0.804592 -17.2491 0.804796 -17.1745 0.210638 7.38184
3.45E+09 0.209665 5.46381 0.802758 -17.5255 0.804952 -17.4396 0.214223 7.81087
3.5E+09 0.210677 6.12295 0.802373 -17.7375 0.804624 -17.6508 0.213815 8.38095
3.55E+09 0.210093 5.88722 0.799853 -17.9807 0.802958 -17.912 0.213885 8.79756
3.6E+09 0.210884 6.95823 0.801638 -18.2287 0.803329 -18.2409 0.216716 9.05274
3.65E+09 0.212688 7.08199 0.800039 -18.5371 0.802345 -18.4671 0.219085 10.0197
3.7E+09 0.213714 7.6884 0.800612 -18.8403 0.80399 -18.716 0.218317 9.9301
3.75E+09 0.216014 8.32132 0.799757 -19.0679 0.80224 -19.012 0.220511 10.367
3.8E+09 0.218352 9.07731 0.799331 -19.3259 0.802412 -19.3192 0.220526 10.866
3.85E+09 0.218867 8.67848 0.797911 -19.5195 0.801563 -19.5252 0.223233 11.4877
3.9E+09 0.220309 9.47439 0.796831 -19.8139 0.799741 -19.8254 0.224031 11.9055
3.95E+09 0.222317 10.0042 0.797499 -20.1066 0.800627 -20.0402 0.227367 12.4115
4E+09 0.22443 9.98367 0.796959 -20.3576 0.799123 -20.3199 0.225976 12.8774
4.05E+09 0.225932 10.9201 0.796354 -20.5666 0.798976 -20.52 0.228665 13.1913
4.1E+09 0.226694 11.1147 0.79506 -20.8766 0.798932 -20.8686 0.230406 13.7448
4.15E+09 0.228384 11.5704 0.795094 -21.1736 0.798444 -21.0529 0.231864 14.095
4.2E+09 0.230498 12.1904 0.793015 -21.3161 0.797304 -21.3012 0.234307 14.4769
4.25E+09 0.232691 12.237 0.793183 -21.6973 0.797815 -21.5173 0.235809 15.3109
4.3E+09 0.234532 12.4441 0.791816 -21.9712 0.796789 -21.7028 0.238025 15.8573
4.35E+09 0.235978 13.3366 0.793359 -22.145 0.796129 -22.144 0.238823 15.4617
4.4E+09 0.236474 12.9584 0.791544 -22.343 0.795782 -22.213 0.24046 16.1776
4.45E+09 0.238246 13.6097 0.789564 -22.6827 0.794488 -22.6581 0.242223 16.725
4.5E+09 0.240543 14.2452 0.790266 -22.8673 0.794939 -22.8235 0.245593 16.7347
4.55E+09 0.242234 14.6885 0.789411 -23.2097 0.795369 -23.0669 0.24803 17.83
4.6E+09 0.245025 14.4755 0.789248 -23.4063 0.792412 -23.2259 0.249535 17.8664
4.65E+09 0.247182 15.3146 0.790811 -23.5817 0.79338 -23.6501 0.249914 18.1732
4.7E+09 0.247797 15.5438 0.78822 -23.8169 0.792494 -23.8207 0.254301 18.6971
4.75E+09 0.249684 15.667 0.787814 -24.1629 0.792031 -24.0815 0.254336 18.6285
4.8E+09 0.251802 16.0601 0.78755 -24.4097 0.791296 -24.354 0.255734 19.3644
4.85E+09 0.25635 16.6872 0.788288 -24.5724 0.790532 -24.6385 0.259093 19.5841
4.9E+09 0.25579 16.7398 0.787387 -24.9178 0.790757 -24.8878 0.2602 20.1227
4.95E+09 0.260197 17.158 0.785904 -25.2595 0.78994 -25.1358 0.26299 20.2403
5E+09 0.262356 17.2635 0.784989 -25.3888 0.78952 -25.346 0.266596 20.8038
5.05E+09 0.263798 17.9181 0.784657 -25.7048 0.789199 -25.5561 0.269586 20.5092
5.1E+09 0.266951 18.0009 0.784481 -25.9565 0.787702 -25.7663 0.270544 21.2958
5.15E+09 0.269271 17.8777 0.783664 -26.0339 0.787538 -26.1913 0.271966 21.4716
5.2E+09 0.271705 18.2642 0.783571 -26.3449 0.78817 -26.3099 0.275529 22.0276
5.25E+09 0.27301 18.8592 0.782507 -26.6633 0.78839 -26.6634 0.278352 22.1323
5.3E+09 0.276603 18.6859 0.78146 -26.819 0.787635 -26.9251 0.279158 22.3125
5.35E+09 0.278396 19.3527 0.781892 -27.2039 0.786669 -27.0786 0.282912 22.8844
5.4E+09 0.280104 19.7822 0.78021 -27.2585 0.787805 -27.2758 0.283449 22.8144
5.45E+09 0.284232 19.3065 0.780233 -27.486 0.785781 -27.6259 0.28616 23.4985
5.5E+09 0.2856 19.4388 0.78055 -27.8225 0.784832 -27.8297 0.288993 23.3575
5.55E+09 0.288364 19.8961 0.779109 -28.1548 0.784658 -28.0591 0.295003 23.6641
5.6E+09 0.29068 20.0193 0.779088 -28.4162 0.783798 -28.3524 0.293648 23.7288
5.65E+09 0.292681 20.0396 0.779672 -28.5772 0.78528 -28.7129 0.296228 24.0568
5.7E+09 0.291146 20.8938 0.777404 -28.6854 0.785293 -28.8224 0.300496 24.2163
5.75E+09 0.298443 20.5083 0.777639 -29.0463 0.783649 -29.0962 0.301595 24.6954
5.8E+09 0.299655 20.4634 0.778232 -29.2358 0.781239 -29.2838 0.303538 25.0798
5.85E+09 0.302428 21.2061 0.778084 -29.3706 0.782141 -29.6332 0.307772 24.6881
5.9E+09 0.30577 21.3152 0.776994 -29.7199 0.782865 -29.8341 0.308598 25.1097
5.95E+09 0.307538 20.8844 0.774848 -29.9613 0.782688 -30.0336 0.309963 25.2784
6E+09 0.310318 21.3458 0.776722 -30.1448 0.781916 -30.2528 0.312073 25.7505
