! Created by janssen on Wed Jul 24 13:34:13 METDST 2002
# HZ S MA R 50
5E+07 0.0118217 3.56036 0.98966 -0.394131 0.988107 -0.46783 0.0110523 5.18196
1E+08 0.0112647 8.66197 0.988855 -0.599414 0.988339 -0.638542 0.012088 5.27349
1.5E+08 0.0128947 10.0173 0.988656 -0.836531 0.988393 -0.910035 0.0121841 8.1467
2E+08 0.0138702 13.2311 0.989062 -1.10986 0.988504 -1.13147 0.0135275 14.012
2.5E+08 0.0130475 11.6989 0.988945 -1.37942 0.988985 -1.43558 0.0135313 12.2771
3E+08 0.0139759 15.8869 0.989106 -1.64252 0.988487 -1.68331 0.0138482 14.3952
3.5E+08 0.0147795 12.9061 0.98917 -1.93346 0.988901 -1.99379 0.0149183 15.1076
4E+08 0.0144599 18.3208 0.989286 -2.16866 0.989587 -2.23183 0.0147261 14.381
4.5E+08 0.0154931 15.3306 0.989074 -2.4871 0.989237 -2.53249 0.0156616 12.9882
5E+08 0.0154766 16.2427 0.989516 -2.69342 0.988931 -2.75214 0.0155929 17.4424
5.5E+08 0.015414 17.512 0.9893 -2.98136 0.98964 -3.01924 0.0157143 15.6184
6E+08 0.0165306 16.9653 0.989565 -3.27089 0.988836 -3.30281 0.0163293 16.2962
6.5E+08 0.0163832 18.2599 0.989061 -3.53775 0.988695 -3.62873 0.0162691 18.5355
7E+08 0.0162914 20.1492 0.989137 -3.79698 0.988944 -3.83995 0.016553 14.4515
7.5E+08 0.016693 17.3873 0.989617 -4.06713 0.988925 -4.15286 0.0172107 19.1778
8E+08 0.0163452 20.1275 0.989137 -4.39116 0.988792 -4.40164 0.0180967 17.8515
8.5E+08 0.0175566 18.6328 0.989431 -4.64334 0.989165 -4.69892 0.0177715 14.9799
9E+08 0.0172394 18.0356 0.988892 -4.89991 0.988495 -4.97421 0.0170258 22.321
9.5E+08 0.0174247 25.5175 0.989285 -5.15141 0.989385 -5.2282 0.0182254 21.9303
1E+09 0.0175488 23.6258 0.989254 -5.41946 0.989739 -5.56614 0.0173383 18.6278
1.05E+09 0.0166357 27.9387 0.989641 -5.73152 0.989092 -5.73651 0.0180788 24.1497
1.1E+09 0.0182274 25.475 0.989006 -5.98216 0.988978 -6.07653 0.0191367 23.0002
1.15E+09 0.0187537 24.1228 0.989509 -6.22659 0.989021 -6.29901 0.0197269 25.051
1.2E+09 0.0200406 26.0259 0.989879 -6.57984 0.988237 -6.60129 0.0206876 26.5737
1.25E+09 0.0196805 27.2351 0.989267 -6.82773 0.988617 -6.87534 0.0198737 28.1667
1.3E+09 0.01948 29.6405 0.990095 -7.12977 0.988951 -7.15343 0.0206142 27.2565
1.35E+09 0.0209053 36.815 0.989516 -7.38258 0.989669 -7.44893 0.0210259 31.7086
1.4E+09 0.0213872 35.6148 0.989281 -7.65256 0.988505 -7.66778 0.0230804 31.6648
1.45E+09 0.0210828 34.2024 0.989075 -7.94286 0.989103 -7.97289 0.0220884 33.8136
1.5E+09 0.0217379 36.3398 0.990233 -8.2026 0.988331 -8.22344 0.023177 35.447
1.55E+09 0.0220658 40.5021 0.989715 -8.52443 0.987357 -8.47404 0.0243254 36.3447
1.6E+09 0.0228136 39.9219 0.988785 -8.80488 0.988476 -8.79173 0.0239872 38.1515
1.65E+09 0.023652 42.7538 0.988338 -9.09663 0.988235 -9.11458 0.0265593 37.2551
1.7E+09 0.0253309 44.6277 0.990008 -9.38249 0.988725 -9.41352 0.0269394 43.6045
1.75E+09 0.0243609 45.3324 0.989635 -9.65386 0.988802 -9.64056 0.0273801 44.2681
1.8E+09 0.0265779 46.1591 0.988821 -9.90466 0.988547 -9.92326 0.0266731 43.0233
1.85E+09 0.0275262 46.4442 0.988689 -10.2145 0.98825 -10.2118 0.0285997 45.1615
1.9E+09 0.027243 50.1143 0.989096 -10.4981 0.988061 -10.5406 0.0297002 45.9464
1.95E+09 0.0287224 52.658 0.988563 -10.7912 0.988807 -10.7736 0.0313387 44.9168
2E+09 0.0323968 51.5483 0.988555 -11.0306 0.988454 -11.0826 0.0332248 49.7768
2.05E+09 0.0333485 52.8199 0.988839 -11.3047 0.987846 -11.3664 0.0323069 49.0494
2.1E+09 0.0337268 55.9833 0.989555 -11.6056 0.986991 -11.6339 0.0343536 51.9511
2.15E+09 0.0358649 57.4139 0.988445 -11.8974 0.987785 -11.8825 0.0373418 52.0158
2.2E+09 0.037141 57.635 0.988023 -12.1816 0.987636 -12.187 0.0381101 54.1104
2.25E+09 0.0386783 59.91 0.98764 -12.507 0.987391 -12.4257 0.0391666 53.1004
2.3E+09 0.0404736 56.359 0.988794 -12.774 0.987484 -12.7627 0.0411978 55.3145
2.35E+09 0.0419556 60.8861 0.988507 -13.0463 0.987761 -13.0152 0.0443204 54.6623
2.4E+09 0.0432601 60.6233 0.986838 -13.3728 0.987569 -13.3264 0.0432736 55.241
2.45E+09 0.0460505 60.0412 0.987504 -13.6319 0.985448 -13.6885 0.0470388 57.4246
2.5E+09 0.045629 60.7121 0.987262 -13.9235 0.986645 -13.9143 0.0468795 57.8395
2.55E+09 0.0499428 61.6784 0.987738 -14.1847 0.985088 -14.053 0.0488591 56.9367
2.6E+09 0.0506106 62.0162 0.985913 -14.4589 0.988337 -14.504 0.0507131 59.1271
2.65E+09 0.0536235 63.5565 0.987622 -14.7384 0.985378 -14.7404 0.0543927 57.2372
2.7E+09 0.054606 65.7213 0.986387 -15.0228 0.984599 -14.9994 0.0545441 61.1766
2.75E+09 0.0596369 64.0974 0.984995 -15.3858 0.984677 -15.3809 0.0591929 60.8922
2.8E+09 0.0592889 66.8985 0.986555 -15.6296 0.985928 -15.6187 0.0584865 61.1798
2.85E+09 0.0628326 67.5379 0.986358 -15.9238 0.984771 -15.928 0.0639785 62.6569
2.9E+09 0.0650394 65.9745 0.984313 -16.1359 0.984701 -16.131 0.0658885 61.5393
2.95E+09 0.065383 67.0789 0.98443 -16.5498 0.98576 -16.433 0.0701374 63.9114
3E+09 0.0715229 66.3333 0.985643 -16.7446 0.985381 -16.7593 0.072485 64.1515
3.05E+09 0.0721366 65.3435 0.984615 -17.0951 0.984315 -16.9733 0.0726898 61.8407
3.1E+09 0.0736233 67.0512 0.984856 -17.394 0.983021 -17.4614 0.0751832 63.8274
3.15E+09 0.0783703 66.1763 0.984152 -17.7101 0.98372 -17.6679 0.081207 65.5205
3.2E+09 0.0809466 65.9641 0.985722 -17.9697 0.982994 -17.9119 0.0837354 63.5929
3.25E+09 0.0814098 67.518 0.982136 -18.3494 0.982281 -18.2895 0.0854474 64.4863
3.3E+09 0.0872631 67.3648 0.982275 -18.5834 0.982246 -18.5025 0.0900629 63.3111
3.35E+09 0.0904784 66.8543 0.983991 -18.8436 0.981175 -18.858 0.0917694 65.4443
3.4E+09 0.0938418 68.2752 0.983135 -19.2349 0.981392 -19.0307 0.094158 65.3293
3.45E+09 0.0962984 68.162 0.983167 -19.4576 0.982499 -19.3943 0.0980784 64.3578
3.5E+09 0.101761 67.9638 0.980829 -19.7668 0.980605 -19.7576 0.101062 66.0337
3.55E+09 0.100924 68.107 0.979366 -20.0538 0.980744 -20.0044 0.104129 65.4834
3.6E+09 0.106744 69.3788 0.981942 -20.2981 0.98002 -20.2883 0.107552 65.0754
3.65E+09 0.110268 67.6829 0.979204 -20.6088 0.978234 -20.5935 0.113561 66.3158
3.7E+09 0.112921 68.2388 0.98005 -20.9749 0.979615 -20.8518 0.112554 65.9942
3.75E+09 0.118425 68.7482 0.97947 -21.2568 0.978684 -21.1784 0.11936 65.9967
3.8E+09 0.122775 67.3354 0.978571 -21.61 0.979226 -21.5122 0.121781 67.0407
3.85E+09 0.125928 67.5289 0.977474 -21.8495 0.977672 -21.7258 0.127099 65.8608
3.9E+09 0.129165 67.9103 0.976095 -22.1262 0.977323 -22.0483 0.128919 66.8526
3.95E+09 0.135441 67.5953 0.977129 -22.4866 0.977426 -22.321 0.13513 65.8054
4E+09 0.137315 66.6494 0.975623 -22.7743 0.976389 -22.6673 0.138647 66.5602
4.05E+09 0.14376 66.8541 0.976782 -23.081 0.974652 -22.8783 0.143464 65.9583
4.1E+09 0.147336 66.1659 0.974946 -23.4354 0.974597 -23.2319 0.146132 66.3152
4.15E+09 0.150279 66.4787 0.974488 -23.6901 0.975219 -23.4681 0.150121 65.7674
4.2E+09 0.155509 65.9332 0.972344 -23.8704 0.974596 -23.8411 0.153015 65.3341
4.25E+09 0.160452 65.6824 0.97208 -24.3162 0.973924 -24.0902 0.159218 65.937
4.3E+09 0.162709 65.6288 0.971358 -24.6104 0.971658 -24.3645 0.164537 65.5527
4.35E+09 0.168057 65.5413 0.972156 -24.7671 0.973186 -24.7005 0.164992 65.133
4.4E+09 0.169721 65.4513 0.970406 -25.1211 0.971118 -24.8853 0.171006 65.4822
4.45E+09 0.176371 64.8317 0.969867 -25.4251 0.970922 -25.2217 0.174903 65.1796
4.5E+09 0.180536 64.3019 0.969155 -25.7147 0.970729 -25.6038 0.178173 64.6112
4.55E+09 0.183183 64.8936 0.966817 -26.0006 0.970369 -25.7677 0.185151 64.7852
4.6E+09 0.188444 64.3284 0.966562 -26.2525 0.968671 -26.0536 0.189195 64.5636
4.65E+09 0.192931 64.0893 0.968244 -26.495 0.970228 -26.3803 0.19055 64.8047
4.7E+09 0.197514 64.404 0.965676 -26.789 0.967392 -26.6854 0.198131 63.8967
4.75E+09 0.201881 63.628 0.965356 -27.2199 0.968145 -26.9461 0.20028 63.724
4.8E+09 0.204167 63.4669 0.965492 -27.4688 0.965486 -27.2821 0.205057 63.8971
4.85E+09 0.211668 62.7512 0.965881 -27.627 0.966538 -27.5769 0.20932 63.554
4.9E+09 0.213242 62.7656 0.964293 -28.0503 0.964359 -27.9168 0.214273 63.8752
4.95E+09 0.219374 62.1672 0.963208 -28.4086 0.96507 -28.1796 0.218304 63.5102
5E+09 0.224777 61.7904 0.962756 -28.6042 0.964382 -28.4074 0.224606 63.1207
5.05E+09 0.228853 61.877 0.962946 -28.952 0.962849 -28.713 0.226883 62.5283
5.1E+09 0.234165 61.2735 0.960451 -29.2662 0.963652 -28.9272 0.232857 62.7928
5.15E+09 0.237478 60.7993 0.958989 -29.4604 0.96248 -29.2987 0.236857 62.3965
5.2E+09 0.242672 61.0098 0.958179 -29.7372 0.962507 -29.4752 0.241982 62.0386
5.25E+09 0.24676 60.7765 0.957679 -30.1483 0.961936 -29.9233 0.244555 61.8782
5.3E+09 0.25147 59.9224 0.958484 -30.3097 0.963035 -30.1229 0.249214 62.1729
5.35E+09 0.256154 60.2023 0.95653 -30.7005 0.959774 -30.4161 0.255067 61.5678
5.4E+09 0.260379 59.761 0.954065 -30.8748 0.961677 -30.6288 0.257759 61.2988
5.45E+09 0.264333 59.0181 0.954732 -31.1294 0.95878 -30.9595 0.263276 61.3755
5.5E+09 0.267064 58.6086 0.954653 -31.5349 0.958862 -31.2907 0.267357 60.9021
5.55E+09 0.273105 58.5518 0.954272 -31.7815 0.958193 -31.5059 0.272997 60.2382
5.6E+09 0.276536 58.1696 0.952538 -32.0957 0.956061 -31.8524 0.27406 60.2965
5.65E+09 0.280259 57.7567 0.953419 -32.2829 0.957311 -32.1497 0.278604 60.4916
5.7E+09 0.284995 58.4834 0.950108 -32.5095 0.9565 -32.3988 0.285256 59.6199
5.75E+09 0.291396 57.2561 0.950415 -32.9096 0.9555 -32.5718 0.289605 59.778
5.8E+09 0.292966 56.9466 0.949024 -33.0875 0.953044 -32.9296 0.293272 59.4466
5.85E+09 0.300284 56.9116 0.949654 -33.2439 0.955011 -33.2952 0.297731 58.7468
5.9E+09 0.30412 56.271 0.948606 -33.6645 0.954371 -33.5759 0.301482 59.3235
5.95E+09 0.306192 55.818 0.946291 -33.9304 0.954175 -33.732 0.304639 59.0192
6E+09 0.312397 55.8617 0.94829 -34.2109 0.954162 -34.0897 0.309063 58.9129
