! Created by janssen on Wed Jul 24 12:32:17 METDST 2002
# HZ S MA R 50
5E+07 0.642819 -177.948 0.359204 -3.3799 0.358043 -3.54533 0.642563 -177.866
1E+08 0.651936 -178.642 0.348718 -1.65618 0.348779 -1.78309 0.651448 -178.656
1.5E+08 0.65495 -179.018 0.344417 -0.595329 0.344264 -0.65028 0.65478 -179.096
2E+08 0.656129 -179.351 0.342746 0.588859 0.341835 0.437463 0.656083 -179.387
2.5E+08 0.658126 -179.572 0.340201 1.5636 0.340113 1.45261 0.65741 -179.577
3E+08 0.658591 -179.76 0.339882 2.42373 0.339551 2.30728 0.658048 -179.757
3.5E+08 0.65911 179.955 0.340162 3.43461 0.338848 3.32168 0.658137 179.966
4E+08 0.659846 179.782 0.339651 4.38238 0.339428 4.2774 0.658154 179.703
4.5E+08 0.659639 179.658 0.339448 5.27531 0.339651 5.16905 0.657863 179.605
5E+08 0.658913 179.417 0.340844 6.03927 0.339582 5.90876 0.657965 179.467
5.5E+08 0.660259 179.247 0.341723 6.97689 0.34177 6.81191 0.657808 179.279
6E+08 0.658932 179.038 0.341962 7.61528 0.340982 7.58464 0.656965 179.169
6.5E+08 0.658884 179.008 0.343482 8.56499 0.343467 8.31166 0.656402 178.931
7E+08 0.658905 178.798 0.345346 9.25476 0.344555 9.21919 0.65642 178.903
7.5E+08 0.657383 178.708 0.346282 10.0092 0.345567 9.86194 0.655131 178.634
8E+08 0.658017 178.524 0.34806 10.861 0.347267 10.6552 0.65392 178.56
8.5E+08 0.657471 178.321 0.349607 11.4622 0.349855 11.3456 0.653946 178.555
9E+08 0.657374 178.174 0.35199 12.2544 0.350378 11.8815 0.653019 178.206
9.5E+08 0.655998 178.05 0.354771 12.9778 0.353908 12.6508 0.651034 178.208
1E+09 0.655663 177.703 0.355821 13.6759 0.354979 13.5108 0.651372 177.909
1.05E+09 0.65509 177.671 0.359614 14.1914 0.357795 14.1545 0.650077 177.758
1.1E+09 0.653478 177.518 0.361524 14.9509 0.3606 14.7847 0.648698 177.698
1.15E+09 0.652614 177.399 0.363362 15.5206 0.3628 15.3053 0.647971 177.507
1.2E+09 0.651569 177.139 0.367151 16.0279 0.365488 16.0054 0.646887 177.303
1.25E+09 0.650573 177.041 0.369188 16.7622 0.3686 16.454 0.644671 177.088
1.3E+09 0.649813 176.874 0.371956 17.2966 0.370666 17.041 0.644317 177.005
1.35E+09 0.648292 176.47 0.375595 17.8614 0.373555 17.7126 0.64204 176.845
1.4E+09 0.648184 176.442 0.37873 18.4388 0.377418 18.3205 0.641215 176.449
1.45E+09 0.646301 176.383 0.38152 18.9572 0.379879 18.6221 0.639507 176.459
1.5E+09 0.644998 176.201 0.384664 19.3635 0.384005 19.1888 0.637503 176.209
1.55E+09 0.64478 175.725 0.3883 20.1332 0.386034 19.6076 0.634792 176.102
1.6E+09 0.644229 175.804 0.391774 20.3897 0.389495 20.0488 0.634496 175.757
1.65E+09 0.640469 175.418 0.394586 20.9524 0.39387 20.5717 0.631712 175.741
1.7E+09 0.639274 175.137 0.398901 21.3396 0.397212 21.0182 0.630161 175.391
1.75E+09 0.638293 175.128 0.402135 21.6455 0.4005 21.5146 0.629461 175.225
1.8E+09 0.63701 174.793 0.406792 22.0741 0.403992 22.0495 0.628036 175.208
1.85E+09 0.635834 174.655 0.409729 22.5524 0.406873 22.2738 0.625007 174.906
1.9E+09 0.634651 174.412 0.414426 22.8829 0.411744 22.7334 0.622295 174.613
1.95E+09 0.633393 174.129 0.417715 23.3125 0.415479 23.1002 0.621141 174.481
2E+09 0.629388 173.671 0.421866 23.6574 0.41965 23.4337 0.61903 174.104
2.05E+09 0.628073 173.514 0.425901 23.9074 0.423167 23.9272 0.61839 174.014
2.1E+09 0.627457 173.373 0.430235 24.3244 0.426982 24.1044 0.617595 173.63
2.15E+09 0.62495 172.999 0.433261 24.6133 0.430628 24.4887 0.61118 173.359
2.2E+09 0.623704 172.737 0.437935 24.947 0.435074 24.8545 0.611024 173.039
2.25E+09 0.622941 172.453 0.441999 25.1371 0.439373 25.0871 0.609034 172.854
2.3E+09 0.618347 172.297 0.444959 25.5255 0.444019 25.3029 0.606214 172.556
2.35E+09 0.619543 171.795 0.450509 25.7317 0.448074 25.5752 0.602 172.355
2.4E+09 0.617241 171.562 0.454635 26.0058 0.451878 25.9394 0.600675 172.213
2.45E+09 0.611668 171.381 0.459094 25.9779 0.455196 25.932 0.599526 171.859
2.5E+09 0.610979 171.288 0.462173 26.3967 0.461684 26.1658 0.598566 171.587
2.55E+09 0.609917 170.783 0.468677 26.5387 0.463612 26.5495 0.593339 171.362
2.6E+09 0.606648 170.527 0.474196 26.8122 0.470851 26.5135 0.591855 171.223
2.65E+09 0.605696 170.137 0.478479 26.9564 0.472944 26.9259 0.587046 170.916
2.7E+09 0.606274 169.913 0.481758 27.1805 0.477809 26.9696 0.587421 170.581
2.75E+09 0.600218 169.383 0.486606 27.356 0.482623 27.1664 0.584676 170.068
2.8E+09 0.598554 169.339 0.490834 27.488 0.486732 27.214 0.581732 169.919
2.85E+09 0.597526 168.814 0.496015 27.5156 0.490778 27.3561 0.579395 169.28
2.9E+09 0.595323 168.529 0.499561 27.698 0.495143 27.591 0.573647 169.149
2.95E+09 0.593183 168.424 0.505589 27.8278 0.500482 27.6048 0.574224 168.795
3E+09 0.592653 167.831 0.510305 27.9524 0.50568 27.7976 0.572361 168.373
3.05E+09 0.579651 166.725 0.513193 27.5798 0.506685 27.8877 0.561016 167.882
3.1E+09 0.585001 167.32 0.519422 28.1118 0.514185 28.0751 0.566817 167.797
3.15E+09 0.583933 166.837 0.524913 28.0085 0.519566 28.009 0.564778 167.416
3.2E+09 0.580981 166.305 0.528994 28.104 0.524497 28.0894 0.561052 166.897
3.25E+09 0.577728 166.091 0.532576 28.2691 0.527049 28.118 0.558837 166.661
3.3E+09 0.575034 165.532 0.538355 28.1034 0.533182 28.2857 0.555968 166.199
3.35E+09 0.570009 165.028 0.543249 28.1268 0.536809 28.2594 0.55637 165.833
3.4E+09 0.573579 164.608 0.54696 28.2319 0.54161 28.4335 0.551965 165.698
3.45E+09 0.5703 164.415 0.554207 28.2836 0.546298 28.2125 0.546831 164.856
3.5E+09 0.566731 163.977 0.556947 28.2122 0.550006 28.3722 0.545563 164.74
3.55E+09 0.564896 163.821 0.560579 28.3131 0.555402 28.2067 0.543195 164.258
3.6E+09 0.565415 163.183 0.566808 28.4011 0.559563 28.4447 0.539353 164.001
3.65E+09 0.559899 162.969 0.571317 28.2991 0.563251 28.3553 0.537876 163.104
3.7E+09 0.559177 162.523 0.577264 28.2952 0.56807 28.3955 0.536365 163.337
3.75E+09 0.555141 161.918 0.580283 28.2932 0.572414 28.3738 0.533333 162.643
3.8E+09 0.552266 161.298 0.584008 28.182 0.577648 28.441 0.531728 162.067
3.85E+09 0.549159 160.859 0.587605 28.1795 0.581142 28.2135 0.52614 161.522
3.9E+09 0.54749 160.396 0.592593 28.1833 0.586295 28.3878 0.52755 161.345
3.95E+09 0.545188 159.968 0.597741 28.1392 0.589689 28.3475 0.520355 160.583
4E+09 0.542464 159.583 0.601752 27.8949 0.596018 28.2127 0.521585 160.349
4.05E+09 0.541733 159.013 0.606619 27.9216 0.600299 28.2438 0.518047 159.823
4.1E+09 0.538871 158.465 0.611249 27.7956 0.602872 28.0705 0.51315 159.319
4.15E+09 0.53687 158.25 0.614995 27.8949 0.607232 28.1614 0.513183 158.903
4.2E+09 0.532608 157.44 0.617623 27.8537 0.612133 28.0927 0.508859 158.469
4.25E+09 0.531968 157.161 0.623987 27.7479 0.616071 28.0005 0.507933 157.915
4.3E+09 0.52679 156.917 0.627193 27.6077 0.62086 27.9139 0.505087 157.129
4.35E+09 0.525048 156.012 0.630464 27.6125 0.624975 28.0028 0.501688 157.365
4.4E+09 0.525621 155.968 0.635302 27.4601 0.629176 27.8098 0.502679 156.636
4.45E+09 0.522403 155.128 0.637908 27.3603 0.632984 27.8095 0.498484 156.002
4.5E+09 0.51947 154.56 0.643172 27.2755 0.636354 27.8094 0.494757 155.775
4.55E+09 0.51772 154.31 0.648153 27.3319 0.638528 27.7135 0.49133 155.222
4.6E+09 0.515591 153.838 0.651786 27.1985 0.64523 27.5861 0.490286 154.612
4.65E+09 0.514746 153.04 0.654878 26.9809 0.648189 27.4028 0.489632 154.54
4.7E+09 0.513308 152.736 0.660567 26.7859 0.650657 27.3459 0.488282 153.559
4.75E+09 0.509115 152.468 0.66254 26.7707 0.65618 27.3353 0.482537 153.2
4.8E+09 0.50681 151.823 0.666205 26.6213 0.660292 27.0188 0.484157 152.653
4.85E+09 0.503284 151.213 0.671494 26.5501 0.663593 27.1514 0.480144 152.518
4.9E+09 0.501746 151.184 0.674578 26.4593 0.668216 26.9005 0.480241 151.642
4.95E+09 0.500538 150.422 0.678114 26.3394 0.672166 26.8744 0.478243 151.024
5E+09 0.495736 149.815 0.681122 26.0831 0.674872 26.7682 0.478288 150.655
5.05E+09 0.498217 149.399 0.684325 26.0834 0.678038 26.7691 0.472431 149.998
5.1E+09 0.496535 148.873 0.68771 25.9957 0.682068 26.5649 0.474331 149.402
5.15E+09 0.490897 148.251 0.692016 25.8004 0.685364 26.5351 0.471107 148.987
5.2E+09 0.491073 147.958 0.695207 25.8633 0.688554 26.4858 0.469853 148.247
5.25E+09 0.491144 147.391 0.698846 25.5722 0.693374 26.216 0.469045 148.061
5.3E+09 0.487839 146.651 0.701414 25.6037 0.696682 26.2427 0.467519 147.682
5.35E+09 0.487397 146.167 0.704676 25.2944 0.699328 25.9502 0.466814 146.914
5.4E+09 0.485806 145.802 0.709099 25.3484 0.701713 26.0679 0.462693 146.543
5.45E+09 0.482182 145.252 0.713629 25.165 0.706052 25.7195 0.46487 145.971
5.5E+09 0.478335 144.587 0.71693 24.9946 0.710724 25.6539 0.462614 145.486
5.55E+09 0.478883 144.288 0.717735 24.7645 0.712748 25.4723 0.460962 144.473
5.6E+09 0.474814 143.611 0.723654 24.7769 0.716323 25.3891 0.457683 144.512
5.65E+09 0.473987 143.234 0.72538 24.5535 0.720495 25.409 0.458514 144.119
5.7E+09 0.475016 143.182 0.728722 24.3377 0.721127 25.092 0.455521 143.555
5.75E+09 0.473144 142.16 0.73245 24.3352 0.726166 25.1162 0.456648 143.003
5.8E+09 0.469238 141.92 0.732935 23.9809 0.728486 24.9146 0.453523 142.351
5.85E+09 0.472112 141.407 0.736476 23.9583 0.732541 24.8512 0.452073 142.02
5.9E+09 0.466741 141.098 0.73836 23.8737 0.737989 24.6251 0.452332 141.586
5.95E+09 0.464384 140.68 0.742208 23.5593 0.741111 24.5649 0.449019 141.108
6E+09 0.46472 139.983 0.744521 23.4051 0.742964 24.265 0.447695 140.847
