! Created by janssen on Wed Jul 24 12:31:53 METDST 2002
# HZ S MA R 50
5E+07 0.191802 -173.116 0.811452 -1.57297 0.810091 -1.66665 0.191782 -173.026
1E+08 0.200284 -174.071 0.802183 -1.25496 0.801495 -1.29317 0.199186 -174.055
1.5E+08 0.203076 -174.293 0.797884 -1.10139 0.796954 -1.1467 0.203422 -174.174
2E+08 0.205022 -174.295 0.795586 -0.946511 0.795173 -0.996133 0.205223 -174.212
2.5E+08 0.207243 -173.899 0.793292 -0.898241 0.793585 -0.959101 0.207002 -173.861
3E+08 0.207815 -173.628 0.791907 -0.803283 0.791577 -0.866292 0.208563 -173.656
3.5E+08 0.209552 -173.344 0.791386 -0.760436 0.790754 -0.81452 0.208731 -173.388
4E+08 0.210331 -173.143 0.791064 -0.685159 0.79028 -0.730961 0.209658 -172.994
4.5E+08 0.210897 -172.681 0.789444 -0.666777 0.7891 -0.711612 0.210115 -172.614
5E+08 0.211298 -172.298 0.789592 -0.63985 0.788365 -0.69342 0.21095 -172.156
5.5E+08 0.21292 -171.835 0.788561 -0.551405 0.78858 -0.634921 0.211653 -171.653
6E+08 0.211614 -171.371 0.788257 -0.548636 0.787438 -0.617659 0.211822 -171.189
6.5E+08 0.21288 -170.867 0.787437 -0.519078 0.787573 -0.599692 0.212468 -170.898
7E+08 0.213461 -170.499 0.787593 -0.483004 0.787273 -0.526352 0.212172 -170.158
7.5E+08 0.213045 -169.883 0.787948 -0.465018 0.787137 -0.576755 0.212907 -169.931
8E+08 0.214796 -169.57 0.787652 -0.444534 0.786669 -0.478496 0.212472 -169.463
8.5E+08 0.21382 -168.942 0.787401 -0.441407 0.787516 -0.493423 0.213422 -168.576
9E+08 0.215082 -168.827 0.787751 -0.373703 0.785925 -0.544506 0.214292 -168.456
9.5E+08 0.215312 -168.212 0.787308 -0.331124 0.786982 -0.500977 0.213649 -167.994
1E+09 0.216085 -168 0.78706 -0.310724 0.787176 -0.477015 0.214171 -167.368
1.05E+09 0.217233 -167.471 0.787694 -0.326737 0.787549 -0.371847 0.214349 -167.031
1.1E+09 0.216028 -166.907 0.788012 -0.302611 0.786718 -0.455951 0.214141 -166.554
1.15E+09 0.216116 -166.323 0.787275 -0.224777 0.785996 -0.360405 0.214539 -166.216
1.2E+09 0.216306 -166.047 0.788209 -0.296538 0.786447 -0.375126 0.214521 -165.602
1.25E+09 0.216339 -165.804 0.787793 -0.281863 0.786806 -0.340144 0.214937 -165.34
1.3E+09 0.217781 -165.124 0.78775 -0.287253 0.78712 -0.392089 0.214425 -164.659
1.35E+09 0.217084 -165.121 0.788149 -0.260798 0.787295 -0.355244 0.215059 -164.495
1.4E+09 0.217027 -164.625 0.787093 -0.181066 0.787535 -0.322469 0.214987 -164.17
1.45E+09 0.217861 -164.032 0.787602 -0.226724 0.787037 -0.332768 0.215515 -163.602
1.5E+09 0.21863 -163.574 0.788708 -0.13154 0.787531 -0.28502 0.214696 -163.325
1.55E+09 0.218973 -163.28 0.789323 -0.176557 0.787298 -0.29439 0.215162 -162.87
1.6E+09 0.220082 -162.883 0.788678 -0.180443 0.787015 -0.34232 0.215722 -162.687
1.65E+09 0.219017 -162.677 0.78824 -0.183943 0.787765 -0.295635 0.214006 -162.035
1.7E+09 0.218872 -162.412 0.789699 -0.216302 0.788122 -0.305617 0.215915 -162.004
1.75E+09 0.219549 -161.97 0.789235 -0.131291 0.787954 -0.254206 0.215404 -161.602
1.8E+09 0.21895 -161.465 0.789039 -0.165863 0.788174 -0.260579 0.216352 -160.783
1.85E+09 0.21963 -161.217 0.789408 -0.172088 0.788335 -0.252459 0.21635 -160.812
1.9E+09 0.2205 -160.956 0.790135 -0.109945 0.788871 -0.288469 0.214816 -160.245
1.95E+09 0.220558 -160.77 0.790032 -0.10767 0.788426 -0.231548 0.214817 -159.951
2E+09 0.21941 -160.683 0.790278 -0.149184 0.789667 -0.236016 0.214411 -160.031
2.05E+09 0.219535 -160.471 0.79064 -0.146785 0.788986 -0.179879 0.21571 -159.252
2.1E+09 0.221556 -159.947 0.791517 -0.0953894 0.788324 -0.202281 0.215624 -159.347
2.15E+09 0.220331 -160.076 0.790191 -0.0967414 0.789865 -0.172453 0.213954 -158.977
2.2E+09 0.220151 -159.576 0.790819 -0.0716104 0.789769 -0.127018 0.214593 -159.008
2.25E+09 0.220253 -159.7 0.79081 -0.0831453 0.790888 -0.129283 0.214116 -158.434
2.3E+09 0.219287 -158.847 0.791367 -0.0849911 0.789689 -0.191512 0.213958 -158.412
2.35E+09 0.222407 -159.245 0.792172 -0.0437789 0.790086 -0.136639 0.213368 -158.024
2.4E+09 0.221446 -158.774 0.791838 -0.0900273 0.790238 -0.144304 0.21387 -157.578
2.45E+09 0.219152 -158.882 0.79165 -0.11737 0.789106 -0.203657 0.213597 -157.554
2.5E+09 0.220283 -157.726 0.792722 -0.0380191 0.790962 -0.101836 0.21462 -157.214
2.55E+09 0.219624 -158.212 0.793595 -0.027197 0.790286 -0.0365739 0.212874 -157.263
2.6E+09 0.219478 -157.925 0.793139 0.0192701 0.791852 -0.123344 0.214186 -156.638
2.65E+09 0.220957 -157.835 0.795868 0.0803949 0.79125 -0.10726 0.211519 -156.434
2.7E+09 0.222975 -158.255 0.794346 0.000547737 0.791933 -0.0784655 0.213448 -156.383
2.75E+09 0.22053 -157.796 0.794867 0.0657722 0.790675 -0.0883548 0.213454 -156.356
2.8E+09 0.221998 -157.537 0.79506 0.0854389 0.791986 -0.0662786 0.213264 -156.002
2.85E+09 0.221669 -157.773 0.794938 -0.0275676 0.792311 -0.128469 0.212687 -156.669
2.9E+09 0.220437 -157.394 0.794602 0.0641991 0.792473 -0.0772391 0.210825 -156.035
2.95E+09 0.222925 -156.946 0.796213 0.0195447 0.793949 -0.0730184 0.212368 -156.271
3E+09 0.22113 -157.244 0.795944 -0.00144314 0.79361 -0.153987 0.212827 -156.431
3.05E+09 0.218301 -157.539 0.795816 -0.12559 0.792255 -0.120617 0.209196 -155.671
3.1E+09 0.220928 -156.856 0.797292 0.0271755 0.793886 -0.0880381 0.210194 -155.823
3.15E+09 0.220238 -156.934 0.796617 0.0823058 0.794982 -0.0531161 0.212483 -156.109
3.2E+09 0.220854 -156.832 0.797991 0.0905042 0.794944 -0.0331679 0.20794 -155.957
3.25E+09 0.222387 -156.643 0.797481 0.0759312 0.794498 -0.108484 0.209172 -155.977
3.3E+09 0.219794 -156.851 0.798492 0.0117895 0.794791 0.0229566 0.206362 -155.914
3.35E+09 0.219072 -157.088 0.798737 0.0376486 0.795607 -0.0576861 0.210317 -156.336
3.4E+09 0.221928 -157.276 0.800205 0.0320567 0.795407 -0.0121096 0.208453 -155.913
3.45E+09 0.221238 -157.484 0.800559 0.118737 0.796816 -0.114367 0.206128 -155.933
3.5E+09 0.220051 -157.554 0.799833 0.0546359 0.795749 -0.0340771 0.208201 -156.31
3.55E+09 0.220761 -157.1 0.79967 0.109732 0.796583 -0.0417747 0.206982 -156.291
3.6E+09 0.223222 -157.466 0.800905 0.117942 0.797207 -0.04737 0.205916 -156.185
3.65E+09 0.22041 -157.471 0.80097 0.0695599 0.796765 -0.0765651 0.205281 -157.224
3.7E+09 0.221317 -157.436 0.801532 0.0936062 0.79785 0.00480705 0.206494 -156.267
3.75E+09 0.222037 -158.107 0.802273 0.0788213 0.798395 -0.076824 0.204995 -156.478
3.8E+09 0.220013 -158.311 0.802005 0.0157554 0.799059 0.00780707 0.207506 -156.821
3.85E+09 0.219736 -158.602 0.802361 0.112815 0.798056 -0.0610353 0.204257 -157.528
3.9E+09 0.219926 -158.833 0.801981 0.091302 0.799645 -0.0354651 0.206221 -157.309
3.95E+09 0.218786 -159.361 0.803724 0.0223969 0.798909 -0.0821593 0.201315 -158.116
4E+09 0.218747 -159.159 0.804558 0.085478 0.799889 -0.0358007 0.204933 -158.442
4.05E+09 0.218491 -159.827 0.804448 0.0400885 0.799135 0.0643665 0.203077 -158.411
4.1E+09 0.218902 -160.322 0.804768 -0.00457451 0.800111 -0.0206751 0.201278 -158.82
4.15E+09 0.219478 -160.083 0.80472 0.107362 0.799426 0.00408255 0.200837 -159.198
4.2E+09 0.21616 -160.855 0.803725 0.132168 0.80048 -0.0821905 0.199779 -158.873
4.25E+09 0.216643 -160.809 0.804816 0.017427 0.800368 -0.0501338 0.200725 -160.083
4.3E+09 0.215752 -160.757 0.804672 -0.0627073 0.801232 -0.0660157 0.198812 -160.797
4.35E+09 0.215672 -162.106 0.805284 0.0628922 0.801652 0.0682672 0.200355 -160.034
4.4E+09 0.217445 -161.639 0.805867 0.0476476 0.801034 -0.00139976 0.200678 -160.65
4.45E+09 0.215569 -162.76 0.804911 0.0279411 0.800463 0.0826728 0.198181 -160.976
4.5E+09 0.215446 -162.918 0.805681 0.00809172 0.802489 -0.016406 0.196618 -161.304
4.55E+09 0.217157 -163.399 0.804911 -0.0111647 0.801509 0.0623887 0.195732 -162.383
4.6E+09 0.215129 -163.885 0.806158 0.0205442 0.801271 0.0277247 0.196678 -162.411
4.65E+09 0.214544 -164.36 0.807111 0.0239216 0.80289 0.0478763 0.198566 -162.362
4.7E+09 0.217335 -164.627 0.808442 0.00279221 0.801127 -0.0280116 0.195333 -163.523
4.75E+09 0.215222 -165.002 0.806944 -0.0270459 0.803275 0.0160436 0.194322 -163.509
4.8E+09 0.215088 -165.132 0.8077 -0.0940142 0.803788 -0.081056 0.198255 -164.493
4.85E+09 0.213493 -166.181 0.808444 0.0380846 0.803271 0.0470301 0.195672 -164.161
4.9E+09 0.21599 -166.138 0.808633 -0.0202898 0.804059 -0.0810211 0.196123 -165.3
4.95E+09 0.212286 -166.705 0.807616 -0.115354 0.803379 -0.0108058 0.195127 -165.724
5E+09 0.212584 -167.302 0.809244 -0.0457563 0.804327 0.00230525 0.194394 -166.987
5.05E+09 0.21473 -168.211 0.808913 -0.0233702 0.802709 0.0143676 0.192236 -166.686
5.1E+09 0.211685 -168.908 0.809384 -0.139578 0.803907 0.0557329 0.194223 -168.032
5.15E+09 0.211257 -169.064 0.810434 -0.176234 0.803942 -0.042189 0.193048 -168.542
5.2E+09 0.214131 -169.504 0.808125 -0.0090106 0.804185 0.104491 0.19083 -169.524
5.25E+09 0.21463 -170.311 0.809358 -0.116888 0.805684 -0.00947499 0.193069 -169.457
5.3E+09 0.212599 -170.958 0.809777 -0.0692858 0.805801 -0.0172324 0.193996 -170.157
5.35E+09 0.213251 -171.591 0.809615 -0.14834 0.804558 8.59959E-05 0.193138 -171.087
5.4E+09 0.214958 -172.535 0.809326 -0.000420737 0.804038 0.0917296 0.191263 -171.422
5.45E+09 0.212253 -172.726 0.809987 -0.095632 0.804136 -0.0577285 0.193847 -172.474
5.5E+09 0.209049 -173.15 0.810034 -0.18612 0.806493 0.0224869 0.193087 -172.662
5.55E+09 0.211295 -174.043 0.810076 -0.250133 0.805558 -0.0950815 0.190427 -174.179
5.6E+09 0.210874 -174.095 0.811502 -0.115014 0.806872 -0.0238469 0.192367 -173.596
5.65E+09 0.211203 -175.018 0.811095 -0.212971 0.806768 -0.0610564 0.191855 -174.316
5.7E+09 0.216279 -175.077 0.811959 -0.279004 0.806803 -0.0232812 0.192055 -175.317
5.75E+09 0.213597 -176.551 0.81159 -0.141378 0.805013 -0.0116665 0.194946 -176.503
5.8E+09 0.212698 -176.547 0.811677 -0.241305 0.805467 -0.0150115 0.193144 -176.992
5.85E+09 0.21445 -178.242 0.812099 -0.168615 0.805654 0.00188757 0.19096 -177.201
5.9E+09 0.212743 -178.517 0.810819 -0.33715 0.806491 -0.0612085 0.196013 -178.293
5.95E+09 0.21352 -178.239 0.812398 -0.225152 0.806379 -0.0128277 0.193376 -178.302
6E+09 0.215331 -179.668 0.812855 -0.379585 0.80817 -0.0210434 0.195888 -179.184
