! Created by janssen on Wed Jul 24 13:33:05 METDST 2002
# HZ S MA R 50
5E+07 0.0410264 -3.42532 0.960276 -0.189996 0.959095 -0.289246 0.0403208 -3.19642
1E+08 0.0398655 -1.35159 0.960655 -0.473267 0.960297 -0.4937 0.0404926 -1.73705
1.5E+08 0.0400007 -0.313213 0.96145 -0.753145 0.960697 -0.787686 0.0399636 -0.800873
2E+08 0.0407141 1.50058 0.961675 -0.999672 0.961498 -1.0324 0.0398554 1.05888
2.5E+08 0.0398201 0.463207 0.961573 -1.30468 0.962352 -1.30843 0.0406171 0.730906
3E+08 0.0408695 2.05025 0.961748 -1.58645 0.96156 -1.58513 0.0403452 2.15385
3.5E+08 0.0411334 2.24154 0.962739 -1.84288 0.96176 -1.87221 0.0415975 3.03323
4E+08 0.0406987 3.26816 0.962322 -2.07534 0.962603 -2.14997 0.0411071 2.44556
4.5E+08 0.0420174 3.19084 0.962867 -2.42436 0.962737 -2.39925 0.0417434 2.87662
5E+08 0.0411458 3.62507 0.96248 -2.61938 0.962066 -2.64237 0.0418172 3.76309
5.5E+08 0.0407988 4.16618 0.962361 -2.90707 0.962645 -2.9464 0.0415867 3.6218
6E+08 0.0425811 3.58877 0.962247 -3.17194 0.962241 -3.21132 0.042498 3.91411
6.5E+08 0.0416479 4.07747 0.962665 -3.46938 0.962007 -3.50608 0.0418789 4.19377
7E+08 0.0418335 4.90727 0.962746 -3.73261 0.962974 -3.77338 0.0421819 2.89478
7.5E+08 0.0424449 3.98338 0.963618 -4.01555 0.96262 -4.06167 0.0424293 5.21851
8E+08 0.0418788 4.53757 0.962655 -4.30321 0.96245 -4.30572 0.0435942 4.29035
8.5E+08 0.043435 5.37413 0.962529 -4.58149 0.962874 -4.57545 0.0433231 3.57984
9E+08 0.0429815 5.00796 0.963262 -4.84279 0.962713 -4.88153 0.0424237 5.70495
9.5E+08 0.0429448 5.90782 0.962767 -5.07937 0.962772 -5.12329 0.0436819 6.21503
1E+09 0.0431546 6.10362 0.962539 -5.35529 0.963072 -5.46826 0.0436266 3.90825
1.05E+09 0.0424227 6.42757 0.962901 -5.64226 0.963015 -5.6522 0.0427017 6.63132
1.1E+09 0.0431728 6.56617 0.962895 -5.91599 0.962809 -5.93553 0.0440188 7.56895
1.15E+09 0.0434484 6.32827 0.963413 -6.16605 0.963051 -6.20679 0.0439572 7.8936
1.2E+09 0.0446641 8.45542 0.962869 -6.50049 0.961879 -6.48356 0.0448781 7.91686
1.25E+09 0.0444221 8.04362 0.96311 -6.73228 0.962636 -6.76159 0.0445493 7.99427
1.3E+09 0.0436418 8.17941 0.96249 -7.04215 0.962189 -7.09242 0.0452584 8.58616
1.35E+09 0.0448684 11.7194 0.963462 -7.31405 0.963243 -7.33623 0.0448029 10.0796
1.4E+09 0.0453726 11.4898 0.962205 -7.57445 0.962545 -7.56808 0.0464339 11.109
1.45E+09 0.0443333 12.0145 0.962488 -7.8519 0.962177 -7.87637 0.0452645 12.1643
1.5E+09 0.0445659 12.608 0.962392 -8.178 0.962529 -8.1266 0.0468093 13.4639
1.55E+09 0.0442377 13.4529 0.96318 -8.41318 0.961349 -8.36332 0.0472541 13.5127
1.6E+09 0.0448796 12.7875 0.962743 -8.68256 0.962594 -8.7235 0.0472474 14.2927
1.65E+09 0.0460712 16.2038 0.96198 -9.00189 0.961903 -8.98661 0.0487417 16.002
1.7E+09 0.0464576 17.2282 0.963029 -9.23301 0.962208 -9.27418 0.0482217 18.0705
1.75E+09 0.0460202 17.6606 0.962673 -9.52048 0.962479 -9.51212 0.0481006 18.5843
1.8E+09 0.047272 19.1964 0.962149 -9.78168 0.96214 -9.84381 0.0482886 18.2167
1.85E+09 0.0480718 18.8436 0.962497 -10.1013 0.961722 -10.0854 0.0503669 19.182
1.9E+09 0.0471571 20.5625 0.96247 -10.3853 0.961284 -10.3983 0.0509244 20.4069
1.95E+09 0.0477202 22.7106 0.961898 -10.6603 0.961798 -10.6609 0.0520815 20.825
2E+09 0.0510442 24.6294 0.961347 -10.9357 0.961539 -10.9125 0.0528674 24.2855
2.05E+09 0.0507802 25.2004 0.961188 -11.2375 0.961315 -11.219 0.0516719 23.9757
2.1E+09 0.0512805 25.8396 0.963127 -11.5431 0.961131 -11.5072 0.0532241 25.7874
2.15E+09 0.0525063 28.579 0.961334 -11.8062 0.961841 -11.7313 0.0563607 26.2962
2.2E+09 0.0538068 28.8316 0.961734 -12.0631 0.961092 -12.0624 0.0556124 28.3144
2.25E+09 0.0546633 30.6812 0.960883 -12.4093 0.960792 -12.319 0.0575107 28.489
2.3E+09 0.0574285 30.0123 0.961888 -12.6807 0.96064 -12.6097 0.0586381 30.4321
2.35E+09 0.0561114 33.4665 0.960876 -12.9322 0.960736 -12.8952 0.0607014 31.1008
2.4E+09 0.0587725 33.8115 0.960413 -13.2456 0.960656 -13.2028 0.0601969 31.0618
2.45E+09 0.061125 34.7544 0.960521 -13.596 0.959185 -13.5192 0.0630507 33.3625
2.5E+09 0.0608027 34.2548 0.960356 -13.7608 0.958926 -13.746 0.0624156 34.8369
2.55E+09 0.0628849 36.3445 0.959403 -14.1212 0.958503 -13.9616 0.0639763 34.8189
2.6E+09 0.0636142 38.033 0.95984 -14.301 0.960654 -14.2824 0.0651566 35.6616
2.65E+09 0.0660196 38.9095 0.960205 -14.6119 0.959595 -14.543 0.0689533 35.0963
2.7E+09 0.0657321 40.9132 0.958861 -14.8919 0.95872 -14.8389 0.0683964 39.3064
2.75E+09 0.0697489 40.8976 0.958417 -15.2105 0.958973 -15.1832 0.071081 39.0404
2.8E+09 0.068912 43.2224 0.958406 -15.4771 0.959914 -15.4707 0.0719475 39.9597
2.85E+09 0.0711069 44.1436 0.958704 -15.8234 0.957413 -15.7636 0.0754726 42.874
2.9E+09 0.0755672 44.0176 0.957788 -16.0027 0.958371 -16.0593 0.0784202 42.067
2.95E+09 0.0742541 44.5994 0.95824 -16.2533 0.958149 -16.2609 0.0795842 43.314
3E+09 0.0792925 45.5999 0.957912 -16.5898 0.95845 -16.6394 0.0821433 44.6005
3.05E+09 0.0806308 45.0878 0.957137 -16.9393 0.957164 -16.7978 0.0833062 43.5532
3.1E+09 0.0822884 46.5223 0.956531 -17.2399 0.955336 -17.2333 0.0862642 45.3524
3.15E+09 0.0855661 47.452 0.956571 -17.4493 0.95623 -17.4477 0.0895968 47.8254
3.2E+09 0.0874074 47.7426 0.957582 -17.7674 0.955927 -17.7637 0.0924322 46.4942
3.25E+09 0.0884427 49.2023 0.954279 -18.1513 0.955678 -18.1031 0.0935927 47.4494
3.3E+09 0.0938889 50.2845 0.954982 -18.4719 0.954155 -18.2631 0.0977936 47.8632
3.35E+09 0.0970926 49.4304 0.955101 -18.6947 0.953793 -18.6208 0.0986312 49.6088
3.4E+09 0.0987447 51.6782 0.955201 -18.909 0.954706 -18.8618 0.101407 49.2635
3.45E+09 0.10228 51.9667 0.955748 -19.2768 0.955429 -19.1714 0.105922 48.7783
3.5E+09 0.105876 52.2171 0.954174 -19.5436 0.954028 -19.4626 0.106956 50.849
3.55E+09 0.105432 52.0367 0.952837 -19.8403 0.952356 -19.771 0.110779 51.4699
3.6E+09 0.108901 53.3246 0.953136 -20.0972 0.952598 -20.0382 0.114226 51.403
3.65E+09 0.113174 53.184 0.952073 -20.4311 0.950378 -20.3339 0.118706 52.1917
3.7E+09 0.115425 53.7498 0.952892 -20.6916 0.95249 -20.6425 0.119037 52.4329
3.75E+09 0.119767 54.6185 0.950955 -21.0227 0.951794 -20.9662 0.123452 52.8891
3.8E+09 0.125822 54.1523 0.951655 -21.3853 0.952287 -21.2287 0.125393 53.6773
3.85E+09 0.127557 54.3104 0.949909 -21.559 0.95018 -21.4663 0.131243 53.7466
3.9E+09 0.131621 54.6764 0.948257 -21.8819 0.950255 -21.8048 0.133799 54.5303
3.95E+09 0.136258 54.8368 0.949388 -22.2432 0.94986 -22.068 0.139578 54.093
4E+09 0.139252 54.3155 0.949004 -22.5024 0.948116 -22.4049 0.140637 55.3128
4.05E+09 0.14509 55.4259 0.948002 -22.7489 0.947881 -22.6385 0.146101 54.8205
4.1E+09 0.148211 55.535 0.946929 -23.1481 0.947363 -22.9437 0.150271 54.9549
4.15E+09 0.150691 55.383 0.94661 -23.409 0.947171 -23.1917 0.153409 55.2958
4.2E+09 0.155451 55.3359 0.944501 -23.575 0.947237 -23.5135 0.155671 55.0291
4.25E+09 0.160006 55.3016 0.94284 -23.9455 0.94578 -23.8117 0.16201 56.1033
4.3E+09 0.161555 55.1857 0.943725 -24.2929 0.944943 -24.0517 0.166995 55.8547
4.35E+09 0.167896 55.3495 0.944684 -24.493 0.945477 -24.4234 0.166152 55.51
4.4E+09 0.169322 55.4436 0.942456 -24.8222 0.944885 -24.5644 0.171678 56.1273
4.45E+09 0.175181 55.5575 0.94238 -25.1142 0.94341 -24.9221 0.175822 56.0809
4.5E+09 0.177713 55.1822 0.941651 -25.3627 0.943519 -25.3089 0.180091 55.3858
4.55E+09 0.183241 55.8707 0.938651 -25.7423 0.943683 -25.4309 0.185395 55.9346
4.6E+09 0.18793 55.244 0.94011 -26.0109 0.942089 -25.7481 0.189508 56.1144
4.65E+09 0.191798 55.1221 0.939898 -26.1838 0.942023 -26.1068 0.190574 56.3403
4.7E+09 0.195718 55.8184 0.937559 -26.5026 0.941137 -26.39 0.19826 55.5408
4.75E+09 0.199774 55.2645 0.938582 -26.8683 0.940888 -26.664 0.20023 55.9043
4.8E+09 0.202038 55.2568 0.93753 -27.0447 0.940189 -26.943 0.204441 56.1512
4.85E+09 0.209418 54.9228 0.938076 -27.3228 0.939488 -27.2662 0.208203 55.9747
4.9E+09 0.210692 54.9683 0.936781 -27.7039 0.938031 -27.5367 0.213212 56.2352
4.95E+09 0.216565 54.4009 0.935445 -28.0422 0.939024 -27.8029 0.215897 55.9742
5E+09 0.221784 54.3533 0.935001 -28.2295 0.938208 -28.0319 0.222995 56.0611
5.05E+09 0.226085 54.5935 0.934253 -28.5971 0.936292 -28.2918 0.22438 55.3617
5.1E+09 0.22901 54.1511 0.934325 -28.9158 0.936061 -28.591 0.230818 55.7615
5.15E+09 0.232408 53.4529 0.932127 -29.0949 0.935825 -28.9041 0.233966 55.5439
5.2E+09 0.238029 53.9813 0.931237 -29.4297 0.935432 -29.1124 0.239301 55.3773
5.25E+09 0.24221 54.2116 0.931722 -29.68 0.934793 -29.521 0.243428 55.3922
5.3E+09 0.247072 53.6675 0.929916 -29.9309 0.935222 -29.8013 0.246927 55.5741
5.35E+09 0.251266 53.2746 0.930341 -30.2858 0.932682 -29.9964 0.251365 55.4837
5.4E+09 0.255111 53.6108 0.927812 -30.463 0.933749 -30.2502 0.253852 55.2799
5.45E+09 0.259357 52.9394 0.928456 -30.7802 0.932695 -30.6047 0.26079 55.4361
5.5E+09 0.262397 52.6045 0.927482 -31.054 0.932574 -30.943 0.263703 54.9882
5.55E+09 0.268717 52.5233 0.926771 -31.3648 0.931565 -31.1406 0.269045 54.6164
5.6E+09 0.271769 52.3853 0.925801 -31.7662 0.930214 -31.4917 0.271144 54.3237
5.65E+09 0.275799 51.79 0.926661 -31.927 0.930641 -31.8004 0.274907 54.8266
5.7E+09 0.280059 52.7132 0.923254 -32.1576 0.930142 -31.9531 0.281204 54.2141
5.75E+09 0.285845 51.5103 0.923127 -32.4413 0.929279 -32.1947 0.285203 54.5392
5.8E+09 0.288192 51.3129 0.92318 -32.7057 0.926874 -32.511 0.288641 54.2456
5.85E+09 0.294396 51.6951 0.923422 -32.8411 0.928263 -32.9228 0.292451 53.314
5.9E+09 0.299176 51.0968 0.920531 -33.2475 0.927549 -33.1386 0.296762 53.9911
5.95E+09 0.300452 50.5361 0.917909 -33.4512 0.926512 -33.2994 0.299515 53.849
6E+09 0.304855 50.5564 0.921201 -33.7029 0.926669 -33.6183 0.303694 53.7603
