! Created by janssen on Wed Jul 24 13:32:30 METDST 2002
# HZ S MA R 50
5E+07 0.997802 -1.16736 0.0154271 79.4289 0.0153369 80.6014 0.998561 -1.01288
1E+08 0.991627 -2.01122 0.028288 72.0218 0.0285109 69.6481 0.992131 -1.87458
1.5E+08 0.984963 -2.55454 0.0392591 64.8413 0.0386314 64.8951 0.984424 -2.4078
2E+08 0.978598 -3.02925 0.0477485 59.5692 0.0475082 59.8911 0.977654 -2.92405
2.5E+08 0.971699 -3.47312 0.0535337 55.3024 0.0537953 55.6906 0.97146 -3.28297
3E+08 0.966749 -3.77131 0.0596356 52.8168 0.0595248 53.1454 0.967137 -3.54603
3.5E+08 0.962767 -4.03895 0.0640908 49.5142 0.0646099 50.0459 0.961965 -3.86871
4E+08 0.958367 -4.37227 0.0678188 48.9316 0.0678474 48.7069 0.957705 -4.07089
4.5E+08 0.956939 -4.62574 0.0716626 47.1917 0.0720107 47.4767 0.955043 -4.29849
5E+08 0.952652 -4.87849 0.0748542 46.0403 0.0743435 46.4543 0.952535 -4.53725
5.5E+08 0.950645 -5.16518 0.0777374 45.5721 0.0777904 45.8704 0.950026 -4.73567
6E+08 0.949681 -5.38337 0.0799296 44.4628 0.0807481 45.0281 0.947769 -5.01021
6.5E+08 0.947005 -5.57833 0.082411 44.6971 0.0823244 44.432 0.947007 -5.13247
7E+08 0.946159 -5.87597 0.0848169 44.0956 0.0853943 44.3215 0.944851 -5.42821
7.5E+08 0.945107 -6.11173 0.0865622 44.0838 0.0873965 44.4151 0.943451 -5.59397
8E+08 0.943145 -6.35874 0.0893081 43.8974 0.0895061 44.1762 0.942643 -5.83487
8.5E+08 0.943183 -6.67694 0.0911056 43.7915 0.0914562 44.4038 0.940978 -6.06401
9E+08 0.941699 -6.96257 0.0925933 44.4455 0.0929228 44.3307 0.94008 -6.25006
9.5E+08 0.939988 -7.1385 0.0949933 44.1449 0.0950681 44.2278 0.93887 -6.46186
1E+09 0.939612 -7.43467 0.0970555 44.176 0.0969237 44.299 0.93872 -6.75082
1.05E+09 0.939706 -7.69203 0.0996611 44.3189 0.0999884 44.79 0.93723 -6.90851
1.1E+09 0.937861 -7.95832 0.100929 44.6749 0.102303 44.3449 0.937648 -7.15801
1.15E+09 0.937079 -8.20716 0.102843 44.7021 0.104315 44.6567 0.936815 -7.32607
1.2E+09 0.937374 -8.51419 0.105821 44.8731 0.105505 45.0127 0.936381 -7.59016
1.25E+09 0.936888 -8.76074 0.107244 45.2116 0.107907 45.4079 0.936421 -7.9005
1.3E+09 0.935888 -8.98744 0.108979 45.2492 0.110083 45.1431 0.934967 -8.03083
1.35E+09 0.935716 -9.26004 0.111667 45.1106 0.111159 45.3206 0.93502 -8.24418
1.4E+09 0.9353 -9.5437 0.113339 45.4688 0.113703 45.8366 0.934885 -8.53477
1.45E+09 0.934842 -9.78516 0.115774 45.4516 0.116145 45.7992 0.933213 -8.70515
1.5E+09 0.934332 -10.0014 0.116565 45.8909 0.117868 46.3198 0.934306 -8.91508
1.55E+09 0.934622 -10.3182 0.119336 46.2332 0.119971 46.5093 0.933074 -9.20315
1.6E+09 0.934142 -10.6206 0.122057 46.3042 0.121543 46.4225 0.93158 -9.38498
1.65E+09 0.932724 -10.8284 0.123131 46.7672 0.124065 46.4172 0.932589 -9.58427
1.7E+09 0.932801 -11.0446 0.124492 46.6071 0.125975 46.6913 0.931481 -9.92387
1.75E+09 0.93223 -11.3702 0.127083 45.951 0.1281 47.1638 0.930508 -9.97323
1.8E+09 0.932993 -11.5897 0.129661 46.8234 0.129444 46.9462 0.930789 -10.3795
1.85E+09 0.932258 -11.8287 0.131141 46.9216 0.132143 47.0577 0.930718 -10.5272
1.9E+09 0.931985 -12.1122 0.132749 46.9168 0.13407 47.4665 0.9307 -10.7039
1.95E+09 0.932207 -12.3895 0.135664 46.8835 0.136602 47.4049 0.931199 -11.0104
2E+09 0.932035 -12.6323 0.138325 47.2688 0.138511 47.2376 0.929168 -11.059
2.05E+09 0.931076 -12.8812 0.138869 47.3179 0.139484 47.4625 0.930621 -11.4472
2.1E+09 0.931309 -13.1402 0.141039 47.2423 0.141417 47.7012 0.929616 -11.5376
2.15E+09 0.930445 -13.3613 0.143465 47.2296 0.145367 47.91 0.928406 -11.8682
2.2E+09 0.931283 -13.6986 0.145432 47.3588 0.146398 47.3388 0.928017 -12.0237
2.25E+09 0.929611 -13.8685 0.146869 47.4236 0.148483 47.6762 0.928443 -12.2981
2.3E+09 0.93022 -14.144 0.148725 47.6484 0.150058 47.7742 0.927868 -12.4327
2.35E+09 0.928073 -14.4634 0.150989 47.4504 0.153236 47.8913 0.927934 -12.7318
2.4E+09 0.927875 -14.6618 0.152195 47.3412 0.154511 48.2879 0.926509 -12.961
2.45E+09 0.928322 -14.8665 0.154542 47.6508 0.156528 48.1328 0.926428 -13.063
2.5E+09 0.927081 -15.1262 0.156316 47.4379 0.15793 48.164 0.926669 -13.412
2.55E+09 0.926387 -15.4061 0.160327 47.6448 0.160853 47.8514 0.925165 -13.5694
2.6E+09 0.9272 -15.5675 0.160737 47.9964 0.162761 48.1318 0.925358 -13.7763
2.65E+09 0.927461 -15.866 0.163763 47.8295 0.164325 48.4022 0.926295 -14.0439
2.7E+09 0.92527 -16.1023 0.165328 47.6166 0.167061 48.1162 0.923826 -14.1584
2.75E+09 0.926963 -16.3729 0.166875 47.7131 0.170218 48.1535 0.925248 -14.4265
2.8E+09 0.924305 -16.7166 0.16957 47.7706 0.172495 47.9758 0.923216 -14.6384
2.85E+09 0.924062 -16.8482 0.171643 47.9738 0.172739 48.3013 0.922727 -14.8169
2.9E+09 0.925819 -17.0762 0.173217 47.7008 0.17653 47.8903 0.923422 -15.0526
2.95E+09 0.924363 -17.3998 0.175806 47.8831 0.178449 48.0497 0.92234 -15.3023
3E+09 0.925234 -17.5941 0.177742 47.8899 0.179814 47.7994 0.922205 -15.416
3.05E+09 0.925971 -17.9519 0.180695 48.0991 0.183712 48.0838 0.921704 -15.8334
3.1E+09 0.924342 -18.1539 0.181206 47.634 0.183587 48.0399 0.921666 -15.8658
3.15E+09 0.923597 -18.2028 0.184037 47.7807 0.185338 47.8079 0.920713 -15.9825
3.2E+09 0.92474 -18.4315 0.184782 47.4498 0.187641 47.6764 0.920795 -16.1909
3.25E+09 0.922205 -18.8172 0.187587 47.6494 0.190661 47.9727 0.920563 -16.4442
3.3E+09 0.923056 -18.9772 0.189538 47.5675 0.193003 47.5589 0.920289 -16.5525
3.35E+09 0.923237 -19.2028 0.191082 47.0138 0.192922 47.6774 0.921095 -16.7932
3.4E+09 0.921836 -19.4629 0.192665 47.4375 0.195352 47.3912 0.920328 -16.9949
3.45E+09 0.923981 -19.734 0.195676 47.4003 0.198345 47.4067 0.91942 -17.2357
3.5E+09 0.922948 -19.8725 0.198258 47.3967 0.199228 47.4965 0.919588 -17.4499
3.55E+09 0.922682 -20.1351 0.198917 47.368 0.202856 47.2229 0.918415 -17.5937
3.6E+09 0.921666 -20.3354 0.201316 47.4442 0.205338 47.2677 0.917789 -17.8898
3.65E+09 0.922796 -20.5723 0.203416 47.4579 0.208143 47.7917 0.917283 -18.0412
3.7E+09 0.922142 -20.9016 0.204932 47.2233 0.209707 47.1689 0.917582 -18.1926
3.75E+09 0.921028 -21.1293 0.207492 47.4407 0.210586 46.9193 0.917706 -18.4505
3.8E+09 0.921445 -21.2775 0.208429 47.0278 0.211623 46.9564 0.916164 -18.6616
3.85E+09 0.922181 -21.5774 0.212032 47.1469 0.213677 46.6053 0.916575 -18.8604
3.9E+09 0.920501 -21.776 0.213467 47.3713 0.216785 46.7681 0.916492 -19.0311
3.95E+09 0.921232 -22.0544 0.215956 47.1033 0.219313 46.7002 0.915027 -19.2081
4E+09 0.920529 -22.2868 0.218861 46.6974 0.221554 46.7193 0.914566 -19.4456
4.05E+09 0.92012 -22.4639 0.218881 46.9826 0.224561 46.5742 0.914999 -19.5647
4.1E+09 0.919168 -22.6941 0.222489 46.6975 0.22579 46.3818 0.913979 -19.8315
4.15E+09 0.919753 -22.9088 0.223676 46.477 0.228599 46.2911 0.91213 -20.0104
4.2E+09 0.919116 -23.0937 0.225958 46.7042 0.229776 46.1551 0.910951 -20.2682
4.25E+09 0.919651 -23.3544 0.228142 46.2031 0.23252 45.7111 0.909625 -20.5302
4.3E+09 0.917012 -23.6813 0.229591 46.6471 0.234621 46.1219 0.909981 -20.602
4.35E+09 0.916361 -23.889 0.232522 46.2352 0.236885 45.7768 0.910409 -20.9401
4.4E+09 0.91918 -24.1081 0.234118 46.2239 0.239305 46.2058 0.908325 -21.0547
4.45E+09 0.916413 -24.4621 0.236997 45.9342 0.240826 45.4625 0.908059 -21.2436
4.5E+09 0.917089 -24.6655 0.237524 45.9454 0.243505 45.8288 0.907462 -21.4691
4.55E+09 0.916654 -24.8729 0.241837 46.0671 0.2461 45.3491 0.906328 -21.6048
4.6E+09 0.914548 -25.1561 0.243145 45.9667 0.247941 45.2154 0.906945 -21.8642
4.65E+09 0.914154 -25.4407 0.247078 45.6636 0.249914 44.6865 0.905378 -22.0934
4.7E+09 0.913989 -25.5526 0.248524 45.5842 0.253675 44.8426 0.903744 -22.2696
4.75E+09 0.913971 -25.8728 0.249024 45.4377 0.25398 44.5457 0.903223 -22.4678
4.8E+09 0.912095 -26.1516 0.252531 45.4214 0.257192 44.4335 0.901427 -22.7413
4.85E+09 0.914056 -26.2598 0.255662 45.3832 0.257863 44.346 0.90113 -22.9397
4.9E+09 0.91273 -26.6571 0.256354 45.1107 0.261796 44.4571 0.902199 -23.1126
4.95E+09 0.911508 -26.8227 0.258584 44.8639 0.263156 44.0527 0.899863 -23.3763
5E+09 0.911865 -27.047 0.261744 44.8699 0.265487 43.8731 0.899417 -23.5021
5.05E+09 0.910152 -27.3753 0.263957 44.7177 0.26912 43.6547 0.900296 -23.8386
5.1E+09 0.91002 -27.6173 0.265014 44.4514 0.269327 43.6154 0.897905 -23.908
5.15E+09 0.909994 -27.8247 0.267758 44.4232 0.271929 43.6603 0.898406 -24.1556
5.2E+09 0.910376 -28.1293 0.269629 44.6078 0.274255 43.1712 0.893828 -24.3155
5.25E+09 0.907998 -28.3628 0.272006 44.195 0.276287 43.1442 0.895143 -24.5789
5.3E+09 0.909834 -28.5873 0.274045 44.0184 0.27919 43.0014 0.894162 -24.7751
5.35E+09 0.908527 -28.9653 0.277171 44.1065 0.281419 42.8372 0.891685 -25.1458
5.4E+09 0.905973 -29.1884 0.280816 43.681 0.283889 42.2967 0.89046 -25.292
5.45E+09 0.907728 -29.447 0.28192 43.6332 0.286025 42.2235 0.890635 -25.4994
5.5E+09 0.904971 -29.7898 0.284341 43.261 0.287476 42.2377 0.889667 -25.8364
5.55E+09 0.90506 -29.9331 0.284859 43.2918 0.291936 42.1439 0.887178 -25.8888
5.6E+09 0.903254 -30.0997 0.288432 43.1539 0.292297 41.9171 0.8875 -26.2933
5.65E+09 0.902902 -30.595 0.290803 43.0972 0.294719 41.6646 0.886634 -26.3098
5.7E+09 0.904142 -30.7429 0.295376 42.8859 0.298242 41.654 0.884186 -26.6321
5.75E+09 0.901855 -31.0262 0.296411 42.8152 0.298983 41.328 0.882155 -26.9633
5.8E+09 0.902592 -31.4326 0.297607 42.3112 0.301929 41.2828 0.88302 -27.0474
5.85E+09 0.898806 -31.7705 0.303267 42.3098 0.305096 40.7853 0.881811 -27.3252
5.9E+09 0.899385 -31.8983 0.302977 42.3192 0.307674 40.9781 0.88158 -27.6019
5.95E+09 0.899047 -32.2356 0.307206 42.2735 0.308219 40.8057 0.879581 -27.8972
6E+09 0.897129 -32.5839 0.308946 41.8226 0.310765 40.6985 0.877644 -28.0872
