! Created by janssen on Wed Jul 24 12:32:36 METDST 2002
# HZ S MA R 50
5E+07 0.898429 -179.987 0.102054 1.77045 0.102241 1.81566 0.898257 179.987
1E+08 0.899588 179.63 0.101146 7.29139 0.10129 6.97171 0.899697 179.547
1.5E+08 0.899063 179.253 0.102266 12.3051 0.101932 12.2704 0.898493 179.146
2E+08 0.898196 178.887 0.104964 16.9856 0.104893 16.8531 0.897847 178.855
2.5E+08 0.898473 178.632 0.10707 21.1879 0.107473 20.9183 0.897497 178.568
3E+08 0.89661 178.35 0.112162 25.2832 0.111338 24.885 0.896841 178.278
3.5E+08 0.897044 177.93 0.115781 28.6301 0.116199 28.1676 0.895013 177.962
4E+08 0.895893 177.732 0.121532 31.9721 0.12112 31.8266 0.894405 177.599
4.5E+08 0.895413 177.432 0.126628 34.8665 0.127246 34.5053 0.892992 177.401
5E+08 0.893776 177.096 0.133379 37.2002 0.132421 37.1385 0.891969 177.167
5.5E+08 0.894077 176.873 0.13918 39.728 0.139698 39.5787 0.890801 176.833
6E+08 0.891887 176.48 0.145596 41.5075 0.145537 41.3981 0.888655 176.545
6.5E+08 0.891461 176.304 0.152425 43.565 0.151687 43.1282 0.888436 176.244
7E+08 0.890592 176.005 0.15921 45.0684 0.158836 44.7893 0.885942 176.018
7.5E+08 0.887803 175.768 0.16679 46.5368 0.166048 46.2426 0.884333 175.684
8E+08 0.888288 175.484 0.174229 47.8539 0.173432 47.5423 0.88278 175.439
8.5E+08 0.887213 175.154 0.18127 48.9681 0.180914 48.3169 0.880948 175.208
9E+08 0.886449 174.826 0.18877 49.9292 0.187789 49.7242 0.879626 174.826
9.5E+08 0.883214 174.648 0.196505 50.7046 0.195356 50.4142 0.877633 174.639
1E+09 0.882758 174.113 0.204579 51.5339 0.202713 51.3759 0.876813 174.259
1.05E+09 0.881697 173.943 0.211898 52.2232 0.2116 52.1121 0.874774 173.967
1.1E+09 0.878811 173.593 0.220697 52.7612 0.219761 52.4473 0.872529 173.79
1.15E+09 0.877696 173.407 0.227162 53.3376 0.227168 53.0036 0.870204 173.427
1.2E+09 0.875224 172.984 0.23677 53.5298 0.235541 53.4994 0.869119 173.1
1.25E+09 0.87384 172.694 0.244195 54.1396 0.243105 53.7441 0.866282 172.714
1.3E+09 0.87225 172.384 0.252039 54.4242 0.251189 54.0928 0.863643 172.528
1.35E+09 0.870628 171.915 0.260832 54.655 0.258518 54.5073 0.861039 172.187
1.4E+09 0.868364 171.648 0.26897 55.042 0.267526 54.6052 0.858412 171.745
1.45E+09 0.865178 171.46 0.27703 55.0904 0.274488 54.698 0.856858 171.507
1.5E+09 0.864222 171.073 0.285011 55.1731 0.283889 54.8688 0.85328 171.148
1.55E+09 0.863941 170.63 0.29327 55.4823 0.29144 54.813 0.848477 170.83
1.6E+09 0.861884 170.468 0.30195 55.4111 0.298482 55.0921 0.847131 170.498
1.65E+09 0.8563 169.922 0.310019 55.4783 0.308226 54.9433 0.8439 170.19
1.7E+09 0.854806 169.539 0.317584 55.4174 0.316014 54.9956 0.841169 169.711
1.75E+09 0.851809 169.409 0.324747 55.3636 0.324634 55.1865 0.838862 169.501
1.8E+09 0.849265 168.929 0.334013 55.3165 0.331134 55.3041 0.83691 169.294
1.85E+09 0.847313 168.604 0.342269 55.402 0.339213 55.0401 0.832947 168.862
1.9E+09 0.846055 168.234 0.35137 55.1352 0.348784 54.9391 0.828552 168.419
1.95E+09 0.842837 167.767 0.358264 55.2137 0.355533 54.8587 0.825482 168.058
2E+09 0.837407 167.257 0.36781 54.9459 0.363848 54.7166 0.82277 167.564
2.05E+09 0.83513 166.9 0.374999 54.837 0.371075 54.761 0.821139 167.352
2.1E+09 0.833825 166.627 0.382972 54.7502 0.380022 54.659 0.817851 166.868
2.15E+09 0.829186 166.093 0.390607 54.6559 0.387552 54.544 0.810619 166.466
2.2E+09 0.825736 165.711 0.399408 54.4478 0.395318 54.3684 0.809957 166.009
2.25E+09 0.824868 165.283 0.407185 54.3727 0.402873 54.1059 0.805356 165.631
2.3E+09 0.818809 164.997 0.414004 54.1085 0.410668 53.8318 0.801619 165.268
2.35E+09 0.819337 164.352 0.422856 53.9391 0.418475 53.6245 0.795357 164.858
2.4E+09 0.814785 163.983 0.43029 53.6555 0.426484 53.6057 0.793683 164.65
2.45E+09 0.807613 163.701 0.43808 53.322 0.433626 53.0512 0.790269 164.033
2.5E+09 0.805216 163.379 0.444642 53.1775 0.443121 53.0281 0.787237 163.759
2.55E+09 0.802077 162.867 0.455148 52.9678 0.448992 52.8527 0.780577 163.364
2.6E+09 0.79884 162.413 0.461839 52.673 0.457454 52.4558 0.7781 163.034
2.65E+09 0.796337 161.906 0.470916 52.2041 0.463574 52.2502 0.771683 162.575
2.7E+09 0.793841 161.558 0.478184 52.1098 0.471034 51.9886 0.76991 162.066
2.75E+09 0.788888 160.811 0.484744 51.8179 0.480915 51.7029 0.765701 161.555
2.8E+09 0.783735 160.591 0.493065 51.5245 0.487629 51.4426 0.758718 161.275
2.85E+09 0.780861 160.097 0.501174 51.1407 0.493807 51.0096 0.758016 160.406
2.9E+09 0.777074 159.554 0.506039 50.8553 0.500655 50.8358 0.750111 160.37
2.95E+09 0.773406 159.347 0.516861 50.7332 0.508654 50.4017 0.746625 159.682
3E+09 0.771797 158.717 0.523529 50.2769 0.517705 50.0363 0.745131 159.251
3.05E+09 0.753507 157.412 0.526384 49.7186 0.519304 49.9564 0.728355 158.666
3.1E+09 0.76202 157.778 0.538905 49.6004 0.531209 49.5856 0.736193 158.514
3.15E+09 0.756538 157.198 0.545961 49.2466 0.538491 49.2756 0.732296 158.075
3.2E+09 0.752088 156.744 0.553507 48.8622 0.544782 48.8536 0.725598 157.331
3.25E+09 0.745824 156.294 0.559379 48.5844 0.550746 48.6509 0.722672 156.907
3.3E+09 0.741211 155.599 0.56701 48.1311 0.559094 48.3043 0.717478 156.444
3.35E+09 0.735925 155.076 0.573138 47.8395 0.565856 47.9884 0.71668 155.883
3.4E+09 0.736506 154.574 0.579479 47.4237 0.572116 47.8452 0.711091 155.66
3.45E+09 0.732193 154.088 0.588007 47.1521 0.578834 47.2513 0.703294 154.749
3.5E+09 0.726609 153.628 0.592801 46.8406 0.584051 47.0146 0.700198 154.41
3.55E+09 0.721629 153.373 0.600226 46.4369 0.591712 46.5425 0.695247 153.987
3.6E+09 0.720928 152.611 0.607577 46.1025 0.597256 46.4422 0.689505 153.515
3.65E+09 0.713697 152.28 0.613399 45.7099 0.603285 45.8483 0.686638 152.587
3.7E+09 0.709919 151.687 0.620886 45.3524 0.611388 45.7076 0.682819 152.604
3.75E+09 0.704421 151.04 0.625645 45.0645 0.61704 45.4419 0.676714 152.018
3.8E+09 0.700121 150.524 0.631483 44.6583 0.623678 45.003 0.673847 151.339
3.85E+09 0.694598 150.02 0.6376 44.3622 0.627289 44.5865 0.667944 150.766
3.9E+09 0.692105 149.359 0.643263 44.0607 0.634196 44.2638 0.666762 150.546
3.95E+09 0.684949 149.05 0.649699 43.5744 0.63846 44.0284 0.657627 149.73
4E+09 0.681974 148.49 0.654379 43.0654 0.647129 43.5914 0.656798 149.392
4.05E+09 0.678563 147.776 0.661116 42.8067 0.651377 43.3114 0.651343 148.874
4.1E+09 0.674103 147.354 0.665943 42.431 0.656647 42.9192 0.646137 148.296
4.15E+09 0.6685 147.076 0.671371 42.1518 0.662457 42.6819 0.643321 147.841
4.2E+09 0.663376 146.378 0.677528 41.8855 0.669291 42.3126 0.635929 147.382
4.25E+09 0.661634 145.834 0.682032 41.5808 0.673163 41.9933 0.633463 146.64
4.3E+09 0.652395 145.502 0.686975 41.1454 0.677505 41.5154 0.629516 146.026
4.35E+09 0.649867 144.595 0.692508 40.8682 0.685838 41.4924 0.624775 146.049
4.4E+09 0.647824 144.526 0.696746 40.4554 0.688512 41.0084 0.621526 145.462
4.45E+09 0.642332 143.646 0.700466 40.0641 0.693592 40.7393 0.615949 144.858
4.5E+09 0.63847 143.131 0.707316 39.6985 0.699276 40.4041 0.612879 144.388
4.55E+09 0.634558 142.819 0.71259 39.5047 0.702235 40.2985 0.607068 144.057
4.6E+09 0.632296 142.264 0.717257 39.132 0.709118 39.6846 0.604869 143.334
4.65E+09 0.627325 141.611 0.721034 38.7745 0.713931 39.333 0.602195 143.062
4.7E+09 0.625245 141.055 0.726059 38.238 0.715045 39.1189 0.599113 142.259
4.75E+09 0.619194 140.822 0.729271 38.0058 0.721992 38.7778 0.591603 141.832
4.8E+09 0.614118 140.196 0.733883 37.644 0.7261 38.3104 0.591468 141.372
4.85E+09 0.610523 139.665 0.73983 37.4043 0.731568 38.2393 0.586062 141.076
4.9E+09 0.605973 139.51 0.741397 37.0676 0.736241 37.75 0.583488 140.478
4.95E+09 0.602413 138.719 0.746456 36.7694 0.740588 37.5049 0.579788 139.888
5E+09 0.597127 138.231 0.75129 36.341 0.74463 37.1593 0.578084 139.334
5.05E+09 0.596127 137.864 0.754045 36.1397 0.747389 37.0118 0.573367 138.675
5.1E+09 0.592837 137.384 0.758047 35.846 0.752177 36.6864 0.573276 138.172
5.15E+09 0.586607 136.696 0.763177 35.5014 0.755998 36.3845 0.567525 137.838
5.2E+09 0.585697 136.49 0.765596 35.2903 0.758998 36.0897 0.566561 137.171
5.25E+09 0.581865 135.913 0.769342 34.8431 0.764275 35.7327 0.561877 136.827
5.3E+09 0.580253 135.125 0.772537 34.6229 0.769308 35.5871 0.55985 136.602
5.35E+09 0.577368 134.818 0.775756 34.2541 0.771397 35.1176 0.558299 136.013
5.4E+09 0.575055 134.384 0.780285 34.0356 0.775061 34.9408 0.553091 135.334
5.45E+09 0.570077 133.786 0.783174 33.6979 0.778021 34.4712 0.553058 135.031
5.5E+09 0.565013 133.211 0.787873 33.3666 0.782422 34.1971 0.549251 134.571
5.55E+09 0.563544 132.949 0.790102 33.0315 0.784704 33.9268 0.547463 133.669
5.6E+09 0.558114 132.498 0.793893 32.7969 0.790093 33.6994 0.542679 133.657
5.65E+09 0.55417 132 0.796097 32.4785 0.792643 33.3987 0.541246 133.19
5.7E+09 0.553408 132.067 0.799265 31.9923 0.793181 32.9914 0.537532 132.697
5.75E+09 0.551268 131.139 0.803618 31.9364 0.798714 32.8418 0.537355 132.431
5.8E+09 0.54563 130.776 0.805545 31.532 0.800717 32.5098 0.533254 131.708
5.85E+09 0.545835 130.422 0.807281 31.3572 0.805929 32.3027 0.530573 131.373
5.9E+09 0.540183 130.112 0.810141 31.0062 0.809964 31.8773 0.52928 130.992
5.95E+09 0.535093 129.816 0.813981 30.5285 0.813224 31.687 0.524257 130.419
6E+09 0.534486 129.066 0.816486 30.2282 0.816859 31.2999 0.521916 130.133
