! Created by janssen on Wed Jul 24 12:32:27 METDST 2002
# HZ S MA R 50
5E+07 0.855441 -179.685 0.14461 -0.442943 0.144266 -1.17016 0.856551 -179.693
1E+08 0.85846 179.899 0.14121 3.25034 0.141381 3.05629 0.858398 179.827
1.5E+08 0.858916 179.501 0.141319 6.75265 0.141038 6.83657 0.858232 179.427
2E+08 0.858608 179.156 0.142354 10.4111 0.141918 10.2329 0.858082 179.137
2.5E+08 0.858937 178.924 0.143163 13.294 0.143922 13.2002 0.857344 178.852
3E+08 0.857817 178.62 0.146636 16.5337 0.146162 16.5508 0.858412 178.583
3.5E+08 0.857798 178.225 0.149861 19.2622 0.149439 19.223 0.85615 178.25
4E+08 0.857321 178.029 0.153214 21.8738 0.152649 21.8503 0.855523 177.946
4.5E+08 0.85686 177.749 0.156234 24.314 0.156811 24.3996 0.854238 177.733
5E+08 0.855183 177.412 0.160845 26.7439 0.160687 26.6201 0.853584 177.503
5.5E+08 0.855626 177.234 0.165646 28.9106 0.165505 28.822 0.852856 177.151
6E+08 0.853635 176.898 0.170784 30.7079 0.169958 30.7286 0.850827 176.945
6.5E+08 0.853409 176.713 0.175886 32.7254 0.17537 32.3517 0.850469 176.621
7E+08 0.852521 176.404 0.181331 34.3199 0.181018 34.2376 0.848312 176.449
7.5E+08 0.850129 176.174 0.187273 36.0521 0.186346 35.6438 0.847054 176.115
8E+08 0.850237 175.95 0.193137 37.4279 0.192631 37.1471 0.844884 175.927
8.5E+08 0.850661 175.599 0.19931 38.5754 0.198385 38.5497 0.844454 175.786
9E+08 0.848762 175.274 0.206036 40.0796 0.204134 39.5482 0.843359 175.359
9.5E+08 0.846291 175.171 0.211939 40.8951 0.210802 40.7685 0.840869 175.215
1E+09 0.845656 174.686 0.218686 42.0516 0.216729 41.5934 0.840188 174.776
1.05E+09 0.845095 174.507 0.225663 42.9245 0.224861 42.8902 0.837905 174.552
1.1E+09 0.841537 174.203 0.23281 43.6105 0.231392 43.3735 0.835801 174.309
1.15E+09 0.841111 173.94 0.239102 44.3487 0.238569 44.1811 0.834791 174.039
1.2E+09 0.837752 173.608 0.24693 45.0093 0.245534 44.9722 0.832257 173.773
1.25E+09 0.837013 173.295 0.253034 45.8374 0.252827 45.3396 0.830505 173.367
1.3E+09 0.835626 173.064 0.260295 46.3174 0.260158 45.8266 0.828414 173.151
1.35E+09 0.834302 172.638 0.26854 46.5928 0.266801 46.6339 0.825618 172.862
1.4E+09 0.832289 172.366 0.275189 47.3441 0.275212 46.9679 0.823733 172.398
1.45E+09 0.829718 172.203 0.282511 47.4683 0.2808 47.2829 0.822001 172.254
1.5E+09 0.828729 171.858 0.290086 47.9409 0.288315 47.6177 0.817987 171.829
1.55E+09 0.828485 171.374 0.297641 48.3832 0.295455 48.0785 0.814352 171.575
1.6E+09 0.826291 171.267 0.305726 48.5462 0.303651 48.1616 0.813658 171.286
1.65E+09 0.821152 170.744 0.312644 48.8679 0.310502 48.2093 0.809525 170.998
1.7E+09 0.81945 170.383 0.320048 48.9572 0.318064 48.4579 0.806839 170.515
1.75E+09 0.816815 170.279 0.326367 48.974 0.326232 48.9003 0.805229 170.284
1.8E+09 0.815168 169.829 0.334472 49.1211 0.332485 49.119 0.803667 170.177
1.85E+09 0.813429 169.497 0.343263 49.2587 0.339524 49.0452 0.799035 169.703
1.9E+09 0.811624 169.096 0.349857 49.3735 0.347784 49.1499 0.795607 169.331
1.95E+09 0.808835 168.673 0.357266 49.4818 0.354509 49.2942 0.793124 169.025
2E+09 0.803806 168.176 0.365393 49.4866 0.362535 49.2102 0.789434 168.561
2.05E+09 0.801958 167.902 0.372329 49.4758 0.369994 49.3322 0.788482 168.351
2.1E+09 0.800273 167.611 0.380584 49.4555 0.377078 49.3407 0.785777 167.852
2.15E+09 0.795482 167.108 0.387127 49.5301 0.384272 49.3243 0.779236 167.443
2.2E+09 0.793512 166.776 0.395007 49.3862 0.39158 49.2572 0.778195 167.091
2.25E+09 0.791917 166.368 0.403114 49.4244 0.39932 49.2636 0.774317 166.7
2.3E+09 0.786743 166.047 0.409195 49.2223 0.406178 49.1118 0.770043 166.341
2.35E+09 0.787309 165.455 0.417631 49.247 0.414108 49.0032 0.765238 165.906
2.4E+09 0.783362 165.109 0.425239 49.0966 0.421479 49.112 0.762306 165.733
2.45E+09 0.776523 164.825 0.431428 48.9579 0.428157 48.7861 0.760409 165.158
2.5E+09 0.773219 164.636 0.439449 48.8483 0.435101 48.6837 0.757401 164.885
2.55E+09 0.771149 164.072 0.447681 48.6299 0.442698 48.6667 0.751041 164.545
2.6E+09 0.767076 163.569 0.454919 48.6059 0.450904 48.3753 0.748602 164.3
2.65E+09 0.765795 163.118 0.463623 48.2428 0.456666 48.3307 0.742853 163.829
2.7E+09 0.763567 162.804 0.469727 48.239 0.463399 48.1396 0.740694 163.364
2.75E+09 0.758693 162.117 0.478217 47.997 0.472979 48.0067 0.736542 162.832
2.8E+09 0.754117 161.861 0.484268 47.8989 0.47885 47.7863 0.731471 162.495
2.85E+09 0.752112 161.297 0.491452 47.5177 0.485071 47.5884 0.73038 161.807
2.9E+09 0.748043 160.883 0.498456 47.2938 0.49133 47.3271 0.722135 161.687
2.95E+09 0.744186 160.651 0.506768 47.2573 0.499658 46.9817 0.720078 160.978
3E+09 0.742336 160.021 0.513853 46.9088 0.507112 46.8373 0.718145 160.608
3.05E+09 0.725266 158.7 0.517024 46.359 0.509994 46.6775 0.701774 160.073
3.1E+09 0.733559 159.11 0.52791 46.3935 0.520711 46.4206 0.709982 159.817
3.15E+09 0.729236 158.68 0.534788 46.0797 0.527852 46.2104 0.707529 159.411
3.2E+09 0.725278 158.131 0.542063 45.9312 0.533925 45.7833 0.699381 158.798
3.25E+09 0.719834 157.701 0.547202 45.6344 0.540314 45.7382 0.697518 158.368
3.3E+09 0.715524 157.072 0.554966 45.2163 0.548994 45.5485 0.691891 157.808
3.35E+09 0.70967 156.539 0.562634 44.9543 0.554195 45.1814 0.692415 157.399
3.4E+09 0.711125 156.049 0.568419 44.7696 0.55997 45.0009 0.686583 157.119
3.45E+09 0.706776 155.584 0.576589 44.3585 0.566012 44.6323 0.679879 156.289
3.5E+09 0.702134 155.164 0.580558 44.1097 0.57341 44.3887 0.675185 155.943
3.55E+09 0.697822 154.886 0.587006 43.9679 0.579306 43.9335 0.672917 155.443
3.6E+09 0.698202 154.179 0.594773 43.6066 0.584082 43.8886 0.667259 155.125
3.65E+09 0.689672 153.839 0.599491 43.2735 0.591271 43.4443 0.663014 154.118
3.7E+09 0.686917 153.357 0.60661 43.0109 0.598098 43.3557 0.660442 154.184
3.75E+09 0.680832 152.649 0.61347 42.6958 0.604229 42.9888 0.65512 153.523
3.8E+09 0.677369 152.123 0.617625 42.3854 0.610851 42.7819 0.653147 152.849
3.85E+09 0.672619 151.548 0.623624 42.0634 0.614391 42.2987 0.645948 152.42
3.9E+09 0.669619 151.076 0.62941 41.8714 0.622193 42.181 0.645406 152.097
3.95E+09 0.664158 150.651 0.63586 41.4867 0.625556 41.9211 0.63615 151.246
4E+09 0.661093 150.124 0.640767 41.0927 0.633629 41.5565 0.636216 150.959
4.05E+09 0.657615 149.399 0.645717 40.8464 0.639508 41.2829 0.630402 150.556
4.1E+09 0.652843 148.901 0.652145 40.4099 0.643672 40.9623 0.626596 149.97
4.15E+09 0.649094 148.646 0.657562 40.2461 0.64881 40.7858 0.623977 149.421
4.2E+09 0.643545 147.897 0.66318 40.0137 0.655225 40.4007 0.617036 148.93
4.25E+09 0.642015 147.511 0.667378 39.6584 0.660527 40.0398 0.614545 148.303
4.3E+09 0.634164 147.186 0.673299 39.2666 0.664998 39.6597 0.611507 147.642
4.35E+09 0.631256 146.295 0.679411 38.972 0.67255 39.6991 0.607687 147.563
4.4E+09 0.631499 146.169 0.682348 38.7763 0.674753 39.2571 0.604057 147
4.45E+09 0.625079 145.363 0.687731 38.5201 0.680664 39.0384 0.598597 146.449
4.5E+09 0.621528 144.831 0.693029 38.1294 0.685403 38.7597 0.594911 145.997
4.55E+09 0.617352 144.57 0.697589 37.9967 0.688565 38.6417 0.590568 145.647
4.6E+09 0.615367 143.847 0.701953 37.5875 0.694961 38.1664 0.588079 144.858
4.65E+09 0.610708 143.35 0.708478 37.1811 0.700705 37.8289 0.585073 144.725
4.7E+09 0.608223 142.755 0.712366 36.7958 0.70168 37.5842 0.582183 143.871
4.75E+09 0.603994 142.539 0.714608 36.5849 0.708295 37.4011 0.575374 143.494
4.8E+09 0.597835 141.892 0.7199 36.3048 0.713798 36.9464 0.575565 143.177
4.85E+09 0.595013 141.215 0.725349 36.0479 0.716855 36.8063 0.571494 142.674
4.9E+09 0.591626 141.183 0.728678 35.728 0.72295 36.3218 0.568909 142
4.95E+09 0.588431 140.343 0.73229 35.4028 0.726496 36.1019 0.566586 141.33
5E+09 0.583122 139.886 0.737339 35.0191 0.731061 35.8749 0.564626 141.008
5.05E+09 0.582873 139.527 0.739873 34.8339 0.734682 35.7715 0.558414 140.352
5.1E+09 0.578509 138.984 0.743924 34.5216 0.738016 35.3326 0.559605 139.783
5.15E+09 0.57327 138.16 0.749302 34.2318 0.741795 35.147 0.55416 139.463
5.2E+09 0.57156 138.086 0.752499 34.0279 0.745367 35.0388 0.551861 138.568
5.25E+09 0.56955 137.515 0.755336 33.734 0.750045 34.4678 0.549752 138.39
5.3E+09 0.566574 136.861 0.759428 33.5229 0.75564 34.3795 0.546979 138.18
5.35E+09 0.565298 136.439 0.762738 33.1345 0.758095 33.9899 0.545208 137.414
5.4E+09 0.56243 136.104 0.766765 32.9444 0.761157 33.9183 0.54109 136.936
5.45E+09 0.557176 135.458 0.770293 32.6635 0.764623 33.4039 0.5404 136.447
5.5E+09 0.55311 134.939 0.774739 32.2548 0.770109 33.16 0.536998 136.184
5.55E+09 0.550422 134.53 0.776692 31.9766 0.770904 32.8802 0.53548 135.218
5.6E+09 0.545293 134.06 0.782472 31.7384 0.776987 32.6438 0.530841 135.178
5.65E+09 0.542392 133.565 0.783455 31.5283 0.779233 32.3887 0.5286 134.626
5.7E+09 0.541247 133.536 0.786507 31.033 0.780737 32.0932 0.52684 134.231
5.75E+09 0.540876 132.689 0.789853 30.992 0.784484 31.8625 0.525259 133.907
5.8E+09 0.535426 132.291 0.791498 30.645 0.788925 31.6391 0.522247 133.189
5.85E+09 0.534988 131.796 0.795727 30.3651 0.790995 31.4875 0.519486 132.82
5.9E+09 0.53049 131.455 0.796795 30.2014 0.79671 31.0151 0.519146 132.409
5.95E+09 0.525792 131.206 0.800205 29.6749 0.80087 30.7792 0.51345 131.907
6E+09 0.525283 130.595 0.803527 29.3714 0.803591 30.4047 0.511714 131.551
