! Created by janssen on Wed Jul 24 12:32:06 METDST 2002
# HZ S MA R 50
5E+07 0.497439 -176.591 0.505347 -3.17142 0.504336 -3.24125 0.49803 -176.562
1E+08 0.50861 -177.408 0.49294 -2.10657 0.492357 -2.14291 0.508441 -177.449
1.5E+08 0.512519 -177.87 0.487586 -1.45174 0.486217 -1.5132 0.512354 -177.898
2E+08 0.514795 -178.191 0.484307 -0.792906 0.483648 -0.86747 0.514748 -178.15
2.5E+08 0.517419 -178.319 0.481739 -0.332497 0.481727 -0.395538 0.516595 -178.31
3E+08 0.517782 -178.455 0.480732 0.159743 0.479592 0.0992424 0.518331 -178.485
3.5E+08 0.519244 -178.676 0.480224 0.616657 0.480007 0.492263 0.518311 -178.607
4E+08 0.520353 -178.726 0.479056 1.12088 0.478538 1.05595 0.519034 -178.781
4.5E+08 0.520277 -178.825 0.47848 1.50224 0.478141 1.37806 0.519039 -178.797
5E+08 0.520698 -178.935 0.478129 1.96323 0.477243 1.79275 0.519039 -178.869
5.5E+08 0.521613 -178.997 0.478021 2.3723 0.478056 2.29962 0.519604 -178.973
6E+08 0.520805 -179.057 0.477498 2.7246 0.476708 2.61869 0.519463 -178.978
6.5E+08 0.521473 -179.065 0.478594 3.15493 0.477716 2.9658 0.519913 -179.027
7E+08 0.520955 -179.144 0.478575 3.5777 0.478216 3.45381 0.519331 -179.025
7.5E+08 0.52021 -179.128 0.479043 3.95293 0.478108 3.70878 0.519012 -179.133
8E+08 0.521135 -179.186 0.47938 4.27461 0.47878 4.14619 0.517766 -179.15
8.5E+08 0.521207 -179.224 0.480102 4.55127 0.478959 4.37258 0.51762 -179.06
9E+08 0.520765 -179.386 0.480733 5.01924 0.479985 4.77264 0.517715 -179.272
9.5E+08 0.519937 -179.274 0.481639 5.38511 0.48141 5.1333 0.516915 -179.234
1E+09 0.519487 -179.549 0.483239 5.76567 0.481918 5.45217 0.517053 -179.337
1.05E+09 0.520124 -179.504 0.483585 6.05587 0.483067 6.0206 0.51537 -179.287
1.1E+09 0.518143 -179.523 0.484577 6.40281 0.484225 6.28469 0.515122 -179.412
1.15E+09 0.517552 -179.545 0.485404 6.79224 0.484946 6.64046 0.51459 -179.424
1.2E+09 0.516604 -179.628 0.487106 6.89735 0.48556 6.80661 0.513783 -179.418
1.25E+09 0.517041 -179.769 0.487371 7.34652 0.487181 7.14318 0.512154 -179.586
1.3E+09 0.515977 -179.753 0.489336 7.60075 0.487895 7.4385 0.511007 -179.569
1.35E+09 0.514773 179.972 0.490993 7.97438 0.489685 7.9174 0.510228 -179.73
1.4E+09 0.514496 179.948 0.492486 8.36212 0.491367 8.15032 0.509028 -179.826
1.45E+09 0.513195 -179.989 0.493781 8.58768 0.492353 8.37422 0.509373 -179.824
1.5E+09 0.513669 179.845 0.495171 8.8684 0.493756 8.80812 0.507513 -179.982
1.55E+09 0.513226 179.665 0.496768 9.29722 0.494572 8.99867 0.505707 179.988
1.6E+09 0.512249 179.729 0.497912 9.51631 0.496345 9.27087 0.50534 179.837
1.65E+09 0.510195 179.493 0.499681 9.81278 0.498443 9.50143 0.502328 179.855
1.7E+09 0.50882 179.344 0.503204 10.0434 0.500443 9.77586 0.501921 179.62
1.75E+09 0.508908 179.453 0.503274 10.2327 0.502021 10.2061 0.501843 179.581
1.8E+09 0.50807 179.251 0.50557 10.6059 0.503471 10.3984 0.502023 179.752
1.85E+09 0.507097 179.202 0.507584 10.9656 0.504731 10.6502 0.49905 179.456
1.9E+09 0.506436 179.044 0.510622 11.0519 0.507834 10.856 0.496899 179.299
1.95E+09 0.505922 178.873 0.511196 11.3719 0.508774 11.2416 0.495757 179.278
2E+09 0.503529 178.53 0.513685 11.6381 0.511317 11.4085 0.494708 178.901
2.05E+09 0.502009 178.483 0.516095 11.9048 0.512985 11.6529 0.494565 179.026
2.1E+09 0.502665 178.378 0.517941 12.098 0.514702 11.9674 0.493074 178.73
2.15E+09 0.499896 178.178 0.519274 12.3145 0.51708 12.246 0.488942 178.545
2.2E+09 0.499412 178.002 0.522088 12.5334 0.518865 12.3812 0.489286 178.335
2.25E+09 0.498804 177.844 0.523848 12.7773 0.521737 12.6633 0.486926 178.209
2.3E+09 0.49573 177.802 0.525546 13.001 0.522895 12.8387 0.48555 178.051
2.35E+09 0.497654 177.426 0.529033 13.2786 0.525479 13.0916 0.48237 177.982
2.4E+09 0.494765 177.255 0.530607 13.424 0.527722 13.3409 0.481557 177.907
2.45E+09 0.491883 177.308 0.532942 13.5987 0.529935 13.448 0.480637 177.471
2.5E+09 0.48967 177.218 0.536121 13.7416 0.532622 13.6189 0.48056 177.502
2.55E+09 0.488672 176.734 0.537814 14.0212 0.533953 13.9693 0.476335 177.328
2.6E+09 0.488233 176.65 0.540714 14.3717 0.538252 14.1257 0.475536 177.355
2.65E+09 0.486886 176.364 0.545594 14.4756 0.538221 14.3373 0.471913 177.132
2.7E+09 0.488605 176.179 0.545557 14.5513 0.540791 14.3712 0.472257 176.86
2.75E+09 0.482991 175.703 0.548139 14.7795 0.545074 14.6282 0.471405 176.514
2.8E+09 0.482926 175.718 0.550778 15.0023 0.547761 14.8471 0.467571 176.488
2.85E+09 0.482432 175.268 0.555591 15.0174 0.54962 14.8657 0.467355 175.923
2.9E+09 0.47936 175.199 0.55698 15.3499 0.551734 15.2078 0.463171 175.942
2.95E+09 0.479433 175.148 0.559186 15.4249 0.554951 15.1363 0.462811 175.608
3E+09 0.478892 174.669 0.56284 15.6499 0.557954 15.4527 0.463177 175.255
3.05E+09 0.46955 173.654 0.563556 15.4013 0.556827 15.4695 0.45465 175.004
3.1E+09 0.473646 174.303 0.566752 15.8426 0.562544 15.7385 0.458198 174.971
3.15E+09 0.472457 173.88 0.570934 15.9466 0.565002 15.8681 0.457509 174.689
3.2E+09 0.47183 173.749 0.57487 16.115 0.56952 16.0486 0.454179 174.204
3.25E+09 0.469802 173.57 0.57544 16.2645 0.568961 16.1472 0.452735 173.975
3.3E+09 0.467551 172.872 0.579609 16.1292 0.574518 16.2075 0.448986 173.479
3.35E+09 0.463027 172.671 0.581927 16.3823 0.575841 16.1835 0.451572 173.195
3.4E+09 0.467053 172.286 0.585614 16.4069 0.578959 16.5889 0.448973 173.251
3.45E+09 0.464184 171.99 0.589276 16.4902 0.582433 16.4382 0.443591 172.594
3.5E+09 0.462856 171.69 0.589524 16.645 0.584093 16.6796 0.444032 172.306
3.55E+09 0.460224 171.638 0.59307 16.8157 0.587042 16.6794 0.442075 172.009
3.6E+09 0.462586 171.106 0.597034 16.862 0.589684 16.7616 0.440112 171.715
3.65E+09 0.458586 170.931 0.599147 16.9334 0.592434 16.8316 0.439056 170.942
3.7E+09 0.456909 170.554 0.602165 16.9983 0.596835 17.0637 0.437637 171.258
3.75E+09 0.456381 170.009 0.606047 17.1092 0.597955 17.1506 0.434743 170.699
3.8E+09 0.453615 169.66 0.60745 17.0256 0.602243 17.223 0.434111 170.109
3.85E+09 0.451488 169.199 0.610647 17.1616 0.604458 17.2494 0.431499 169.793
3.9E+09 0.451666 168.745 0.613296 17.2532 0.6071 17.2514 0.432725 169.764
3.95E+09 0.448721 168.436 0.616151 17.2087 0.609433 17.2343 0.426548 168.738
4E+09 0.448123 168.09 0.618929 17.2305 0.61278 17.4093 0.429454 168.666
4.05E+09 0.447356 167.341 0.622337 17.3708 0.616629 17.5079 0.425629 168.289
4.1E+09 0.446241 167.037 0.624875 17.3707 0.616993 17.4724 0.422969 167.828
4.15E+09 0.443851 166.882 0.62777 17.4617 0.620175 17.6944 0.42304 167.351
4.2E+09 0.440908 166.097 0.62906 17.5342 0.62408 17.6515 0.420075 167.078
4.25E+09 0.440622 166.032 0.632165 17.5343 0.627183 17.7107 0.42006 166.185
4.3E+09 0.437408 165.684 0.634955 17.4961 0.628919 17.7328 0.417582 165.548
4.35E+09 0.437707 164.725 0.638745 17.6012 0.632868 17.9576 0.415928 165.914
4.4E+09 0.437436 164.701 0.640676 17.6257 0.635156 17.8359 0.41578 165.233
4.45E+09 0.436054 163.985 0.642257 17.6299 0.637432 17.9342 0.412792 164.669
4.5E+09 0.432728 163.48 0.647054 17.5611 0.640629 17.8604 0.41026 164.251
4.55E+09 0.431846 163.286 0.648935 17.6555 0.641756 17.9253 0.409519 163.776
4.6E+09 0.431743 162.707 0.651599 17.7799 0.645376 17.9579 0.40862 163.328
4.65E+09 0.431044 162.12 0.655097 17.6023 0.648645 17.9232 0.408098 163.186
4.7E+09 0.430603 161.643 0.658529 17.5079 0.649184 18.0116 0.40705 162.252
4.75E+09 0.429189 161.324 0.658602 17.6611 0.653231 18.0722 0.403125 162.092
4.8E+09 0.426134 160.939 0.663636 17.5567 0.656071 18.0072 0.404728 161.389
4.85E+09 0.424296 160.132 0.666019 17.6323 0.658856 18.1102 0.402121 161.174
4.9E+09 0.423733 160.186 0.667386 17.6115 0.662416 17.8632 0.402897 160.445
4.95E+09 0.422832 159.49 0.669855 17.6449 0.664692 18.1223 0.401088 159.844
5E+09 0.420301 158.702 0.673784 17.5836 0.667597 18.0467 0.402212 159.398
5.05E+09 0.422051 158.247 0.674586 17.6972 0.669229 18.1584 0.397647 158.767
5.1E+09 0.42108 157.794 0.677797 17.6189 0.671773 18.0681 0.400621 158.257
5.15E+09 0.416932 157.276 0.681545 17.5401 0.674281 18.1309 0.397641 157.818
5.2E+09 0.419669 156.919 0.683323 17.6919 0.676114 18.1476 0.39688 156.93
5.25E+09 0.418502 156.381 0.684983 17.4308 0.680566 18.0624 0.396778 156.729
5.3E+09 0.417432 155.541 0.688454 17.6223 0.683939 18.1325 0.396297 156.475
5.35E+09 0.416764 155.12 0.689491 17.4908 0.685065 17.9775 0.396751 155.705
5.4E+09 0.416978 154.816 0.692895 17.4847 0.687762 18.1553 0.394154 155.071
5.45E+09 0.413588 154.108 0.695928 17.461 0.690102 17.9351 0.395298 154.492
5.5E+09 0.410666 153.509 0.698081 17.4433 0.693613 17.9926 0.393842 154.324
5.55E+09 0.410942 153.134 0.700659 17.3025 0.694875 17.9014 0.392006 152.955
5.6E+09 0.409252 152.593 0.703186 17.3661 0.698124 17.8673 0.390493 153.224
5.65E+09 0.408298 152.231 0.704983 17.3669 0.700973 17.8171 0.391586 152.771
5.7E+09 0.410747 152.177 0.708493 17.1424 0.701844 17.8034 0.391049 152.082
5.75E+09 0.410338 151.152 0.711207 17.2541 0.703936 17.8862 0.391536 151.533
5.8E+09 0.407107 150.747 0.712407 17.0623 0.707282 17.7279 0.389309 150.994
5.85E+09 0.409135 149.814 0.714599 17.1532 0.709596 17.8389 0.387364 150.543
5.9E+09 0.407144 149.81 0.715272 17.0632 0.714155 17.6516 0.390548 149.96
5.95E+09 0.402964 149.452 0.718891 16.9696 0.715706 17.7052 0.387687 149.619
6E+09 0.40517 148.655 0.720991 16.8737 0.719397 17.597 0.387854 149.192
