! Created by janssen on Wed Jul 24 12:31:26 METDST 2002
# HZ S MA R 50
5E+07 0.00582223 -88.6017 1.00029 -0.293783 0.999547 -0.369658 0.00541035 -99.0352
1E+08 0.0103378 -103.764 0.998812 -0.43008 0.997783 -0.438167 0.00986336 -99.0253
1.5E+08 0.0136809 -104.089 0.99692 -0.534176 0.996359 -0.546549 0.0142388 -102.951
2E+08 0.0169203 -105.062 0.994841 -0.619138 0.995011 -0.602696 0.0169342 -106.464
2.5E+08 0.020619 -107.678 0.99316 -0.692165 0.993647 -0.717251 0.0210984 -105.8
3E+08 0.0232199 -105.953 0.992127 -0.717112 0.992388 -0.747233 0.0233351 -106.736
3.5E+08 0.0266335 -107.082 0.991933 -0.762077 0.991159 -0.818948 0.0253521 -106.876
4E+08 0.0286416 -108.099 0.99064 -0.804561 0.990296 -0.82648 0.0290808 -106.75
4.5E+08 0.0309672 -106.132 0.989592 -0.814849 0.989584 -0.887403 0.0308284 -105.865
5E+08 0.0334066 -106.544 0.989117 -0.856168 0.988347 -0.874455 0.0329597 -107.318
5.5E+08 0.035457 -107.194 0.988655 -0.890707 0.988825 -0.92199 0.0357606 -105.828
6E+08 0.0389435 -104.851 0.987977 -0.933451 0.987782 -0.969588 0.0378572 -104.899
6.5E+08 0.0404165 -104.585 0.987863 -0.978558 0.987317 -1.00166 0.0403047 -105.131
7E+08 0.0428033 -104.918 0.986825 -0.982035 0.986795 -1.0235 0.043856 -103.764
7.5E+08 0.0456315 -103.551 0.987707 -1.00097 0.987048 -1.08098 0.0447132 -103.519
8E+08 0.0478012 -103.946 0.986475 -1.07716 0.986401 -1.07917 0.0476986 -101.512
8.5E+08 0.0504321 -102.351 0.986306 -1.08252 0.986991 -1.12227 0.0507251 -101.512
9E+08 0.0529718 -102.457 0.986056 -1.12191 0.985493 -1.19385 0.0523345 -102.041
9.5E+08 0.0558506 -102.212 0.987277 -1.1358 0.986749 -1.19166 0.0549309 -101.84
1E+09 0.0575104 -100.951 0.985632 -1.15516 0.986254 -1.26926 0.0584412 -100.24
1.05E+09 0.0601217 -102.323 0.986391 -1.24765 0.986679 -1.22252 0.0597737 -100.903
1.1E+09 0.0621885 -100.498 0.985664 -1.30125 0.986337 -1.28846 0.061212 -99.5897
1.15E+09 0.0639282 -99.9888 0.985399 -1.3075 0.985871 -1.33799 0.0633 -98.6884
1.2E+09 0.0661995 -99.865 0.985798 -1.42097 0.986195 -1.3562 0.0659861 -98.5549
1.25E+09 0.0692645 -99.4442 0.986535 -1.39347 0.985694 -1.42459 0.0684743 -99.0207
1.3E+09 0.0718163 -99.3279 0.985936 -1.45776 0.985976 -1.50742 0.0711402 -97.7398
1.35E+09 0.0718097 -99.3011 0.986018 -1.47737 0.985968 -1.54763 0.0716145 -97.1235
1.4E+09 0.0745676 -98.4088 0.985381 -1.48871 0.986074 -1.5138 0.073755 -96.5804
1.45E+09 0.0767824 -98.1379 0.985843 -1.60041 0.985859 -1.57422 0.0760233 -97.593
1.5E+09 0.0790985 -98.7244 0.985446 -1.5845 0.985217 -1.61264 0.0777681 -96.5533
1.55E+09 0.0818805 -98.6361 0.985474 -1.65561 0.984882 -1.6693 0.08007 -95.8643
1.6E+09 0.0838234 -98.034 0.985331 -1.72285 0.985131 -1.69301 0.0819241 -95.9714
1.65E+09 0.0844909 -97.9853 0.985087 -1.74545 0.984883 -1.76912 0.0833507 -94.7044
1.7E+09 0.0861736 -97.2504 0.985928 -1.77189 0.985814 -1.75586 0.0841156 -96.0862
1.75E+09 0.0891526 -97.3686 0.985189 -1.79514 0.985401 -1.84144 0.087081 -95.8568
1.8E+09 0.0900798 -96.8836 0.985548 -1.87995 0.984408 -1.89065 0.0900782 -95.346
1.85E+09 0.0923915 -96.2882 0.985349 -1.92444 0.984878 -1.9418 0.091145 -94.6706
1.9E+09 0.0945704 -96.9032 0.985986 -1.9342 0.985569 -1.97517 0.0928492 -94.53
1.95E+09 0.0964037 -96.6468 0.98526 -1.96943 0.985569 -1.98795 0.0945975 -94.2354
2E+09 0.0952089 -96.4081 0.984851 -2.02853 0.984931 -2.03884 0.0947496 -94.5476
2.05E+09 0.0985734 -96.4286 0.984978 -2.05563 0.985566 -2.11268 0.0985113 -94.4042
2.1E+09 0.100367 -96.7145 0.986192 -2.13012 0.984743 -2.14527 0.0986142 -94.3863
2.15E+09 0.10119 -96.464 0.984737 -2.1613 0.985336 -2.20857 0.0999553 -93.5565
2.2E+09 0.102652 -96.4246 0.984293 -2.16477 0.984747 -2.21656 0.10127 -93.529
2.25E+09 0.104226 -96.1292 0.985029 -2.24589 0.985218 -2.23285 0.103308 -92.7859
2.3E+09 0.105887 -94.9994 0.984949 -2.27113 0.984518 -2.28994 0.104039 -93.4043
2.35E+09 0.108395 -96.6051 0.984946 -2.3385 0.985057 -2.39069 0.105164 -92.4569
2.4E+09 0.108952 -95.7907 0.9835 -2.3847 0.984692 -2.39848 0.108362 -92.5093
2.45E+09 0.109904 -94.6726 0.985536 -2.41901 0.98324 -2.56533 0.10804 -92.7318
2.5E+09 0.112595 -94.6132 0.984388 -2.39663 0.983834 -2.47176 0.110984 -93.1018
2.55E+09 0.111824 -95.0073 0.984414 -2.45565 0.984354 -2.46895 0.111466 -92.2005
2.6E+09 0.11412 -94.8403 0.985115 -2.44328 0.986184 -2.5364 0.112997 -92.441
2.65E+09 0.116334 -95.8606 0.986701 -2.50654 0.984144 -2.57301 0.113545 -91.0435
2.7E+09 0.11722 -96.4737 0.983653 -2.54918 0.983538 -2.61496 0.115608 -92.1801
2.75E+09 0.115798 -96.0353 0.984156 -2.59702 0.983188 -2.7592 0.115369 -92.1347
2.8E+09 0.119019 -96.3732 0.984113 -2.6642 0.985028 -2.79658 0.117871 -91.9599
2.85E+09 0.118741 -96.4319 0.984956 -2.75164 0.98357 -2.77391 0.116476 -92.259
2.9E+09 0.12047 -95.5223 0.983384 -2.71214 0.984857 -2.79289 0.118035 -91.4788
2.95E+09 0.124371 -96.3889 0.984606 -2.78456 0.984636 -2.82771 0.118003 -92.2245
3E+09 0.120964 -95.4429 0.985122 -2.8181 0.985092 -2.86686 0.118789 -92.0316
3.05E+09 0.122659 -95.6031 0.984765 -2.93639 0.983995 -2.93933 0.120363 -91.4892
3.1E+09 0.125058 -95.258 0.984151 -2.89646 0.983572 -2.98973 0.121133 -91.8691
3.15E+09 0.125317 -95.5508 0.984281 -2.88737 0.983976 -3.03509 0.120252 -92.2529
3.2E+09 0.126342 -95.3891 0.985202 -2.93392 0.983942 -2.94867 0.119939 -91.1579
3.25E+09 0.129134 -96.0493 0.983477 -2.96881 0.982969 -3.08716 0.121442 -91.1451
3.3E+09 0.126484 -95.9923 0.984789 -3.0537 0.98322 -3.0893 0.120169 -90.4103
3.35E+09 0.126618 -95.7961 0.983594 -3.07364 0.982851 -3.16156 0.122614 -92.2022
3.4E+09 0.127734 -96.7751 0.984619 -3.14309 0.983152 -3.11202 0.123345 -91.0082
3.45E+09 0.128055 -96.302 0.984835 -3.10277 0.984846 -3.25529 0.12245 -89.9685
3.5E+09 0.128634 -96.8046 0.984264 -3.14971 0.98359 -3.3069 0.123429 -92.1435
3.55E+09 0.132383 -96.7139 0.983332 -3.2318 0.983379 -3.37293 0.122735 -91.7152
3.6E+09 0.130899 -97.8223 0.984205 -3.16945 0.983711 -3.39243 0.123698 -91.3693
3.65E+09 0.130804 -97.1977 0.983296 -3.30457 0.983507 -3.44043 0.122094 -91.8303
3.7E+09 0.132298 -97.5694 0.984768 -3.38843 0.98393 -3.44194 0.125244 -91.8592
3.75E+09 0.130739 -98.916 0.984003 -3.33247 0.984172 -3.48548 0.123616 -91.2988
3.8E+09 0.128944 -97.6023 0.983708 -3.39645 0.984187 -3.54579 0.12355 -92.6847
3.85E+09 0.130099 -97.9766 0.983335 -3.39449 0.983823 -3.53155 0.122391 -91.8027
3.9E+09 0.12971 -98.7759 0.982317 -3.50282 0.983042 -3.59029 0.1239 -92.8579
3.95E+09 0.128834 -98.7655 0.984763 -3.51163 0.983902 -3.6813 0.121384 -92.0335
4E+09 0.128647 -97.5158 0.983639 -3.59973 0.982887 -3.70507 0.122811 -93.2902
4.05E+09 0.125519 -98.6938 0.984129 -3.65216 0.981628 -3.68273 0.120894 -92.5812
4.1E+09 0.126063 -98.8842 0.984689 -3.70901 0.982955 -3.76514 0.120013 -92.7926
4.15E+09 0.126915 -99.3968 0.983921 -3.72639 0.982288 -3.79071 0.119012 -93.4725
4.2E+09 0.124823 -99.2008 0.982804 -3.63886 0.982132 -3.91446 0.120477 -92.7722
4.25E+09 0.125875 -99.5787 0.982198 -3.74853 0.982707 -3.90644 0.116765 -93.9517
4.3E+09 0.123918 -99.2247 0.984106 -3.85778 0.982651 -3.90851 0.113362 -93.7082
4.35E+09 0.122616 -99.7147 0.984132 -3.85592 0.983067 -3.99747 0.119246 -93.4854
4.4E+09 0.126822 -100.407 0.982367 -3.85685 0.982124 -3.96053 0.116171 -93.8037
4.45E+09 0.121553 -100.851 0.983258 -3.98807 0.981141 -4.00057 0.116219 -94.1652
4.5E+09 0.122938 -100.348 0.983494 -3.9976 0.982887 -4.11665 0.115261 -92.677
4.55E+09 0.121964 -101.929 0.98288 -4.02386 0.982795 -4.18772 0.112247 -93.213
4.6E+09 0.121393 -101.398 0.982948 -4.0739 0.981278 -4.11954 0.112123 -94.3936
4.65E+09 0.11996 -102.011 0.983732 -4.10625 0.982318 -4.24753 0.114572 -94.8793
4.7E+09 0.120417 -102.822 0.983029 -4.15914 0.980394 -4.29818 0.109456 -94.3382
4.75E+09 0.118224 -102.041 0.982871 -4.23205 0.980724 -4.30783 0.111182 -93.6544
4.8E+09 0.118662 -102.934 0.983442 -4.22009 0.981687 -4.37581 0.108651 -95.5536
4.85E+09 0.116422 -103 0.984586 -4.15964 0.98117 -4.40686 0.108941 -95.571
4.9E+09 0.118568 -104.078 0.983593 -4.30225 0.982493 -4.4523 0.1078 -96.4559
4.95E+09 0.115769 -102.923 0.983341 -4.39568 0.981956 -4.47605 0.106644 -96.1369
5E+09 0.113172 -103.614 0.983233 -4.38017 0.983215 -4.52114 0.103426 -95.8049
5.05E+09 0.112602 -105.878 0.984007 -4.50961 0.980956 -4.57364 0.103418 -95.4776
5.1E+09 0.110421 -105.337 0.983298 -4.54556 0.98002 -4.55874 0.100476 -97.4919
5.15E+09 0.111217 -104.537 0.98255 -4.526 0.98076 -4.66254 0.100508 -97.5744
5.2E+09 0.108886 -105.377 0.982708 -4.48571 0.981154 -4.59128 0.0969251 -96.6777
5.25E+09 0.108037 -107.364 0.983647 -4.53038 0.98082 -4.74714 0.098226 -96.7428
5.3E+09 0.105752 -106.656 0.982805 -4.61106 0.9809 -4.77639 0.0973609 -98.7043
5.35E+09 0.10603 -108.502 0.983372 -4.67058 0.981065 -4.81769 0.0938591 -98.7198
5.4E+09 0.104199 -109.506 0.981948 -4.71786 0.979971 -4.83091 0.0928433 -98.3306
5.45E+09 0.103629 -108.181 0.982898 -4.81448 0.980274 -4.9181 0.0907989 -100.111
5.5E+09 0.102489 -107.536 0.98283 -4.84953 0.981481 -4.92174 0.0909613 -99.7529
5.55E+09 0.10217 -109.114 0.982245 -4.83704 0.981169 -4.99527 0.0857165 -98.5522
5.6E+09 0.100674 -109.422 0.983386 -4.90797 0.980466 -5.01974 0.0902485 -99.9707
5.65E+09 0.0997353 -109.965 0.983622 -5.00454 0.980844 -5.15433 0.08896 -100.351
5.7E+09 0.100845 -112.992 0.983061 -5.08287 0.981259 -5.16811 0.0851411 -100.621
5.75E+09 0.096181 -112.467 0.983711 -5.11225 0.980811 -5.16145 0.0828694 -103.998
5.8E+09 0.0970398 -112.166 0.981936 -5.13662 0.97909 -5.2336 0.0820753 -103.953
5.85E+09 0.0928766 -115.553 0.982648 -5.10233 0.979068 -5.30098 0.0812355 -101.768
5.9E+09 0.0922632 -114.859 0.982642 -5.25499 0.979526 -5.35337 0.0807299 -105.619
5.95E+09 0.0929934 -114.306 0.982542 -5.2712 0.979651 -5.35167 0.0806826 -105.421
6E+09 0.0899555 -116.881 0.98191 -5.3585 0.979337 -5.45245 0.0789519 -106.853
