! Created by janssen on Wed Jul 24 12:32:46 METDST 2002
# HZ S MA R 50
5E+07 0.955917 179.669 0.0451658 11.7168 0.044707 12.3827 0.956243 179.61
1E+08 0.955343 179.314 0.0479989 22.5081 0.0481639 22.0465 0.955177 179.214
1.5E+08 0.953578 178.939 0.053043 31.9178 0.0524807 31.5523 0.953008 178.849
2E+08 0.952766 178.564 0.0599521 39.6994 0.0593727 39.0791 0.952027 178.548
2.5E+08 0.952277 178.312 0.0654905 44.7958 0.0657438 44.4628 0.950694 178.241
3E+08 0.95008 178.029 0.0733957 49.3446 0.0730963 49.2123 0.950052 177.94
3.5E+08 0.950119 177.57 0.0817704 52.6301 0.0812871 52.2719 0.948234 177.632
4E+08 0.949858 177.353 0.0893588 55.7616 0.0888686 55.5248 0.947068 177.243
4.5E+08 0.948043 177.04 0.097343 57.9637 0.0974949 57.851 0.945536 177.019
5E+08 0.945659 176.678 0.105924 59.5302 0.106005 59.4568 0.943994 176.708
5.5E+08 0.946427 176.441 0.115112 61.0845 0.114762 61.0927 0.943445 176.364
6E+08 0.944205 176.051 0.122745 62.1912 0.123472 62.0471 0.940607 176.092
6.5E+08 0.943083 175.81 0.133287 63.3706 0.132098 62.9243 0.940087 175.747
7E+08 0.942225 175.504 0.141523 63.9314 0.141047 63.6745 0.93735 175.526
7.5E+08 0.93977 175.226 0.150573 64.6378 0.150056 64.3868 0.935297 175.123
8E+08 0.939035 174.921 0.159924 65.1064 0.159079 64.8189 0.933299 174.876
8.5E+08 0.938437 174.549 0.168341 65.6674 0.168177 65.1627 0.932172 174.674
9E+08 0.937151 174.178 0.177756 65.8951 0.176183 65.6666 0.931197 174.242
9.5E+08 0.93493 173.958 0.186232 66.054 0.186331 65.8004 0.927719 173.979
1E+09 0.934179 173.457 0.195385 66.3626 0.193942 65.9427 0.926959 173.562
1.05E+09 0.932568 173.256 0.205103 66.2225 0.204454 66.2198 0.924916 173.284
1.1E+09 0.928485 172.896 0.214217 66.1958 0.213723 65.9333 0.922324 173.022
1.15E+09 0.927786 172.604 0.222031 66.2062 0.221853 66.1216 0.919991 172.654
1.2E+09 0.924148 172.204 0.232478 66.0185 0.230731 65.9643 0.918206 172.305
1.25E+09 0.923211 171.838 0.240867 66.3699 0.239756 65.8609 0.914345 171.876
1.3E+09 0.921108 171.563 0.249179 66.0419 0.249302 65.6467 0.912881 171.647
1.35E+09 0.919554 171.032 0.259273 65.8214 0.25851 65.8248 0.909343 171.317
1.4E+09 0.917296 170.731 0.26856 65.8594 0.267703 65.3166 0.90667 170.811
1.45E+09 0.914307 170.547 0.276949 65.4884 0.275836 65.1788 0.904849 170.573
1.5E+09 0.912461 170.153 0.286717 65.3549 0.285313 65.0832 0.901002 170.134
1.55E+09 0.911797 169.668 0.295869 65.2273 0.293322 64.6267 0.895658 169.797
1.6E+09 0.909837 169.431 0.304732 64.852 0.302263 64.5028 0.894194 169.462
1.65E+09 0.903432 168.91 0.31405 64.6231 0.311374 64.0254 0.890401 169.126
1.7E+09 0.902552 168.489 0.323105 64.2652 0.320198 63.9368 0.887248 168.661
1.75E+09 0.899283 168.314 0.329832 63.8537 0.329423 63.7989 0.885583 168.364
1.8E+09 0.896568 167.835 0.339934 63.6526 0.337489 63.6121 0.88312 168.155
1.85E+09 0.894452 167.448 0.349416 63.385 0.345817 63.0945 0.878093 167.683
1.9E+09 0.891993 167.035 0.358143 62.9832 0.354727 62.582 0.874173 167.217
1.95E+09 0.889249 166.568 0.366868 62.6078 0.363102 62.3874 0.870414 166.911
2E+09 0.882317 166.025 0.37552 62.2565 0.37241 62.0633 0.86702 166.358
2.05E+09 0.880054 165.642 0.383878 61.9986 0.380513 61.7639 0.864953 166.102
2.1E+09 0.878385 165.337 0.392619 61.6473 0.389333 61.4828 0.862443 165.625
2.15E+09 0.873361 164.733 0.401041 61.4187 0.397262 61.2102 0.85424 165.135
2.2E+09 0.870757 164.399 0.410571 60.961 0.405937 60.796 0.853458 164.692
2.25E+09 0.868815 163.923 0.418571 60.6338 0.413864 60.4334 0.848417 164.252
2.3E+09 0.862443 163.609 0.425493 60.2195 0.42243 60.0235 0.843682 163.867
2.35E+09 0.861473 162.942 0.435443 59.8931 0.430888 59.5946 0.837787 163.419
2.4E+09 0.857488 162.6 0.443211 59.4849 0.438778 59.4935 0.83466 163.214
2.45E+09 0.850314 162.247 0.450631 59.1012 0.446961 58.8304 0.832379 162.551
2.5E+09 0.847119 162.007 0.458488 58.6737 0.455888 58.4425 0.828253 162.213
2.55E+09 0.843359 161.371 0.468593 58.1721 0.462561 58.2332 0.821145 161.819
2.6E+09 0.838962 160.878 0.476949 57.8375 0.472703 57.6072 0.816997 161.593
2.65E+09 0.837444 160.316 0.485651 57.3927 0.478282 57.5343 0.811217 161.1
2.7E+09 0.834793 159.979 0.493237 56.9555 0.485306 56.9543 0.807554 160.609
2.75E+09 0.826936 159.228 0.501069 56.5402 0.495622 56.4645 0.804844 159.961
2.8E+09 0.823149 159.062 0.509749 56.2067 0.502506 56.1746 0.797454 159.67
2.85E+09 0.819663 158.434 0.517567 55.7395 0.509372 55.7246 0.796617 158.865
2.9E+09 0.814335 157.857 0.524194 55.3471 0.516952 55.3427 0.785897 158.612
2.95E+09 0.811574 157.537 0.532991 55.0257 0.525271 54.8768 0.784353 157.994
3E+09 0.809447 156.837 0.540683 54.5003 0.533216 54.3746 0.782466 157.556
3.05E+09 0.789816 155.652 0.54379 53.7565 0.536137 54.0439 0.76399 156.951
3.1E+09 0.798475 155.945 0.555928 53.6974 0.548231 53.6509 0.772487 156.752
3.15E+09 0.793256 155.417 0.564428 53.099 0.555143 53.2526 0.766391 156.257
3.2E+09 0.78877 154.9 0.572205 52.8396 0.563688 52.6945 0.759571 155.59
3.25E+09 0.782491 154.419 0.577298 52.2822 0.569117 52.3366 0.756627 155.133
3.3E+09 0.777142 153.716 0.585496 51.7015 0.577714 52.0029 0.750047 154.613
3.35E+09 0.769196 153.122 0.59298 51.2036 0.584333 51.5767 0.750782 154.079
3.4E+09 0.769794 152.671 0.599367 50.9409 0.590832 51.195 0.743794 153.743
3.45E+09 0.765187 152.272 0.606698 50.4544 0.59742 50.7084 0.736185 152.909
3.5E+09 0.759106 151.675 0.612577 50.0779 0.603678 50.3163 0.731139 152.542
3.55E+09 0.755506 151.406 0.619182 49.6333 0.609478 49.7436 0.727129 152.043
3.6E+09 0.752356 150.584 0.626513 49.2306 0.61548 49.6149 0.72062 151.657
3.65E+09 0.744523 150.244 0.633453 48.6949 0.623134 48.9165 0.716391 150.757
3.7E+09 0.740744 149.766 0.639841 48.4412 0.630273 48.632 0.712413 150.714
3.75E+09 0.734067 149.035 0.646117 47.9064 0.635907 48.2659 0.706681 150.084
3.8E+09 0.730088 148.463 0.650589 47.4906 0.642713 47.8222 0.704204 149.331
3.85E+09 0.723153 147.968 0.656259 47.0689 0.64701 47.3971 0.6969 148.78
3.9E+09 0.7193 147.407 0.663554 46.7251 0.654031 47.0192 0.695041 148.464
3.95E+09 0.713294 146.887 0.669566 46.1969 0.658357 46.6517 0.685307 147.709
4E+09 0.708579 146.408 0.674288 45.5583 0.666238 46.1038 0.683501 147.352
4.05E+09 0.706125 145.695 0.680368 45.2978 0.672176 45.7882 0.677448 146.887
4.1E+09 0.699775 145.303 0.686103 44.8575 0.676467 45.324 0.671767 146.394
4.15E+09 0.694386 144.92 0.69194 44.4973 0.68195 45.1323 0.668706 145.923
4.2E+09 0.689091 144.195 0.695546 44.1294 0.688938 44.6249 0.661825 145.257
4.25E+09 0.685154 143.797 0.701869 43.7281 0.693044 44.2138 0.657938 144.621
4.3E+09 0.67806 143.425 0.706765 43.3095 0.697622 43.7156 0.654348 144.101
4.35E+09 0.674278 142.542 0.712519 43.0147 0.705156 43.6179 0.649316 144.042
4.4E+09 0.671701 142.396 0.718753 42.6385 0.708125 43.1069 0.645715 143.273
4.45E+09 0.665415 141.513 0.720542 42.2132 0.713837 42.8229 0.638812 142.756
4.5E+09 0.662476 141.009 0.727073 41.7361 0.717998 42.5115 0.634938 142.442
4.55E+09 0.657771 140.754 0.731056 41.4285 0.720676 42.187 0.629504 142.049
4.6E+09 0.653313 140.032 0.736751 41.0456 0.728686 41.7041 0.626965 141.226
4.65E+09 0.648464 139.536 0.741735 40.6561 0.733866 41.2201 0.623022 141.029
4.7E+09 0.646496 138.935 0.745671 40.089 0.734785 40.9041 0.619988 140.255
4.75E+09 0.639899 138.712 0.748371 39.7016 0.741876 40.5952 0.611454 139.898
4.8E+09 0.634477 138.078 0.75355 39.3738 0.744969 40.0733 0.611686 139.414
4.85E+09 0.630424 137.538 0.758773 39.1002 0.750719 39.9392 0.605469 138.985
4.9E+09 0.624918 137.521 0.76237 38.7272 0.754157 39.3075 0.603214 138.354
4.95E+09 0.623029 136.738 0.766841 38.3419 0.759216 39.1233 0.600448 137.886
5E+09 0.616574 136.153 0.769435 37.874 0.763447 38.7149 0.598149 137.291
5.05E+09 0.615068 135.76 0.772808 37.5848 0.766647 38.5506 0.591889 136.734
5.1E+09 0.610458 135.297 0.776082 37.3367 0.770825 38.1555 0.59166 136.259
5.15E+09 0.604176 134.64 0.780796 36.9619 0.774422 37.8924 0.585986 135.822
5.2E+09 0.603872 134.388 0.785417 36.6711 0.77712 37.6399 0.584103 135.177
5.25E+09 0.60005 133.939 0.787082 36.313 0.782763 37.0983 0.580398 134.946
5.3E+09 0.59593 133.182 0.790952 36.0492 0.788086 36.9519 0.578222 134.696
5.35E+09 0.594117 132.84 0.793972 35.5589 0.790785 36.4854 0.574331 133.955
5.4E+09 0.590945 132.53 0.799037 35.303 0.793684 36.3787 0.570405 133.547
5.45E+09 0.584678 131.836 0.801541 34.9719 0.795548 35.8024 0.568266 133.037
5.5E+09 0.580272 131.237 0.805564 34.611 0.80124 35.502 0.565215 132.692
5.55E+09 0.577921 131.018 0.807719 34.2725 0.802528 35.1623 0.562397 131.854
5.6E+09 0.571017 130.552 0.811607 33.9685 0.80773 34.8705 0.557168 131.817
5.65E+09 0.569465 129.965 0.813781 33.5798 0.810023 34.5971 0.556011 131.265
5.7E+09 0.567353 130.066 0.817029 33.1163 0.811276 34.283 0.552356 130.895
5.75E+09 0.565003 129.169 0.82046 33.0636 0.815654 33.9988 0.550947 130.519
5.8E+09 0.559972 128.845 0.822425 32.7054 0.818293 33.6453 0.547651 129.937
5.85E+09 0.559402 128.444 0.824896 32.3316 0.821626 33.4491 0.544668 129.415
5.9E+09 0.553503 128.155 0.825367 32.0803 0.827731 32.9186 0.543888 129.098
5.95E+09 0.548264 127.804 0.829745 31.6221 0.829434 32.7118 0.537217 128.572
6E+09 0.545914 127.331 0.832468 31.2593 0.833178 32.2257 0.533977 128.215
