! Created by janssen on Wed Jul 24 13:32:57 METDST 2002
# HZ S MA R 50
5E+07 0.123757 -5.58663 0.878524 0.354795 0.877008 0.323066 0.123142 -5.24769
1E+08 0.118669 -4.36672 0.882039 -0.0236912 0.882131 -0.0269823 0.119368 -4.15786
1.5E+08 0.117315 -3.42842 0.884275 -0.356156 0.88325 -0.376961 0.117461 -3.49318
2E+08 0.117002 -2.74583 0.885363 -0.617076 0.88515 -0.656036 0.116425 -2.68517
2.5E+08 0.115603 -2.65602 0.885937 -0.962863 0.886709 -0.989405 0.116441 -2.73871
3E+08 0.115486 -2.31382 0.886843 -1.21543 0.886779 -1.24773 0.115448 -2.18451
3.5E+08 0.116033 -2.34741 0.887665 -1.52514 0.88752 -1.555 0.115623 -2.15936
4E+08 0.115536 -1.82336 0.887832 -1.79897 0.887607 -1.82209 0.115348 -2.20586
4.5E+08 0.115502 -1.8823 0.887812 -2.09118 0.888001 -2.09467 0.115601 -1.87921
5E+08 0.115022 -1.94367 0.888427 -2.35149 0.887587 -2.3584 0.115132 -1.69102
5.5E+08 0.114537 -1.81135 0.888207 -2.6416 0.888908 -2.62472 0.115073 -1.57193
6E+08 0.11597 -1.94684 0.887949 -2.89637 0.888211 -2.91192 0.115528 -1.66517
6.5E+08 0.115458 -1.77813 0.888753 -3.17192 0.888402 -3.21606 0.115582 -1.48304
7E+08 0.115204 -1.74025 0.888548 -3.45075 0.888861 -3.5058 0.115376 -1.9893
7.5E+08 0.11548 -1.6491 0.889322 -3.71975 0.889112 -3.74472 0.115307 -1.41666
8E+08 0.114995 -1.74947 0.889234 -3.99579 0.888897 -4.02142 0.115958 -1.5708
8.5E+08 0.117028 -2.26094 0.88863 -4.24006 0.889356 -4.24796 0.115829 -1.63026
9E+08 0.116703 -1.49392 0.888947 -4.55873 0.888481 -4.58457 0.115671 -1.15319
9.5E+08 0.115683 -1.67664 0.889415 -4.72551 0.889288 -4.8141 0.116474 -0.878711
1E+09 0.115918 -1.25307 0.889065 -5.09316 0.889044 -5.08189 0.11608 -1.64577
1.05E+09 0.114909 -1.37143 0.889515 -5.37855 0.889003 -5.30419 0.115961 -1.40274
1.1E+09 0.115188 -1.55726 0.889033 -5.60902 0.888789 -5.62382 0.116729 -1.05564
1.15E+09 0.1161 -1.26577 0.889374 -5.86721 0.889362 -5.87917 0.116574 -0.891877
1.2E+09 0.116655 -1.56192 0.889826 -6.17802 0.888576 -6.11298 0.117859 -0.748636
1.25E+09 0.116858 -1.23618 0.889809 -6.42698 0.888634 -6.39348 0.116795 -0.697013
1.3E+09 0.116569 -1.54417 0.88909 -6.73594 0.888722 -6.72596 0.117087 -0.893554
1.35E+09 0.117226 -0.170269 0.88919 -7.00692 0.889534 -7.00844 0.117184 0.146491
1.4E+09 0.11691 -0.307092 0.888756 -7.24271 0.889151 -7.20663 0.118168 0.341983
1.45E+09 0.117161 -0.605821 0.888804 -7.53071 0.888166 -7.51236 0.117125 0.273874
1.5E+09 0.116844 -0.276992 0.888863 -7.80582 0.888861 -7.71457 0.11894 0.758057
1.55E+09 0.117153 -0.179984 0.888786 -8.05193 0.887586 -7.98662 0.118553 0.784394
1.6E+09 0.117145 -0.201291 0.888573 -8.35434 0.888163 -8.27514 0.118025 1.21168
1.65E+09 0.117236 0.83428 0.887365 -8.63438 0.887921 -8.58173 0.119741 1.47896
1.7E+09 0.118236 1.04588 0.888724 -8.8751 0.888318 -8.89141 0.119124 2.19829
1.75E+09 0.117931 0.949374 0.888642 -9.1818 0.887849 -9.10581 0.119252 2.21329
1.8E+09 0.118152 1.41245 0.887888 -9.40385 0.887536 -9.39729 0.118887 1.91209
1.85E+09 0.118525 1.4596 0.888271 -9.67886 0.887331 -9.68242 0.119838 3.1139
1.9E+09 0.118895 2.20305 0.887912 -9.99571 0.887307 -9.96299 0.120706 3.17067
1.95E+09 0.119396 2.66977 0.887542 -10.2476 0.888093 -10.2094 0.121582 3.22354
2E+09 0.120775 3.53102 0.886899 -10.5209 0.88708 -10.4503 0.121281 4.53332
2.05E+09 0.120345 3.53958 0.88699 -10.8363 0.886708 -10.8058 0.120945 4.32249
2.1E+09 0.120565 3.97101 0.887508 -11.0755 0.886283 -11.0612 0.121443 4.82444
2.15E+09 0.12053 4.90232 0.886106 -11.3744 0.887286 -11.2234 0.123322 5.34885
2.2E+09 0.121224 4.95627 0.886439 -11.6007 0.88672 -11.5555 0.122934 6.33018
2.25E+09 0.12166 5.84597 0.885733 -11.9729 0.887228 -11.7948 0.124579 6.33308
2.3E+09 0.123735 5.66249 0.886137 -12.1334 0.886267 -12.0953 0.124408 7.11179
2.35E+09 0.121598 6.78672 0.886255 -12.4507 0.886047 -12.364 0.126038 7.4455
2.4E+09 0.123529 7.06906 0.884618 -12.7364 0.885697 -12.6811 0.125438 7.65956
2.45E+09 0.125553 7.16289 0.884871 -12.9528 0.883834 -13.0113 0.12616 8.69927
2.5E+09 0.124582 7.26271 0.884496 -13.3084 0.883352 -13.2243 0.125781 9.32781
2.55E+09 0.125686 8.46459 0.883877 -13.566 0.884102 -13.4138 0.128364 8.95783
2.6E+09 0.126305 8.82326 0.88387 -13.7561 0.88544 -13.7625 0.127186 9.66936
2.65E+09 0.126826 9.7668 0.885313 -14.0695 0.884404 -14.0307 0.131124 10.4466
2.7E+09 0.125915 10.5757 0.882673 -14.331 0.883638 -14.2811 0.13022 11.4044
2.75E+09 0.129611 10.9406 0.882704 -14.5915 0.883826 -14.5665 0.13145 12.0317
2.8E+09 0.127251 11.7558 0.882913 -14.9198 0.884498 -14.8199 0.131673 12.3967
2.85E+09 0.129126 12.8191 0.883198 -15.1912 0.882 -15.0906 0.133264 13.824
2.9E+09 0.132774 13.405 0.881634 -15.3551 0.883497 -15.3608 0.134634 13.8024
2.95E+09 0.130436 12.9863 0.881726 -15.7305 0.882131 -15.5993 0.135856 14.9037
3E+09 0.133562 14.757 0.882359 -15.9856 0.884174 -15.9447 0.136654 15.8011
3.05E+09 0.135166 14.4289 0.881163 -16.2661 0.881871 -16.1677 0.137665 15.0837
3.1E+09 0.135996 14.8256 0.880589 -16.5596 0.879866 -16.5676 0.139055 16.8744
3.15E+09 0.136917 16.3324 0.880522 -16.8056 0.882052 -16.7662 0.141137 18.2347
3.2E+09 0.138126 16.4721 0.880428 -17.0736 0.880303 -17.0206 0.144288 18.4169
3.25E+09 0.137812 16.7095 0.877627 -17.3288 0.880717 -17.3441 0.14487 18.6853
3.3E+09 0.141808 18.0978 0.8786 -17.6892 0.879405 -17.4869 0.148182 19.4178
3.35E+09 0.143878 18.6991 0.878545 -17.9353 0.878651 -17.8978 0.147216 20.4022
3.4E+09 0.143757 19.4668 0.878228 -18.2543 0.879039 -18.1054 0.14827 20.9411
3.45E+09 0.14603 20.2344 0.878261 -18.3868 0.879329 -18.4428 0.1529 21.0681
3.5E+09 0.14815 20.8948 0.876373 -18.754 0.878632 -18.7012 0.152206 21.9627
3.55E+09 0.14725 20.9095 0.874757 -19.0732 0.876715 -18.9567 0.153614 22.7902
3.6E+09 0.149865 22.4922 0.876347 -19.2212 0.87794 -19.2025 0.157351 23.1299
3.65E+09 0.15302 22.6777 0.874979 -19.5301 0.875494 -19.5353 0.159164 24.752
3.7E+09 0.154379 23.4317 0.875676 -19.8853 0.876446 -19.7908 0.159183 24.3317
3.75E+09 0.157499 24.3297 0.874658 -20.1577 0.875834 -20.0847 0.161739 25.0202
3.8E+09 0.161368 24.8235 0.875391 -20.4882 0.875508 -20.3435 0.163721 26.0929
3.85E+09 0.162055 25.1975 0.873011 -20.6191 0.874245 -20.5312 0.167708 26.8063
3.9E+09 0.164031 25.8392 0.871517 -20.9869 0.873758 -20.8968 0.169062 27.3671
3.95E+09 0.167854 26.7411 0.871223 -21.2168 0.874238 -21.115 0.17281 27.5993
4E+09 0.170059 26.5647 0.871888 -21.6114 0.873164 -21.4951 0.173941 28.7824
4.05E+09 0.17318 27.5705 0.870839 -21.8302 0.872102 -21.6272 0.177216 29.1722
4.1E+09 0.176363 27.9019 0.87035 -22.1221 0.872244 -21.9655 0.178928 29.7101
4.15E+09 0.176841 28.4831 0.869585 -22.4392 0.871308 -22.2703 0.181748 30.1607
4.2E+09 0.181257 29.0085 0.868094 -22.5501 0.871067 -22.5917 0.184334 29.9952
4.25E+09 0.184224 29.6365 0.865777 -22.9253 0.870226 -22.8492 0.186231 31.4016
4.3E+09 0.185951 29.5631 0.867152 -23.1818 0.869209 -23.0149 0.192671 32.29
4.35E+09 0.189888 30.5009 0.867184 -23.4229 0.870833 -23.325 0.190503 31.6339
4.4E+09 0.190521 30.3642 0.86536 -23.7224 0.869049 -23.5652 0.195605 32.4508
4.45E+09 0.195028 30.8457 0.864592 -24.0207 0.868244 -23.8658 0.198287 32.8412
4.5E+09 0.196967 31.107 0.864792 -24.2636 0.868479 -24.1527 0.202149 32.7379
4.55E+09 0.200549 32.295 0.862864 -24.5757 0.867383 -24.4165 0.20543 33.6174
4.6E+09 0.204215 31.8944 0.863054 -24.7862 0.864949 -24.6888 0.208037 33.9558
4.65E+09 0.206671 32.3284 0.864759 -24.9878 0.866821 -25.0045 0.207774 34.3172
4.7E+09 0.208902 33.052 0.86361 -25.2419 0.864311 -25.1896 0.214967 34.6183
4.75E+09 0.212348 33.0278 0.86175 -25.6086 0.864971 -25.4886 0.216347 34.5622
4.8E+09 0.214172 33.0645 0.861256 -25.9264 0.864491 -25.7885 0.220156 35.7269
4.85E+09 0.220173 33.3213 0.861744 -26.0502 0.863521 -26.0844 0.222749 35.5061
4.9E+09 0.22155 33.522 0.860281 -26.4516 0.863478 -26.3506 0.225746 36.1781
4.95E+09 0.225996 33.4988 0.859132 -26.7913 0.863075 -26.5392 0.228569 36.2327
5E+09 0.230145 33.8291 0.859184 -26.8854 0.86156 -26.847 0.234276 36.5452
5.05E+09 0.232727 34.2659 0.857428 -27.2488 0.861212 -27.086 0.236646 36.2002
5.1E+09 0.236754 34.2321 0.857225 -27.5342 0.862076 -27.3698 0.239595 37.0341
5.15E+09 0.240555 34.26 0.857059 -27.7137 0.860382 -27.6679 0.243828 37.1077
5.2E+09 0.243689 34.5156 0.854808 -27.9498 0.86108 -27.8136 0.247464 37.2134
5.25E+09 0.245973 35.166 0.854178 -28.3277 0.860534 -28.2325 0.249935 37.306
5.3E+09 0.250761 34.949 0.854459 -28.4789 0.859935 -28.4566 0.252499 37.8933
5.35E+09 0.252911 35.3584 0.854936 -28.8617 0.858737 -28.7204 0.256826 38.1045
5.4E+09 0.255465 35.4955 0.852561 -28.9524 0.859116 -28.9449 0.259321 37.8822
5.45E+09 0.260908 35.188 0.853516 -29.3068 0.857466 -29.2319 0.263332 38.3274
5.5E+09 0.263092 34.9228 0.851738 -29.615 0.85763 -29.5407 0.266564 38.4305
5.55E+09 0.267744 35.4987 0.851464 -29.8841 0.857076 -29.7626 0.27233 38.2625
5.6E+09 0.269177 35.5975 0.850679 -30.1842 0.855591 -30.0567 0.272653 38.126
5.65E+09 0.273544 35.1986 0.851215 -30.3492 0.856617 -30.3304 0.275441 38.7359
5.7E+09 0.275109 36.32 0.849511 -30.5205 0.855657 -30.5726 0.282363 38.6162
5.75E+09 0.280811 35.6376 0.849168 -30.9409 0.855044 -30.8258 0.283866 39.1151
5.8E+09 0.28297 35.1127 0.848521 -31.1091 0.8518 -31.063 0.286793 39.0341
5.85E+09 0.288456 35.8877 0.84932 -31.2997 0.854885 -31.3996 0.290706 38.6735
5.9E+09 0.292281 35.6225 0.847892 -31.6093 0.853362 -31.6506 0.293431 39.2085
5.95E+09 0.293501 35.1959 0.845737 -31.8291 0.854001 -31.8325 0.295875 39.0843
6E+09 0.298422 35.6991 0.848816 -32.0894 0.853109 -32.1246 0.298558 39.381
