! Filename: 120bf425.001
! BFG425W Field C1
! V1=8.742E-001V,V2=1.000E+000V, I1=3.055E-004A, I2=2.001E-002A
# GHz   S   MA   R 50
!                S11              S21              S12              S22
!Freq(GHz)  Mag     Ang      Mag     Ang      Mag     Ang      Mag     Ang 
   0.040    0.363  -9.805   34.243 173.569    0.003  77.308    0.885  -4.221
   0.100    0.370 -25.418   33.303 164.444    0.006  81.170    0.873 -11.874
   0.200    0.355 -49.266   30.676 149.851    0.011  73.260    0.815 -23.493
   0.300    0.339 -68.549   27.794 138.104    0.016  68.385    0.742 -32.944
   0.400    0.325 -85.988   24.724 127.977    0.020  64.152    0.667 -40.318
   0.500    0.315 -101.348   21.953 119.357    0.023  61.305    0.600 -46.134
   0.600    0.307 -113.552   19.548 112.400    0.026  59.674    0.543 -50.787
   0.700    0.301 -123.943   17.519 106.491    0.028  58.141    0.494 -54.583
   0.800    0.298 -133.096   15.813 101.164    0.031  57.262    0.454 -57.754
   0.900    0.294 -140.982   14.378  96.487    0.034  56.420    0.420 -60.585
   1.000    0.292 -147.956   13.146  92.269    0.036  55.681    0.392 -63.126
   1.100    0.292 -154.226   12.094  88.402    0.039  54.844    0.367 -65.518
   1.200    0.293 -159.864   11.189  84.787    0.041  54.182    0.345 -67.809
   1.300    0.293 -165.074   10.397  81.420    0.044  53.477    0.325 -69.959
   1.400    0.295 -169.814    9.707  78.260    0.046  52.685    0.308 -72.028
   1.500    0.297 -174.427    9.098  75.217    0.049  51.820    0.293 -74.053
   1.600    0.299 -178.855    8.557  72.288    0.052  50.984    0.279 -76.150
   1.700    0.302 177.182    8.068  69.508    0.054  50.033    0.266 -78.257
   1.800    0.304 173.405    7.633  66.807    0.057  49.101    0.254 -80.350
   1.900    0.307 169.726    7.239  64.154    0.060  48.036    0.243 -82.644
   2.000    0.310 166.236    6.883  61.578    0.063  46.973    0.232 -84.988
   2.200    0.317 159.554    6.260  56.609    0.068  44.663    0.212 -89.863
   2.400    0.326 153.208    5.736  51.708    0.074  42.281    0.194 -95.051
   2.600    0.335 147.320    5.286  47.013    0.079  39.750    0.177 -100.870
   2.800    0.345 141.672    4.898  42.464    0.085  37.078    0.161 -107.193
   3.000    0.355 136.235    4.558  37.970    0.090  34.325    0.146 -114.438
   3.500    0.385 123.650    3.873  27.048    0.103  27.077    0.114 -137.587
   4.000    0.417 111.866    3.346  16.381    0.116  19.436    0.096 -170.577
   4.500    0.451 101.195    2.934   6.026    0.128  11.504    0.103 153.032
   5.000    0.491  90.698    2.583  -4.540    0.137   2.892    0.135 121.803
   5.500    0.520  80.529    2.276 -14.130    0.144  -4.427    0.167 100.224
   6.000    0.559  71.054    2.024 -24.385    0.151 -13.282    0.220  84.347
   6.500    0.569  64.301    1.857 -31.564    0.165 -17.386    0.237  77.822
   7.000    0.602  56.978    1.705 -40.774    0.176 -25.298    0.286  70.456
   7.500    0.652  48.138    1.528 -51.891    0.176 -36.570    0.359  58.631
   8.000    0.681  40.920    1.394 -60.970    0.181 -44.373    0.407  50.570
   8.500    0.714  33.299    1.258 -70.512    0.182 -53.446    0.459  41.791
   9.000    0.736  25.662    1.126 -79.020    0.179 -61.341    0.500  32.941
   9.500    0.758  18.738    1.022 -87.291    0.178 -69.265    0.530  25.488
  10.000    0.782  12.154    0.933 -96.668    0.178 -78.179    0.577  19.043
  10.500    0.799   5.494    0.843 -105.682    0.175 -86.841    0.617  11.799
  11.000    0.812  -1.329    0.751 -114.135    0.168 -95.864    0.648   3.882
  11.500    0.822  -8.040    0.675 -122.970    0.161 -104.968    0.678  -2.722
  12.000    0.827 -14.901    0.593 -131.694    0.152 -114.613    0.707 -10.237
!     DEEMBEDDED NOISE DATA
!FREQUENCY    FMIN    GAMMA OPT        Rn
!  (GHz)      (dB)    Mag    Ang   (NORMALIZED)
