! Filename:       BFG198H.S2P                  Version:   2.0
! Philips part #: BFG198                                     Date: Jul 1990
! Bias condition: Vce=8V, Ic=30mA
!
#  MHz  S  MA  R  50
! Freq       S11            S21            S12            S22     !GUM [dB]
   40     .389 -75.5   44.246 148.4    .0120  73.8     .813 -34.0 !    38.3
  100     .493 -128.   29.720 121.8    .0220  57.7     .533 -63.5 !    32.1
  200     .556 -157.   17.303 103.7    .0290  56.0     .320 -87.5 !    26.8
  300     .573 -168.   11.905  94.9    .0390  59.2     .234 -103. !    23.5
  400     .578 -176.    9.069  89.2    .0460  63.6     .194 -114. !    21.1
  500     .588 178.1    7.344  84.4    .0560  64.7     .173 -123. !    19.3
  600     .590 173.9    6.121  80.7    .0640  66.0     .159 -132. !    17.7
  700     .585 169.5    5.333  76.9    .0720  66.3     .150 -140. !    16.5
  800     .588 165.2    4.675  73.4    .0810  67.0     .147 -147. !    15.3
  900     .599 161.0    4.158  70.2    .0910  67.4     .145 -155. !    14.4
 1000     .596 157.0    3.771  67.4     .100  67.3     .147 -161. !    13.5
 1200     .625 150.9    3.153  61.9     .118  66.1     .159 -173. !    12.2
 1400     .641 145.8    2.703  56.1     .134  65.0     .179 178.6 !    11.1
 1600     .645 140.1    2.383  50.7     .154  64.6     .197 171.6 !    10.1
 1800     .659 133.9    2.169  45.1     .173  60.5     .214 164.1 !    9.40
 2000     .675 127.3    1.973  39.6     .192  59.2     .237 156.0 !    8.79
 2200     .712 122.4    1.790  34.9     .206  56.7     .268 149.6 !    8.45
 2400     .723 118.1    1.615  31.2     .217  56.0     .298 144.1 !    7.78
 2600     .725 114.4    1.511  25.7     .240  52.4     .324 138.6 !    7.31
 2800     .728 107.9    1.375  20.0     .251  47.9     .340 131.4 !    6.58
 3000     .751 101.1    1.314  15.8     .267  46.5     .361 123.9 !    6.58
