! Filename:       BFG135D.S2P                 Version:   2.0
! Philips part #: BFG135                                     Date: Jul 1990
! Bias condition: Vce=10V, Ic=75mA
!
#  MHz  S  MA  R  50
! Freq       S11            S21            S12            S22     !GUM [dB]
   40    .650  -56.2  36.130  146.2    .022   64.7    .815  -38.7 !    38.3
  100    .551 -106.4  22.936  119.3    .038   51.1    .535  -73.0 !    30.2
  200    .513 -142.7  13.020  101.2    .051   50.2    .340 -103.3 !    24.2
  300    .505 -159.1   8.969   92.2    .062   54.4    .270 -122.1 !    20.7
  400    .506 -169.3   6.847   85.9    .075   57.1    .244 -135.7 !    18.3
  500    .508 -177.1   5.533   80.7    .088   59.1    .232 -146.2 !    16.4
  600    .510  177.0   4.655   75.9    .101   60.0    .226 -154.2 !    14.9
  700    .512  171.2   4.025   71.7    .114   61.1    .227 -161.0 !    13.6
  800    .512  166.4   3.536   67.7    .128   61.1    .227 -167.6 !    12.5
  900    .518  161.5   3.183   64.2    .141   60.9    .233 -173.5 !    11.7
 1000    .525  157.0   2.891   60.5    .156   60.6    .241 -179.2 !    10.9
 1200    .550  148.6   2.439   53.8    .183   59.1    .263  171.1 !     9.6
 1400    .573  142.0   2.110   46.8    .208   57.1    .290  163.7 !     8.6
 1600    .583  136.4   1.865   40.7    .236   55.8    .318  157.2 !     7.7
 1800    .600  129.2   1.702   33.9    .265   51.5    .341  149.9 !     7.1
 2000    .626  122.5   1.557   28.6    .289   49.1    .370  142.5 !     6.6
 2200    .663  115.8   1.422   22.9    .309   46.0    .407  135.8 !     6.4
 2400    .683  111.4   1.300   19.8    .324   44.6    .444  129.7 !     6.0
 2600    .696  106.2   1.228   13.7    .350   40.4    .467  123.1 !     5.7
 2800    .701   99.6   1.099    8.3    .360   34.9    .480  115.0 !     4.9
 3000    .721   92.5   1.052    3.8    .377   32.6    .505  107.1 !     4.9
