! Filename:       BFG198D.S2P                  Version:   2.0
! Philips part #: BFG198                                     Date: Jul 1990
! Bias condition: Vce=4V, Ic=50mA
!
#  MHz  S  MA  R  50
! Freq       S11            S21            S12            S22     !GUM [dB]
   40    .341 -124.9  51.139  142.5    .010   68.0    .749  -42.6 !    38.3
  100    .513 -153.3  30.714  116.0    .017   61.2    .459  -76.5 !    32.1
  200    .575 -169.7  16.938  100.0    .026   64.4    .282 -104.7 !    26.7
  300    .591 -177.6  11.560   92.4    .036   67.8    .221 -122.6 !    23.3
  400    .600  177.5   8.785   87.0    .046   70.7    .197 -135.8 !    21.0
  500    .603  172.7   7.072   82.7    .056   70.7    .187 -145.8 !    19.1
  600    .606  169.0   5.926   78.7    .067   70.5    .181 -153.6 !    17.6
  700    .609  164.8   5.117   75.3    .076   71.1    .180 -160.3 !    16.3
  800    .610  161.4   4.475   71.9    .085   70.8    .178 -166.4 !    15.2
  900    .616  157.6   4.011   69.0    .095   70.3    .183 -172.4 !    14.3
 1000    .621  154.5   3.630   65.9    .107   69.4    .188 -178.0 !    13.5
 1200    .642  148.0   3.032   60.4    .125   67.7    .205  172.8 !    12.1
 1400    .661  142.6   2.607   54.4    .142   65.6    .227  166.3 !    11.0
 1600    .663  137.7   2.283   49.0    .162   64.2    .247  161.0 !    10.0
 1800    .671  131.9   2.068   43.1    .183   60.1    .260  154.7 !     9.2
 2000    .696  125.8   1.880   38.4    .202   58.4    .283  147.9 !     8.7
 2200    .727  120.4   1.718   33.2    .217   55.8    .315  142.1 !     8.4
 2400    .747  116.7   1.557   30.0    .226   54.7    .344  137.5 !     7.9
 2600    .749  111.9   1.455   24.4    .248   51.2    .364  132.1 !     7.4
 2800    .751  106.3   1.318   19.1    .258   46.1    .370  125.1 !     6.6
 3000    .767   99.5   1.252   14.4    .271   44.4    .387  117.5 !     6.5
