! Filename:       BFG198A.S2P                Version:   2.0
! Philips part #: BFG198                                     Date: Jul 1990
! Bias condition: Vce=4V, Ic=10mA
!
#  MHz  S  MA  R  50
! Freq       S11            S21            S12            S22     !GUM [dB]
   40    .621  -36.8  21.963  158.5    .017   72.2    .925  -20.3 !    37.3
  100    .608  -83.2  18.209  135.9    .034   54.8    .728  -42.6 !    30.5
  200    .614 -128.2  12.602  113.2    .046   44.6    .488  -62.0 !    25.2
  300    .621 -149.1   9.163  101.2    .052   41.7    .366  -72.1 !    22.0
  400    .627 -161.2   7.109   93.3    .057   43.9    .297  -79.6 !    19.6
  500    .633 -170.2   5.789   87.3    .062   45.7    .257  -85.4 !    17.8
  600    .633 -177.0   4.895   82.1    .067   48.0    .230  -90.6 !    16.3
  700    .636  177.0   4.249   77.5    .073   50.7    .215  -95.7 !    15.0
  800    .637  172.0   3.726   73.4    .078   52.5    .202 -100.5 !    13.9
  900    .642  167.0   3.352   69.7    .085   54.9    .194 -106.5 !    13.0
 1000    .648  162.5   3.027   66.1    .092   56.3    .189 -113.1 !    12.1
 1200    .664  154.6   2.534   59.4    .106   58.4    .189 -126.8 !    10.8
 1400    .686  148.1   2.194   52.3    .120   59.8    .205 -139.6 !     9.8
 1600    .687  142.1   1.920   46.1    .137   61.8    .227 -150.2 !     8.7
 1800    .699  135.2   1.746   39.9    .158   60.0    .244 -160.4 !     8.0
 2000    .722  128.8   1.580   34.4    .176   60.0    .268 -171.4 !     7.5
 2200    .758  122.8   1.447   28.6    .192   58.1    .302  177.8 !     7.3
 2400    .775  118.6   1.295   24.5    .206   57.9    .341  168.7 !     6.8
 2600    .775  113.5   1.206   19.2    .231   54.8    .373  160.5 !     6.3
 2800    .776  107.2   1.092   12.8    .247   49.8    .388  151.2 !     5.5
 3000    .794  100.0   1.024    8.4    .265   48.3    .411  141.3 !     5.3
