! Filename:       BFG198B.S2P                  Version:   2.0
! Philips part #: BFG198                                     Date: Jul 1990
! Bias condition: Vce=4V, Ic=20mA
!
#  MHz  S  MA  R  50
! Freq       S11            S21            S12            S22     !GUM [dB]
   40    .428  -62.6  35.013  151.9    .014   66.7    .859  -29.7 !    37.6
  100    .515 -117.5  25.361  125.7    .025   54.6    .598  -57.8 !    31.3
  200    .577 -151.3  15.284  105.8    .033   51.1    .366  -80.9 !    26.1
  300    .594 -165.0  10.660   96.3    .041   54.5    .268  -94.6 !    22.8
  400    .603 -173.2   8.159   89.8    .049   57.2    .219 -105.5 !    20.4
  500    .611 -179.9   6.596   84.8    .057   59.7    .192 -114.5 !    18.6
  600    .613  175.1   5.543   80.3    .064   60.9    .176 -121.9 !    17.1
  700    .616  170.2   4.796   76.3    .073   63.0    .167 -129.1 !    15.8
  800    .618  166.0   4.198   72.6    .081   63.6    .160 -135.6 !    14.7
  900    .620  161.5   3.762   69.4    .090   64.1    .158 -142.7 !    13.7
 1000    .627  157.9   3.411   66.0    .100   64.8    .159 -149.5 !    12.9
 1200    .647  150.9   2.845   60.1    .116   64.5    .170 -162.6 !    11.6
 1400    .666  144.8   2.453   53.8    .133   63.5    .192 -171.8 !    10.5
 1600    .671  139.8   2.152   48.1    .152   63.3    .214 -178.8 !     9.5
 1800    .676  133.4   1.952   41.9    .172   60.2    .231  173.3 !     8.7
 2000    .704  127.2   1.773   37.0    .191   59.1    .255  165.0 !     8.2
 2200    .738  121.4   1.624   31.3    .206   56.5    .289  157.0 !     8.0
 2400    .756  117.5   1.466   27.9    .218   56.0    .324  151.1 !     7.5
 2600    .761  112.8   1.362   22.5    .240   52.4    .349  144.8 !     7.0
 2800    .760  106.7   1.237   16.5    .252   47.4    .359  136.8 !     6.2
 3000    .773   99.6   1.172   12.1    .268   46.0    .380  128.4 !     6.0
