! Filename:       BFG198E.S2P                   Version:   2.0
! Philips part #: BFG198                                     Date: Jul 1990
! Bias condition: Vce=4V, Ic=70mA
!
#  MHz  S  MA  R  50
! Freq       S11            S21            S12            S22     !GUM [dB]
   40    .378 -142.5  54.451  139.4    .009   67.1    .704  -46.8 !    38.4
  100    .531 -161.1  31.216  113.6    .016   63.4    .419  -82.4 !    32.2
  200    .583 -173.8  16.933   98.5    .025   69.2    .263 -112.0 !    26.7
  300    .597  179.9  11.537   91.4    .035   71.8    .215 -130.2 !    23.4
  400    .605  175.2   8.750   86.3    .046   73.0    .197 -143.2 !    21.0
  500    .609  171.3   7.032   82.1    .056   73.0    .190 -152.8 !    19.1
  600    .612  167.6   5.885   78.2    .067   73.0    .187 -160.0 !    17.6
  700    .614  163.8   5.079   74.8    .077   72.6    .188 -166.1 !    16.3
  800    .618  160.4   4.439   71.4    .086   71.7    .188 -171.7 !    15.2
  900    .620  156.8   3.992   68.5    .097   71.2    .193 -177.7 !    14.3
 1000    .625  153.7   3.611   65.5    .108   70.4    .198  177.4 !    13.5
 1200    .646  147.5   3.022   59.8    .127   68.2    .216  168.7 !    12.2
 1400    .667  142.1   2.588   54.2    .144   65.8    .237  162.7 !    11.1
 1600    .669  137.4   2.265   48.8    .165   64.8    .257  158.0 !    10.0
 1800    .674  131.5   2.057   42.7    .185   60.4    .271  151.7 !     9.2
 2000    .703  125.4   1.868   38.0    .204   58.5    .293  145.1 !     8.8
 2200    .736  119.8   1.700   33.0    .217   55.6    .323  139.5 !     8.5
 2400    .750  116.0   1.547   29.9    .229   54.6    .353  135.2 !     8.0
 2600    .756  111.8   1.440   24.3    .250   50.7    .371  130.1 !     7.5
 2800    .754  106.0   1.300   19.0    .259   45.8    .376  122.9 !     6.6
 3000    .770   99.0   1.238   14.5    .273   44.1    .393  115.6 !     6.5
