! Filename:       BFG198G.S2P                  Version:   2.0
! Philips part #: BFG198                                     Date: Jul 1990
! Bias condition: Vce=8V, Ic=20mA
!
#  MHz  S  MA  R  50
! Freq       S11            S21            S12            S22     !GUM [dB]
   40     .472 -55.6   35.556 152.8    .0130  72.3     .860 -28.0 !    38.0
  100     .523 -110.   26.216 127.2    .0250  55.8     .607 -54.7 !    31.8
  200     .563 -147.   16.154 107.0    .0340  51.0     .374 -76.3 !    26.5
  300     .582 -162.   11.269  97.2    .0410  53.1     .269 -89.0 !    23.2
  400     .586 -171.    8.613  90.8    .0480  56.4     .217 -98.6 !    20.7
  500     .597 -178.    7.001  85.6    .0560  58.6     .188 -106. !    19.0
  600     .597 177.0    5.849  81.5    .0640  60.9     .169 -113. !    17.4
  700     .594 172.5    5.092  77.4    .0710  62.7     .155 -120. !    16.1
  800     .595 167.9    4.471  73.8    .0790  63.2     .147 -127. !    15.0
  900     .604 163.2    3.991  70.6    .0880  63.7     .142 -135. !    14.1
 1000     .604 159.3    3.609  67.5    .0970  64.7     .141 -142. !    13.2
 1200     .630 152.3    3.021  61.6     .115  63.9     .146 -156. !    11.9
 1400     .646 146.9    2.589  55.6     .130  63.7     .166 -166. !    10.7
 1600     .656 141.0    2.288  50.0     .149  64.0     .185 -175. !    9.78
 1800     .669 134.7    2.072  44.1     .166  60.4     .202 176.6 !    9.09
 2000     .681 128.1    1.888  38.8     .185  59.2     .224 167.4 !    8.45
 2200     .720 123.0    1.727  33.9     .201  57.3     .257 159.5 !    8.22
 2400     .733 118.6    1.546  30.0     .213  56.8     .289 152.9 !    7.51
 2600     .734 114.7    1.445  24.6     .237  53.1     .316 146.6 !    7.01
 2800     .736 108.1    1.319  18.4     .248  48.8     .335 138.8 !    6.31
 3000     .760 101.1    1.259  14.5     .265  47.6     .358 130.6 !    6.34
