! Filename:       BFG198J.S2P                 Version:   2.0
! Philips part #: BFG198                                     Date: Jul 1990
! Bias condition: Vce=8V, Ic=70mA
!
#  MHz  S  MA  R  50
! Freq       S11            S21            S12            S22     !GUM [dB]
   40     .357 -122.   60.320 139.1   .00885  69.9     .687 -46.7 !    39.0
  100     .508 -153.   33.731 113.3    .0164  64.7     .407 -81.8 !    32.6
  200     .561 -169.   18.605  98.4    .0266  65.9     .253 -110. !    27.3
  300     .574 -177.   12.479  91.8    .0359  69.8     .205 -128. !    23.8
  400     .583 178.5    9.438  86.0    .0461  71.5     .184 -142. !    21.5
  500     .586 173.0    7.651  82.6    .0560  71.6     .176 -151. !    19.6
  600     .586 169.9    6.488  79.8    .0676  71.8     .173 -159. !    18.2
  700     .585 166.0    5.579  76.0    .0751  70.6     .172 -165. !    16.9
  800     .588 163.1    4.790  73.1    .0868  71.7     .173 -171. !    15.6
  900     .578 158.4    4.346  69.7    .0955  71.1     .176 -177. !    14.7
 1000     .606 154.9    3.941  66.8     .106  69.7     .181 177.5 !    14.0
 1200     .613 150.7    3.325  61.4     .127  68.3     .198 168.8 !    12.7
 1400     .633 144.3    2.820  55.9     .143  66.0     .217 162.3 !    11.4
 1600     .639 139.7    2.464  50.9     .163  64.6     .235 157.2 !    10.4
 1800     .646 133.7    2.267  44.7     .182  60.1     .249 150.9 !    9.73
 2000     .685 127.0    2.042  40.2     .199  57.6     .272 144.5 !    9.28
 2200     .695 121.4    1.817  36.4     .215  55.2     .303 138.5 !    8.47
 2400     .741 118.9    1.675  33.4     .223  55.0     .329 134.7 !    8.44
 2600     .744 114.5    1.570  27.6     .246  51.2     .351 129.5 !    7.98
 2800     .728 110.2    1.409  22.3     .257  46.7     .362 122.5 !    6.86
 3000     .743 102.1    1.360  17.2     .270  45.2     .382 116.0 !    6.85
