! Filename:       BFG198F.S2P                   Version:   2.0
! Philips part #: BFG198                                     Date: Jul 1990
! Bias condition: Vce=8V, Ic=10mA
!
#  MHz  S  MA  R  50
! Freq       S11            S21            S12            S22     !GUM [dB]
   40     .651 -34.1   22.193 159.2    .0160  75.3     .923 -19.1 !    37.6
  100     .628 -78.2   18.572 137.4    .0320  57.6     .739 -40.0 !    31.0
  200     .613 -124.   13.188 114.6    .0450  45.3     .504 -58.5 !    25.7
  300     .616 -146.    9.612 102.4    .0510  43.1     .375 -67.9 !    22.4
  400     .615 -159.    7.459  94.5    .0560  44.2     .306 -74.4 !    19.9
  500     .624 -168.    6.126  88.3    .0610  46.2     .265 -79.1 !    18.2
  600     .622 -175.    5.147  83.5    .0660  47.9     .237 -83.5 !    16.6
  700     .621 179.3    4.491  78.8    .0710  50.7     .217 -87.8 !    15.4
  800     .622 173.8    3.947  74.7    .0760  52.9     .204 -92.5 !    14.2
  900     .626 168.5    3.530  70.8    .0820  55.2     .192 -97.9 !    13.3
 1000     .627 163.9    3.187  67.7    .0890  57.0     .185 -104. !    12.4
 1200     .652 156.0    2.666  61.0     .103  58.9     .178 -117. !    11.1
 1400     .666 149.6    2.305  54.3     .116  60.5     .189 -130. !    9.96
 1600     .678 143.0    2.033  48.1     .134  62.4     .204 -142. !    9.02
 1800     .692 136.6    1.844  42.2     .152  60.0     .218 -153. !    8.36
 2000     .705 129.6    1.685  36.4     .170  60.7     .239 -166. !    7.77
 2200     .742 124.4    1.538  31.2     .187  59.1     .270 -177. !    7.54
 2400     .754 119.5    1.370  26.6     .202  59.0     .307 173.7 !    6.81
 2600     .752 115.1    1.277  21.3     .228  55.8     .338 164.7 !    6.27
 2800     .754 108.4    1.160  14.7     .242  51.7     .361 155.4 !    5.55
 3000     .781 101.7    1.099  10.8     .260  50.2     .386 145.3 !    5.61
