! Filename:       BFG135A.S2P              Version:   2.1
! Philips part #: BFG135                                     Date: Dec 1990
! Bias condition: Vce=10V, Ic=10mA
! 
#  MHz  S  MA  R  50
! Freq       S11            S21            S12            S22     !GUM [dB]
   40    .817  -35.6  18.641  156.6    .026   72.1    .921  -21.7 !    38.4
  100    .711  -78.7  14.611  131.5    .049   52.9    .711  -44.7 !    29.4
  200    .619 -121.0   9.630  108.8    .064   42.0    .476  -64.0 !    22.9
  300    .589 -143.2   6.908   96.4    .072   40.4    .364  -74.0 !    19.3
  400    .581 -156.9   5.328   88.1    .077   42.3    .307  -81.4 !    16.8
  500    .580 -166.9   4.337   81.2    .083   44.9    .276  -88.1 !    14.9
  600    .579 -174.3   3.662   75.3    .090   48.2    .261  -94.5 !    13.4
  700    .580  179.1   3.194   70.0    .098   51.1    .253 -101.1 !    12.2
  800    .581  173.2   2.820   64.9    .107   53.9    .250 -107.7 !    11.1
  900    .585  167.7   2.521   60.7    .116   56.3    .251 -114.4 !    10.1
 1000    .593  162.5   2.289   56.5    .128   58.6    .255 -121.6 !     9.4
 1200    .615  153.3   1.943   48.3    .153   61.1    .274 -136.6 !     8.2
 1400    .639  145.8   1.674   39.8    .177   61.7    .310 -150.9 !     7.2
 1600    .651  138.7   1.464   32.9    .209   62.2    .349 -163.2 !     6.3
 1800    .672  130.9   1.339   25.7    .246   58.9    .391 -174.7 !     5.9
 2000    .697  122.7   1.202   19.4    .276   56.8    .432  172.9 !     5.4
 2200    .737  116.0   1.090   13.8    .306   53.4    .484  161.4 !     5.3
 2400    .752  111.7    .955   10.8    .326   51.4    .531  151.4 !     4.7
 2600    .756  105.4    .898    5.7    .364   45.8    .561  141.0 !     4.4
 2800    .753   98.0    .791     .2    .376   39.4    .581  130.1 !     3.4
 3000    .774   90.7    .755   -2.4    .399   36.3    .615  119.4 !     3.6
