! Filename:       BFG198C.S2P                  Version:   2.0
! Philips part #: BFG198                                     Date: Jul 1990
! Bias condition: Vce=4V, Ic=30mA
!
#  MHz  S  MA  R  50
! Freq       S11            S21            S12            S22     !GUM [dB]
   40    .349  -89.1  43.084  147.6    .012   64.7    .812  -35.6 !    37.9
  100    .499 -136.2  28.427  120.7    .021   55.8    .529  -66.6 !    31.7
  200    .570 -161.2  16.275  102.7    .029   56.7    .319  -92.2 !    26.4
  300    .589 -171.8  11.215   94.2    .038   60.6    .239 -108.2 !    23.1
  400    .597 -178.4   8.547   88.4    .047   63.9    .202 -120.8 !    20.7
  500    .606  176.2   6.886   83.7    .056   65.3    .183 -130.9 !    18.9
  600    .607  171.8   5.782   79.5    .065   66.3    .173 -139.2 !    17.4
  700    .610  167.4   4.988   75.9    .075   67.2    .168 -146.3 !    16.1
  800    .613  163.5   4.370   72.3    .083   67.6    .164 -152.8 !    15.0
  900    .616  159.5   3.926   69.2    .093   67.5    .166 -159.6 !    14.1
 1000    .623  156.1   3.545   66.2    .103   67.3    .170 -165.9 !    13.3
 1200    .643  149.5   2.964   60.4    .122   66.0    .185 -177.2 !    11.9
 1400    .662  143.6   2.551   54.2    .138   64.6    .206  175.2 !    10.8
 1600    .665  138.6   2.239   48.8    .157   64.0    .227  169.5 !     9.8
 1800    .674  132.5   2.025   42.7    .179   60.3    .243  162.6 !     9.0
 2000    .697  126.6   1.846   37.9    .197   58.5    .266  155.2 !     8.5
 2200    .731  120.8   1.682   32.5    .211   56.0    .298  148.7 !     8.2
 2400    .747  117.1   1.526   29.2    .222   55.4    .331  143.4 !     7.7
 2600    .753  112.6   1.426   23.7    .245   51.6    .354  137.8 !     7.3
 2800    .752  106.5   1.291   18.0    .255   46.6    .361  130.2 !     6.4
 3000    .768   99.8   1.224   13.5    .270   45.2    .380  122.5 !     6.3
