! Filename:       BFG135B.S2P               Version:   2.0
! Philips part #: BFG135                                     Date: Jul 1990
! Bias condition: Vce=10V, Ic=25mA
!
#  MHz  S  MA  R  50
! Freq       S11            S21            S12            S22     !GUM [dB]
   40    .710  -47.0  29.002  150.8    .023   67.4    .866  -30.8 !    38.3
  100    .604  -95.4  20.119  124.1    .041   51.2    .603  -60.3 !    30.0
  200    .545 -134.7  11.939  104.0    .055   47.1    .376  -85.6 !    23.7
  300    .531 -153.5   8.318   93.8    .064   49.1    .284 -101.0 !    20.2
  400    .530 -164.8   6.375   86.7    .074   52.5    .240 -113.0 !    17.8
  500    .531 -173.4   5.164   80.9    .085   54.5    .218 -122.9 !    15.9
  600    .530  180.0   4.346   75.9    .097   56.3    .208 -130.7 !    14.4
  700    .533  173.9   3.774   71.2    .109   58.2    .205 -137.9 !    13.2
  800    .534  168.8   3.314   66.9    .119   59.4    .202 -144.5 !    12.0
  900    .541  163.5   2.981   63.0    .133   59.7    .206 -151.6 !    11.2
 1000    .547  158.9   2.707   59.2    .147   60.3    .213 -157.6 !    10.4
 1200    .571  150.5   2.286   51.9    .172   59.8    .235 -169.8 !     9.1
 1400    .594  143.4   1.979   44.5    .196   58.6    .268 -179.0 !     8.1
 1600    .607  137.5   1.745   37.9    .225   57.8    .300  173.1 !     7.2
 1800    .620  130.3   1.597   30.9    .256   53.9    .330  164.4 !     6.7
 2000    .652  122.9   1.450   25.2    .283   52.1    .364  155.2 !     6.2
 2200    .690  116.3   1.330   19.4    .306   48.8    .408  147.0 !     6.1
 2400    .715  111.6   1.200   15.9    .323   47.2    .453  139.6 !     5.7
 2600    .721  106.0   1.127    9.9    .353   42.6    .483  131.7 !     5.4
 2800    .724   99.5   1.005    4.2    .365   36.8    .500  122.6 !     4.5
 3000    .745   91.9    .953     .2    .384   34.4    .528  113.5 !     4.5
