! Filename:       BFG135E.S2P                  Version:   2.0
! Philips part #: BFG135                                     Date: Jul 1990
! Bias condition: Vce=10V, Ic=100mA
!
#  MHz  S  MA  R  50
! Freq       S11            S21            S12            S22     !GUM [dB]
   40    .674  -56.8  36.826  146.5    .022   65.7    .804  -39.9 !    38.5
  100    .559 -107.5  22.954  118.4    .037   52.1    .526  -75.6 !    30.2
  200    .524 -143.2  13.112  101.8    .049   50.1    .338 -106.2 !    24.3
  300    .517 -160.5   9.061   91.8    .061   52.5    .276 -125.2 !    20.8
  400    .521 -169.1   6.841   86.1    .073   57.0    .248 -138.7 !    18.4
  500    .519 -176.2   5.572   80.8    .086   59.1    .237 -149.1 !    16.5
  600    .526  177.5   4.675   76.4    .099   60.1    .231 -157.4 !    15.0
  700    .525  172.0   4.056   71.8    .112   60.0    .231 -164.2 !    13.8
  800    .529  167.0   3.559   68.4    .126   61.0    .234 -170.7 !    12.7
  900    .533  163.6   3.165   65.0    .139   61.0    .238 -176.8 !    11.7
 1000    .537  158.4   2.880   61.4    .152   60.8    .247  178.0 !    10.9
 1200    .552  151.0   2.438   54.1    .179   59.1    .269  169.1 !     9.6
 1400    .586  144.5   2.114   47.7    .202   57.1    .294  161.9 !     8.7
 1600    .597  138.8   1.865   42.2    .230   56.4    .318  155.3 !     7.8
 1800    .597  131.1   1.699   35.3    .259   52.3    .344  148.0 !     7.1
 2000    .615  123.1   1.603   30.1    .281   49.8    .374  141.3 !     6.8
 2200    .671  118.4   1.418   24.6    .304   47.1    .410  134.8 !     6.4
 2400    .694  113.9   1.280   21.4    .316   46.1    .444  129.0 !     6.0
 2600    .678  109.4   1.239   14.7    .348   41.8    .472  122.5 !     5.6
 2800    .686  101.9   1.107    8.8    .355   36.6    .491  115.3 !     4.8
 3000    .713   95.2   1.069    5.5    .374   34.9    .521  108.4 !     5.0
