! Filename:       BFG198I.S2P                 Version:   2.0
! Philips part #: BFG198                                     Date: Jul 1990
! Bias condition: Vce=8V, Ic=50mA
!
#  MHz  S  MA  R  50
! Freq       S11            S21            S12            S22     !GUM [dB]
   40     .343 -105.   53.980 142.8    .0100  73.1     .744 -41.3 !    38.7
  100     .492 -145.   32.614 116.4    .0180  61.2     .452 -73.8 !    32.5
  200     .551 -165.   18.159 100.5    .0270  62.2     .273 -101. !    27.1
  300     .569 -174.   12.362  92.8    .0360  66.8     .208 -118. !    23.7
  400     .574 179.2    9.375  87.7    .0450  68.5     .182 -131. !    21.3
  500     .584 174.8    7.590  83.3    .0550  69.4     .170 -141. !    19.5
  600     .586 171.1    6.337  79.7    .0650  70.7     .162 -149. !    18.0
  700     .582 167.0    5.488  75.9    .0740  70.7     .159 -157. !    16.7
  800     .584 163.2    4.822  72.9    .0820  69.9     .159 -163. !    15.6
  900     .590 159.1    4.296  69.9    .0930  69.6     .160 -170. !    14.6
 1000     .595 155.7    3.885  67.2     .104  69.6     .165 -176. !    13.8
 1200     .622 149.4    3.245  62.0     .123  67.7     .179 173.5 !    12.5
 1400     .635 144.5    2.777  56.3     .140  65.6     .199 167.5 !    11.3
 1600     .643 139.2    2.455  51.0     .160  64.6     .219 161.7 !    10.3
 1800     .655 133.2    2.220  45.3     .178  60.5     .234 154.8 !    9.61
 2000     .672 127.1    2.030  40.1     .196  59.1     .257 147.8 !    9.06
 2200     .710 121.9    1.830  35.4     .210  55.9     .286 142.2 !    8.67
 2400     .724 117.4    1.669  32.1     .222  55.3     .314 137.2 !    8.13
 2600     .724 114.1    1.549  26.7     .243  51.6     .336 132.5 !    7.55
 2800     .724 107.4    1.409  20.9     .254  47.0     .350 125.5 !    6.77
 3000     .748 101.0    1.353  17.0     .268  45.8     .370 118.3 !    6.83
