! Filename: 425bfg21.001
! Title: BFG21W
! Bias: Vce=4V; Ic=25mA
! Company: Philips Semiconductors NL
! User: Quality&Reliability T&D
! Measure time: 10 Nov 1999 / 11:45:05
#  MHz  S  MA  R 50
! Freq       S11             S21             S12             S22    :
  100  0.44139 -102.5 33.27581 141.11 0.017401 46.650  0.69365 -62.24
  200  0.59350 -138.3 24.07110 118.89 0.024047 35.913  0.60680 -99.78
  300  0.65538 -152.5 17.79885 106.79 0.026549 31.303  0.57032 -120.7
  400  0.68641 -160.0 13.86695 98.894 0.027838 30.170  0.55778 -133.3
  500  0.70375 -165.3 11.31581 92.953 0.028640 30.620  0.55414 -141.6
  600  0.71597 -169.0  9.48193 88.256 0.029348 32.102  0.55391 -147.3
  700  0.72348 -172.0  8.14260 84.384 0.030016 34.264  0.55543 -151.7
  800  0.73091 -174.5  7.09948 80.944 0.030844 36.853  0.55857 -155.2
  900  0.73958 -176.8  6.27317 78.028 0.031798 39.878  0.56380 -158.2
 1000  0.74790 -178.8  5.61798 75.144 0.032988 42.497  0.57027 -160.9
 1200  0.76358 177.65  4.58726 69.644 0.035536 47.654  0.58714 -165.3
 1400  0.77630 174.87  3.83428 64.035 0.038546 52.309  0.60432 -168.8
 1600  0.78528 172.27  3.31496 59.614 0.042754 56.555  0.61855 -171.8
 1800  0.78818 169.53  2.93642 55.624 0.047859 60.090  0.63330 -174.9
 2000  0.79942 167.23  2.56049 52.138 0.052374 63.230  0.65071 -178.2
 2200  0.81900 164.88  2.25199 48.001 0.056741 65.277  0.67210 178.85
 2400  0.82913 162.70  1.99122 43.838 0.061766 66.370  0.69506 176.49
 2600  0.83051 160.57  1.80285 40.227 0.068283 66.819  0.71275 174.40
 2800  0.83026 158.09  1.65153 35.005 0.073518 66.233  0.72378 172.00
 3000  0.83730 155.36  1.51492 31.185 0.079581 66.196  0.73553 169.10
