! Filename: 3_2125bfg21.001
! Title: BFG21W
! Bias: Vce=3.2V; Ic=125mA
! Company: Philips Semiconductors NL
! User: Quality&Reliability T&D
! Measure time: 10 Nov 1999 / 11:43:06
#  MHz  S  MA  R 50
! Freq       S11             S21             S12             S22    :
  100  0.65749 -166.2 46.56855 131.49 0.007802 57.557  0.66985 -88.40
  200  0.74386 -171.8 29.36503 111.28 0.010828 54.380  0.63495 -126.4
  300  0.76980 -175.6 20.70725 101.79 0.013221 57.298  0.62805 -143.5
  400  0.78185 -178.1 15.86231 95.795 0.015699 60.923  0.62841 -153.1
  500  0.78876 179.85 12.81494 91.323 0.018287 63.753  0.62918 -159.2
  600  0.79333 178.06 10.69120 87.838 0.020929 65.857  0.62984 -163.5
  700  0.79726 176.43  9.17661 84.994 0.023638 67.719  0.63019 -166.9
  800  0.80051 174.91  8.00914 82.489 0.026471 69.188  0.63140 -169.7
  900  0.80501 173.46  7.10257 80.391 0.029372 70.687  0.63429 -172.1
 1000  0.81009 172.08  6.37667 78.169 0.032450 71.384  0.63792 -174.3
 1200  0.81838 169.58  5.23084 73.966 0.038175 72.195  0.64732 -177.8
 1400  0.82382 167.57  4.39144 69.443 0.043638 72.452  0.65538 179.30
 1600  0.82624 165.35  3.83237 65.899 0.050076 72.646  0.65972 176.70
 1800  0.82374 162.96  3.42835 62.519 0.056916 72.607  0.66716 174.00
 2000  0.83205 161.11  3.01550 59.891 0.062342 72.993  0.67883 171.27
 2200  0.84795 159.20  2.67211 56.478 0.067289 72.739  0.69298 168.96
 2400  0.85249 157.42  2.38140 52.994 0.072562 71.838  0.70700 167.26
 2600  0.84820 155.60  2.17910 49.876 0.079285 70.742  0.71569 165.71
 2800  0.84299 153.28  2.00669 44.990 0.084227 68.949  0.71961 163.71
 3000  0.84731 150.76  1.85735 41.515 0.090097 67.918  0.72641 161.21
