! Filename:       BFG25AXG.S2P            Version:   2.0
! Philips part #: BFG25A/X                                   Date: May 1990
! Bias condition: Vce=3V, Ic=0.25mA
!
#  MHz  S  MA  R  50
! Freq       S11            S21            S12            S22     !GUM [dB]
   40    .985   -1.1    .892  178.0    .007   84.5    .999   -1.2 !    44.2
  100    .986   -2.9    .890  175.0    .016   88.0    .999   -3.0 !    41.1
  200    .983   -5.6    .883  170.7    .032   85.1    .997   -5.9 !    35.2
  300    .976   -8.3    .886  166.3    .048   83.3    .995   -8.9 !    31.8
  400    .972  -11.1    .889  162.2    .063   80.8    .992  -11.8 !    29.8
  500    .966  -13.8    .885  157.8    .079   78.9    .991  -14.8 !    28.2
  600    .959  -16.5    .879  153.4    .093   77.3    .988  -17.6 !    26.2
  700    .952  -18.9    .872  149.5    .107   75.5    .986  -20.4 !    24.5
  800    .942  -21.5    .870  145.0    .121   74.0    .981  -23.0 !    22.5
  900    .933  -24.0    .869  141.1    .134   72.1    .976  -25.6 !    20.9
 1000    .917  -26.6    .869  136.6    .148   70.1    .970  -28.3 !    19.0
 1200    .892  -31.6    .868  128.1    .173   65.3    .953  -33.4 !    16.0
 1400    .869  -36.5    .862  120.6    .196   62.0    .942  -38.6 !    14.3
 1600    .850  -41.1    .861  114.5    .220   59.3    .936  -43.6 !    13.4
 1800    .827  -44.9    .864  108.1    .242   55.9    .921  -47.8 !    11.9
 2000    .793  -48.7    .842  100.8    .253   52.3    .897  -51.8 !     9.9
 2200    .755  -53.0    .823   94.5    .267   49.3    .867  -56.5 !     8.0
 2400    .723  -57.6    .835   88.8    .286   45.2    .845  -62.0 !     7.1
 2600    .700  -62.5    .845   81.7    .305   41.3    .841  -67.0 !     6.8
 2800    .684  -66.3    .824   76.4    .315   39.1    .844  -70.8 !     6.5
 3000    .655  -68.9    .818   74.1    .327   39.3    .832  -73.9 !     5.8
! Noise data:
! Freq.     Fmin        Gamma-opt         rn
  500       1.50     .900     4.00       4.20
 1000       1.60     .810     13.0       4.00
 2000       1.80     .860     37.0       2.40
