! Filename: 4_475bfg21.001
! Title: BFG21W
! Bias: Vce=4.4V; Ic=75mA
! Company: Philips Semiconductors NL
! User: Quality&Reliability T&D
! Measure time: 10 Nov 1999 / 11:46:49
#  MHz  S  MA  R 50
! Freq       S11             S21             S12             S22    :
  100  0.56033 -161.4 42.17219 138.41 0.009483 44.391  0.53492 -82.06
  200  0.67897 -167.1 28.62992 117.26 0.013106 43.685  0.55816 -120.8
  300  0.72328 -171.7 20.75260 106.17 0.015390 46.248  0.57143 -139.0
  400  0.74308 -174.9 16.07939 99.057 0.017402 49.853  0.58056 -149.2
  500  0.75496 -177.3 13.05910 93.808 0.019498 53.184  0.58645 -155.7
  600  0.76255 -179.4 10.93029 89.739 0.021676 56.236  0.59044 -160.3
  700  0.76813 178.75  9.39817 86.426 0.023986 59.111  0.59330 -163.8
  800  0.77309 177.04  8.20722 83.520 0.026414 61.429  0.59640 -166.7
  900  0.77859 175.47  7.27539 81.085 0.028947 63.575  0.60071 -169.2
 1000  0.78452 173.97  6.53222 78.599 0.031676 64.980  0.60583 -171.4
 1200  0.79554 171.32  5.35835 73.928 0.036839 67.099  0.61783 -175.1
 1400  0.80273 169.15  4.49671 69.042 0.041986 68.421  0.62869 -178.0
 1600  0.80673 166.93  3.91868 65.194 0.048010 69.454  0.63565 179.45
 1800  0.80558 164.51  3.49726 61.560 0.054528 70.115  0.64490 176.74
 2000  0.81501 162.56  3.07130 58.655 0.059753 71.061  0.65798 173.89
 2200  0.83158 160.59  2.71851 55.011 0.064639 71.181  0.67454 171.53
 2400  0.83856 158.75  2.42069 51.299 0.069805 70.657  0.69151 169.76
 2600  0.83603 156.95  2.20967 47.976 0.076490 69.881  0.70292 168.16
 2800  0.83227 154.62  2.03297 42.995 0.081488 68.353  0.70884 166.13
 3000  0.83740 152.07  1.87732 39.364 0.087424 67.571  0.71724 163.57
