! Filename: 3_6150bfg21.001
! Title: BFG21W
! Bias: Vce=3.6V; Ic=150mA
! Company: Philips Semiconductors NL
! User: Quality&Reliability T&D
! Measure time: 10 Nov 1999 / 11:44:50
#  MHz  S  MA  R 50
! Freq       S11             S21             S12             S22    :
  100  0.66824 -167.6 47.39274 131.56 0.007310 57.940  0.64939 -89.78
  200  0.74851 -172.7 29.82967 111.14 0.010297 55.631  0.62363 -127.6
  300  0.77231 -176.1 21.00266 101.67 0.012793 59.537  0.62008 -144.5
  400  0.78350 -178.6 16.08385 95.680 0.015326 63.024  0.62189 -153.8
  500  0.79068 179.46 12.98831 91.224 0.017956 65.507  0.62326 -159.8
  600  0.79495 177.76 10.83159 87.750 0.020676 67.662  0.62406 -164.0
  700  0.79813 176.15  9.29815 84.927 0.023474 69.306  0.62454 -167.2
  800  0.80178 174.64  8.11387 82.420 0.026316 70.688  0.62593 -170.0
  900  0.80592 173.23  7.19604 80.328 0.029276 71.992  0.62901 -172.4
 1000  0.81052 171.87  6.45895 78.107 0.032362 72.525  0.63286 -174.5
 1200  0.81921 169.40  5.29926 73.915 0.038155 73.235  0.64243 -178.0
 1400  0.82453 167.40  4.44768 69.392 0.043739 73.346  0.65075 179.23
 1600  0.82654 165.20  3.88191 65.835 0.050146 73.368  0.65499 176.65
 1800  0.82438 162.84  3.47318 62.459 0.057030 73.228  0.66273 173.96
 2000  0.83294 160.96  3.05449 59.844 0.062522 73.540  0.67429 171.25
 2200  0.84808 159.07  2.70627 56.420 0.067464 73.205  0.68854 168.98
 2400  0.85252 157.29  2.41259 52.932 0.072709 72.221  0.70263 167.29
 2600  0.84868 155.50  2.20742 49.796 0.079526 71.056  0.71194 165.75
 2800  0.84354 153.17  2.03362 44.917 0.084384 69.317  0.71590 163.79
 3000  0.84707 150.65  1.88137 41.438 0.090332 68.275  0.72265 161.34
