! Filename: 3_2175bfg21.001
! Title: BFG21W
! Bias: Vce=3.2V; Ic=175mA
! Company: Philips Semiconductors NL
! User: Quality&Reliability T&D
! Measure time: 10 Nov 1999 / 11:43:32
#  MHz  S  MA  R 50
! Freq       S11             S21             S12             S22    :
  100  0.69609 -169.0 46.83753 130.14 0.006931 60.334  0.65317 -92.01
  200  0.76477 -173.9 29.10456 110.26 0.009842 58.301  0.63022 -129.5
  300  0.78519 -177.1 20.43874 101.10 0.012341 62.120  0.62762 -146.0
  400  0.79442 -179.4 15.63167 95.276 0.015038 65.496  0.63008 -155.0
  500  0.80060 178.78 12.61781 90.914 0.017775 67.921  0.63144 -160.8
  600  0.80423 177.14 10.52063 87.516 0.020561 69.655  0.63203 -164.9
  700  0.80763 175.59  9.02900 84.756 0.023471 71.173  0.63232 -168.1
  800  0.81048 174.12  7.88053 82.305 0.026415 72.268  0.63369 -170.8
  900  0.81453 172.73  6.98809 80.253 0.029430 73.288  0.63677 -173.2
 1000  0.81924 171.40  6.27546 78.069 0.032525 73.854  0.64053 -175.3
 1200  0.82721 168.98  5.14735 73.914 0.038464 74.279  0.64977 -178.7
 1400  0.83191 166.99  4.32064 69.458 0.044152 74.110  0.65774 178.56
 1600  0.83360 164.80  3.77196 65.943 0.050590 74.015  0.66145 175.98
 1800  0.83094 162.42  3.37565 62.586 0.057550 73.701  0.66898 173.31
 2000  0.83946 160.60  2.97045 59.992 0.062962 73.890  0.68045 170.59
 2200  0.85427 158.71  2.63128 56.622 0.068066 73.496  0.69410 168.38
 2400  0.85833 156.93  2.34675 53.166 0.073313 72.500  0.70762 166.71
 2600  0.85365 155.12  2.14775 50.066 0.080143 71.242  0.71648 165.17
 2800  0.84803 152.83  1.97805 45.200 0.085006 69.407  0.71993 163.22
 3000  0.85193 150.28  1.83113 41.752 0.090936 68.326  0.72645 160.76
