! Filename:       BFG25AXA.S2P            Version:   2.0
! Philips part #: BFG25A/X                                   Date: May 1990
! Bias condition: Vce=1.0V, Ic=0.1mA
!
#  MHz  S  MA  R  50
! Freq       S11            S21            S12            S22     !GUM [dB]
   40    .994    -.8    .379  177.7    .007   88.0    .999   -1.1 !    37.5
  100    .996   -2.4    .378  174.2    .017   88.5    .999   -2.8 !    37.9
  200    .992   -4.8    .376  168.7    .034   85.4    .997   -5.6 !    31.4
  300    .988   -7.1    .380  163.5    .050   83.7    .996   -8.4 !    28.3
  400    .986   -9.5    .385  158.2    .067   81.5    .994  -11.1 !    26.8
  500    .982  -11.7    .388  153.1    .084   79.8    .994  -13.9 !    25.4
  600    .977  -14.1    .390  148.1    .099   78.3    .993  -16.6 !    23.9
  700    .973  -16.3    .392  143.1    .114   76.7    .992  -19.1 !    22.7
  800    .970  -18.6    .399  138.0    .128   75.1    .990  -21.7 !    21.3
  900    .963  -20.7    .407  133.8    .143   73.3    .986  -24.2 !    19.2
 1000    .952  -23.0    .415  128.7    .159   71.3    .982  -26.7 !    17.0
 1200    .938  -27.4    .432  119.5    .188   66.8    .970  -31.8 !    14.1
 1400    .924  -31.9    .449  111.2    .213   63.5    .963  -36.8 !    12.8
 1600    .914  -36.3    .467  105.2    .242   60.9    .961  -41.8 !    12.3
 1800    .901  -40.0    .489   98.7    .267   57.3    .949  -46.0 !    11.1
 2000    .873  -43.9    .497   91.0    .281   53.5    .928  -50.1 !     8.7
 2200    .845  -48.0    .503   84.8    .298   50.2    .902  -54.8 !     6.7
 2400    .818  -52.7    .528   79.4    .323   45.9    .883  -60.4 !     5.8
 2600    .805  -57.3    .552   72.4    .345   41.4    .881  -65.6 !     5.9
 2800    .791  -61.3    .556   66.8    .357   38.9    .886  -69.4 !     5.8
 3000    .767  -64.3    .566   65.1    .372   38.9    .873  -72.7 !     5.1
