! Filename: 4_425bfg21.001
! Title: BFG21W
! Bias: Vce=4.4V; Ic=25mA
! Company: Philips Semiconductors NL
! User: Quality&Reliability T&D
! Measure time: 10 Nov 1999 / 11:46:23
#  MHz  S  MA  R 50
! Freq       S11             S21             S12             S22    :
  100  0.43738 -101.1 33.33991 141.65 0.017442 42.580  0.64141 -62.53
  200  0.58674 -137.5 24.22081 119.49 0.024009 33.963  0.57594 -100.3
  300  0.64996 -151.9 17.96275 107.30 0.026587 30.016  0.54925 -121.2
  400  0.68181 -159.5 14.01572 99.286 0.027855 29.161  0.54160 -133.7
  500  0.69983 -164.9 11.44548 93.277 0.028626 29.674  0.54046 -141.8
  600  0.71221 -168.7  9.59459 88.501 0.029282 31.306  0.54224 -147.5
  700  0.72020 -171.7  8.24103 84.574 0.029924 33.504  0.54509 -151.7
  800  0.72791 -174.2  7.18657 81.090 0.030684 36.115  0.54908 -155.2
  900  0.73667 -176.5  6.35097 78.116 0.031541 39.216  0.55502 -158.1
 1000  0.74516 -178.6  5.68872 75.200 0.032790 41.958  0.56226 -160.8
 1200  0.76114 177.89  4.64350 69.644 0.035192 47.311  0.58019 -165.1
 1400  0.77456 175.10  3.88142 63.989 0.038143 52.044  0.59841 -168.5
 1600  0.78338 172.49  3.35444 59.536 0.042361 56.420  0.61317 -171.5
 1800  0.78641 169.73  2.96995 55.513 0.047485 60.100  0.62848 -174.6
 2000  0.79712 167.41  2.58953 51.981 0.052063 63.367  0.64651 -177.9
 2200  0.81764 165.07  2.27668 47.816 0.056278 65.346  0.66847 179.15
 2400  0.82832 162.88  2.01261 43.643 0.061403 66.443  0.69213 176.79
 2600  0.83015 160.74  1.82111 40.008 0.067942 66.969  0.71001 174.70
 2800  0.82961 158.23  1.66849 34.761 0.073244 66.403  0.72149 172.30
 3000  0.83695 155.50  1.52955 30.923 0.079338 66.368  0.73377 169.40
