! Filename: 4150bfg21.001
! Title: BFG21W
! Bias: Vce=4V; Ic=150mA
! Company: Philips Semiconductors NL
! User: Quality&Reliability T&D
! Measure time: 10 Nov 1999 / 11:46:10
#  MHz  S  MA  R 50
! Freq       S11             S21             S12             S22    :
  100  0.65921 -167.7 47.22018 132.68 0.007365 56.487  0.62460 -89.47
  200  0.74171 -172.4 30.07399 111.91 0.010371 54.824  0.61004 -127.4
  300  0.76720 -175.9 21.24083 102.18 0.012788 58.566  0.60989 -144.3
  400  0.77891 -178.4 16.28140 96.060 0.015413 62.094  0.61330 -153.6
  500  0.78651 179.66 13.15195 91.498 0.017959 65.035  0.61545 -159.6
  600  0.79108 177.93 10.97480 87.950 0.020606 67.019  0.61674 -163.8
  700  0.79461 176.31  9.42148 85.077 0.023431 68.887  0.61746 -167.0
  800  0.79821 174.80  8.22247 82.538 0.026238 70.241  0.61924 -169.8
  900  0.80227 173.35  7.29177 80.413 0.029116 71.605  0.62257 -172.2
 1000  0.80727 171.99  6.54700 78.160 0.032241 72.116  0.62649 -174.3
 1200  0.81603 169.50  5.37016 73.905 0.038031 72.963  0.63656 -177.7
 1400  0.82151 167.55  4.50786 69.368 0.043590 73.130  0.64523 179.51
 1600  0.82392 165.34  3.93342 65.770 0.049955 73.214  0.64975 176.95
 1800  0.82156 162.95  3.51783 62.371 0.056736 73.090  0.65757 174.28
 2000  0.82968 161.11  3.09363 59.695 0.062195 73.517  0.66948 171.53
 2200  0.84517 159.21  2.74100 56.259 0.067189 73.182  0.68397 169.28
 2400  0.85018 157.42  2.44349 52.747 0.072488 72.273  0.69856 167.61
 2600  0.84626 155.61  2.23500 49.590 0.079206 71.076  0.70808 166.07
 2800  0.84120 153.31  2.05851 44.702 0.084154 69.349  0.71242 164.12
 3000  0.84560 150.78  1.90482 41.188 0.090002 68.270  0.71942 161.66
