! Filename:       BFG25AXB.S2P            Version:   2.0
! Philips part #: BFG25A/X                                   Date: May 1990
! Bias condition: Vce=1V, Ic=0.25mA
!
#  MHz  S  MA  R  50
! Freq       S11            S21            S12            S22     !GUM [dB]
   40    .984   -1.2    .900  178.0    .007   85.2    .999   -1.2 !    41.7
  100    .983   -3.0    .897  175.0    .016   88.0    .998   -3.1 !    38.9
  200    .980   -5.9    .893  170.3    .034   85.0    .996   -6.1 !    34.4
  300    .973   -8.8    .894  165.7    .050   82.7    .994   -9.1 !    30.7
  400    .971  -11.7    .898  161.3    .066   80.4    .991  -12.2 !    29.2
  500    .962  -14.5    .893  156.8    .083   78.7    .989  -15.2 !    27.1
  600    .954  -17.4    .888  152.3    .098   76.9    .986  -18.1 !    25.1
  700    .947  -20.0    .880  148.0    .113   75.0    .984  -20.9 !    23.7
  800    .937  -22.7    .874  143.4    .126   73.2    .979  -23.5 !    21.8
  900    .926  -25.2    .874  139.5    .140   71.1    .973  -26.2 !    20.1
 1000    .908  -28.1    .875  134.7    .155   69.2    .966  -28.9 !    18.1
 1200    .882  -33.1    .873  126.0    .181   64.3    .947  -34.2 !    15.2
 1400    .856  -38.2    .868  118.3    .204   60.8    .935  -39.5 !    13.5
 1600    .837  -43.1    .866  111.9    .230   58.2    .928  -44.5 !    12.6
 1800    .812  -47.0    .868  105.4    .250   54.4    .912  -48.7 !    11.2
 2000    .774  -51.0    .846   97.7    .261   50.9    .887  -52.7 !     9.2
 2200    .735  -55.3    .824   91.4    .276   48.0    .857  -57.3 !     7.4
 2400    .701  -60.1    .836   85.6    .294   43.8    .834  -62.9 !     6.6
 2600    .677  -65.2    .844   78.6    .314   40.0    .829  -68.0 !     6.2
 2800    .657  -68.7    .823   73.1    .322   37.9    .832  -71.8 !     5.9
 3000    .630  -71.6    .821   70.9    .335   37.7    .819  -74.8 !     5.3
! Noise data:
! Freq.     Fmin        Gamma-opt         rn
  500       1.40     .920     4.00       4.00
 1000       1.60     .810     13.0       3.80
 2000       1.70     .800     39.0       2.40
