! Filename:       BFG25AXF.S2P             Version:   2.0
! Philips part #: BFG25A/X                                   Date: May 1990
! Bias condition: Vce=3V, Ic=0.1mA
!
#  MHz  S  MA  R  50
! Freq       S11            S21            S12            S22     !GUM [dB]
   40    .994    -.9    .366  177.9    .006   89.2   1.000   -1.1 !    41.8
  100    .993   -2.3    .367  174.3    .016   87.7   1.000   -2.7 !    40.6
  200    .990   -4.6    .364  168.9    .032   85.7    .998   -5.4 !    31.5
  300    .988   -6.8    .368  163.9    .048   83.6    .996   -8.2 !    28.6
  400    .987   -9.1    .372  159.0    .064   82.0    .995  -10.9 !    27.7
  500    .983  -11.3    .375  153.8    .079   80.2    .995  -13.6 !    26.1
  600    .978  -13.6    .379  148.8    .094   78.7    .994  -16.1 !    24.5
  700    .976  -15.7    .380  144.3    .108   77.2    .993  -18.7 !    23.6
  800    .971  -17.9    .386  139.1    .123   75.6    .991  -21.2 !    21.6
  900    .965  -19.9    .393  135.0    .137   74.0    .988  -23.6 !    19.7
 1000    .955  -22.1    .400  130.0    .152   72.1    .984  -26.1 !    17.6
 1200    .942  -26.4    .418  120.9    .180   67.7    .973  -31.1 !    14.6
 1400    .927  -30.8    .433  113.0    .204   64.4    .967  -36.1 !    13.1
 1600    .921  -35.0    .451  107.0    .232   62.0    .966  -40.9 !    13.0
 1800    .907  -38.5    .473  100.5    .256   58.3    .955  -45.1 !    11.5
 2000    .883  -42.3    .479   93.1    .269   54.5    .935  -49.1 !     9.2
 2200    .854  -46.4    .488   87.1    .287   51.6    .910  -53.8 !     7.1
 2400    .832  -51.0    .511   81.4    .311   47.2    .892  -59.4 !     6.2
 2600    .818  -55.6    .535   74.5    .335   42.9    .891  -64.5 !     6.2
 2800    .806  -59.1    .538   69.3    .347   40.4    .896  -68.4 !     6.2
 3000    .784  -62.0    .549   67.6    .360   40.4    .885  -71.6 !     5.6
