! Filename: 3_275bfg21.001
! Title: BFG21W
! Bias: Vce=3.2V; Ic=75mA
! Company: Philips Semiconductors NL
! User: Quality&Reliability T&D
! Measure time: 10 Nov 1999 / 11:42:39
#  MHz  S  MA  R 50
! Freq       S11             S21             S12             S22    :
  100  0.58598 -158.4 44.29089 133.50 0.009755 53.283  0.67939 -82.19
  200  0.70582 -166.8 28.55493 113.02 0.013309 47.323  0.63168 -120.8
  300  0.74326 -171.9 20.30389 102.99 0.015441 48.601  0.61907 -139.1
  400  0.75958 -175.2 15.60209 96.621 0.017508 51.960  0.61705 -149.4
  500  0.76958 -177.7 12.62385 91.862 0.019641 54.881  0.61694 -156.0
  600  0.77558 -179.8 10.54257 88.155 0.021894 57.831  0.61752 -160.7
  700  0.78053 178.38  9.05336 85.118 0.024250 60.358  0.61809 -164.3
  800  0.78467 176.68  7.89836 82.433 0.026809 62.460  0.61951 -167.2
  900  0.78960 175.07  7.00048 80.205 0.029351 64.574  0.62252 -169.8
 1000  0.79501 173.57  6.28345 77.866 0.032197 65.858  0.62647 -172.1
 1200  0.80526 170.95  5.15240 73.432 0.037481 67.677  0.63660 -175.8
 1400  0.81187 168.79  4.32321 68.715 0.042718 68.809  0.64614 -178.8
 1600  0.81527 166.54  3.76870 65.024 0.048690 69.739  0.65184 178.57
 1800  0.81370 164.11  3.36600 61.531 0.055337 70.191  0.66020 175.82
 2000  0.82248 162.17  2.95751 58.747 0.060579 70.985  0.67234 172.98
 2200  0.83868 160.22  2.61757 55.209 0.065498 71.088  0.68759 170.59
 2400  0.84433 158.38  2.33152 51.603 0.070657 70.483  0.70324 168.81
 2600  0.84159 156.55  2.12994 48.376 0.077361 69.633  0.71339 167.18
 2800  0.83753 154.22  1.96056 43.423 0.082278 68.071  0.71822 165.13
 3000  0.84201 151.67  1.81170 39.875 0.088154 67.230  0.72602 162.58
