! Filename: 4_450bfg21.001
! Title: BFG21W
! Bias: Vce=4.4V; Ic=50mA
! Company: Philips Semiconductors NL
! User: Quality&Reliability T&D
! Measure time: 10 Nov 1999 / 11:46:36
#  MHz  S  MA  R 50
! Freq       S11             S21             S12             S22    :
  100  0.48498 -148.7 40.21034 139.12 0.011778 41.570  0.54967 -75.92
  200  0.63956 -160.2 27.50656 118.03 0.016051 38.545  0.55239 -115.1
  300  0.69459 -166.8 20.04121 106.70 0.018230 39.074  0.55789 -134.3
  400  0.72093 -171.1 15.55936 99.308 0.019879 41.756  0.56407 -145.2
  500  0.73576 -174.2 12.65245 93.841 0.021508 44.515  0.56912 -152.2
  600  0.74484 -176.7 10.59847 89.554 0.023249 47.683  0.57309 -157.0
  700  0.75084 -178.8  9.10761 86.047 0.025103 50.834  0.57626 -160.7
  800  0.75683 179.30  7.95126 82.977 0.027033 53.663  0.57969 -163.8
  900  0.76425 177.54  7.04534 80.381 0.029166 56.364  0.58450 -166.4
 1000  0.77094 175.91  6.32030 77.766 0.031573 58.395  0.59026 -168.7
 1200  0.78353 173.05  5.17856 72.829 0.036120 61.741  0.60376 -172.5
 1400  0.79218 170.77  4.34169 67.721 0.040756 64.027  0.61678 -175.5
 1600  0.79741 168.44  3.77558 63.683 0.046335 65.997  0.62567 -178.1
 1800  0.79785 165.95  3.36262 59.917 0.052514 67.410  0.63673 179.12
 2000  0.80778 163.91  2.94839 56.832 0.057529 68.839  0.65106 176.16
 2200  0.82519 161.84  2.60469 53.018 0.062296 69.515  0.66938 173.66
 2400  0.83314 159.93  2.31520 49.143 0.067476 69.378  0.68839 171.76
 2600  0.83214 158.03  2.10880 45.720 0.074077 68.909  0.70173 170.07
 2800  0.82965 155.67  1.93713 40.633 0.079171 67.671  0.70930 167.97
 3000  0.83491 153.08  1.78613 36.933 0.085062 67.086  0.71901 165.33
