! Filename:       BFG25AXE.S2P             Version:   2.0
! Philips part #: BFG25A/X                                   Date: May 1990
! Bias condition: Vce=1V, Ic=2mA
!
#  MHz  S  MA  R  50
! Freq       S11            S21            S12            S22     !GUM [dB]
   40    .882   -3.2   5.006  175.8    .007   85.1    .990   -2.1 !    37.4
  100    .875   -8.0   4.956  169.7    .016   84.6    .985   -5.3 !    35.4
  200    .848  -15.6   4.776  160.3    .032   79.5    .966  -10.4 !    30.9
  300    .808  -22.8   4.574  151.2    .046   76.2    .942  -15.1 !    27.3
  400    .766  -29.3   4.337  143.2    .059   72.4    .914  -19.4 !    24.4
  500    .717  -34.6   4.054  135.9    .071   69.5    .887  -23.1 !    22.0
  600    .672  -39.3   3.775  129.2    .081   67.4    .863  -26.4 !    20.1
  700    .630  -43.6   3.507  123.5    .090   65.7    .841  -29.1 !    18.4
  800    .589  -46.8   3.267  118.0    .099   64.4    .821  -31.6 !    17.0
  900    .551  -49.7   3.058  113.3    .108   63.0    .801  -33.8 !    15.7
 1000    .508  -52.4   2.872  108.6    .116   61.6    .783  -35.8 !    14.6
 1200    .449  -57.1   2.553  100.4    .131   59.2    .751  -39.7 !    12.7
 1400    .403  -61.5   2.287   93.6    .145   58.2    .732  -44.0 !    11.3
 1600    .374  -65.1   2.088   88.4    .160   56.6    .725  -47.9 !    10.3
 1800    .346  -66.4   1.932   83.3    .173   55.3    .714  -51.1 !     9.4
 2000    .312  -68.0   1.766   77.8    .184   53.4    .698  -53.9 !     8.3
 2200    .279  -70.4   1.626   73.3    .197   52.0    .675  -57.6 !     7.2
 2400    .250  -74.0   1.544   69.3    .208   49.9    .659  -62.6 !     6.5
 2600    .234  -79.6   1.476   64.3    .223   47.5    .659  -67.4 !     6.1
 2800    .224  -82.5   1.381   59.9    .234   46.6    .670  -71.0 !     5.6
 3000    .204  -82.1   1.325   58.5    .244   46.1    .667  -73.7 !     5.2
! Noise data:
! Freq.     Fmin        Gamma-opt         rn
  500       2.30     .770     5.00       2.10
 1000       2.40     .720     14.0       2.20
 2000       2.90     .630     37.0       1.70
