! Filename: 3_675bfg21.001
! Title: BFG21W
! Bias: Vce=3.6V; Ic=75mA
! Company: Philips Semiconductors NL
! User: Quality&Reliability T&D
! Measure time: 10 Nov 1999 / 11:44:10
#  MHz  S  MA  R 50
! Freq       S11             S21             S12             S22    :
  100  0.57546 -158.8 44.17368 134.82 0.009645 51.354  0.64529 -81.51
  200  0.69737 -166.6 28.82139 114.06 0.013211 46.556  0.61326 -120.3
  300  0.73640 -171.7 20.57814 103.74 0.015402 48.165  0.60595 -138.7
  400  0.75418 -175.0 15.83806 97.180 0.017479 51.442  0.60624 -149.0
  500  0.76432 -177.5 12.82389 92.309 0.019553 54.617  0.60747 -155.7
  600  0.77110 -179.6 10.71463 88.496 0.021782 57.545  0.60869 -160.3
  700  0.77613 178.53  9.20162 85.392 0.024189 60.120  0.60961 -163.9
  800  0.78080 176.86  8.03095 82.643 0.026649 62.136  0.61153 -166.9
  900  0.78589 175.23  7.11864 80.357 0.029164 64.233  0.61484 -169.5
 1000  0.79125 173.74  6.38873 77.975 0.032001 65.558  0.61909 -171.7
 1200  0.80171 171.10  5.23888 73.474 0.037246 67.630  0.62983 -175.4
 1400  0.80860 168.94  4.39448 68.715 0.042423 68.753  0.63965 -178.4
 1600  0.81220 166.71  3.83056 64.983 0.048520 69.677  0.64583 178.97
 1800  0.81116 164.30  3.42012 61.455 0.055049 70.252  0.65449 176.24
 2000  0.81982 162.31  3.00440 58.619 0.060221 71.083  0.66694 173.37
 2200  0.83644 160.35  2.65913 55.050 0.065191 71.183  0.68276 170.99
 2400  0.84261 158.54  2.36890 51.385 0.070370 70.611  0.69893 169.21
 2600  0.83977 156.68  2.16333 48.145 0.077019 69.790  0.70939 167.59
 2800  0.83555 154.36  1.99009 43.176 0.081996 68.239  0.71468 165.56
 3000  0.84052 151.83  1.83870 39.594 0.087933 67.407  0.72279 163.00
