! Filename:       BFG25AXJ.S2P             Version:   2.0
! Philips part #: BFG25A/X                                   Date: May 1990
! Bias condition: Vce=3.0V, Ic=2.0mA
!
#  MHz  S  MA  R  50
! Freq       S11            S21            S12            S22     !GUM [dB]
   40    .895   -2.6   5.176  176.1    .006   88.6    .995   -2.0 !    41.0
  100    .889   -6.8   5.134  171.2    .015   85.4    .991   -5.0 !    38.4
  200    .870  -13.3   4.996  163.3    .030   81.3    .977   -9.9 !    33.6
  300    .842  -19.6   4.854  155.5    .044   77.6    .957  -14.6 !    29.8
  400    .806  -25.6   4.677  148.4    .056   74.4    .935  -18.9 !    26.9
  500    .768  -30.7   4.447  141.7    .069   71.6    .911  -22.8 !    24.5
  600    .729  -35.4   4.202  135.4    .080   69.6    .889  -26.4 !    22.5
  700    .694  -39.5   3.958  130.0    .089   67.3    .867  -29.5 !    20.8
  800    .653  -43.1   3.733  124.7    .098   66.2    .845  -32.2 !    19.3
  900    .616  -46.2   3.530  120.0    .107   64.4    .823  -34.6 !    17.9
 1000    .575  -49.2   3.344  115.2    .115   62.7    .802  -37.0 !    16.7
 1200    .513  -54.5   3.012  106.9    .130   59.7    .764  -41.3 !    14.7
 1400    .463  -59.5   2.722  100.0    .143   58.6    .739  -45.5 !    13.2
 1600    .429  -63.4   2.498   94.7    .159   57.0    .727  -49.6 !    12.1
 1800    .398  -65.2   2.319   89.5    .172   55.4    .712  -52.6 !    11.1
 2000    .358  -67.3   2.122   83.8    .180   53.7    .692  -55.3 !    10.0
 2200    .320  -69.4   1.951   79.3    .193   52.2    .665  -58.9 !     8.8
 2400    .288  -73.7   1.856   75.1    .204   50.2    .647  -63.7 !     8.1
 2600    .271  -77.7   1.769   70.0    .219   47.9    .644  -68.5 !     7.6
 2800    .257  -80.0   1.654   65.7    .230   46.8    .652  -71.8 !     7.1
 3000    .242  -80.5   1.583   64.3    .239   46.2    .649  -74.4 !     6.6
! Noise data:
! Freq.     Fmin        Gamma-opt         rn
  500       2.30     .790     5.00       2.30
 1000       2.30     .740     14.0       2.50
 2000       2.80     .700     37.0       1.80
