! Filename: 475bfg21.001
! Title: BFG21W
! Bias: Vce=4V; Ic=75mA
! Company: Philips Semiconductors NL
! User: Quality&Reliability T&D
! Measure time: 10 Nov 1999 / 11:45:30
#  MHz  S  MA  R 50
! Freq       S11             S21             S12             S22    :
  100  0.56665 -159.7 43.46835 136.40 0.009550 48.524  0.59735 -81.42
  200  0.68796 -166.7 28.84754 115.42 0.013158 45.317  0.58910 -120.3
  300  0.72998 -171.6 20.72326 104.75 0.015369 47.593  0.59038 -138.7
  400  0.74889 -174.9 15.99118 97.965 0.017430 50.677  0.59435 -149.0
  500  0.75993 -177.4 12.96218 92.924 0.019512 53.923  0.59748 -155.6
  600  0.76697 -179.5 10.83808 88.998 0.021760 56.813  0.59983 -160.2
  700  0.77218 178.66  9.31202 85.808 0.024062 59.610  0.60157 -163.8
  800  0.77678 176.97  8.12950 82.997 0.026531 61.819  0.60403 -166.7
  900  0.78222 175.37  7.20587 80.637 0.029078 63.946  0.60771 -169.3
 1000  0.78797 173.88  6.46817 78.224 0.031857 65.347  0.61231 -171.5
 1200  0.79826 171.21  5.30368 73.637 0.037035 67.463  0.62373 -175.2
 1400  0.80578 169.08  4.45069 68.815 0.042192 68.604  0.63406 -178.1
 1600  0.80944 166.83  3.87892 65.030 0.048252 69.593  0.64056 179.26
 1800  0.80829 164.40  3.46229 61.458 0.054809 70.195  0.64951 176.53
 2000  0.81728 162.45  3.04134 58.591 0.060021 71.056  0.66245 173.70
 2200  0.83426 160.49  2.69162 54.982 0.064883 71.219  0.67846 171.30
 2400  0.84033 158.67  2.39673 51.300 0.070104 70.637  0.69520 169.52
 2600  0.83811 156.85  2.18814 48.019 0.076770 69.824  0.70619 167.91
 2800  0.83379 154.51  2.01348 43.037 0.081719 68.322  0.71167 165.86
 3000  0.83872 151.94  1.85946 39.441 0.087683 67.546  0.71983 163.32
