! Filename: 3_2100bfg21.001
! Title: BFG21W
! Bias: Vce=3.2V; Ic=100mA
! Company: Philips Semiconductors NL
! User: Quality&Reliability T&D
! Measure time: 10 Nov 1999 / 11:42:53
#  MHz  S  MA  R 50
! Freq       S11             S21             S12             S22    :
  100  0.62846 -163.5 45.73267 132.40 0.008552 55.574  0.67334 -85.85
  200  0.72812 -170.0 29.13525 112.06 0.011748 51.037  0.63389 -124.1
  300  0.75864 -174.2 20.61677 102.34 0.014076 53.733  0.62492 -141.7
  400  0.77258 -177.0 15.81377 96.186 0.016352 57.304  0.62443 -151.6
  500  0.78077 -179.3 12.78424 91.593 0.018732 60.232  0.62481 -158.0
  600  0.78607 178.87 10.67141 88.020 0.021249 62.594  0.62549 -162.4
  700  0.78984 177.18  9.16041 85.101 0.023877 64.962  0.62592 -165.9
  800  0.79384 175.58  7.99421 82.525 0.026580 66.710  0.62730 -168.7
  900  0.79842 174.08  7.08805 80.375 0.029353 68.293  0.63008 -171.2
 1000  0.80376 172.66  6.36284 78.121 0.032296 69.239  0.63398 -173.5
 1200  0.81276 170.10  5.21995 73.820 0.037944 70.581  0.64349 -177.0
 1400  0.81871 168.03  4.38096 69.228 0.043314 71.078  0.65216 -180.0
 1600  0.82140 165.82  3.82200 65.621 0.049564 71.529  0.65702 177.39
 1800  0.81933 163.42  3.41689 62.216 0.056287 71.688  0.66466 174.68
 2000  0.82799 161.53  3.00469 59.534 0.061654 72.218  0.67631 171.86
 2200  0.84376 159.62  2.66112 56.080 0.066601 72.059  0.69100 169.56
 2400  0.84872 157.80  2.37215 52.529 0.071813 71.296  0.70558 167.83
 2600  0.84530 155.98  2.16892 49.382 0.078554 70.299  0.71495 166.26
 2800  0.84046 153.67  1.99711 44.475 0.083487 68.610  0.71903 164.24
 3000  0.84485 151.12  1.84692 40.964 0.089393 67.711  0.72614 161.71
