! Filename:       BFG25AXI.S2P             Version:   2.0
! Philips part #: BFG25A/X                                   Date: May 1990
! Bias condition: Vce=3.0V, Ic=1.0mA
!
#  MHz  S  MA  R  50
! Freq       S11            S21            S12            S22     !GUM [dB]
   40    .943   -1.9   3.095  177.1    .006   89.8    .998   -1.6 !    42.4
  100    .940   -4.9   3.080  173.4    .016   87.7    .995   -4.0 !    39.3
  200    .930   -9.5   3.034  167.5    .031   83.4    .989   -8.0 !    34.9
  300    .915  -14.2   3.000  161.5    .046   80.4    .979  -12.0 !    31.3
  400    .898  -18.8   2.956  155.8    .060   77.3    .969  -15.7 !    28.7
  500    .877  -23.0   2.882  150.3    .075   74.6    .957  -19.4 !    26.3
  600    .851  -27.0   2.795  144.8    .087   72.6    .945  -22.9 !    24.2
  700    .828  -30.7   2.700  140.0    .098   70.4    .931  -26.0 !    22.4
  800    .799  -34.2   2.611  134.9    .109   68.5    .916  -29.0 !    20.7
  900    .770  -37.4   2.527  130.4    .120   66.5    .900  -31.8 !    19.2
 1000    .735  -40.5   2.449  125.5    .130   64.5    .883  -34.5 !    17.7
 1200    .679  -46.3   2.292  116.8    .148   60.3    .847  -39.5 !    15.4
 1400    .627  -51.7   2.137  109.3    .164   58.0    .822  -44.5 !    13.6
 1600    .591  -56.5   2.012  103.4    .181   55.9    .807  -49.1 !    12.5
 1800    .555  -59.5   1.906   97.5    .194   53.4    .787  -52.6 !    11.4
 2000    .510  -62.3   1.770   91.0    .204   51.3    .760  -55.7 !    10.0
 2200    .465  -65.7   1.650   85.8    .216   49.2    .729  -59.6 !     8.7
 2400    .428  -69.4   1.589   80.9    .228   46.9    .705  -64.7 !     7.9
 2600    .402  -74.2   1.535   75.1    .242   44.0    .701  -69.4 !     7.4
 2800    .387  -76.7   1.446   70.2    .251   42.8    .707  -72.8 !     6.9
 3000    .363  -78.0   1.395   68.6    .263   42.8    .699  -75.4 !     6.4
! Noise data:
! Freq.     Fmin        Gamma-opt         rn
  500       1.70     .830     5.00       2.60
 1000       1.80     .780     13.0       2.80
 2000       2.10     .760     37.0       2.00
