! Filename: 450bfg21.001
! Title: BFG21W
! Bias: Vce=4V; Ic=50mA
! Company: Philips Semiconductors NL
! User: Quality&Reliability T&D
! Measure time: 10 Nov 1999 / 11:45:17
#  MHz  S  MA  R 50
! Freq       S11             S21             S12             S22    :
  100  0.49539 -147.1 41.05724 137.54 0.011821 45.902  0.61410 -75.30
  200  0.65009 -159.9 27.62595 116.48 0.016103 40.234  0.58579 -114.4
  300  0.70303 -166.8 19.97915 105.46 0.018246 40.459  0.57867 -133.8
  400  0.72705 -171.1 15.45675 98.348 0.019971 42.631  0.57939 -144.8
  500  0.74093 -174.3 12.54920 93.065 0.021634 45.421  0.58130 -151.9
  600  0.74965 -176.8 10.50048 88.897 0.023367 48.279  0.58352 -156.9
  700  0.75612 -178.9  9.01889 85.510 0.025238 51.351  0.58548 -160.6
  800  0.76161 179.17  7.87079 82.514 0.027222 54.139  0.58823 -163.7
  900  0.76750 177.43  6.97130 79.993 0.029373 56.873  0.59232 -166.4
 1000  0.77409 175.79  6.25441 77.440 0.031716 58.844  0.59741 -168.8
 1200  0.78628 172.91  5.12378 72.594 0.036341 62.085  0.61032 -172.6
 1400  0.79497 170.63  4.29539 67.545 0.041011 64.212  0.62239 -175.7
 1600  0.79996 168.31  3.73549 63.559 0.046589 66.131  0.63107 -178.3
 1800  0.80050 165.82  3.32740 59.857 0.052821 67.513  0.64142 178.89
 2000  0.80988 163.78  2.91811 56.805 0.057875 68.875  0.65571 175.93
 2200  0.82757 161.72  2.57810 53.031 0.062680 69.494  0.67338 173.42
 2400  0.83486 159.80  2.29189 49.192 0.067793 69.344  0.69193 171.52
 2600  0.83344 157.89  2.08804 45.805 0.074407 68.871  0.70496 169.81
 2800  0.83118 155.54  1.91855 40.725 0.079420 67.560  0.71213 167.70
 3000  0.83641 152.96  1.76900 37.063 0.085330 66.984  0.72158 165.06
