! Filename:       BFG25AXC.S2P             Version:   2.0
! Philips part #: BFG25A/X                                   Date: May 1990
! Bias condition: Vce=1V, Ic=0.5mA
!
#  MHz  S  MA  R  50
! Freq       S11            S21            S12            S22     !GUM [dB]
   40    .967   -1.5   1.702  177.8    .007   85.6    .997   -1.4 !    39.3
  100    .965   -3.9   1.697  174.4    .016   86.9    .996   -3.5 !    37.7
  200    .960   -7.5   1.679  169.4    .033   84.2    .993   -6.9 !    34.1
  300    .950  -11.2   1.675  164.2    .049   81.7    .988  -10.4 !    30.8
  400    .941  -15.0   1.669  159.3    .065   79.0    .983  -13.7 !    28.6
  500    .929  -18.5   1.644  154.4    .081   76.5    .977  -17.1 !    26.3
  600    .914  -22.0   1.618  149.5    .095   74.5    .970  -20.2 !    24.3
  700    .898  -25.1   1.587  145.0    .109   72.4    .964  -23.3 !    22.7
  800    .880  -28.3   1.559  140.2    .122   70.3    .955  -26.2 !    20.9
  900    .860  -31.4   1.536  135.9    .135   68.4    .944  -29.0 !    19.2
 1000    .832  -34.5   1.511  131.0    .148   66.1    .932  -31.8 !    17.5
 1200    .789  -40.2   1.464  122.2    .170   61.4    .905  -37.1 !    15.0
 1400    .750  -45.8   1.407  114.3    .189   58.3    .886  -42.4 !    13.2
 1600    .718  -50.9   1.362  108.0    .211   55.8    .873  -47.3 !    12.1
 1800    .684  -54.6   1.325  101.5    .227   52.5    .853  -51.3 !    10.8
 2000    .641  -58.3   1.256   94.3    .236   49.7    .825  -54.9 !     9.2
 2200    .595  -62.4   1.195   88.5    .249   47.1    .793  -59.3 !     7.8
 2400    .554  -66.9   1.175   82.9    .264   43.7    .769  -64.6 !     6.9
 2600    .528  -71.9   1.158   76.4    .279   40.2    .763  -69.5 !     6.5
 2800    .506  -74.8   1.104   71.0    .287   39.0    .766  -73.1 !     6.0
 3000    .480  -76.9   1.078   69.1    .298   38.6    .757  -75.9 !     5.5
! Noise data:
! Freq.     Fmin        Gamma-opt         rn
  500       1.40     .890     5.00       2.80
 1000       1.60     .800     14.0       3.00
 2000       1.80     .750     39.0       2.10
