! Filename: 3_6100bfg21.001
! Title: BFG21W
! Bias: Vce=3.6V; Ic=100mA
! Company: Philips Semiconductors NL
! User: Quality&Reliability T&D
! Measure time: 10 Nov 1999 / 11:44:24
#  MHz  S  MA  R 50
! Freq       S11             S21             S12             S22    :
  100  0.61864 -163.8 45.69823 133.66 0.008450 53.814  0.64437 -85.21
  200  0.72048 -169.8 29.44952 112.99 0.011729 50.410  0.61801 -123.6
  300  0.75301 -174.0 20.91230 102.98 0.014052 53.244  0.61325 -141.4
  400  0.76710 -176.8 16.06168 96.665 0.016302 56.847  0.61457 -151.3
  500  0.77610 -179.1 12.99198 91.960 0.018712 59.799  0.61610 -157.6
  600  0.78185 179.04 10.84900 88.303 0.021116 62.354  0.61724 -162.1
  700  0.78594 177.35  9.31514 85.328 0.023730 64.541  0.61808 -165.5
  800  0.78984 175.77  8.13085 82.700 0.026454 66.407  0.61979 -168.4
  900  0.79464 174.24  7.20859 80.506 0.029219 68.075  0.62292 -170.9
 1000  0.79991 172.80  6.47110 78.216 0.032183 69.083  0.62685 -173.1
 1200  0.80929 170.25  5.30767 73.848 0.037722 70.425  0.63685 -176.7
 1400  0.81522 168.17  4.45440 69.217 0.043093 71.015  0.64601 -179.6
 1600  0.81825 165.97  3.88637 65.584 0.049308 71.455  0.65116 177.77
 1800  0.81649 163.54  3.47293 62.120 0.056004 71.691  0.65906 175.06
 2000  0.82512 161.66  3.05371 59.416 0.061459 72.294  0.67096 172.27
 2200  0.84120 159.73  2.70406 55.910 0.066299 72.148  0.68613 169.93
 2400  0.84664 157.95  2.41014 52.344 0.071548 71.427  0.70100 168.21
 2600  0.84305 156.15  2.20320 49.172 0.078300 70.363  0.71086 166.65
 2800  0.83813 153.81  2.02870 44.252 0.083249 68.704  0.71545 164.63
 3000  0.84273 151.28  1.87564 40.717 0.089074 67.791  0.72265 162.11
