! Filename: 3_6125bfg21.001
! Title: BFG21W
! Bias: Vce=3.6V; Ic=125mA
! Company: Philips Semiconductors NL
! User: Quality&Reliability T&D
! Measure time: 10 Nov 1999 / 11:44:37
#  MHz  S  MA  R 50
! Freq       S11             S21             S12             S22    :
  100  0.64736 -166.2 46.74487 132.55 0.007798 56.242  0.64782 -87.79
  200  0.73662 -171.5 29.76037 111.99 0.010875 53.505  0.62190 -125.9
  300  0.76393 -175.3 21.03431 102.27 0.013212 56.721  0.61795 -143.2
  400  0.77638 -177.9 16.12860 96.138 0.015720 60.180  0.61951 -152.7
  500  0.78412 -179.9 13.03322 91.571 0.018245 63.199  0.62084 -158.9
  600  0.78900 178.26 10.87660 88.022 0.020845 65.440  0.62191 -163.2
  700  0.79294 176.63  9.33736 85.134 0.023554 67.368  0.62245 -166.5
  800  0.79646 175.10  8.14970 82.585 0.026357 68.885  0.62395 -169.3
  900  0.80093 173.64  7.22586 80.463 0.029202 70.479  0.62698 -171.8
 1000  0.80601 172.25  6.48695 78.210 0.032276 71.073  0.63092 -174.0
 1200  0.81496 169.75  5.32213 73.953 0.037998 72.085  0.64076 -177.5
 1400  0.82035 167.72  4.46745 69.394 0.043500 72.374  0.64936 179.68
 1600  0.82266 165.52  3.89880 65.817 0.049864 72.549  0.65387 177.07
 1800  0.82070 163.10  3.48613 62.398 0.056620 72.505  0.66162 174.38
 2000  0.82893 161.24  3.06635 59.736 0.062035 73.054  0.67315 171.62
 2200  0.84475 159.35  2.71588 56.301 0.066995 72.736  0.68782 169.33
 2400  0.84979 157.57  2.42124 52.786 0.072259 71.909  0.70233 167.64
 2600  0.84584 155.76  2.21454 49.637 0.079008 70.763  0.71167 166.07
 2800  0.84083 153.45  2.03994 44.745 0.083970 69.043  0.71593 164.10
 3000  0.84507 150.92  1.88671 41.241 0.089840 68.077  0.72271 161.62
