! Filename:       BFG25AXD.S2P             Version:   2.0
! Philips part #: BFG25A/X                                   Date: May 1990
! Bias condition: Vce=1V, Ic=1mA
!
#  MHz  S  MA  R  50
! Freq       S11            S21            S12            S22     !GUM [dB]
   40    .938   -2.2   3.065  177.1    .007   85.2    .995   -1.7 !    39.4
  100    .935   -5.3   3.055  172.8    .016   86.6    .994   -4.2 !    37.7
  200    .924  -10.4   3.000  166.3    .033   82.5    .986   -8.3 !    33.4
  300    .905  -15.5   2.958  159.8    .048   79.7    .975  -12.4 !    29.9
  400    .885  -20.4   2.903  153.7    .063   76.2    .964  -16.2 !    27.3
  500    .857  -25.1   2.817  147.7    .078   73.5    .949  -20.0 !    24.8
  600    .828  -29.3   2.717  141.9    .090   71.3    .935  -23.4 !    22.7
  700    .803  -33.2   2.613  136.7    .102   69.1    .921  -26.6 !    21.0
  800    .771  -36.9   2.513  131.4    .114   67.2    .904  -29.5 !    19.3
  900    .739  -40.1   2.421  126.7    .124   65.2    .887  -32.3 !    17.8
 1000    .700  -43.3   2.334  121.6    .134   62.9    .868  -34.9 !    16.4
 1200    .640  -49.2   2.167  112.7    .152   59.0    .833  -39.8 !    14.1
 1400    .589  -54.7   2.010  105.0    .167   56.8    .808  -44.7 !    12.5
 1600    .552  -59.3   1.881   99.0    .185   54.5    .793  -49.1 !    11.4
 1800    .516  -62.2   1.777   93.0    .198   52.5    .774  -52.5 !    10.3
 2000    .470  -64.9   1.646   86.5    .208   50.4    .751  -55.7 !     9.0
 2200    .429  -67.9   1.530   81.3    .219   48.6    .721  -59.5 !     7.8
 2400    .392  -72.5   1.476   76.5    .232   45.8    .700  -64.6 !     7.0
 2600    .367  -76.7   1.422   70.7    .246   43.5    .696  -69.3 !     6.6
 2800    .352  -79.3   1.341   65.8    .256   42.2    .702  -72.7 !     6.1
 3000    .328  -80.1   1.292   64.1    .267   42.0    .697  -75.3 !     5.6
! Noise data:
! Freq.     Fmin        Gamma-opt         rn
  500       1.70     .850     5.00       2.40
 1000       1.80     .780     14.0       2.60
 2000       2.20     .720     38.0       1.90
