! Filename: 3_250bfg21.001
! Title: BFG21W
! Bias: Vce=3.2V; Ic=50mA
! Company: Philips Semiconductors NL
! User: Quality&Reliability T&D
! Measure time: 10 Nov 1999 / 11:42:27
#  MHz  S  MA  R 50
! Freq       S11             S21             S12             S22    :
  100  0.51887 -146.1 41.44258 135.17 0.012119 50.883  0.69794 -76.16
  200  0.66893 -160.2 27.29130 114.37 0.016343 42.304  0.63126 -114.9
  300  0.71717 -167.3 19.55428 103.87 0.018369 41.662  0.60980 -134.2
  400  0.73837 -171.6 15.06774 97.131 0.020073 43.756  0.60411 -145.3
  500  0.75037 -174.7 12.21135 92.104 0.021722 46.565  0.60276 -152.4
  600  0.75841 -177.2 10.20357 88.149 0.023559 49.363  0.60284 -157.4
  700  0.76409 -179.3  8.76112 84.910 0.025503 52.151  0.60332 -161.2
  800  0.76943 178.78  7.64231 82.049 0.027521 54.734  0.60486 -164.4
  900  0.77480 177.05  6.76721 79.633 0.029712 57.390  0.60813 -167.1
 1000  0.78126 175.43  6.07160 77.166 0.032139 59.271  0.61242 -169.4
 1200  0.79266 172.58  4.97440 72.461 0.036822 62.333  0.62374 -173.3
 1400  0.80094 170.27  4.16990 67.537 0.041567 64.390  0.63490 -176.4
 1600  0.80546 167.95  3.62894 63.652 0.047240 66.119  0.64271 -179.1
 1800  0.80552 165.46  3.23450 60.021 0.053474 67.342  0.65211 178.05
 2000  0.81469 163.45  2.83807 57.060 0.058507 68.705  0.66545 175.11
 2200  0.83150 161.38  2.50795 53.353 0.063261 69.251  0.68234 172.61
 2400  0.83872 159.49  2.23005 49.584 0.068380 69.047  0.69996 170.72
 2600  0.83675 157.59  2.03377 46.265 0.074959 68.502  0.71156 169.01
 2800  0.83355 155.24  1.86891 41.232 0.080020 67.202  0.71794 166.89
 3000  0.83874 152.64  1.72420 37.579 0.085899 66.619  0.72700 164.26
