! Filename: 4125bfg21.001
! Title: BFG21W
! Bias: Vce=4V; Ic=125mA
! Company: Philips Semiconductors NL
! User: Quality&Reliability T&D
! Measure time: 10 Nov 1999 / 11:45:57
#  MHz  S  MA  R 50
! Freq       S11             S21             S12             S22    :
  100  0.63904 -166.6 46.27089 133.94 0.007831 54.212  0.61413 -87.52
  200  0.72913 -171.4 29.90438 113.05 0.010857 52.732  0.60467 -125.7
  300  0.75842 -175.1 21.23451 103.01 0.013218 56.077  0.60592 -143.0
  400  0.77167 -177.7 16.30643 96.693 0.015682 59.597  0.60993 -152.6
  500  0.78016 -179.8 13.18876 92.007 0.018216 62.681  0.61266 -158.7
  600  0.78506 178.43 11.01080 88.371 0.020830 64.829  0.61427 -163.0
  700  0.78908 176.79  9.45491 85.427 0.023518 67.120  0.61532 -166.3
  800  0.79284 175.21  8.25286 82.811 0.026242 68.605  0.61729 -169.1
  900  0.79735 173.76  7.31874 80.635 0.029078 70.065  0.62057 -171.6
 1000  0.80246 172.38  6.57096 78.359 0.032121 70.790  0.62473 -173.7
 1200  0.81140 169.85  5.39013 74.031 0.037796 71.907  0.63496 -177.2
 1400  0.81740 167.82  4.52466 69.435 0.043316 72.243  0.64380 179.93
 1600  0.82012 165.65  3.94870 65.804 0.049590 72.454  0.64867 177.35
 1800  0.81797 163.26  3.53072 62.365 0.056423 72.572  0.65677 174.67
 2000  0.82655 161.36  3.10442 59.676 0.061763 73.007  0.66848 171.90
 2200  0.84230 159.45  2.75021 56.191 0.066762 72.760  0.68340 169.62
 2400  0.84760 157.67  2.45116 52.643 0.071962 71.921  0.69828 167.93
 2600  0.84376 155.88  2.24165 49.472 0.078734 70.846  0.70797 166.38
 2800  0.83901 153.57  2.06458 44.569 0.083676 69.100  0.71254 164.42
 3000  0.84327 151.05  1.90963 41.053 0.089580 68.131  0.71966 161.93
