! Filename: 3_650bfg21.001
! Title: BFG21W
! Bias: Vce=3.6V; Ic=50mA
! Company: Philips Semiconductors NL
! User: Quality&Reliability T&D
! Measure time: 10 Nov 1999 / 11:43:58
#  MHz  S  MA  R 50
! Freq       S11             S21             S12             S22    :
  100  0.50662 -146.3 41.45271 136.28 0.011920 48.802  0.66309 -75.41
  200  0.65959 -159.9 27.55918 115.31 0.016221 41.506  0.61165 -114.3
  300  0.71032 -167.0 19.82220 104.56 0.018310 41.140  0.59562 -133.7
  400  0.73290 -171.3 15.29848 97.656 0.020001 43.431  0.59234 -144.8
  500  0.74573 -174.5 12.40735 92.504 0.021699 46.033  0.59232 -152.0
  600  0.75387 -177.0 10.37336 88.463 0.023412 49.017  0.59311 -157.0
  700  0.75980 -179.1  8.90599 85.144 0.025324 51.913  0.59422 -160.8
  800  0.76544 178.99  7.77203 82.217 0.027384 54.531  0.59625 -163.9
  900  0.77121 177.26  6.88211 79.758 0.029563 57.223  0.59998 -166.6
 1000  0.77767 175.65  6.17475 77.259 0.031935 59.089  0.60477 -169.0
 1200  0.78913 172.76  5.05750 72.475 0.036593 62.321  0.61674 -172.8
 1400  0.79767 170.48  4.24058 67.489 0.041290 64.382  0.62833 -176.0
 1600  0.80250 168.16  3.68733 63.538 0.046921 66.170  0.63644 -178.6
 1800  0.80279 165.64  3.28638 59.884 0.053110 67.428  0.64651 178.55
 2000  0.81176 163.65  2.88205 56.881 0.058216 68.924  0.66015 175.59
 2200  0.82967 161.58  2.54695 53.136 0.062903 69.377  0.67752 173.10
 2400  0.83667 159.67  2.26432 49.324 0.068117 69.231  0.69572 171.18
 2600  0.83523 157.75  2.06395 45.959 0.074684 68.727  0.70795 169.47
 2800  0.83200 155.41  1.89645 40.915 0.079715 67.434  0.71490 167.35
 3000  0.83781 152.81  1.74887 37.251 0.085600 66.839  0.72412 164.73
