! Filename: 3_625bfg21.001
! Title: BFG21W
! Bias: Vce=3.6V; Ic=25mA
! Company: Philips Semiconductors NL
! User: Quality&Reliability T&D
! Measure time: 10 Nov 1999 / 11:43:45
#  MHz  S  MA  R 50
! Freq       S11             S21             S12             S22    :
  100  0.44610 -103.9 33.16875 140.57 0.017489 49.498  0.73085 -62.54
  200  0.60011 -139.2 23.87577 118.34 0.024178 37.042  0.62942 -99.96
  300  0.66077 -153.1 17.60912 106.33 0.026658 32.061  0.58636 -120.8
  400  0.69005 -160.5 13.70041 98.545 0.027949 30.964  0.57069 -133.5
  500  0.70763 -165.7 11.17252 92.695 0.028780 31.233  0.56518 -141.8
  600  0.71939 -169.4  9.35743 88.056 0.029491 32.682  0.56373 -147.6
  700  0.72765 -172.3  8.03473 84.238 0.030191 34.811  0.56444 -152.0
  800  0.73390 -174.8  7.00380 80.856 0.031042 37.320  0.56699 -155.6
  900  0.74227 -177.1  6.18906 77.974 0.032029 40.290  0.57151 -158.6
 1000  0.75052 -179.1  5.54434 75.119 0.033278 42.933  0.57755 -161.3
 1200  0.76569 177.38  4.52738 69.679 0.035844 47.920  0.59350 -165.7
 1400  0.77852 174.62  3.78368 64.123 0.038796 52.366  0.60999 -169.2
 1600  0.78676 172.02  3.27309 59.749 0.043146 56.540  0.62347 -172.2
 1800  0.78976 169.30  2.90073 55.767 0.048277 59.999  0.63755 -175.4
 2000  0.80104 167.00  2.53038 52.322 0.052702 63.131  0.65424 -178.6
 2200  0.82008 164.69  2.22581 48.215 0.057116 65.011  0.67536 178.43
 2400  0.83023 162.49  1.96837 44.068 0.062071 66.020  0.69789 176.08
 2600  0.83144 160.40  1.78310 40.502 0.068633 66.511  0.71492 174.00
 2800  0.83094 157.91  1.63393 35.286 0.073765 65.890  0.72555 171.61
 3000  0.83746 155.19  1.49898 31.483 0.079865 65.939  0.73705 168.73
