! Filename: 3_2150bfg21.001
! Title: BFG21W
! Bias: Vce=3.2V; Ic=150mA
! Company: Philips Semiconductors NL
! User: Quality&Reliability T&D
! Measure time: 10 Nov 1999 / 11:43:19
#  MHz  S  MA  R 50
! Freq       S11             S21             S12             S22    :
  100  0.67867 -167.9 46.93081 130.73 0.007293 59.416  0.66350 -90.36
  200  0.75530 -173.0 29.34630 110.67 0.010258 56.920  0.63365 -128.1
  300  0.77789 -176.4 20.63837 101.38 0.012729 59.756  0.62894 -144.9
  400  0.78852 -178.9 15.79595 95.485 0.015318 63.540  0.63027 -154.2
  500  0.79506 179.23 12.75226 91.079 0.017976 66.035  0.63117 -160.1
  600  0.79918 177.53 10.63581 87.661 0.020739 68.019  0.63175 -164.3
  700  0.80290 175.96  9.12926 84.875 0.023584 69.768  0.63193 -167.6
  800  0.80596 174.48  7.96787 82.404 0.026457 71.028  0.63330 -170.3
  900  0.81013 173.04  7.06607 80.337 0.029397 72.377  0.63620 -172.7
 1000  0.81474 171.72  6.34486 78.143 0.032512 72.851  0.64002 -174.9
 1200  0.82312 169.24  5.20448 73.983 0.038306 73.375  0.64921 -178.3
 1400  0.82807 167.22  4.36893 69.483 0.043980 73.388  0.65723 178.87
 1600  0.83003 165.05  3.81338 65.980 0.050379 73.407  0.66108 176.26
 1800  0.82739 162.66  3.41298 62.606 0.057240 73.244  0.66843 173.59
 2000  0.83603 160.83  3.00205 60.028 0.062843 73.554  0.67995 170.86
 2200  0.85096 158.94  2.65982 56.630 0.067704 73.135  0.69385 168.61
 2400  0.85542 157.17  2.37202 53.163 0.073011 72.209  0.70747 166.92
 2600  0.85126 155.35  2.17060 50.058 0.079795 71.041  0.71625 165.37
 2800  0.84558 153.00  1.99911 45.198 0.084737 69.217  0.71988 163.39
 3000  0.84965 150.50  1.85036 41.732 0.090562 68.178  0.72644 160.93
