! Filename:       BFG25AXH.S2P            Version:   2.0
! Philips part #: BFG25A/X                                   Date: May 1990
! Bias condition: Vce=3V, Ic=0.5mA
!
#  MHz  S  MA  R  50
! Freq       S11            S21            S12            S22     !GUM [dB]
   40    .970   -1.3   1.698  177.8    .007   86.7    .999   -1.3 !    42.4
  100    .969   -3.5   1.694  174.7    .016   87.5    .998   -3.4 !    40.5
  200    .963   -6.9   1.677  169.9    .032   84.4    .994   -6.7 !    35.4
  300    .956  -10.6   1.672  165.1    .047   81.8    .990  -10.1 !    32.1
  400    .947  -14.0   1.668  160.5    .062   79.3    .986  -13.3 !    29.8
  500    .936  -17.3   1.647  156.0    .078   77.3    .981  -16.6 !    27.5
  600    .923  -20.6   1.622  151.2    .091   75.2    .975  -19.7 !    25.6
  700    .911  -23.6   1.594  147.0    .104   73.3    .970  -22.7 !    24.0
  800    .894  -26.6   1.570  142.4    .117   71.6    .961  -25.5 !    22.1
  900    .877  -29.5   1.546  138.3    .130   69.5    .951  -28.2 !    20.4
 1000    .850  -32.5   1.527  133.6    .142   67.4    .941  -31.0 !    18.6
 1200    .813  -38.0   1.485  125.1    .164   62.8    .915  -36.4 !    16.0
 1400    .775  -43.4   1.432  117.5    .183   59.6    .896  -41.6 !    14.2
 1600    .745  -48.2   1.389  111.3    .204   57.1    .885  -46.6 !    13.0
 1800    .714  -51.9   1.354  105.1    .220   53.8    .866  -50.6 !    11.8
 2000    .671  -55.7   1.288   98.0    .230   50.9    .838  -54.2 !    10.1
 2200    .626  -59.6   1.227   92.2    .243   48.3    .805  -58.6 !     8.5
 2400    .585  -64.2   1.207   86.7    .258   44.8    .781  -63.9 !     7.5
 2600    .561  -68.9   1.191   80.2    .273   41.4    .776  -68.9 !     7.2
 2800    .543  -72.4   1.138   74.7    .281   40.0    .779  -72.5 !     6.7
 3000    .513  -74.0   1.112   72.9    .293   39.9    .767  -75.3 !     6.1
! Noise data:
! Freq.     Fmin        Gamma-opt         rn
  500       1.50     .880     4.00       3.00
 1000       1.60     .800     13.0       3.20
 2000       1.80     .790     37.0       2.20
