! Filename: 4100bfg21.001
! Title: BFG21W
! Bias: Vce=4V; Ic=100mA
! Company: Philips Semiconductors NL
! User: Quality&Reliability T&D
! Measure time: 10 Nov 1999 / 11:45:44
#  MHz  S  MA  R 50
! Freq       S11             S21             S12             S22    :
  100  0.61061 -164.4 45.01493 135.24 0.008377 51.594  0.60234 -85.02
  200  0.71291 -169.8 29.51011 114.27 0.011722 49.395  0.59711 -123.5
  300  0.74688 -173.8 21.07744 103.91 0.014040 52.412  0.59952 -141.3
  400  0.76231 -176.7 16.22277 97.367 0.016355 56.025  0.60405 -151.2
  500  0.77156 -178.9 13.13679 92.527 0.018685 59.228  0.60700 -157.5
  600  0.77748 179.19 10.97572 88.759 0.021140 61.739  0.60909 -161.9
  700  0.78190 177.46  9.42694 85.699 0.023721 64.055  0.61055 -165.3
  800  0.78625 175.84  8.23083 82.998 0.026340 66.082  0.61269 -168.2
  900  0.79108 174.34  7.29799 80.752 0.029061 67.673  0.61617 -170.7
 1000  0.79651 172.94  6.55124 78.423 0.032000 68.716  0.62035 -172.9
 1200  0.80627 170.37  5.37497 73.990 0.037523 70.132  0.63096 -176.5
 1400  0.81230 168.29  4.51067 69.309 0.042884 70.870  0.64060 -179.4
 1600  0.81557 166.08  3.93475 65.615 0.049122 71.429  0.64598 178.04
 1800  0.81392 163.71  3.51594 62.140 0.055756 71.689  0.65425 175.36
 2000  0.82269 161.79  3.09088 59.372 0.061058 72.249  0.66648 172.53
 2200  0.83887 159.85  2.73702 55.852 0.066059 72.157  0.68159 170.22
 2400  0.84428 158.06  2.43900 52.258 0.071299 71.386  0.69730 168.51
 2600  0.84097 156.23  2.22937 49.027 0.077992 70.437  0.70743 166.92
 2800  0.83689 153.95  2.05320 44.114 0.082905 68.769  0.71232 164.94
 3000  0.84136 151.40  1.89753 40.547 0.088880 67.838  0.71972 162.42
