! Filename: 31BFG310WXR.s2p
! Title: BFG310WXR,RN20042071,Lot:TT3082,B:X1104,Sl.:3
! Bias: VCE=2.999V; IC=0.9993mA;
! Company: Philips Semiconductors NL
! User: Q&R DSC-N
! Measure time: 29 Mar 2004 / 13:20:22
#  MHz  S  MA  R 50
! Freq       S11             S21             S12             S22    :
   40  0.95920 -1.531  3.38495 178.21 0.004334 89.146  0.99857 -1.103
   50  0.95927 -1.960  3.37886 177.79 0.005438 88.279  0.99853 -1.343
  100  0.95815 -3.872  3.37345 175.88 0.010852 86.715  0.99747 -2.736
  200  0.95438 -7.744  3.36047 171.87 0.021449 83.600  0.99438 -5.495
  300  0.94825 -11.60  3.34895 167.86 0.032067 80.562  0.98916 -8.195
  400  0.94043 -15.44  3.32802 163.92 0.042511 77.518  0.98218 -10.90
  500  0.92956 -19.26  3.30424 159.98 0.052678 74.549  0.97333 -13.59
  600  0.91676 -23.05  3.27968 156.01 0.062530 71.600  0.96323 -16.26
  700  0.90308 -26.85  3.25035 152.17 0.072068 68.718  0.95140 -18.90
  800  0.88750 -30.62  3.21077 148.34 0.081340 65.958  0.93906 -21.50
  900  0.86934 -34.32  3.16890 144.54 0.090074 63.168  0.92510 -24.09
 1000  0.85067 -38.02  3.13156 140.80 0.098536 60.509  0.91082 -26.57
 1100  0.83201 -41.70  3.08331 137.14  0.10661 57.868  0.89515 -29.06
 1200  0.81109 -45.28  3.03158 133.53  0.11419 55.282  0.87944 -31.58
 1300  0.78984 -48.81  2.98087 129.95  0.12152 52.880  0.86392 -34.03
 1400  0.76915 -52.45  2.92936 126.56  0.12802 50.516  0.84793 -36.38
 1500  0.74941 -55.90  2.87355 123.12  0.13420 48.155  0.83187 -38.69
 1600  0.72864 -59.37  2.83007 119.88  0.14036 45.806  0.81599 -41.05
 1700  0.70808 -62.92  2.77239 116.73  0.14554 43.745  0.80073 -43.29
 1800  0.68827 -66.45  2.71713 113.42  0.15064 41.581  0.78589 -45.38
 1900  0.67005 -69.87  2.67765 110.46  0.15548 39.519  0.77068 -47.50
 2000  0.65201 -73.40  2.61922 107.51  0.15968 37.669  0.75635 -49.66
 2100  0.63557 -76.95  2.57392 104.52  0.16363 35.785  0.74369 -51.67
 2200  0.62070 -80.40  2.52749 101.93  0.16707 34.075  0.73026 -53.56
 2300  0.60737 -83.83  2.47504 99.106  0.17012 32.346  0.71737 -55.48
 2400  0.59433 -87.21  2.43548 96.403  0.17320 30.553  0.70542 -57.43
 2500  0.58174 -90.69  2.38891 93.970  0.17585 29.102  0.69449 -59.25
 2600  0.57202 -94.09  2.34247 91.239  0.17771 27.524  0.68346 -60.98
 2700  0.56251 -97.42  2.31451 88.758  0.17997 25.820  0.67301 -62.79
 2800  0.55438 -100.7  2.27170 86.599  0.18226 24.509  0.66359 -64.57
 2900  0.54500 -104.1  2.22228 84.085  0.18353 23.204  0.65586 -66.22
 3000  0.53897 -107.2  2.19689 81.758  0.18515 21.800  0.64702 -67.84
