! Filename: 33BFG310WXR.s2p
! Title: BFG310WXR,RN20042071,Lot:TT3082,B:X1104,Sl.:3
! Bias: VCE=2.999V; IC=3.000mA;
! Company: Philips Semiconductors NL
! User: Q&R DSC-N
! Measure time: 29 Mar 2004 / 13:21:14
#  MHz  S  MA  R 50
! Freq       S11             S21             S12             S22    :
   40  0.89139 -2.845  8.34761 177.10 0.004202 88.095  0.99561 -1.688
   50  0.89159 -3.595  8.32839 176.46 0.005249 87.451  0.99537 -2.112
  100  0.88837 -7.161  8.29313 173.50 0.010455 85.176  0.99237 -4.314
  200  0.87708 -14.27  8.19213 167.28 0.020588 80.707  0.98225 -8.580
  300  0.85955 -21.23  8.05500 161.22 0.030365 76.257  0.96567 -12.71
  400  0.83678 -28.06  7.85500 155.33 0.039562 72.048  0.94410 -16.64
  500  0.81006 -34.68  7.63564 149.68 0.048143 68.148  0.91864 -20.43
  600  0.77957 -41.07  7.40001 144.22 0.055916 64.454  0.89074 -23.99
  700  0.74773 -47.33  7.14344 139.07 0.062936 61.074  0.86046 -27.27
  800  0.71517 -53.33  6.86839 134.19 0.069402 57.959  0.83054 -30.36
  900  0.68123 -59.06  6.59495 129.58 0.075026 55.103  0.80061 -33.25
 1000  0.64918 -64.73  6.33657 125.20 0.080161 52.508  0.77122 -35.88
 1100  0.61885 -70.19  6.07213 121.08 0.084799 50.117  0.74205 -38.35
 1200  0.58894 -75.46  5.81533 117.19 0.088841 47.952  0.71435 -40.76
 1300  0.56037 -80.57  5.57535 113.43 0.092638 46.024  0.68927 -43.00
 1400  0.53545 -85.73  5.34651 109.97 0.095889 44.313  0.66551 -45.02
 1500  0.51276 -90.62  5.12627 106.63 0.098714 42.764  0.64264 -46.96
 1600  0.49127 -95.54  4.93398 103.45  0.10151 41.182  0.62151 -48.90
 1700  0.47170 -100.4  4.73671 100.50  0.10394 40.010  0.60299 -50.70
 1800  0.45573 -105.2  4.55083 97.494  0.10613 38.840  0.58543 -52.32
 1900  0.44078 -109.9  4.39967 94.794  0.10828 37.681  0.56874 -53.92
 2000  0.42876 -114.5  4.23200 92.156  0.11028 36.847  0.55386 -55.63
 2100  0.41871 -119.1  4.08803 89.535  0.11205 35.950  0.54096 -57.12
 2200  0.41069 -123.5  3.95532 87.226  0.11379 35.236  0.52890 -58.53
 2300  0.40404 -127.7  3.81808 84.820  0.11537 34.618  0.51689 -59.99
 2400  0.39869 -131.7  3.70402 82.474  0.11676 33.902  0.50664 -61.51
 2500  0.39511 -135.8  3.58809 80.400  0.11841 33.396  0.49789 -62.93
 2600  0.39279 -139.6  3.47599 78.087  0.11957 32.976  0.48917 -64.22
 2700  0.39125 -143.1  3.38893 75.954  0.12082 32.330  0.48119 -65.67
 2800  0.39002 -146.5  3.29235 74.100  0.12246 31.937  0.47486 -67.07
 2900  0.38855 -150.0  3.19196 72.051  0.12360 31.658  0.47019 -68.43
 3000  0.38914 -152.8  3.11980 70.065  0.12494 31.224  0.46421 -69.74
