! Filename: 34BFG310WXR.s2p
! Title: BFG310WXR,RN20042071,Lot:TT3082,B:X1104,Sl.:3
! Bias: VCE=2.999V; IC=3.999mA;
! Company: Philips Semiconductors NL
! User: Q&R DSC-N
! Measure time: 29 Mar 2004 / 13:21:40
#  MHz  S  MA  R 50
! Freq       S11             S21             S12             S22    :
   40  0.86273 -3.405 10.16556 176.67 0.004148 87.958  0.99375 -1.911
   50  0.86266 -4.301 10.14345 175.95 0.005183 87.165  0.99342 -2.389
  100  0.85862 -8.587 10.08680 172.52 0.010313 84.569  0.98966 -4.872
  200  0.84363 -17.08  9.91754 165.41 0.020179 79.439  0.97561 -9.717
  300  0.82136 -25.33  9.68062 158.53 0.029603 74.571  0.95302 -14.26
  400  0.79236 -33.30  9.36159 151.92 0.038280 70.022  0.92452 -18.58
  500  0.75955 -41.03  9.00163 145.71 0.046110 65.953  0.89193 -22.55
  600  0.72313 -48.36  8.62741 139.83 0.053062 62.188  0.85727 -26.22
  700  0.68758 -55.41  8.23027 134.38 0.059229 58.788  0.82184 -29.47
  800  0.65186 -62.13  7.82737 129.33 0.064703 55.803  0.78631 -32.49
  900  0.61635 -68.54  7.44091 124.60 0.069416 53.174  0.75249 -35.23
 1000  0.58347 -74.78  7.08130 120.18 0.073668 50.802  0.72081 -37.63
 1100  0.55400 -80.80  6.72767 116.07 0.077418 48.740  0.68990 -39.86
 1200  0.52536 -86.56  6.39346 112.26 0.080722 46.925  0.66145 -41.99
 1300  0.49905 -92.18  6.08733 108.58 0.083783 45.325  0.63622 -43.99
 1400  0.47690 -97.76  5.80098 105.23 0.086502 44.003  0.61281 -45.72
 1500  0.45746 -103.1  5.52835 102.02 0.088867 42.840  0.59075 -47.38
 1600  0.43980 -108.3  5.29347 98.968 0.091198 41.649  0.57074 -49.07
 1700  0.42445 -113.6  5.05936 96.147 0.093374 40.812  0.55357 -50.63
 1800  0.41282 -118.7  4.84099 93.290 0.095235 40.002  0.53740 -52.01
 1900  0.40213 -123.5  4.66102 90.726 0.097173 39.230  0.52223 -53.41
 2000  0.39378 -128.3  4.46970 88.216 0.099125 38.720  0.50905 -54.92
 2100  0.38764 -132.9  4.30340 85.738  0.10079 38.157  0.49770 -56.24
 2200  0.38344 -137.2  4.15144 83.530  0.10255 37.707  0.48729 -57.50
 2300  0.38071 -141.4  3.99831 81.262  0.10417 37.388  0.47668 -58.81
 2400  0.37846 -145.3  3.86867 79.021  0.10566 36.973  0.46818 -60.22
 2500  0.37767 -149.2  3.73915 77.066  0.10749 36.701  0.46092 -61.51
 2600  0.37804 -152.7  3.61562 74.852  0.10881 36.544  0.45361 -62.72
 2700  0.37880 -155.9  3.51733 72.818  0.11021 36.130  0.44702 -64.10
 2800  0.37972 -159.0  3.41156 71.045  0.11212 35.914  0.44208 -65.43
 2900  0.38005 -162.2  3.30339 69.095  0.11354 35.833  0.43869 -66.75
 3000  0.38233 -164.8  3.22266 67.182  0.11511 35.543  0.43394 -68.03
