! Filename: 32BFG310WXR.s2p
! Title: BFG310WXR,RN20042071,Lot:TT3082,B:X1104,Sl.:3
! Bias: VCE=2.999V; IC=1.999mA;
! Company: Philips Semiconductors NL
! User: Q&R DSC-N
! Measure time: 29 Mar 2004 / 13:20:48
#  MHz  S  MA  R 50
! Freq       S11             S21             S12             S22    :
   40  0.92371 -2.238  6.11352 177.60 0.004258 88.466  0.99710 -1.422
   50  0.92358 -2.824  6.10222 177.07 0.005351 87.699  0.99697 -1.777
  100  0.92124 -5.623  6.08262 174.60 0.010635 85.840  0.99489 -3.602
  200  0.91387 -11.24  6.03409 169.43 0.021004 82.003  0.98857 -7.200
  300  0.90191 -16.73  5.97581 164.31 0.031213 78.191  0.97780 -10.71
  400  0.88641 -22.19  5.88614 159.29 0.040973 74.458  0.96382 -14.14
  500  0.86707 -27.57  5.78288 154.37 0.050341 70.938  0.94637 -17.51
  600  0.84429 -32.84  5.67031 149.54 0.059106 67.502  0.92691 -20.77
  700  0.82007 -38.03  5.54505 144.89 0.067292 64.209  0.90520 -23.88
  800  0.79389 -43.08  5.40031 140.40 0.074982 61.128  0.88273 -26.89
  900  0.76563 -48.01  5.25222 136.05 0.081929 58.148  0.85887 -29.78
 1000  0.73740 -52.87  5.10942 131.84 0.088418 55.405  0.83575 -32.48
 1100  0.70978 -57.61  4.95294 127.83 0.094383 52.786  0.81080 -35.10
 1200  0.68156 -62.19  4.79673 123.96 0.099755 50.300  0.78623 -37.68
 1300  0.65353 -66.68  4.64589 120.17  0.10477 48.055  0.76383 -40.15
 1400  0.62790 -71.23  4.49824 116.66  0.10909 45.952  0.74159 -42.42
 1500  0.60356 -75.57  4.35049 113.20  0.11305 43.947  0.71970 -44.61
 1600  0.57982 -79.90  4.22366 109.92  0.11685 41.938  0.69916 -46.83
 1700  0.55743 -84.25  4.08437 106.82  0.12003 40.313  0.68033 -48.90
 1800  0.53782 -88.58  3.95207 103.64  0.12297 38.640  0.66259 -50.78
 1900  0.51943 -92.75  3.84628 100.79  0.12580 37.060  0.64502 -52.66
 2000  0.50248 -97.02  3.72076 97.985  0.12827 35.747  0.62901 -54.59
 2100  0.48808 -101.2  3.61463 95.183  0.13045 34.420  0.61508 -56.33
 2200  0.47550 -105.4  3.51480 92.711  0.13248 33.247  0.60121 -57.96
 2300  0.46508 -109.4  3.40834 90.137  0.13415 32.177  0.58776 -59.64
 2400  0.45516 -113.3  3.32143 87.637  0.13576 31.000  0.57602 -61.34
 2500  0.44711 -117.4  3.23000 85.402  0.13746 30.134  0.56558 -62.92
 2600  0.44073 -121.1  3.14086 82.925  0.13850 29.268  0.55515 -64.39
 2700  0.43585 -124.7  3.07496 80.630  0.13971 28.209  0.54567 -65.97
 2800  0.43095 -128.3  2.99676 78.646  0.14131 27.463  0.53754 -67.52
 2900  0.42623 -131.9  2.91265 76.426  0.14214 26.817  0.53113 -68.97
 3000  0.42407 -135.0  2.85645 74.300  0.14322 26.050  0.52368 -70.38
