! Filename: 3_240BFG480.001
! Title: BFG480W
! Bias: Vce=3.2V; Ic=40mA
! Company: Philips Semiconductors NL
! User: Quality&Reliability T&D
! Measure time: 10 Nov 1999 / 11:56:47
#  MHz  S  MA  R 50
! Freq       S11             S21             S12             S22    :
  100  0.28623 -112.5 44.71319 151.30 0.008498 67.251  0.82968 -36.10
  200  0.46382 -135.9 36.12251 131.12 0.013606 55.897  0.68929 -64.16
  300  0.55101 -148.7 28.68684 118.15 0.016510 51.094  0.58362 -83.85
  400  0.59654 -156.6 23.21463 109.32 0.018397 49.786  0.51891 -98.15
  500  0.62355 -162.3 19.34605 102.83 0.019949 50.184  0.47919 -108.9
  600  0.64004 -166.6 16.45021 97.779 0.021423 51.363  0.45380 -117.2
  700  0.65115 -170.1 14.27542 93.734 0.022928 53.347  0.43642 -123.7
  800  0.66003 -173.0 12.55678 90.270 0.024457 55.238  0.42479 -129.2
  900  0.66860 -175.6 11.16560 87.313 0.026131 57.574  0.41759 -133.9
 1000  0.67736 -178.0 10.05495 84.566 0.028023 59.322  0.41440 -138.2
 1200  0.69439 178.08  8.31620 79.438 0.031615 62.347  0.41708 -145.3
 1400  0.70737 175.14  7.05320 74.476 0.035499 64.726  0.42511 -150.6
 1600  0.71418 172.42  6.15223 70.458 0.040025 66.900  0.43075 -154.6
 1800  0.71565 169.53  5.47050 66.981 0.045171 68.601  0.43704 -158.7
 2000  0.72631 166.98  4.84198 63.885 0.049432 70.197  0.44650 -163.4
 2200  0.74619 164.53  4.32129 60.217 0.053660 70.895  0.46552 -167.5
 2400  0.75888 162.55  3.87458 56.441 0.058311 71.046  0.48973 -170.3
 2600  0.76102 160.77  3.54180 53.053 0.064192 71.023  0.50871 -172.0
 2800  0.75778 158.42  3.28561 48.588 0.068778 70.080  0.51787 -174.1
 3000  0.76287 155.67  3.05079 45.123 0.074065 69.779  0.52554 -177.2
