! Filename: 3_630BFG480.001
! Title: BFG480W
! Bias: Vce=3.6V; Ic=30mA
! Company: Philips Semiconductors NL
! User: Quality&Reliability T&D
! Measure time: 10 Nov 1999 / 11:59:35
#  MHz  S  MA  R 50
! Freq       S11             S21             S12             S22    :
  100  0.29278 -81.98 39.93057 153.60 0.009360 65.504  0.83999 -32.51
  200  0.43664 -118.8 33.45656 134.08 0.015313 54.677  0.71065 -58.58
  300  0.52364 -137.2 27.24861 120.81 0.018630 48.615  0.60511 -77.45
  400  0.57275 -147.7 22.31916 111.57 0.020675 46.288  0.53657 -91.43
  500  0.60308 -155.2 18.76501 104.68 0.022137 45.485  0.49247 -102.2
  600  0.62148 -160.7 16.03587 99.298 0.023397 46.156  0.46337 -110.5
  700  0.63388 -164.9 13.95384 94.970 0.024642 47.597  0.44329 -117.2
  800  0.64388 -168.4 12.29699 91.274 0.025903 49.449  0.42941 -122.9
  900  0.65309 -171.5 10.94531 88.126 0.027205 51.573  0.42051 -127.8
 1000  0.66256 -174.3  9.86546 85.213 0.028769 53.443  0.41579 -132.3
 1200  0.68109 -178.8  8.17057 79.783 0.031705 57.021  0.41682 -139.8
 1400  0.69561 177.87  6.93769 74.596 0.034972 60.093  0.42422 -145.6
 1600  0.70379 174.92  6.04759 70.423 0.039147 62.962  0.43042 -149.9
 1800  0.70626 171.82  5.37456 66.826 0.043761 65.466  0.43671 -154.2
 2000  0.71711 169.07  4.75580 63.545 0.047798 67.535  0.44584 -159.2
 2200  0.73752 166.45  4.24575 59.746 0.051787 68.743  0.46493 -163.6
 2400  0.75121 164.31  3.80666 55.827 0.056257 69.341  0.48990 -166.7
 2600  0.75503 162.39  3.47716 52.313 0.061949 69.753  0.51039 -168.8
 2800  0.75264 160.00  3.22709 47.799 0.066607 69.093  0.52076 -171.0
 3000  0.75810 157.19  2.99510 44.254 0.071793 69.067  0.52894 -174.2
