! Filename: 41bfg403.001
! BFG403W Field A1
! V1=8.415E-001V,V2=4.000E+000V, I1=1.119E-005A, I2=1.000E-003A
# GHz   S   MA   R 50
!                S11              S21              S12              S22
!Freq(GHz)  Mag     Ang      Mag     Ang      Mag     Ang      Mag     Ang 
   0.040    0.960  -0.848    3.150 177.365    0.000  28.176    0.997  -0.579
   0.100    0.961  -2.370    3.069 176.313    0.001  88.090    0.997  -1.771
   0.200    0.961  -4.710    3.056 173.393    0.003  83.245    0.995  -3.709
   0.300    0.958  -6.976    3.055 171.443    0.004  83.033    0.995  -5.523
   0.400    0.956  -9.054    3.065 167.643    0.005  81.280    0.993  -7.431
   0.500    0.952 -11.834    3.069 164.543    0.007  78.972    0.991  -9.226
   0.600    0.948 -14.129    3.048 161.557    0.008  77.129    0.989 -11.035
   0.700    0.944 -16.356    3.027 158.659    0.009  76.140    0.986 -12.933
   0.800    0.939 -18.770    3.016 155.756    0.010  74.210    0.983 -14.713
   0.900    0.933 -21.004    3.008 152.870    0.012  72.564    0.980 -16.574
   1.000    0.927 -23.348    3.001 149.830    0.013  71.072    0.976 -18.405
   1.100    0.920 -25.624    2.987 147.001    0.014  69.572    0.972 -20.164
   1.200    0.913 -27.915    2.976 144.051    0.015  68.177    0.968 -21.991
   1.300    0.905 -30.193    2.959 141.365    0.016  66.578    0.963 -23.769
   1.400    0.897 -32.400    2.945 138.321    0.017  64.988    0.958 -25.518
   1.500    0.888 -34.728    2.933 135.527    0.018  63.327    0.953 -27.268
   1.600    0.879 -37.012    2.918 132.575    0.019  61.939    0.947 -28.999
   1.700    0.869 -39.255    2.902 129.756    0.020  60.535    0.942 -30.755
   1.800    0.859 -41.521    2.877 126.875    0.021  59.011    0.935 -32.485
   1.900    0.849 -43.649    2.852 124.185    0.022  57.779    0.930 -34.214
   2.000    0.839 -45.808    2.825 121.418    0.023  56.482    0.923 -35.932
   2.200    0.817 -50.203    2.782 115.959    0.025  54.100    0.910 -39.326
   2.400    0.793 -54.558    2.740 110.580    0.026  51.923    0.896 -42.676
   2.600    0.771 -58.882    2.690 105.353    0.028  49.941    0.881 -46.009
   2.800    0.747 -63.142    2.639 100.155    0.029  48.135    0.865 -49.259
   3.000    0.725 -67.423    2.594  95.087    0.030  46.414    0.849 -52.554
   3.500    0.663 -78.363    2.484  82.448    0.034  43.072    0.807 -60.634
   4.000    0.607 -89.582    2.377  70.126    0.037  40.404    0.762 -68.721
   4.500    0.555 -101.648    2.291  58.127    0.042  37.913    0.715 -76.912
   5.000    0.504 -114.690    2.208  45.909    0.047  34.431    0.661 -85.264
   5.500    0.456 -128.903    2.109  33.367    0.051  30.176    0.601 -93.543
   6.000    0.425 -145.205    2.044  20.648    0.061  23.579    0.542 -103.722
   6.500    0.396 -159.190    1.938   9.576    0.067  25.671    0.493 -111.672
   7.000    0.334 -175.345    1.730  -2.555    0.056  27.044    0.396 -115.363
   7.500    0.382 167.109    1.783 -14.078    0.093  17.124    0.387 -133.884
   8.000    0.400 145.875    1.711 -28.394    0.107   2.599    0.316 -154.260
   8.500    0.409 126.070    1.579 -42.224    0.112  -9.270    0.238 -176.674
   9.000    0.435 108.069    1.475 -55.552    0.125 -20.222    0.210 154.072
   9.500    0.462  90.111    1.340 -68.957    0.130 -34.629    0.212 116.855
  10.000    0.488  74.134    1.221 -83.110    0.134 -48.130    0.261  84.041
  10.500    0.514  58.499    1.075 -97.266    0.133 -63.582    0.328  59.019
  11.000    0.523  43.937    0.916 -110.494    0.123 -78.854    0.398  39.075
  11.500    0.541  31.092    0.782 -123.384    0.115 -93.852    0.468  23.426
  12.000    0.542  17.954    0.640 -135.393    0.095 -112.313    0.524   8.403
!     DEEMBEDDED NOISE DATA
!FREQUENCY    FMIN    GAMMA OPT        Rn
!  (GHz)      (dB)    Mag    Ang   (NORMALIZED)
