! Filename: 3_2140BFG480.001
! Title: BFG480W
! Bias: Vce=3.2V; Ic=140mA
! Company: Philips Semiconductors NL
! User: Quality&Reliability T&D
! Measure time: 10 Nov 1999 / 11:58:47
#  MHz  S  MA  R 50
! Freq       S11             S21             S12             S22    :
  100  0.58308 -164.2 39.27505 142.64 0.005868 66.945  0.62028 -48.64
  200  0.67839 -168.4 29.68917 121.84 0.008895 60.392  0.50266 -83.25
  300  0.71380 -172.4 23.14830 110.31 0.011017 61.127  0.43657 -104.5
  400  0.73050 -175.4 18.54368 102.66 0.013062 63.521  0.40585 -118.2
  500  0.73879 -177.9 15.43955 97.183 0.015122 66.060  0.39104 -127.7
  600  0.74576 -180.0 13.09926 92.897 0.017250 68.194  0.38275 -134.5
  700  0.75032 178.16 11.38048 89.415 0.019487 70.157  0.37784 -139.6
  800  0.75440 176.39 10.00221 86.395 0.021735 71.724  0.37546 -143.8
  900  0.75977 174.73  8.89386 83.797 0.024131 73.444  0.37594 -147.4
 1000  0.76519 173.21  8.01259 81.301 0.026673 74.083  0.37915 -150.6
 1200  0.77593 170.46  6.61666 76.636 0.031485 75.368  0.39081 -155.7
 1400  0.78228 168.26  5.59821 71.984 0.036275 76.028  0.40394 -159.5
 1600  0.78549 165.95  4.88471 68.124 0.041785 76.530  0.41283 -162.5
 1800  0.78419 163.39  4.34608 64.684 0.047685 76.736  0.42274 -165.8
 2000  0.79386 161.36  3.84678 61.799 0.052641 77.205  0.43692 -169.7
 2200  0.81055 159.33  3.42845 58.301 0.057238 76.966  0.45792 -172.9
 2400  0.81663 157.54  3.06840 54.642 0.062246 76.284  0.48251 -175.0
 2600  0.81310 155.73  2.80167 51.268 0.068507 75.390  0.50174 -176.4
 2800  0.80748 153.37  2.59537 46.809 0.073286 73.921  0.51202 -178.1
 3000  0.81259 150.70  2.40982 43.368 0.078798 73.001  0.52109 179.10
