! Filename: 36bfg410.001
! BFG410W Field B1
! V1=8.573E-001V,V2=3.000E+000V, I1=8.479E-005A, I2=5.990E-003A
# GHz   S   MA   R 50
!                S11              S21              S12              S22
!Freq(GHz)  Mag     Ang      Mag     Ang      Mag     Ang      Mag     Ang 
   0.040    0.757  -2.157   15.145 176.293    0.001  69.506    0.986  -0.810
   0.100    0.764  -5.713   14.836 173.164    0.003  86.024    0.987  -2.937
   0.200    0.757 -11.508   14.587 166.985    0.005  81.503    0.976  -6.487
   0.300    0.745 -17.345   14.384 161.409    0.008  79.286    0.970  -9.542
   0.400    0.730 -22.714   14.132 155.304    0.010  76.063    0.958 -12.769
   0.500    0.711 -28.363   13.809 149.638    0.012  72.657    0.942 -15.546
   0.600    0.691 -33.554   13.424 144.261    0.015  69.960    0.928 -18.314
   0.700    0.669 -38.616   12.987 139.023    0.016  67.470    0.909 -21.065
   0.800    0.646 -43.576   12.581 133.965    0.018  65.258    0.891 -23.503
   0.900    0.621 -48.160   12.166 129.122    0.020  63.137    0.874 -25.906
   1.000    0.597 -52.627   11.723 124.466    0.022  61.247    0.855 -28.139
   1.100    0.573 -56.867   11.300 120.115    0.023  59.522    0.838 -30.210
   1.200    0.550 -60.983   10.881 115.839    0.025  58.047    0.821 -32.279
   1.300    0.527 -64.903   10.468 111.829    0.026  56.635    0.804 -34.101
   1.400    0.506 -68.709   10.089 107.995    0.027  55.387    0.788 -35.871
   1.500    0.484 -72.475    9.712 104.241    0.028  54.217    0.773 -37.611
   1.600    0.463 -76.154    9.364 100.658    0.030  53.336    0.758 -39.280
   1.700    0.444 -79.680    9.025  97.215    0.031  52.345    0.745 -40.909
   1.800    0.425 -83.124    8.696  93.889    0.032  51.526    0.732 -42.487
   1.900    0.409 -86.352    8.396  90.724    0.033  50.761    0.720 -44.092
   2.000    0.392 -89.643    8.103  87.618    0.035  50.043    0.708 -45.654
   2.200    0.361 -96.308    7.573  81.663    0.037  48.680    0.685 -48.687
   2.400    0.333 -102.876    7.099  75.982    0.039  47.518    0.664 -51.668
   2.600    0.308 -109.649    6.669  70.507    0.042  46.239    0.644 -54.681
   2.800    0.286 -116.490    6.285  65.288    0.045  44.957    0.625 -57.658
   3.000    0.265 -123.602    5.943  60.213    0.047  43.589    0.606 -60.690
   3.500    0.225 -143.375    5.215  48.094    0.055  39.770    0.561 -68.309
   4.000    0.200 -166.067    4.631  36.444    0.063  35.128    0.514 -76.139
   4.500    0.196 169.829    4.161  25.252    0.073  29.476    0.467 -84.624
   5.000    0.208 145.972    3.752  14.126    0.081  23.147    0.414 -93.286
   5.500    0.235 123.379    3.379   2.743    0.088  15.417    0.348 -102.134
   6.000    0.270 109.160    3.107  -7.357    0.100   9.452    0.304 -112.531
   6.500    0.307  93.393    2.806 -17.785    0.106   2.414    0.241 -121.913
   7.000    0.285  83.968    2.535 -23.119    0.112   7.892    0.243 -118.980
   7.500    0.382  76.657    2.440 -36.291    0.133  -7.485    0.176 -150.819
   8.000    0.446  66.421    2.268 -47.709    0.144 -18.141    0.134 173.906
   8.500    0.511  55.351    2.058 -59.886    0.150 -30.730    0.120 118.512
   9.000    0.560  45.643    1.864 -70.596    0.153 -40.692    0.157  81.397
   9.500    0.599  35.963    1.659 -81.008    0.149 -50.741    0.212  55.034
  10.000    0.651  28.850    1.527 -92.298    0.157 -60.954    0.291  41.867
  10.500    0.691  20.327    1.364 -103.213    0.157 -71.593    0.361  28.408
  11.000    0.728  11.536    1.198 -114.619    0.153 -84.883    0.438  15.455
  11.500    0.748   2.816    1.029 -125.393    0.142 -96.773    0.503   3.758
  12.000    0.763  -5.835    0.870 -136.144    0.131 -110.399    0.567  -7.705
!     DEEMBEDDED NOISE DATA
!FREQUENCY    FMIN    GAMMA OPT        Rn
!  (GHz)      (dB)    Mag    Ang   (NORMALIZED)
