! Filename: 21bfg410.001
! BFG410W Field B1
! V1=8.164E-001V,V2=2.000E+000V, I1=1.402E-005A, I2=1.000E-003A
# GHz   S   MA   R 50
!                S11              S21              S12              S22
!Freq(GHz)  Mag     Ang      Mag     Ang      Mag     Ang      Mag     Ang 
   0.040    0.945  -1.238    3.493 178.382    0.001  68.756    1.003  -0.533
   0.100    0.952  -3.283    3.434 176.706    0.003  89.839    1.002  -1.955
   0.200    0.951  -6.643    3.400 172.849    0.006  84.497    0.992  -4.775
   0.300    0.949 -10.127    3.413 170.615    0.010  82.840    0.994  -6.823
   0.400    0.945 -13.064    3.424 166.035    0.013  80.054    0.991  -9.448
   0.500    0.942 -16.619    3.419 162.803    0.016  77.238    0.984 -11.437
   0.600    0.939 -19.969    3.403 159.355    0.019  74.831    0.984 -13.708
   0.700    0.934 -23.261    3.372 155.824    0.022  72.130    0.977 -16.209
   0.800    0.929 -26.654    3.359 152.636    0.025  69.922    0.972 -18.332
   0.900    0.924 -29.902    3.354 149.279    0.028  67.448    0.967 -20.692
   1.000    0.916 -33.300    3.336 145.800    0.031  65.016    0.958 -22.929
   1.100    0.909 -36.552    3.321 142.602    0.034  62.720    0.952 -25.064
   1.200    0.901 -39.872    3.303 139.218    0.036  60.487    0.945 -27.338
   1.300    0.893 -43.131    3.280 136.133    0.039  58.182    0.935 -29.490
   1.400    0.885 -46.425    3.267 132.770    0.042  55.860    0.927 -31.622
   1.500    0.875 -49.808    3.249 129.528    0.044  53.519    0.918 -33.797
   1.600    0.864 -53.238    3.230 126.201    0.046  51.370    0.909 -35.865
   1.700    0.854 -56.487    3.212 123.004    0.048  49.179    0.899 -37.996
   1.800    0.843 -59.790    3.178 119.671    0.050  47.033    0.888 -40.099
   1.900    0.834 -63.010    3.147 116.640    0.053  44.996    0.879 -42.146
   2.000    0.822 -66.241    3.111 113.492    0.054  42.991    0.868 -44.197
   2.200    0.798 -72.849    3.052 107.196    0.058  39.126    0.846 -48.215
   2.400    0.774 -79.567    2.996 101.007    0.061  35.342    0.823 -52.185
   2.600    0.749 -86.104    2.929  94.996    0.064  31.791    0.800 -56.116
   2.800    0.723 -92.845    2.860  88.967    0.066  28.404    0.776 -59.946
   3.000    0.698 -99.564    2.794  83.070    0.069  25.182    0.752 -63.794
   3.500    0.634 -117.119    2.633  68.412    0.073  17.993    0.690 -73.201
   4.000    0.575 -135.397    2.467  53.997    0.077  11.684    0.628 -82.406
   4.500    0.528 -154.764    2.311  40.223    0.081   6.341    0.567 -91.859
   5.000    0.490 -175.379    2.151  26.571    0.084   0.874    0.503 -101.567
   5.500    0.465 162.977    1.979  12.747    0.086  -6.090    0.431 -111.830
   6.000    0.465 143.763    1.839   0.381    0.093  -8.367    0.378 -122.578
   6.500    0.467 124.325    1.672 -11.998    0.095 -13.277    0.312 -133.963
   7.000    0.445 111.798    1.508 -19.218    0.095   0.434    0.281 -135.008
   7.500    0.520  95.518    1.448 -33.319    0.119 -15.747    0.235 -162.238
   8.000    0.565  80.903    1.343 -45.657    0.131 -25.745    0.201 170.354
   8.500    0.608  66.993    1.219 -58.570    0.136 -38.329    0.180 132.362
   9.000    0.644  55.087    1.103 -70.073    0.139 -47.614    0.195 100.321
   9.500    0.670  43.920    0.973 -80.889    0.135 -57.377    0.233  73.231
  10.000    0.711  35.125    0.901 -92.422    0.144 -66.874    0.306  55.129
  10.500    0.740  25.693    0.804 -103.746    0.143 -77.214    0.372  39.425
  11.000    0.766  16.487    0.706 -115.834    0.140 -90.850    0.447  24.794
  11.500    0.779   7.683    0.604 -127.088    0.128 -103.057    0.515  11.948
  12.000    0.790  -1.061    0.514 -138.583    0.116 -117.426    0.581  -0.518
!     DEEMBEDDED NOISE DATA
!FREQUENCY    FMIN    GAMMA OPT        Rn
!  (GHz)      (dB)    Mag    Ang   (NORMALIZED)
