! Filename BFG424W_2V_10mA.prm
! Simulation_Values
!	! Created	by	janssen	on	Thu	Sep	15	10:02:03	WETDST	2005
!	Column ranking S11, S21,S12,S22 both magnitude and phase.									
!	VCE	=	2	V,	IC	=	10	mA		
!	Common	Emitter	S-Parameters							
#	GHz	S	MA	R	50					
	1.00E-01	0.653	-12.782	23.803	169.198	0.006	84.688	0.961	-6.824	
	2.00E-01	0.634	-25.417	23.106	159.116	0.011	77.015	0.935	-13.503	
	3.00E-01	0.604	-37.264	21.869	149.715	0.016	72.679	0.895	-19.537	
	4.00E-01	0.57	-48.596	20.616	141.272	0.02	67.716	0.848	-24.847	
	5.00E-01	0.532	-59.227	19.242	133.406	0.024	63.661	0.798	-29.336	
	6.00E-01	0.494	-69.191	17.898	126.461	0.027	60.398	0.748	-33.214	
	7.00E-01	0.461	-78.369	16.597	120.225	0.03	57.999	0.702	-36.355	
	8.00E-01	0.43	-87.156	15.418	114.638	0.032	56.137	0.66	-39.068	
	9.00E-01	0.404	-95.69	14.339	109.455	0.035	54.456	0.621	-41.509	
	1.00E+00	0.381	-103.592	13.364	104.833	0.037	53.273	0.587	-43.48	
	1.10E+00	0.362	-111.359	12.495	100.466	0.039	52.219	0.556	-45.322	
	1.20E+00	0.347	-118.817	11.713	96.426	0.041	51.279	0.528	-47.052
	1.30E+00	0.335	-126.068	11.006	92.616	0.043	50.436	0.502	-48.75
	1.40E+00	0.326	-133.251	10.363	89.047	0.045	49.588	0.479	-50.251
	1.50E+00	0.319	-140.019	9.79	85.643	0.047	49.013	0.457	-51.856
	1.60E+00	0.315	-146.659	9.26	82.396	0.049	48.373	0.436	-53.336
	1.70E+00	0.313	-152.81	8.793	79.307	0.051	47.913	0.418	-54.925
	1.80E+00	0.312	-158.879	8.352	76.31	0.053	47.169	0.399	-56.522
	1.90E+00	0.314	-164.601	7.962	73.47	0.055	46.597	0.381	-58.131
	2.00E+00	0.317	-170.053	7.596	70.593	0.057	45.956	0.365	-59.875
	2.10E+00	0.322	-175.131	7.27	67.933	0.06	45.353	0.35	-61.657
	2.20E+00	0.327	179.885	6.954	65.173	0.062	44.661	0.333	-63.609
	2.30E+00	0.333	175.342	6.669	62.618	0.064	44.071	0.319	-65.547
	2.40E+00	0.341	170.992	6.398	60.076	0.066	43.229	0.304	-67.67
	2.50E+00	0.349	167.093	6.159	57.666	0.068	42.536	0.29	-69.871
	2.60E+00	0.357	163.187	5.929	55.194	0.071	41.697	0.275	-72.276
	2.70E+00	0.366	159.467	5.709	52.729	0.073	41.076	0.262	-74.733
	2.80E+00	0.376	156.041	5.502	50.39	0.075	40.006	0.248	-77.643
	2.90E+00	0.386	152.862	5.309	47.985	0.077	39.2	0.235	-80.688
	3.00E+00	0.397	149.848	5.134	45.686	0.08	38.432	0.222	-84.01
	3.10E+00	0.408	146.856	4.962	43.388	0.082	37.471	0.21	-87.666
	3.20E+00	0.419	143.991	4.801	41.087	0.084	36.433	0.198	-91.611
	3.30E+00	0.43	141.36	4.65	38.82	0.087	35.445	0.187	-95.993
	3.40E+00	0.441	138.818	4.503	36.536	0.089	34.39	0.177	-100.862
	3.50E+00	0.453	136.373	4.367	34.278	0.092	33.26	0.167	-106.43
	3.60E+00	0.465	133.93	4.231	32.069	0.094	32.027	0.158	-112.548
	3.70E+00	0.476	131.785	4.098	29.903	0.096	30.964	0.15	-119.006
	3.80E+00	0.488	129.58	3.982	27.686	0.098	29.935	0.144	-126.152
	3.90E+00	0.499	127.554	3.862	25.553	0.101	28.627	0.14	-133.75
	4.00E+00	0.511	125.454	3.744	23.441	0.102	27.484	0.137	-141.715
	4.10E+00	0.522	123.523	3.641	21.277	0.104	26.348	0.136	-149.787
	4.20E+00	0.534	121.638	3.535	19.29	0.107	25.207	0.138	-157.864
	4.30E+00	0.545	119.733	3.433	17.17	0.109	23.975	0.141	-165.617
	4.40E+00	0.556	117.971	3.334	15.16	0.11	22.715	0.146	-173.075
	4.50E+00	0.567	116.337	3.243	13.24	0.112	21.768	0.153	-179.855
	4.60E+00	0.578	114.645	3.148	11.166	0.115	20.426	0.162	173.846
	4.70E+00	0.588	112.962	3.066	9.226	0.116	19.06	0.171	167.921
	4.80E+00	0.598	111.388	2.978	7.365	0.118	18.01	0.18	162.765
	4.90E+00	0.609	109.886	2.897	5.364	0.12	16.851	0.192	158.041
	5.00E+00	0.618	108.287	2.821	3.503	0.122	15.448	0.203	153.607
	5.10E+00	0.627	106.812	2.743	1.787	0.123	14.208	0.215	149.75
	5.20E+00	0.636	105.487	2.669	-0.164	0.125	13.265	0.227	146.25
	5.30E+00	0.646	104.115	2.606	-1.933	0.127	11.96	0.24	142.847
	5.40E+00	0.654	102.647	2.531	-3.663	0.128	10.528	0.252	139.76
	5.50E+00	0.662	101.389	2.465	-5.499	0.129	9.48	0.264	136.934
	5.60E+00	0.671	100.208	2.408	-7.223	0.131	8.512	0.277	134.376
	5.70E+00	0.679	98.955	2.34	-8.823	0.132	7.096	0.29	131.952
	5.80E+00	0.687	97.667	2.281	-10.685	0.133	5.784	0.302	129.621
	5.90E+00	0.693	96.532	2.225	-12.244	0.134	4.875	0.314	127.51
	6.00E+00	0.701	95.456	2.164	-13.815	0.135	3.809	0.326	125.486
	6.10E+00	0.707	94.328	2.11	-15.478	0.137	2.54	0.338	123.537
	6.20E+00	0.714	93.301	2.064	-16.945	0.137	1.387	0.35	121.759
	6.30E+00	0.72	92.265	2.007	-18.464	0.138	0.542	0.361	120.153
	6.40E+00	0.726	91.277	1.961	-20.085	0.14	-0.492	0.373	118.514
	6.50E+00	0.731	90.315	1.915	-21.471	0.14	-1.743	0.384	117.01
	6.60E+00	0.737	89.337	1.867	-22.933	0.141	-2.717	0.395	115.615
	6.70E+00	0.743	88.473	1.823	-24.545	0.142	-3.357	0.406	114.275
	6.80E+00	0.747	87.55	1.783	-25.782	0.143	-4.591	0.417	112.815
	6.90E+00	0.752	86.594	1.736	-27.239	0.144	-5.845	0.427	111.571
	7.00E+00	0.757	85.793	1.699	-28.68	0.144	-6.528	0.436	110.388
	7.10E+00	0.761	85.01	1.661	-29.934	0.145	-7.239	0.447	109.195
	7.20E+00	0.765	84.186	1.62	-31.188	0.146	-8.447	0.455	108.136
	7.30E+00	0.768	83.426	1.587	-32.632	0.146	-9.395	0.465	107.109
	7.40E+00	0.772	82.75	1.551	-33.704	0.147	-9.987	0.474	106.195
	7.50E+00	0.776	82.01	1.515	-35.081	0.149	-10.977	0.483	105.09
	7.60E+00	0.779	81.268	1.484	-36.337	0.149	-12.209	0.491	104.14
	7.70E+00	0.782	80.616	1.452	-37.428	0.148	-12.905	0.5	103.28
	7.80E+00	0.784	80	1.417	-38.65	0.149	-13.498	0.508	102.5
	7.90E+00	0.787	79.413	1.393	-39.738	0.151	-14.581	0.516	101.578
	8.00E+00	0.789	78.693	1.362	-40.697	0.15	-15.542	0.523	100.877
	8.10E+00	0.791	78.196	1.333	-41.969	0.15	-16.048	0.531	100.205
	8.20E+00	0.793	77.689	1.309	-42.965	0.152	-16.524	0.539	99.438
	8.30E+00	0.795	77.143	1.282	-43.807	0.152	-17.643	0.545	98.725
	8.40E+00	0.797	76.661	1.256	-45.039	0.152	-18.359	0.552	98.157
	8.50E+00	0.799	76.252	1.237	-45.932	0.152	-18.672	0.56	97.512
	8.60E+00	0.801	75.763	1.211	-46.783	0.154	-19.316	0.566	96.867
	8.70E+00	0.802	75.277	1.189	-47.915	0.154	-20.276	0.572	96.368
	8.80E+00	0.803	74.888	1.171	-48.727	0.154	-20.669	0.579	95.797
	8.90E+00	0.805	74.552	1.146	-49.467	0.156	-20.864	0.585	95.197
	9.00E+00	0.805	74.125	1.13	-50.663	0.157	-21.878	0.59	94.6
	9.10E+00	0.807	73.858	1.113	-51.344	0.157	-22.632	0.595	94.109
	9.20E+00	0.808	73.641	1.089	-52.04	0.158	-22.819	0.601	93.607
	9.30E+00	0.81	73.412	1.073	-52.916	0.16	-23.204	0.605	93.051
	9.40E+00	0.811	73.146	1.063	-53.618	0.161	-24.178	0.608	92.533
	9.50E+00	0.813	72.852	1.041	-54.283	0.161	-24.729	0.611	92.219
	9.60E+00	0.817	72.686	1.028	-55.179	0.162	-24.872	0.614	91.799
	9.70E+00	0.82	72.199	1.019	-55.911	0.165	-25.515	0.615	91.524
	9.80E+00	0.818	71.422	1.003	-56.834	0.167	-26.609	0.617	91.482
	9.90E+00	0.812	71.239	0.987	-58.04	0.168	-27.566	0.621	91.452
	1.00E+01	0.809	71.372	0.971	-58.673	0.169	-28.516	0.626	91.332
	1.01E+01	0.81	71.396	0.95	-59.401	0.169	-29.7	0.629	91.351
	1.02E+01	0.813	71.298	0.941	-60.158	0.168	-30.467	0.633	91.237
	1.03E+01	0.815	71.197	0.928	-60.625	0.168	-30.871	0.637	91.2
	1.04E+01	0.816	71.066	0.913	-61.236	0.17	-31.308	0.641	91.166
	1.05E+01	0.817	70.806	0.907	-62.084	0.171	-32.309	0.643	91.081
	1.06E+01	0.818	70.648	0.899	-62.49	0.171	-33.208	0.647	91.151
	1.07E+01	0.819	70.567	0.886	-63.44	0.171	-33.714	0.651	91.328
	1.08E+01	0.82	70.613	0.878	-64.303	0.172	-34.825	0.655	91.426
	1.09E+01	0.822	70.65	0.868	-64.82	0.171	-35.92	0.66	91.55
	1.10E+01	0.826	70.639	0.851	-65.381	0.168	-36.201	0.666	91.619
	1.11E+01	0.832	70.456	0.845	-65.854	0.167	-35.74	0.67	91.457
	1.12E+01	0.834	70.03	0.838	-66.122	0.169	-35.955	0.672	91.427
	1.13E+01	0.835	69.509	0.831	-66.91	0.169	-36.273	0.674	91.574
	1.14E+01	0.83	68.941	0.826	-67.768	0.169	-36.086	0.678	91.782
	1.15E+01	0.823	68.892	0.816	-67.936	0.173	-35.586	0.68	91.857
	1.16E+01	0.814	68.817	0.811	-68.704	0.178	-37.15	0.684	92.514
	1.17E+01	0.809	69.252	0.803	-69.542	0.176	-38.954	0.691	92.687
	1.18E+01	0.815	69.44	0.796	-69.666	0.177	-38.872	0.695	92.929
	1.19E+01	0.811	68.856	0.79	-70.529	0.178	-39.634	0.703	93.256
	1.20E+01	0.8	68.771	0.791	-70.94	0.18	-40.716	0.713	93.322
	1.21E+01	0.795	69.099	0.788	-72.115	0.179	-42.803	0.719	92.933
	1.22E+01	0.789	69.121	0.777	-73.214	0.177	-42.914	0.723	92.978
	1.23E+01	0.783	70.026	0.774	-74.263	0.179	-44.873	0.727	92.618
	1.24E+01	0.787	70.214	0.76	-75.176	0.172	-46.623	0.73	92.659
	1.25E+01	0.784	70.178	0.753	-76.237	0.168	-47.492	0.734	92.45
	1.26E+01	0.779	70.365	0.726	-77.353	0.155	-45.304	0.723	91.564
	1.27E+01	0.77	70.756	0.71	-77.037	0.159	-42.702	0.712	92.319
	1.28E+01	0.765	71.309	0.7	-77.138	0.16	-42.061	0.708	93.266
	1.29E+01	0.763	71.911	0.691	-77.048	0.162	-41.334	0.707	94.353
	1.30E+01	0.76	72.585	0.686	-76.755	0.166	-40.717	0.71	95.214
	1.31E+01	0.755	73.188	0.681	-77.069	0.168	-41.572	0.713	96.289
	1.32E+01	0.753	73.646	0.678	-77.139	0.168	-42.094	0.723	97.054
	1.33E+01	0.75	74.218	0.67	-77.681	0.167	-41.916	0.727	97.171
	1.34E+01	0.747	75.175	0.662	-77.863	0.167	-42.089	0.732	98.317
	1.35E+01	0.744	75.709	0.661	-77.921	0.168	-42.66	0.74	98.48
	1.36E+01	0.743	76.469	0.651	-78.413	0.165	-42.829	0.746	98.889
	1.37E+01	0.744	77.15	0.644	-78.431	0.165	-41.488	0.746	99.262
	1.38E+01	0.743	77.952	0.645	-78.174	0.167	-42.021	0.752	99.749
	1.39E+01	0.74	78.561	0.638	-78.899	0.166	-42.256	0.749	100.352
	1.40E+01	0.742	79.371	0.632	-78.938	0.163	-41.567	0.754	100.973
	1.41E+01	0.742	80.083	0.629	-78.708	0.164	-40.153	0.753	101.471
	1.42E+01	0.735	81.216	0.622	-79.241	0.167	-40.691	0.753	102.488
	1.43E+01	0.733	82.045	0.618	-79.599	0.166	-40.937	0.757	103.439
	1.44E+01	0.732	82.876	0.613	-79.352	0.165	-40.005	0.762	104.185
	1.45E+01	0.729	84.168	0.608	-79.788	0.169	-40.272	0.763	105.195
	1.46E+01	0.725	85.427	0.6	-80.26	0.168	-41.443	0.767	106.344
	1.47E+01	0.726	86.175	0.595	-79.866	0.165	-40.782	0.772	107.192
	1.48E+01	0.723	87.397	0.587	-80.16	0.166	-39.975	0.776	108.098
	1.49E+01	0.721	88.969	0.585	-80.605	0.168	-41.085	0.777	109.331
	1.50E+01	0.72	90.285	0.577	-80.443	0.165	-41.448	0.786	110.451
!	Noise	data:							
!	Freq.	Fmin	Gamma-opt	rn					
	0.9	1.4	0.02	-63.9	0.24				
	2	1.6	0.06	137.4	0.19
