! Filename: 427bfg415.001
! BFG425W Field C1
! V1=8.367E-001V,V2=4.000E+000V, I1=3.438E-004A, I2=2.747E-002A
# GHz   S   MA   R 50
!                S11              S21              S12              S22
!Freq(GHz)  Mag     Ang      Mag     Ang      Mag     Ang      Mag     Ang 
   0.040    0.357  -7.169   39.212 172.820    0.002  60.489    0.913  -2.385
   0.100    0.359 -19.445   38.189 164.655    0.004  75.266    0.908  -8.239
   0.200    0.339 -38.242   35.592 151.239    0.008  72.861    0.864 -16.574
   0.300    0.315 -54.505   32.145 139.994    0.011  70.299    0.803 -23.178
   0.400    0.291 -69.610   28.765 130.255    0.013  67.445    0.742 -28.134
   0.500    0.271 -82.961   25.676 121.788    0.016  65.548    0.688 -31.913
   0.600    0.254 -94.340   22.973 114.970    0.018  64.597    0.641 -34.765
   0.700    0.241 -104.358   20.683 109.208    0.020  63.463    0.602 -36.981
   0.800    0.229 -113.943   18.734 103.941    0.022  62.758    0.569 -38.827
   0.900    0.221 -122.122   17.083  99.334    0.024  62.258    0.542 -40.481
   1.000    0.214 -129.799   15.661  95.165    0.027  61.621    0.519 -41.970
   1.100    0.209 -136.652   14.445  91.316    0.029  61.016    0.499 -43.399
   1.200    0.206 -143.048   13.389  87.751    0.031  60.437    0.482 -44.789
   1.300    0.204 -149.013   12.461  84.425    0.033  59.779    0.466 -46.076
   1.400    0.202 -154.686   11.654  81.321    0.035  59.166    0.452 -47.357
   1.500    0.203 -160.214   10.939  78.335    0.037  58.494    0.439 -48.604
   1.600    0.202 -165.345   10.300  75.470    0.039  57.663    0.428 -49.942
   1.700    0.203 -170.128    9.726  72.721    0.042  56.828    0.418 -51.280
   1.800    0.205 -174.697    9.215  70.061    0.044  55.987    0.408 -52.620
   1.900    0.206 -178.999    8.749  67.483    0.046  55.028    0.398 -54.101
   2.000    0.208 176.938    8.330  64.953    0.049  54.037    0.389 -55.570
   2.200    0.214 169.146    7.595  60.106    0.053  51.946    0.371 -58.560
   2.400    0.221 161.626    6.974  55.397    0.058  49.820    0.354 -61.590
   2.600    0.229 154.933    6.440  50.763    0.063  47.449    0.337 -64.774
   2.800    0.238 148.468    5.979  46.319    0.067  45.019    0.320 -67.969
   3.000    0.248 142.479    5.578  41.940    0.072  42.471    0.303 -71.337
   3.500    0.279 128.734    4.765  31.284    0.084  35.654    0.259 -80.144
   4.000    0.313 116.306    4.139  20.834    0.095  28.457    0.211 -89.789
   4.500    0.350 105.495    3.647  10.683    0.107  20.883    0.163 -101.290
   5.000    0.393  94.694    3.233   0.189    0.117  12.374    0.106 -117.932
   5.500    0.427  84.152    2.859  -9.395    0.124   5.249    0.055 -137.613
   6.000    0.472  74.631    2.559 -19.705    0.132  -3.661    0.038 127.705
   6.500    0.481  68.194    2.351 -26.613    0.145  -6.997    0.051 110.128
   7.000    0.518  61.425    2.177 -35.768    0.158 -14.633    0.102  91.181
   7.500    0.581  52.428    1.962 -47.336    0.161 -26.617    0.187  68.980
   8.000    0.618  45.211    1.799 -56.735    0.168 -34.525    0.244  59.517
   8.500    0.660  37.459    1.631 -66.734    0.172 -43.989    0.309  49.107
   9.000    0.690  29.416    1.459 -75.761    0.170 -52.322    0.364  38.588
   9.500    0.720  22.262    1.322 -84.397    0.170 -60.745    0.405  30.119
  10.000    0.751  15.496    1.208 -94.304    0.171 -70.125    0.465  23.772
  10.500    0.774   8.545    1.089 -103.812    0.170 -79.322    0.518  16.022
  11.000    0.793   1.264    0.965 -112.843    0.163 -89.040    0.562   7.219
  11.500    0.808  -5.878    0.862 -122.234    0.158 -98.980    0.604   0.150
  12.000    0.816 -13.074    0.750 -131.293    0.148 -109.335    0.644  -8.091
!     DEEMBEDDED NOISE DATA
!FREQUENCY    FMIN    GAMMA OPT        Rn
!  (GHz)      (dB)    Mag    Ang   (NORMALIZED)
