! Filename: 46bfg425.001
! BFG425W Field C1
! V1=8.248E-001V,V2=4.000E+000V, I1=6.283E-005A, I2=6.010E-003A
# GHz   S   MA   R 50
!                S11              S21              S12              S22
!Freq(GHz)  Mag     Ang      Mag     Ang      Mag     Ang      Mag     Ang 
   0.040    0.773  -3.912   17.054 175.518    0.002  49.499    0.965  -1.942
   0.100    0.776  -9.370   16.600 171.070    0.005  72.240    0.963  -5.139
   0.200    0.764 -18.786   16.285 163.167    0.010  72.673    0.950 -10.278
   0.300    0.743 -27.919   15.842 155.747    0.015  70.248    0.929 -15.142
   0.400    0.716 -36.866   15.320 148.301    0.019  66.138    0.903 -19.649
   0.500    0.686 -45.273   14.735 141.078    0.023  62.592    0.873 -23.816
   0.600    0.656 -53.347   14.012 134.658    0.027  59.372    0.841 -27.597
   0.700    0.626 -60.998   13.326 128.747    0.030  56.040    0.809 -31.060
   0.800    0.594 -68.430   12.656 122.968    0.032  53.436    0.777 -34.161
   0.900    0.564 -75.305   12.009 117.651    0.035  51.053    0.748 -37.026
   1.000    0.536 -81.925   11.374 112.621    0.037  49.001    0.720 -39.633
   1.100    0.511 -88.220   10.776 107.979    0.039  47.002    0.694 -42.034
   1.200    0.487 -94.281   10.220 103.552    0.041  45.348    0.669 -44.286
   1.300    0.466 -100.106    9.697  99.422    0.043  43.919    0.646 -46.375
   1.400    0.447 -105.811    9.219  95.505    0.044  42.630    0.625 -48.295
   1.500    0.428 -111.427    8.772  91.755    0.046  41.482    0.605 -50.106
   1.600    0.412 -116.985    8.365  88.128    0.047  40.419    0.587 -51.890
   1.700    0.398 -122.196    7.978  84.729    0.049  39.502    0.570 -53.610
   1.800    0.385 -127.337    7.624  81.423    0.050  38.657    0.554 -55.285
   1.900    0.374 -132.362    7.296  78.254    0.052  37.816    0.540 -56.978
   2.000    0.364 -137.237    6.990  75.189    0.053  37.028    0.525 -58.630
   2.200    0.348 -147.074    6.442  69.292    0.056  35.545    0.499 -61.883
   2.400    0.336 -156.567    5.966  63.628    0.059  34.150    0.475 -65.089
   2.600    0.329 -165.798    5.547  58.257    0.063  32.680    0.452 -68.379
   2.800    0.324 -174.796    5.179  53.060    0.066  31.208    0.430 -71.615
   3.000    0.323 176.628    4.854  48.008    0.069  29.596    0.408 -74.972
   3.500    0.332 156.430    4.180  35.901    0.079  25.147    0.357 -83.678
   4.000    0.353 138.406    3.649  24.234    0.088  19.926    0.305 -93.118
   4.500    0.382 122.902    3.225  13.069    0.098  14.096    0.254 -103.852
   5.000    0.420 108.429    2.866   1.710    0.107   6.783    0.195 -117.612
   5.500    0.449  95.304    2.536  -8.694    0.113   0.798    0.140 -130.707
   6.000    0.492  83.502    2.270 -19.682    0.121  -7.400    0.088 -161.033
   6.500    0.503  75.694    2.080 -27.218    0.134  -8.870    0.081 179.705
   7.000    0.541  67.330    1.921 -36.921    0.147 -15.822    0.096 137.321
   7.500    0.600  56.998    1.733 -48.938    0.151 -28.036    0.152  93.073
   8.000    0.635  48.956    1.586 -58.734    0.159 -35.632    0.207  76.461
   8.500    0.675  40.558    1.435 -69.161    0.163 -45.106    0.273  61.495
   9.000    0.702  32.218    1.280 -78.612    0.161 -53.417    0.328  48.197
   9.500    0.730  24.524    1.155 -87.468    0.162 -61.890    0.370  38.410
  10.000    0.759  17.443    1.054 -97.669    0.164 -71.425    0.436  30.981
  10.500    0.780  10.221    0.948 -107.562    0.162 -80.665    0.494  22.300
  11.000    0.797   2.871    0.837 -116.823    0.156 -90.658    0.541  12.645
  11.500    0.810  -4.385    0.745 -126.508    0.150 -100.892    0.586   5.047
  12.000    0.815 -11.525    0.647 -135.929    0.141 -111.749    0.630  -3.719
!     DEEMBEDDED NOISE DATA
!FREQUENCY    FMIN    GAMMA OPT        Rn
!  (GHz)      (dB)    Mag    Ang   (NORMALIZED)
