! Filename: 4_470BFG480.001
! Title: BFG480W
! Bias: Vce=4.4V; Ic=70mA
! Company: Philips Semiconductors NL
! User: Quality&Reliability T&D
! Measure time: 10 Nov 1999 / 12:06:25
#  MHz  S  MA  R 50
! Freq       S11             S21             S12             S22    :
  100  0.35164 -145.5 51.90278 149.39 0.006803 67.163  0.78202 -38.70
  200  0.50653 -152.8 40.57926 128.70 0.010653 58.137  0.63756 -68.16
  300  0.58000 -160.1 31.51170 115.93 0.013072 55.970  0.53653 -88.16
  400  0.61749 -165.3 25.22720 107.41 0.014985 56.510  0.47804 -102.4
  500  0.63939 -169.3 20.87413 101.23 0.016741 58.454  0.44342 -112.9
  600  0.65319 -172.4 17.67308 96.469 0.018494 60.164  0.42219 -120.8
  700  0.66247 -175.1 15.29560 92.646 0.020359 62.487  0.40787 -127.0
  800  0.67022 -177.4 13.43346 89.359 0.022346 64.466  0.39838 -132.2
  900  0.67793 -179.6 11.94002 86.556 0.024324 66.452  0.39303 -136.7
 1000  0.68617 178.44 10.74379 83.932 0.026601 67.878  0.39117 -140.7
 1200  0.70175 175.11  8.87757 79.029 0.030864 70.005  0.39615 -147.4
 1400  0.71330 172.63  7.52189 74.271 0.035247 71.512  0.40548 -152.3
 1600  0.71889 170.17  6.56224 70.365 0.040281 72.797  0.41133 -156.0
 1800  0.71963 167.48  5.83486 66.959 0.045738 73.741  0.41799 -159.9
 2000  0.73018 165.14  5.16547 63.985 0.050480 74.699  0.42851 -164.4
 2200  0.74995 162.90  4.61142 60.441 0.054824 74.784  0.44783 -168.3
 2400  0.76230 161.13  4.13715 56.759 0.059613 74.447  0.47249 -170.9
 2600  0.76332 159.48  3.78300 53.407 0.065636 73.992  0.49181 -172.4
 2800  0.75933 157.22  3.51055 49.030 0.070331 72.754  0.50104 -174.3
 3000  0.76428 154.52  3.25985 45.613 0.075639 72.086  0.50851 -177.3
