! Filename: 320bfg425.001
! BFG425W Field C1
! V1=8.504E-001V,V2=3.000E+000V, I1=2.641E-004A, I2=1.998E-002A
# GHz   S   MA   R 50
!                S11              S21              S12              S22
!Freq(GHz)  Mag     Ang      Mag     Ang      Mag     Ang      Mag     Ang 
   0.040    0.436  -6.331   35.575 173.463    0.002  65.521    0.942  -2.775
   0.100    0.439 -17.436   34.598 165.770    0.004  82.345    0.935  -8.281
   0.200    0.416 -34.594   32.569 153.114    0.008  75.889    0.894 -16.490
   0.300    0.387 -49.773   29.900 142.216    0.012  71.694    0.836 -23.282
   0.400    0.358 -63.974   27.112 132.561    0.015  68.075    0.776 -28.620
   0.500    0.330 -76.534   24.476 124.024    0.017  65.157    0.720 -32.802
   0.600    0.307 -87.507   22.067 117.067    0.020  63.261    0.670 -36.061
   0.700    0.288 -97.299   19.989 111.104    0.022  61.825    0.628 -38.690
   0.800    0.272 -106.645   18.183 105.659    0.024  60.806    0.591 -40.835
   0.900    0.258 -114.743   16.632 100.894    0.026  60.044    0.561 -42.747
   1.000    0.248 -122.378   15.286  96.571    0.028  59.281    0.535 -44.440
   1.100    0.240 -129.466   14.124  92.605    0.030  58.677    0.513 -46.019
   1.200    0.234 -135.967   13.111  88.923    0.032  58.061    0.493 -47.549
   1.300    0.229 -142.050   12.218  85.484    0.034  57.407    0.475 -48.948
   1.400    0.226 -147.929   11.438  82.275    0.037  56.807    0.459 -50.309
   1.500    0.224 -153.678   10.744  79.197    0.039  56.119    0.445 -51.634
   1.600    0.222 -158.890   10.124  76.255    0.041  55.342    0.432 -53.020
   1.700    0.221 -163.984    9.562  73.440    0.043  54.557    0.420 -54.420
   1.800    0.222 -168.792    9.065  70.712    0.045  53.694    0.409 -55.822
   1.900    0.222 -173.317    8.612  68.057    0.048  52.833    0.399 -57.336
   2.000    0.223 -177.617    8.201  65.485    0.050  51.927    0.389 -58.853
   2.200    0.227 174.071    7.479  60.501    0.054  49.955    0.369 -61.914
   2.400    0.233 166.279    6.870  55.709    0.059  47.885    0.351 -65.037
   2.600    0.240 159.090    6.346  51.013    0.064  45.633    0.333 -68.327
   2.800    0.248 152.295    5.892  46.489    0.068  43.254    0.315 -71.654
   3.000    0.258 145.923    5.497  42.038    0.073  40.769    0.297 -75.174
   3.500    0.287 131.490    4.695  31.227    0.085  34.097    0.252 -84.515
   4.000    0.321 118.394    4.077  20.654    0.097  27.000    0.204 -95.098
   4.500    0.357 107.100    3.591  10.386    0.108  19.477    0.157 -108.252
   5.000    0.400  96.017    3.182  -0.200    0.118  11.013    0.103 -128.801
   5.500    0.434  85.192    2.812  -9.871    0.125   3.911    0.057 -157.755
   6.000    0.478  75.496    2.515 -20.252    0.133  -4.987    0.057 123.872
   6.500    0.488  68.912    2.310 -27.229    0.146  -8.288    0.071 109.816
   7.000    0.525  61.822    2.135 -36.507    0.159 -15.922    0.122  92.375
   7.500    0.588  52.712    1.923 -48.099    0.162 -27.901    0.205  70.632
   8.000    0.624  45.361    1.762 -57.481    0.169 -35.883    0.261  60.683
   8.500    0.665  37.558    1.595 -67.509    0.172 -45.295    0.325  49.992
   9.000    0.694  29.533    1.425 -76.535    0.170 -53.587    0.379  39.390
   9.500    0.723  22.284    1.291 -85.189    0.170 -62.011    0.419  30.816
  10.000    0.753  15.476    1.177 -95.079    0.171 -71.416    0.478  24.212
  10.500    0.776   8.525    1.061 -104.663    0.169 -80.597    0.530  16.363
  11.000    0.794   1.236    0.939 -113.613    0.163 -90.294    0.572   7.532
  11.500    0.808  -5.928    0.839 -122.936    0.157 -100.261    0.613   0.426
  12.000    0.816 -13.121    0.730 -131.973    0.147 -110.567    0.652  -7.823
!     DEEMBEDDED NOISE DATA
!FREQUENCY    FMIN    GAMMA OPT        Rn
!  (GHz)      (dB)    Mag    Ang   (NORMALIZED)
