! Title: BFG480W
! Bias: Vce=3.2V; Ic=10mA
! Company: Philips Semiconductors NL
! User: Quality&Reliability T&D
! Measure time: 10 Nov 1999 / 11:56:12
#  MHz  S  MA  R 50
! Freq       S11             S21             S12             S22    :
  100  0.62393 -30.21 19.58499 159.85 0.014107 69.903  0.92595 -22.40
  200  0.61376 -58.29 17.73906 144.08 0.024770 57.094  0.83353 -42.28
  300  0.60509 -83.52 16.25105 131.13 0.031752 47.615  0.73693 -57.73
  400  0.61352 -101.6 14.21803 121.12 0.036038 40.544  0.66518 -70.21
  500  0.62046 -116.3 12.63158 112.83 0.038322 35.745  0.60829 -80.66
  600  0.62434 -127.9 11.26728 105.82 0.039769 32.637  0.56569 -88.86
  700  0.62986 -136.4 10.03270 100.27 0.040432 30.541  0.53503 -95.77
  800  0.63410 -143.4  9.00445 95.342 0.040728 29.405  0.51189 -101.7
  900  0.64058 -148.8  8.05091 91.303 0.040806 29.208  0.49584 -107.0
 1000  0.64827 -153.9  7.32513 87.628 0.040916 29.208  0.48471 -112.0
 1200  0.66631 -162.0  6.13093 80.839 0.040605 30.504  0.47585 -120.9
 1400  0.68383 -167.8  5.25083 74.518 0.040281 32.990  0.47852 -128.1
 1600  0.69579 -172.4  4.57496 69.567 0.040807 37.149  0.48410 -133.8
 1800  0.70046 -176.7  4.06515 65.470 0.042267 41.885  0.48882 -139.3
 2000  0.71037 179.38  3.59096 61.368 0.043562 46.760  0.49602 -145.1
 2200  0.73117 175.65  3.20484 56.862 0.045138 50.841  0.51298 -150.8
 2400  0.74777 172.51  2.86962 52.324 0.047928 54.455  0.53859 -155.3
 2600  0.75564 169.84  2.61232 48.404 0.052325 57.722  0.56237 -158.6
 2800  0.75741 166.96  2.42863 43.532 0.056186 59.471  0.57601 -161.6
 3000  0.76365 163.74  2.24689 39.641 0.060770 61.387  0.58534 -165.4
