! Filename: 450BFG480.001
! Title: BFG480W
! Bias: Vce=4V; Ic=50mA
! Company: Philips Semiconductors NL
! User: Quality&Reliability T&D
! Measure time: 10 Nov 1999 / 12:02:59
#  MHz  S  MA  R 50
! Freq       S11             S21             S12             S22    :
  100  0.29679 -128.5 48.14737 150.87 0.007593 66.131  0.80175 -36.47
  200  0.47067 -143.4 38.43186 130.62 0.012112 56.341  0.66388 -64.77
  300  0.55490 -153.6 30.28076 117.71 0.014738 53.014  0.56131 -84.48
  400  0.59866 -160.2 24.42583 108.94 0.016668 52.520  0.49940 -98.75
  500  0.62429 -165.1 20.30598 102.54 0.018309 53.643  0.46165 -109.4
  600  0.64018 -168.9 17.24472 97.562 0.019894 55.265  0.43764 -117.6
  700  0.65097 -172.1 14.95087 93.569 0.021541 57.229  0.42153 -124.0
  800  0.65974 -174.8 13.14457 90.138 0.023241 59.316  0.41066 -129.4
  900  0.66802 -177.2 11.68895 87.230 0.025031 61.629  0.40415 -134.1
 1000  0.67680 -179.4 10.52395 84.505 0.027125 63.183  0.40129 -138.3
 1200  0.69344 176.97  8.70161 79.456 0.031001 65.972  0.40493 -145.2
 1400  0.70609 174.24  7.37778 74.555 0.035049 67.952  0.41349 -150.5
 1600  0.71263 171.64  6.43609 70.564 0.039903 69.747  0.41938 -154.4
 1800  0.71396 168.83  5.72233 67.104 0.045122 71.133  0.42584 -158.4
 2000  0.72462 166.35  5.06440 64.035 0.049682 72.368  0.43607 -163.1
 2200  0.74467 164.00  4.52226 60.426 0.053894 72.909  0.45484 -167.2
 2400  0.75752 162.12  4.05721 56.670 0.058651 72.821  0.47945 -169.9
 2600  0.75949 160.41  3.70934 53.295 0.064559 72.596  0.49888 -171.6
 2800  0.75590 158.12  3.44153 48.871 0.069312 71.581  0.50829 -173.6
 3000  0.76112 155.38  3.19570 45.412 0.074546 71.053  0.51601 -176.6
