! Filename: 39bfg425.001
! BFG425W Field C1
! V1=8.379E-001V,V2=3.000E+000V, I1=1.134E-004A, I2=9.010E-003A
# GHz   S   MA   R 50
!                S11              S21              S12              S22
!Freq(GHz)  Mag     Ang      Mag     Ang      Mag     Ang      Mag     Ang 
   0.040    0.667  -4.573   22.846 174.927    0.002  65.262    0.965  -2.350
   0.100    0.671 -11.635   22.296 169.379    0.005  80.843    0.962  -6.378
   0.200    0.653 -23.269   21.640 159.819    0.010  76.067    0.941 -12.657
   0.300    0.626 -34.170   20.699 151.174    0.014  71.870    0.908 -18.420
   0.400    0.593 -44.801   19.618 142.765    0.018  67.270    0.869 -23.564
   0.500    0.559 -54.669   18.465 134.747    0.022  63.218    0.827 -28.103
   0.600    0.526 -63.796   17.239 127.917    0.025  60.024    0.785 -32.016
   0.700    0.495 -72.233   16.085 121.804    0.027  57.191    0.745 -35.421
   0.800    0.465 -80.305   15.013 115.966    0.030  54.924    0.708 -38.392
   0.900    0.438 -87.638   14.023 110.717    0.032  53.066    0.675 -41.070
   1.000    0.414 -94.683   13.103 105.860    0.034  51.488    0.645 -43.459
   1.100    0.393 -101.318   12.273 101.396    0.036  50.156    0.618 -45.627
   1.200    0.375 -107.688   11.519  97.226    0.038  49.025    0.594 -47.658
   1.300    0.359 -113.743   10.837  93.321    0.039  48.054    0.571 -49.513
   1.400    0.345 -119.641   10.226  89.661    0.041  47.174    0.550 -51.234
   1.500    0.333 -125.403    9.667  86.171    0.043  46.391    0.532 -52.877
   1.600    0.322 -131.102    9.164  82.803    0.045  45.650    0.515 -54.505
   1.700    0.313 -136.394    8.697  79.630    0.046  44.930    0.499 -56.100
   1.800    0.305 -141.682    8.276  76.568    0.048  44.212    0.484 -57.659
   1.900    0.299 -146.692    7.891  73.615    0.050  43.498    0.471 -59.274
   2.000    0.294 -151.647    7.535  70.736    0.052  42.787    0.458 -60.880
   2.200    0.287 -161.388    6.908  65.235    0.056  41.294    0.434 -64.054
   2.400    0.283 -170.686    6.371  59.953    0.059  39.752    0.411 -67.235
   2.600    0.283 -179.531    5.902  54.840    0.063  38.059    0.390 -70.521
   2.800    0.285 172.057    5.494  49.940    0.068  36.239    0.369 -73.834
   3.000    0.290 164.050    5.135  45.154    0.072  34.301    0.349 -77.318
   3.500    0.309 145.843    4.404  33.618    0.082  28.892    0.300 -86.474
   4.000    0.336 129.767    3.832  22.435    0.093  22.760    0.250 -96.693
   4.500    0.371 115.962    3.380  11.641    0.104  16.047    0.200 -108.871
   5.000    0.411 102.929    2.997   0.647    0.113   8.138    0.144 -126.054
   5.500    0.443  90.787    2.649  -9.405    0.120   1.596    0.094 -145.388
   6.000    0.487  79.903    2.370 -20.121    0.127  -6.974    0.064 161.507
   6.500    0.497  72.618    2.174 -27.402    0.141  -9.381    0.070 140.532
   7.000    0.534  64.786    2.008 -36.918    0.154 -16.687    0.111 109.688
   7.500    0.595  55.060    1.809 -48.731    0.157 -28.785    0.185  79.871
   8.000    0.631  47.309    1.655 -58.333    0.164 -36.547    0.242  67.493
   8.500    0.671  39.095    1.498 -68.568    0.168 -45.966    0.307  55.150
   9.000    0.698  30.914    1.337 -77.812    0.166 -54.254    0.360  43.452
   9.500    0.726  23.416    1.209 -86.546    0.166 -62.650    0.401  34.398
  10.000    0.756  16.459    1.103 -96.624    0.168 -72.192    0.462  27.376
  10.500    0.778   9.386    0.993 -106.320    0.166 -81.350    0.517  19.161
  11.000    0.795   2.114    0.878 -115.413    0.159 -91.170    0.561   9.981
  11.500    0.809  -5.137    0.783 -124.956    0.153 -101.231    0.603   2.642
  12.000    0.815 -12.344    0.680 -134.194    0.144 -111.833    0.644  -5.815
!     DEEMBEDDED NOISE DATA
!FREQUENCY    FMIN    GAMMA OPT        Rn
!  (GHz)      (dB)    Mag    Ang   (NORMALIZED)
