! Filename: 113bfg410.001
! BFG410W Field B1
! V1=8.947E-001V,V2=1.000E+000V, I1=2.241E-004A, I2=1.299E-002A
# GHz   S   MA   R 50
!                S11              S21              S12              S22
!Freq(GHz)  Mag     Ang      Mag     Ang      Mag     Ang      Mag     Ang 
   0.040    0.531  -4.325   22.245 176.253    0.001  60.051    0.933  -0.985
   0.100    0.535 -10.834   21.896 170.715    0.003  85.552    0.935  -4.345
   0.200    0.518 -21.644   20.974 160.706    0.007  78.732    0.913 -10.027
   0.300    0.499 -30.828   20.426 152.411    0.009  75.457    0.892 -14.670
   0.400    0.473 -39.457   19.461 144.133    0.012  71.938    0.862 -19.018
   0.500    0.445 -49.159   18.340 136.670    0.015  68.258    0.827 -22.479
   0.600    0.417 -56.886   17.243 129.958    0.017  65.871    0.798 -25.711
   0.700    0.391 -64.251   16.097 123.746    0.019  63.510    0.765 -28.631
   0.800    0.366 -71.276   15.086 118.100    0.021  61.923    0.736 -31.028
   0.900    0.343 -77.472   14.153 112.909    0.022  60.485    0.710 -33.288
   1.000    0.321 -83.653   13.254 108.175    0.024  59.221    0.685 -35.281
   1.100    0.303 -89.438   12.456 103.816    0.025  58.254    0.664 -37.083
   1.200    0.286 -95.022   11.721  99.661    0.027  57.399    0.644 -38.855
   1.300    0.271 -100.423   11.048  95.822    0.028  56.749    0.625 -40.441
   1.400    0.258 -105.511   10.460  92.270    0.030  56.075    0.609 -41.912
   1.500    0.245 -110.969    9.906  88.798    0.032  55.372    0.594 -43.378
   1.600    0.234 -116.191    9.410  85.543    0.033  54.836    0.581 -44.827
   1.700    0.224 -121.299    8.951  82.397    0.035  54.219    0.568 -46.269
   1.800    0.216 -126.237    8.528  79.400    0.037  53.573    0.556 -47.686
   1.900    0.208 -131.182    8.143  76.497    0.038  52.908    0.545 -49.159
   2.000    0.202 -136.266    7.787  73.653    0.040  52.293    0.535 -50.622
   2.200    0.192 -146.272    7.160  68.275    0.043  50.871    0.515 -53.545
   2.400    0.185 -156.415    6.618  63.095    0.047  49.391    0.496 -56.471
   2.600    0.181 -166.279    6.145  58.045    0.051  47.677    0.477 -59.520
   2.800    0.181 -175.870    5.733  53.259    0.054  45.823    0.459 -62.527
   3.000    0.183 174.757    5.370  48.555    0.058  43.885    0.442 -65.692
   3.500    0.197 153.385    4.628  37.231    0.068  38.361    0.398 -73.800
   4.000    0.222 134.692    4.051  26.269    0.078  32.216    0.351 -82.291
   4.500    0.256 119.723    3.595  15.578    0.089  25.171    0.303 -91.768
   5.000    0.293 105.891    3.205   4.962    0.099  17.856    0.250 -101.756
   5.500    0.335  92.936    2.857  -5.772    0.106   9.662    0.187 -112.325
   6.000    0.374  83.767    2.605 -15.532    0.118   2.489    0.144 -127.859
   6.500    0.412  73.355    2.338 -25.471    0.123  -4.843    0.088 -146.428
   7.000    0.401  65.444    2.122 -30.830    0.131  -2.675    0.083 -135.487
   7.500    0.480  59.593    2.004 -43.449    0.148 -16.985    0.072 134.995
   8.000    0.535  51.608    1.846 -54.216    0.157 -27.113    0.123  92.362
   8.500    0.586  42.675    1.664 -65.482    0.160 -38.672    0.193  64.773
   9.000    0.626  34.526    1.504 -75.357    0.162 -48.080    0.253  49.747
   9.500    0.656  26.430    1.342 -85.064    0.158 -57.290    0.312  36.155
  10.000    0.696  20.206    1.231 -95.568    0.164 -66.892    0.381  27.600
  10.500    0.727  12.802    1.104 -105.624    0.163 -76.761    0.441  17.718
  11.000    0.757   5.148    0.976 -116.171    0.158 -88.761    0.506   7.720
  11.500    0.771  -2.416    0.849 -126.129    0.148 -99.314    0.561  -1.959
  12.000    0.784 -10.209    0.726 -136.317    0.138 -111.617    0.614 -11.694
!     DEEMBEDDED NOISE DATA
!FREQUENCY    FMIN    GAMMA OPT        Rn
!  (GHz)      (dB)    Mag    Ang   (NORMALIZED)
