! Filename: 280BFG480.001
! Title: BFG480W
! Bias: Vce=2V; Ic=80mA
! Company: Philips Semiconductors NL
! User: Quality&Reliability T&D
! Measure time: 10 Nov 1999 / 11:54:36
#  MHz  S  MA  R 50
! Freq       S11             S21             S12             S22    :
  100  0.50456 -156.6 42.63950 143.74 0.007154 67.395  0.71495 -48.99
  200  0.62085 -162.5 33.41367 123.63 0.010927 57.779  0.59127 -83.87
  300  0.66803 -167.9 26.03566 112.04 0.013287 56.716  0.51934 -105.8
  400  0.69312 -171.8 20.71167 104.30 0.015325 58.220  0.48383 -120.3
  500  0.70751 -174.8 17.08193 98.714 0.017314 60.196  0.46504 -130.4
  600  0.71761 -177.4 14.42722 94.396 0.019346 62.040  0.45411 -137.8
  700  0.72377 -179.6 12.47818 90.924 0.021481 64.102  0.44677 -143.4
  800  0.72852 178.42 10.94599 87.947 0.023722 65.870  0.44245 -148.0
  900  0.73543 176.56  9.72829 85.423 0.026055 67.561  0.44098 -151.9
 1000  0.74171 174.85  8.75470 83.000 0.028549 68.569  0.44197 -155.4
 1200  0.75342 171.87  7.22457 78.444 0.033248 70.189  0.44926 -160.9
 1400  0.76163 169.51  6.10982 73.881 0.037897 71.155  0.45828 -165.0
 1600  0.76545 167.10  5.33455 70.196 0.043314 71.922  0.46351 -168.3
 1800  0.76455 164.50  4.75583 66.915 0.049126 72.409  0.47005 -171.8
 2000  0.77402 162.31  4.20848 64.172 0.054028 72.885  0.48141 -175.6
 2200  0.79124 160.22  3.75174 60.813 0.058434 73.014  0.49859 -178.7
 2400  0.79876 158.47  3.36136 57.315 0.063175 72.460  0.51897 179.24
 2600  0.79665 156.70  3.07689 54.139 0.069321 71.759  0.53316 177.90
 2800  0.79062 154.37  2.84902 49.734 0.073940 70.394  0.53909 176.05
 3000  0.79610 151.70  2.64685 46.415 0.079211 69.565  0.54545 173.26
