! Filename: 250BFG480.001
! Title: BFG480W
! Bias: Vce=2V; Ic=50mA
! Company: Philips Semiconductors NL
! User: Quality&Reliability T&D
! Measure time: 10 Nov 1999 / 11:54:01
#  MHz  S  MA  R 50
! Freq       S11             S21             S12             S22    :
  100  0.37395 -137.1 44.32301 147.21 0.008712 67.252  0.78092 -44.63
  200  0.54307 -150.1 34.46431 126.65 0.013514 55.210  0.64581 -77.40
  300  0.61563 -159.0 26.67292 114.39 0.016088 51.532  0.55945 -99.05
  400  0.65158 -164.8 21.28219 106.24 0.018039 51.327  0.51311 -113.9
  500  0.67234 -169.1 17.59087 100.35 0.019787 52.579  0.48700 -124.6
  600  0.68482 -172.5 14.88374 95.797 0.021545 54.244  0.47121 -132.5
  700  0.69323 -175.3 12.88122 92.159 0.023351 56.170  0.46067 -138.6
  800  0.70020 -177.8 11.30974 89.025 0.025249 58.153  0.45385 -143.6
  900  0.70816 179.97 10.05299 86.405 0.027231 60.275  0.45042 -147.9
 1000  0.71463 177.96  9.04942 83.892 0.029438 61.721  0.44975 -151.7
 1200  0.72909 174.53  7.47416 79.201 0.033634 64.066  0.45525 -157.8
 1400  0.73923 171.88  6.32758 74.523 0.037891 65.786  0.46344 -162.4
 1600  0.74386 169.30  5.52631 70.787 0.042936 67.253  0.46802 -165.9
 1800  0.74419 166.54  4.92693 67.481 0.048386 68.382  0.47393 -169.6
 2000  0.75274 164.19  4.36048 64.675 0.052795 69.530  0.48369 -173.7
 2200  0.77162 161.92  3.88804 61.233 0.057175 69.907  0.50105 -177.1
 2400  0.78054 160.04  3.48533 57.716 0.061849 69.726  0.52171 -179.3
 2600  0.78017 158.25  3.19131 54.509 0.067766 69.377  0.53609 179.25
 2800  0.77486 155.92  2.95698 50.094 0.072309 68.201  0.54183 177.29
 3000  0.77927 153.22  2.74654 46.779 0.077481 67.737  0.54827 174.44
