! Filename: 26bfg425.001
! BFG425W Field C1
! V1=8.342E-001V,V2=2.000E+000V, I1=7.965E-005A, I2=6.010E-003A
# GHz   S   MA   R 50
!                S11              S21              S12              S22
!Freq(GHz)  Mag     Ang      Mag     Ang      Mag     Ang      Mag     Ang 
   0.040    0.747  -4.356   17.192 175.819    0.002  73.892    0.975  -2.227
   0.100    0.753 -10.135   16.818 170.965    0.006  84.263    0.972  -5.906
   0.200    0.740 -20.140   16.451 162.529    0.012  78.182    0.955 -11.900
   0.300    0.719 -29.805   15.968 154.742    0.017  73.466    0.931 -17.504
   0.400    0.692 -39.257   15.374 147.002    0.022  68.268    0.899 -22.730
   0.500    0.662 -48.362   14.715 139.643    0.027  63.849    0.863 -27.453
   0.600    0.632 -56.789   13.945 133.043    0.030  59.937    0.827 -31.786
   0.700    0.602 -64.797   13.203 126.975    0.034  56.346    0.789 -35.748
   0.800    0.572 -72.661   12.496 121.117    0.037  53.316    0.753 -39.270
   0.900    0.543 -79.820   11.818 115.748    0.039  50.672    0.719 -42.530
   1.000    0.516 -86.815   11.152 110.692    0.042  48.382    0.686 -45.474
   1.100    0.493 -93.287   10.538 106.047    0.044  46.306    0.657 -48.180
   1.200    0.472 -99.565    9.966 101.631    0.046  44.500    0.629 -50.723
   1.300    0.452 -105.656    9.434  97.502    0.048  42.975    0.603 -53.064
   1.400    0.435 -111.561    8.951  93.592    0.050  41.557    0.579 -55.224
   1.500    0.419 -117.337    8.504  89.857    0.051  40.304    0.557 -57.271
   1.600    0.405 -123.029    8.091  86.272    0.053  39.159    0.537 -59.255
   1.700    0.393 -128.397    7.708  82.865    0.055  38.127    0.518 -61.177
   1.800    0.382 -133.640    7.353  79.582    0.056  37.216    0.500 -63.024
   1.900    0.373 -138.697    7.030  76.426    0.058  36.281    0.484 -64.898
   2.000    0.365 -143.702    6.727  73.365    0.060  35.414    0.468 -66.723
   2.200    0.353 -153.575    6.188  67.490    0.063  33.702    0.439 -70.312
   2.400    0.345 -163.003    5.721  61.837    0.066  32.101    0.412 -73.854
   2.600    0.340 -172.014    5.311  56.488    0.070  30.474    0.387 -77.490
   2.800    0.339 179.215    4.950  51.321    0.074  28.749    0.363 -81.116
   3.000    0.340 170.833    4.633  46.275    0.077  26.986    0.341 -84.902
   3.500    0.354 151.568    3.978  34.195    0.087  22.012    0.287 -94.975
   4.000    0.377 134.407    3.463  22.570    0.097  16.424    0.235 -106.538
   4.500    0.408 119.590    3.053  11.426    0.107  10.270    0.185 -120.901
   5.000    0.446 105.607    2.705   0.138    0.116   2.746    0.135 -142.523
   5.500    0.475  92.946    2.390 -10.159    0.122  -3.389    0.094 -169.639
   6.000    0.517  81.419    2.134 -21.038    0.129 -11.569    0.088 140.230
   6.500    0.527  73.710    1.956 -28.556    0.142 -13.554    0.099 123.915
   7.000    0.564  65.301    1.802 -38.195    0.155 -20.640    0.144 102.431
   7.500    0.619  55.180    1.621 -49.969    0.158 -32.516    0.217  78.317
   8.000    0.653  47.243    1.480 -59.624    0.164 -40.026    0.272  66.528
   8.500    0.689  38.912    1.338 -69.831    0.168 -49.220    0.335  54.650
   9.000    0.715  30.692    1.194 -79.023    0.166 -57.311    0.386  43.360
   9.500    0.740  23.177    1.079 -87.683    0.165 -65.546    0.424  34.543
  10.000    0.767  16.222    0.985 -97.694    0.167 -74.816    0.484  27.420
  10.500    0.787   9.141    0.887 -107.299    0.165 -83.862    0.536  19.239
  11.000    0.802   1.909    0.785 -116.338    0.158 -93.474    0.578  10.180
  11.500    0.813  -5.158    0.700 -125.796    0.152 -103.391    0.618   2.916
  12.000    0.819 -12.301    0.610 -135.019    0.142 -113.847    0.658  -5.453
!     DEEMBEDDED NOISE DATA
!FREQUENCY    FMIN    GAMMA OPT        Rn
!  (GHz)      (dB)    Mag    Ang   (NORMALIZED)
