! Filename: 4_410BFG480.001
! Title: BFG480W
! Bias: Vce=4.4V; Ic=10mA
! Company: Philips Semiconductors NL
! User: Quality&Reliability T&D
! Measure time: 10 Nov 1999 / 12:05:15
#  MHz  S  MA  R 50
! Freq       S11             S21             S12             S22    :
  100  0.64573 -28.81 19.70616 160.32 0.013438 65.336  0.90762 -21.25
  200  0.63268 -55.81 17.91951 144.76 0.023567 55.142  0.82062 -40.20
  300  0.61852 -80.52 16.49741 131.84 0.030306 46.596  0.72899 -55.03
  400  0.62260 -98.60 14.49767 121.82 0.034516 39.875  0.65982 -67.05
  500  0.62601 -113.5 12.92251 113.44 0.036722 35.320  0.60387 -77.16
  600  0.62703 -125.2 11.55960 106.32 0.038084 32.156  0.56213 -85.11
  700  0.63083 -134.0 10.31101 100.67 0.038697 30.277  0.53164 -91.82
  800  0.63378 -141.3  9.26920 95.653 0.038897 29.261  0.50877 -97.63
  900  0.63963 -146.8  8.29192 91.505 0.038910 29.031  0.49287 -102.9
 1000  0.64672 -152.1  7.54678 87.760 0.038930 29.182  0.48158 -107.9
 1200  0.66436 -160.4  6.32391 80.834 0.038579 30.794  0.47248 -116.8
 1400  0.68186 -166.5  5.41954 74.412 0.038185 33.611  0.47543 -124.2
 1600  0.69415 -171.1  4.72079 69.392 0.038678 38.264  0.48129 -130.0
 1800  0.69878 -175.6  4.19103 65.206 0.040121 43.453  0.48616 -135.6
 2000  0.70900 -179.6  3.70284 61.022 0.041470 48.531  0.49302 -141.6
 2200  0.72976 176.57  3.30424 56.439 0.043345 53.096  0.51027 -147.5
 2400  0.74705 173.38  2.95750 51.832 0.046363 56.913  0.53653 -152.3
 2600  0.75562 170.66  2.69105 47.846 0.050920 60.318  0.56161 -155.7
 2800  0.75748 167.75  2.50216 42.972 0.055017 61.999  0.57604 -158.9
 3000  0.76390 164.47  2.31454 39.030 0.059896 63.956  0.58565 -162.8
