! Filename BFG424F_4V_20mA.prm
! Simulation_Values
! Created	by	janssen	on	nov	2006			
!	Column ranking S11, S21,S12,S22 both magnitude and phase.								
!	VCE	=	4	V,	IC	=	20	mA	
!	Common	Emitter	S-Parameters						
#	GHZ	S	MA	R	50				
	5.00E-01	0.394	-78.9	25.994	131.61	0.017	65.48	0.731	-29.79
	6.00E-01	0.377	-89.95	23.604	125.58	0.019	63.38	0.681	-32.72
	7.00E-01	0.362	-99.86	21.503	120.44	0.021	63.18	0.638	-34.92
	8.00E-01	0.349	-108.75	19.644	116.04	0.022	62.8	0.601	-36.58
	9.00E-01	0.343	-116.65	18.051	112.24	0.024	62.58	0.569	-38.02
	1.00E+00	0.336	-123.51	16.658	108.82	0.026	62.8	0.541	-39.13
	1.10E+00	0.332	-129.8	15.434	105.81	0.027	63.27	0.517	-40.13
	1.20E+00	0.326	-135.47	14.346	103.13	0.029	63.88	0.497	-40.99
	1.30E+00	0.324	-140.7	13.415	100.68	0.03	64.29	0.478	-41.81
	1.40E+00	0.323	-145.63	12.58	98.4	0.032	64.8	0.463	-42.61
	1.50E+00	0.323	-149.94	11.846	96.29	0.033	65.08	0.449	-43.31
	1.60E+00	0.321	-153.89	11.187	94.3	0.035	65.56	0.436	-44.13
	1.70E+00	0.32	-157.77	10.589	92.43	0.037	66.02	0.424	-44.9
	1.80E+00	0.322	-161.71	10.044	90.68	0.038	66.42	0.413	-45.69
	1.90E+00	0.325	-164.85	9.555	89	0.04	67.06	0.404	-46.53
	2.00E+00	0.327	-167.97	9.117	87.49	0.042	67.18	0.395	-47.37
	2.10E+00	0.327	-171.01	8.707	85.91	0.044	67.42	0.387	-48.4
	2.20E+00	0.329	-173.88	8.333	84.41	0.045	67.55	0.379	-49.35
	2.30E+00	0.332	-176.9	7.981	82.99	0.047	67.87	0.371	-50.33
	2.40E+00	0.337	-179.13	7.672	81.67	0.049	68.03	0.363	-51.31
	2.50E+00	0.341	178.61	7.373	80.34	0.051	68.44	0.355	-52.45
	2.60E+00	0.342	176.18	7.107	78.95	0.053	68.24	0.349	-53.68
	2.70E+00	0.345	173.46	6.854	77.72	0.055	68.38	0.341	-54.96
	2.80E+00	0.35	171.44	6.616	76.49	0.057	68.49	0.335	-56.01
	2.90E+00	0.355	169.43	6.392	75.33	0.059	68.5	0.328	-57.27
	3.00E+00	0.358	167.64	6.185	74.14	0.061	68.61	0.321	-58.47
	3.10E+00	0.362	165.44	5.999	72.95	0.062	68.24	0.314	-59.91
	3.20E+00	0.365	163.46	5.813	71.8	0.065	68.4	0.308	-61.22
	3.30E+00	0.371	161.44	5.635	70.7	0.067	68.43	0.302	-62.72
	3.40E+00	0.376	159.88	5.472	69.54	0.069	68.21	0.296	-64.34
	3.50E+00	0.38	158.37	5.313	68.51	0.07	68.09	0.291	-65.98
	3.60E+00	0.383	156.2	5.17	67.38	0.073	68.03	0.285	-67.72
	3.70E+00	0.389	154.51	5.041	66.3	0.075	67.75	0.277	-69.44
	3.80E+00	0.395	152.92	4.906	65.29	0.077	67.78	0.271	-71.16
	3.90E+00	0.4	151.58	4.785	64.27	0.079	67.61	0.265	-72.93
	4.00E+00	0.405	149.8	4.663	63.17	0.081	67.39	0.259	-74.92
	4.10E+00	0.409	148.25	4.549	62.24	0.083	67.07	0.254	-76.89
	4.20E+00	0.414	146.56	4.441	61.15	0.085	66.84	0.248	-79.07
	4.30E+00	0.421	145.13	4.343	60.24	0.088	66.59	0.242	-80.89
	4.40E+00	0.427	144.01	4.242	59.14	0.089	66.45	0.237	-82.87
	4.50E+00	0.429	142.79	4.146	58.14	0.092	66.2	0.232	-85.09
	4.60E+00	0.434	141.05	4.056	57.24	0.094	65.73	0.228	-87.8
	4.70E+00	0.44	139.43	3.967	56.23	0.096	65.39	0.223	-90.49
	4.80E+00	0.449	138.4	3.891	55.17	0.098	65.15	0.218	-93.13
	4.90E+00	0.453	137.26	3.81	54.32	0.101	64.69	0.213	-95.7
	5.00E+00	0.457	136.2	3.729	53.37	0.103	64.39	0.208	-98.09
	5.10E+00	0.46	134.59	3.661	52.28	0.105	64.17	0.204	-100.69
	5.20E+00	0.466	133.19	3.589	51.46	0.107	63.79	0.2	-103.6
	5.30E+00	0.476	132.18	3.516	50.51	0.11	63.26	0.196	-106.86
	5.40E+00	0.48	131.2	3.456	49.51	0.111	62.8	0.192	-110.02
	5.50E+00	0.484	129.96	3.387	48.69	0.113	62.6	0.189	-113.01
	5.60E+00	0.488	128.63	3.317	47.66	0.116	62.17	0.187	-116.18
	5.70E+00	0.496	127.57	3.266	46.75	0.118	61.69	0.185	-119.43
	5.80E+00	0.502	126.51	3.205	45.98	0.12	61.33	0.183	-122.98
	5.90E+00	0.507	125.5	3.146	44.86	0.122	60.99	0.18	-126.67
	6.00E+00	0.511	124.37	3.099	44.11	0.124	60.46	0.179	-130.23
	6.10E+00	0.516	123.09	3.042	43.31	0.126	59.95	0.178	-133.79
	6.20E+00	0.522	121.81	2.983	42.18	0.128	59.6	0.179	-137.45
	6.30E+00	0.531	121.13	2.944	41.32	0.13	59.35	0.179	-141.27
	6.40E+00	0.532	120.11	2.889	40.56	0.133	58.89	0.179	-144.66
	6.50E+00	0.536	118.97	2.839	39.54	0.135	58.33	0.179	-148.11
	6.60E+00	0.542	117.77	2.794	38.78	0.137	58.02	0.18	-151.48
	6.70E+00	0.548	116.96	2.744	38.03	0.139	57.58	0.182	-154.96
	6.80E+00	0.554	115.87	2.702	36.95	0.141	56.99	0.185	-158.75
	6.90E+00	0.559	115.11	2.667	36.18	0.143	56.57	0.187	-162.16
	7.00E+00	0.561	114.17	2.616	35.43	0.145	56.39	0.189	-165.09
	7.10E+00	0.564	112.98	2.579	34.51	0.148	55.73	0.191	-167.75
	7.20E+00	0.572	111.9	2.54	33.8	0.15	55.13	0.194	-170.33
	7.30E+00	0.577	111.37	2.496	32.95	0.151	54.71	0.2	-173.26
	7.40E+00	0.58	110.49	2.464	31.89	0.153	54.46	0.205	-176.6
	7.50E+00	0.584	109.32	2.428	31.29	0.156	53.75	0.21	179.89
	7.60E+00	0.59	108.61	2.389	30.47	0.158	53.25	0.212	177.08
	7.70E+00	0.594	107.76	2.357	29.67	0.159	52.98	0.215	174.9
	7.80E+00	0.597	106.96	2.326	29.01	0.162	52.49	0.219	172.96
	7.90E+00	0.601	105.76	2.285	27.95	0.164	51.64	0.225	170.48
	8.00E+00	0.606	105.15	2.263	27.12	0.164	51.27	0.23	167.94
	8.10E+00	0.609	104.36	2.227	26.65	0.167	51.28	0.234	165.63
	8.20E+00	0.612	103.61	2.194	25.71	0.169	50.73	0.239	163.84
	8.30E+00	0.618	102.7	2.169	24.87	0.171	50	0.247	162.06
	8.40E+00	0.62	101.92	2.134	24.25	0.173	49.52	0.253	160.05
	8.50E+00	0.624	101.12	2.098	23.09	0.175	49.3	0.259	157.67
	8.60E+00	0.628	100.37	2.083	22.41	0.177	48.65	0.263	155.59
	8.70E+00	0.632	99.56	2.047	21.9	0.178	48.12	0.268	153.91
	8.80E+00	0.636	98.91	2.02	20.97	0.18	47.8	0.275	152.5
	8.90E+00	0.638	98.28	2	20.31	0.183	47.43	0.282	150.82
	9.00E+00	0.64	97.5	1.964	19.68	0.185	46.54	0.288	149.05
	9.10E+00	0.644	96.78	1.948	18.56	0.186	46	0.291	147.45
	9.20E+00	0.648	96.04	1.935	18.05	0.188	45.61	0.296	146.13
	9.30E+00	0.654	95.56	1.897	17.29	0.191	45.1	0.303	144.85
	9.40E+00	0.657	94.75	1.867	16.05	0.192	44.24	0.312	143.3
	9.50E+00	0.658	94.22	1.851	15.39	0.193	43.84	0.318	141.22
	9.60E+00	0.664	93.56	1.815	14.68	0.195	43.46	0.321	139.7
	9.70E+00	0.67	92.6	1.805	13.71	0.198	42.89	0.323	138.66
	9.80E+00	0.675	91.49	1.784	12.87	0.199	41.74	0.327	137.68
	9.90E+00	0.671	90.76	1.737	12.11	0.199	41.13	0.334	136.45
	1.00E+01	0.672	90.4	1.706	11.3	0.2	40.75	0.34	134.9
	1.01E+01	0.675	89.52	1.685	11.28	0.201	40.38	0.344	133.58
	1.02E+01	0.679	89.06	1.655	10.8	0.202	39.92	0.348	132.76
	1.03E+01	0.683	88.62	1.648	10.22	0.203	39.8	0.351	132.2
	1.04E+01	0.684	87.71	1.63	9.98	0.205	39.28	0.358	131.4
	1.05E+01	0.69	86.87	1.608	9.08	0.206	38.53	0.365	129.86
	1.06E+01	0.692	86.25	1.602	7.81	0.207	38.16	0.37	128.36
	1.07E+01	0.695	85.62	1.583	7.4	0.208	38.01	0.373	127.34
	1.08E+01	0.695	85.07	1.555	6.57	0.209	37.23	0.375	126.98
	1.09E+01	0.696	84.63	1.541	6.14	0.21	36.58	0.38	126.71
	1.10E+01	0.697	83.86	1.517	5.65	0.21	36.41	0.389	126
	1.11E+01	0.705	83.35	1.485	4.61	0.211	35.98	0.396	124.74
	1.12E+01	0.715	82.73	1.475	4	0.211	35.45	0.4	123.25
	1.13E+01	0.72	82.23	1.458	3.97	0.21	35.57	0.4	122.25
	1.14E+01	0.722	80.74	1.449	3.3	0.213	35.89	0.404	122.13
	1.15E+01	0.724	79.91	1.445	2.48	0.216	35.69	0.411	121.31
	1.16E+01	0.725	78.47	1.432	1.65	0.22	34.83	0.417	120.67
	1.17E+01	0.718	77.6	1.413	0.28	0.22	34.14	0.419	119.42
	1.18E+01	0.728	77.02	1.401	-0.32	0.223	33.77	0.416	118.55
	1.19E+01	0.721	75.47	1.384	-0.99	0.227	32.97	0.418	118.63
	1.20E+01	0.711	74.59	1.37	-2.46	0.227	31.61	0.431	118.74
	1.21E+01	0.706	73.8	1.342	-3.43	0.227	31.06	0.44	117.03
	1.22E+01	0.703	73.73	1.319	-3.91	0.23	30.36	0.442	116.41
	1.23E+01	0.692	72.97	1.314	-5.56	0.229	28.34	0.448	115.75
	1.24E+01	0.691	72.6	1.281	-6.23	0.224	27.94	0.45	114.36
	1.25E+01	0.693	72.25	1.247	-6.61	0.221	27.53	0.455	114.15
	1.26E+01	0.691	72.38	1.217	-7.01	0.22	28.88	0.459	112.07
	1.27E+01	0.687	71.7	1.202	-7.29	0.223	28.72	0.457	111.07
	1.28E+01	0.685	70.93	1.176	-7.89	0.223	28.26	0.455	110.27
	1.29E+01	0.69	70.64	1.162	-8.15	0.224	28.45	0.453	110.21
	1.30E+01	0.685	70.39	1.152	-8.07	0.227	28.44	0.455	110.22
	1.31E+01	0.686	69.73	1.133	-8.75	0.228	27.56	0.458	110.39
	1.32E+01	0.683	69.25	1.126	-9.48	0.228	27.18	0.466	109.91
	1.33E+01	0.682	68.96	1.117	-9.57	0.229	27.18	0.47	108.29
	1.34E+01	0.679	68.24	1.103	-10.32	0.231	26.69	0.471	108.31
	1.35E+01	0.683	68.34	1.094	-10.76	0.23	26.3	0.476	107.61
	1.36E+01	0.678	67.68	1.08	-10.93	0.232	26.38	0.48	107.61
	1.37E+01	0.677	67.18	1.063	-11.8	0.235	26.19	0.483	106.88
	1.38E+01	0.682	66.34	1.055	-12.61	0.236	25.43	0.484	105.77
	1.39E+01	0.678	66.49	1.044	-12.89	0.236	25.2	0.482	104.93
	1.40E+01	0.677	65.67	1.031	-13.52	0.237	25.33	0.484	104.69
	1.41E+01	0.674	65.17	1.017	-14.17	0.239	24.74	0.487	104.51
	1.42E+01	0.675	64.66	0.998	-14.83	0.241	23.93	0.49	103.97
	1.43E+01	0.671	64.05	0.984	-15.83	0.241	24.05	0.493	103.32
	1.44E+01	0.675	63.74	0.98	-16.11	0.243	23.84	0.492	102.82
	1.45E+01	0.668	63.24	0.961	-16.4	0.246	23.05	0.492	102.55
	1.46E+01	0.668	62.84	0.948	-16.79	0.247	22.11	0.494	102.11
	1.47E+01	0.667	61.88	0.935	-17.15	0.246	22.11	0.495	101.27
	1.48E+01	0.666	61.84	0.917	-17.8	0.248	22	0.495	100.34
	1.49E+01	0.662	60.9	0.903	-18.8	0.252	21.16	0.496	100.26
	1.50E+01	0.661	60.8	0.901	-18.86	0.25	20.28	0.498	100.48
