! Filename BFG424F_1V_15mA.prm
! Simulation_Values
! Created	by	janssen	on	nov	2006			
!	Column ranking S11, S21,S12,S22 both magnitude and phase.								
!	VCE	=	1	V,	IC	=	15	mA	
!	Common	Emitter	S-Parameters						
#	GHZ	S	MA	R	50				
	5.00E-01	0.450	-85.34	22.285	130.02	0.024	61.67	0.679	-40.76
	6.00E-01	0.435	-96.82	20.169	123.87	0.027	58.86	0.620	-45.35
	7.00E-01	0.422	-106.92	18.322	118.65	0.029	58.02	0.568	-49.02
	8.00E-01	0.412	-115.76	16.701	114.21	0.031	57.18	0.523	-52.07
	9.00E-01	0.408	-123.50	15.310	110.36	0.033	56.61	0.484	-54.73
	1.00E+00	0.403	-130.18	14.107	106.91	0.035	56.39	0.450	-56.96
	1.10E+00	0.400	-136.29	13.045	103.85	0.037	56.48	0.421	-58.98
	1.20E+00	0.396	-141.71	12.113	101.11	0.039	56.89	0.395	-60.78
	1.30E+00	0.395	-146.80	11.303	98.63	0.040	57.15	0.372	-62.48
	1.40E+00	0.396	-151.41	10.588	96.31	0.042	57.47	0.353	-64.11
	1.50E+00	0.397	-155.50	9.958	94.09	0.044	57.74	0.335	-65.70
	1.60E+00	0.396	-159.43	9.392	92.07	0.046	58.14	0.319	-67.21
	1.70E+00	0.396	-163.05	8.876	90.18	0.048	58.45	0.303	-68.79
	1.80E+00	0.398	-166.62	8.412	88.39	0.050	58.81	0.290	-70.26
	1.90E+00	0.401	-169.68	7.994	86.66	0.052	59.21	0.278	-71.77
	2.00E+00	0.404	-172.63	7.619	85.09	0.054	59.43	0.266	-73.39
	2.10E+00	0.405	-175.57	7.266	83.46	0.056	59.51	0.256	-75.08
	2.20E+00	0.407	-178.27	6.947	81.91	0.058	59.58	0.246	-76.94
	2.30E+00	0.411	178.88	6.649	80.47	0.060	59.73	0.236	-78.77
	2.40E+00	0.415	176.68	6.381	79.07	0.062	59.86	0.227	-80.58
	2.50E+00	0.419	174.47	6.127	77.70	0.064	60.25	0.219	-82.51
	2.60E+00	0.420	172.06	5.898	76.30	0.066	60.02	0.211	-84.67
	2.70E+00	0.423	169.51	5.684	75.00	0.068	60.26	0.203	-86.91
	2.80E+00	0.429	167.59	5.480	73.73	0.070	60.08	0.196	-89.19
	2.90E+00	0.434	165.56	5.290	72.52	0.072	60.08	0.188	-91.65
	3.00E+00	0.437	163.68	5.112	71.29	0.075	60.03	0.182	-93.99
	3.10E+00	0.441	161.57	4.950	70.07	0.077	59.75	0.177	-96.72
	3.20E+00	0.444	159.58	4.791	68.86	0.079	59.76	0.171	-99.48
	3.30E+00	0.450	157.65	4.642	67.73	0.081	59.80	0.165	-102.37
	3.40E+00	0.456	156.13	4.500	66.54	0.083	59.41	0.160	-105.53
	3.50E+00	0.459	154.44	4.363	65.49	0.086	59.28	0.156	-108.84
	3.60E+00	0.463	152.51	4.239	64.33	0.088	59.16	0.152	-112.29
	3.70E+00	0.467	150.75	4.127	63.19	0.090	58.88	0.148	-115.98
	3.80E+00	0.474	149.15	4.013	62.18	0.092	58.79	0.145	-119.82
	3.90E+00	0.477	147.64	3.908	61.12	0.094	58.61	0.142	-123.57
	4.00E+00	0.482	146.09	3.805	60.04	0.097	58.36	0.139	-127.51
	4.10E+00	0.486	144.41	3.708	59.07	0.099	58.02	0.137	-131.44
	4.20E+00	0.491	142.82	3.614	57.98	0.101	57.69	0.136	-135.74
	4.30E+00	0.497	141.36	3.529	57.08	0.103	57.35	0.135	-139.89
	4.40E+00	0.502	140.09	3.446	55.97	0.105	57.18	0.135	-144.16
	4.50E+00	0.506	138.76	3.364	54.95	0.108	56.88	0.135	-148.08
	4.60E+00	0.509	137.14	3.287	54.06	0.110	56.37	0.136	-152.12
	4.70E+00	0.515	135.61	3.211	53.03	0.112	55.98	0.138	-155.93
	4.80E+00	0.522	134.41	3.146	52.00	0.114	55.75	0.140	-160.24
	4.90E+00	0.527	133.32	3.076	51.14	0.117	55.16	0.142	-164.38
	5.00E+00	0.530	132.19	3.007	50.16	0.119	54.76	0.144	-168.35
	5.10E+00	0.533	130.56	2.948	49.07	0.121	54.52	0.146	-171.84
	5.20E+00	0.539	129.10	2.887	48.26	0.123	54.20	0.150	-174.95
	5.30E+00	0.547	128.26	2.823	47.27	0.126	53.55	0.154	-178.27
	5.40E+00	0.550	127.07	2.772	46.29	0.127	53.10	0.158	178.12
	5.50E+00	0.553	125.86	2.715	45.51	0.129	52.82	0.162	174.87
	5.60E+00	0.557	124.50	2.655	44.48	0.132	52.39	0.166	171.87
	5.70E+00	0.563	123.41	2.611	43.59	0.134	51.87	0.171	169.40
	5.80E+00	0.569	122.28	2.558	42.85	0.136	51.54	0.176	166.82
	5.90E+00	0.572	121.30	2.506	41.77	0.138	51.15	0.182	164.21
	6.00E+00	0.576	120.21	2.467	41.02	0.140	50.62	0.187	161.48
	6.10E+00	0.579	118.91	2.421	40.24	0.142	50.12	0.192	159.10
	6.20E+00	0.585	117.70	2.370	39.18	0.143	49.79	0.197	157.06
	6.30E+00	0.592	116.89	2.334	38.35	0.145	49.47	0.204	154.93
	6.40E+00	0.593	115.88	2.288	37.60	0.148	49.03	0.210	152.97
	6.50E+00	0.597	114.68	2.248	36.64	0.149	48.46	0.216	150.78
	6.60E+00	0.601	113.65	2.211	35.97	0.151	48.15	0.221	148.93
	6.70E+00	0.606	112.66	2.169	35.24	0.153	47.74	0.226	147.20
	6.80E+00	0.612	111.69	2.132	34.21	0.155	47.16	0.232	145.46
	6.90E+00	0.615	110.85	2.102	33.50	0.156	46.77	0.239	143.82
	7.00E+00	0.616	109.90	2.060	32.79	0.158	46.59	0.245	142.04
	7.10E+00	0.619	108.77	2.030	31.89	0.161	45.95	0.250	140.51
	7.20E+00	0.625	107.76	1.998	31.25	0.162	45.37	0.255	139.33
	7.30E+00	0.630	107.16	1.961	30.49	0.164	44.97	0.261	138.25
	7.40E+00	0.632	106.24	1.932	29.51	0.165	44.73	0.268	136.95
	7.50E+00	0.635	105.22	1.903	28.94	0.168	44.02	0.276	135.14
	7.60E+00	0.639	104.34	1.871	28.09	0.169	43.55	0.281	133.46
	7.70E+00	0.643	103.58	1.845	27.42	0.170	43.33	0.286	132.23
	7.80E+00	0.646	102.86	1.819	26.83	0.173	42.85	0.290	131.37
	7.90E+00	0.647	101.76	1.784	25.89	0.174	42.07	0.297	130.50
	8.00E+00	0.651	100.95	1.766	25.07	0.175	41.78	0.303	129.23
	8.10E+00	0.653	100.22	1.738	24.64	0.176	41.78	0.309	127.76
	8.20E+00	0.657	99.44	1.711	23.76	0.179	41.26	0.314	126.64
	8.30E+00	0.661	98.63	1.691	23.08	0.180	40.56	0.319	125.81
	8.40E+00	0.663	97.90	1.662	22.56	0.181	40.13	0.326	125.02
	8.50E+00	0.664	97.08	1.632	21.47	0.183	39.97	0.333	123.95
	8.60E+00	0.668	96.32	1.617	20.82	0.185	39.42	0.338	122.79
	8.70E+00	0.671	95.51	1.590	20.40	0.186	38.89	0.342	121.78
	8.80E+00	0.675	95.05	1.570	19.59	0.187	38.64	0.347	120.96
	8.90E+00	0.676	94.22	1.552	19.06	0.190	38.34	0.353	120.16
	9.00E+00	0.677	93.51	1.522	18.50	0.192	37.51	0.360	119.17
	9.10E+00	0.680	92.80	1.509	17.40	0.192	36.96	0.365	118.12
	9.20E+00	0.683	92.15	1.500	16.97	0.193	36.69	0.369	117.24
	9.30E+00	0.688	91.53	1.470	16.37	0.196	36.23	0.374	116.50
	9.40E+00	0.690	90.78	1.449	15.32	0.197	35.49	0.380	115.76
	9.50E+00	0.691	90.25	1.434	14.75	0.197	35.10	0.386	114.63
	9.60E+00	0.695	89.56	1.407	14.06	0.199	34.81	0.390	113.52
	9.70E+00	0.701	88.68	1.399	13.12	0.202	34.27	0.392	112.54
	9.80E+00	0.703	87.59	1.384	12.39	0.203	33.22	0.393	111.90
	9.90E+00	0.698	86.91	1.350	11.72	0.203	32.66	0.398	111.45
	1.00E+01	0.699	86.51	1.326	10.89	0.203	32.24	0.404	110.72
	1.01E+01	0.702	85.77	1.307	10.92	0.203	31.87	0.408	109.84
	1.02E+01	0.704	85.28	1.283	10.50	0.204	31.52	0.411	109.06
	1.03E+01	0.707	84.87	1.278	10.02	0.205	31.44	0.412	108.54
	1.04E+01	0.708	84.02	1.264	9.91	0.206	30.96	0.416	108.15
	1.05E+01	0.713	83.26	1.246	9.14	0.207	30.32	0.422	107.37
	1.06E+01	0.715	82.64	1.241	7.99	0.207	30.00	0.427	106.71
	1.07E+01	0.715	81.89	1.226	7.60	0.209	29.91	0.430	105.95
	1.08E+01	0.715	81.40	1.205	6.78	0.210	29.11	0.431	105.45
	1.09E+01	0.716	80.97	1.194	6.42	0.209	28.46	0.435	105.22
	1.10E+01	0.716	80.34	1.177	6.10	0.209	28.33	0.440	104.88
	1.11E+01	0.722	79.84	1.150	5.15	0.209	27.97	0.446	104.31
	1.12E+01	0.729	79.28	1.141	4.61	0.208	27.52	0.451	103.45
	1.13E+01	0.734	78.74	1.126	4.64	0.207	27.77	0.452	102.56
	1.14E+01	0.736	77.42	1.119	4.12	0.209	28.31	0.455	102.27
	1.15E+01	0.738	76.68	1.115	3.49	0.212	28.27	0.459	101.73
	1.16E+01	0.738	75.30	1.107	2.88	0.215	27.64	0.464	101.32
	1.17E+01	0.732	74.41	1.093	1.59	0.216	27.07	0.466	100.35
	1.18E+01	0.740	73.85	1.086	0.98	0.218	26.78	0.465	99.55
	1.19E+01	0.735	72.42	1.072	0.37	0.222	26.11	0.465	99.52
	1.20E+01	0.726	71.53	1.061	-0.90	0.222	24.84	0.475	99.70
	1.21E+01	0.720	70.87	1.041	-1.73	0.222	24.29	0.481	98.48
	1.22E+01	0.712	70.77	1.023	-2.17	0.224	23.76	0.483	97.87
	1.23E+01	0.704	70.16	1.013	-3.55	0.224	22.14	0.487	96.73
	1.24E+01	0.706	69.69	0.993	-3.94	0.219	21.55	0.485	95.78
	1.25E+01	0.705	69.40	0.971	-4.36	0.217	20.96	0.488	95.85
	1.26E+01	0.701	69.33	0.949	-4.57	0.214	22.30	0.490	94.50
	1.27E+01	0.698	68.77	0.938	-4.74	0.217	22.28	0.487	93.86
	1.28E+01	0.697	68.16	0.919	-5.26	0.217	21.93	0.485	93.37
	1.29E+01	0.699	67.88	0.909	-5.48	0.217	22.20	0.483	93.18
	1.30E+01	0.695	67.42	0.902	-5.29	0.221	22.31	0.484	93.06
	1.31E+01	0.695	66.84	0.889	-5.86	0.222	21.47	0.484	93.36
	1.32E+01	0.693	66.36	0.883	-6.58	0.221	21.15	0.492	93.24
	1.33E+01	0.692	66.11	0.878	-6.70	0.222	21.09	0.496	92.09
	1.34E+01	0.688	65.45	0.867	-7.37	0.223	20.65	0.496	92.01
	1.35E+01	0.690	65.34	0.861	-7.67	0.222	20.36	0.499	91.20
	1.36E+01	0.687	64.79	0.850	-7.74	0.224	20.58	0.500	91.05
	1.37E+01	0.686	64.33	0.838	-8.51	0.226	20.49	0.502	90.48
	1.38E+01	0.688	63.58	0.832	-9.25	0.226	19.75	0.505	89.59
	1.39E+01	0.686	63.50	0.824	-9.56	0.226	19.55	0.503	88.96
	1.40E+01	0.684	62.81	0.814	-10.09	0.227	19.73	0.502	88.76
	1.41E+01	0.682	62.36	0.805	-10.44	0.229	19.31	0.501	88.64
	1.42E+01	0.682	61.81	0.792	-10.97	0.230	18.64	0.503	88.32
	1.43E+01	0.678	61.27	0.780	-11.91	0.230	18.82	0.505	87.66
	1.44E+01	0.679	60.77	0.777	-12.19	0.232	18.64	0.504	87.09
	1.45E+01	0.675	60.30	0.763	-12.39	0.235	18.01	0.503	86.75
	1.46E+01	0.675	59.99	0.756	-12.69	0.235	17.07	0.505	86.66
	1.47E+01	0.672	59.37	0.748	-12.93	0.234	17.10	0.505	86.28
	1.48E+01	0.669	58.71	0.734	-13.55	0.237	16.97	0.507	85.69
	1.49E+01	0.669	58.02	0.723	-14.47	0.240	16.36	0.506	85.18
	1.50E+01	0.668	58.08	0.721	-14.36	0.237	15.66	0.505	84.77
