! Filename: 4120BFG480.001
! Title: BFG480W
! Bias: Vce=4V; Ic=120mA
! Company: Philips Semiconductors NL
! User: Quality&Reliability T&D
! Measure time: 10 Nov 1999 / 12:04:25
#  MHz  S  MA  R 50
! Freq       S11             S21             S12             S22    :
  100  0.48292 -159.0 51.19876 145.43 0.005930 69.020  0.72692 -43.23
  200  0.59823 -163.6 38.88550 124.32 0.009076 60.890  0.57836 -74.98
  300  0.64762 -168.5 29.66405 112.24 0.011267 60.310  0.48622 -95.41
  400  0.67266 -172.2 23.49966 104.29 0.013265 62.680  0.43728 -109.3
  500  0.68721 -175.0 19.32695 98.567 0.015211 65.058  0.41068 -119.3
  600  0.69778 -177.4 16.30180 94.115 0.017305 66.973  0.39495 -126.7
  700  0.70345 -179.5 14.07973 90.540 0.019344 69.203  0.38481 -132.4
  800  0.70933 178.56 12.34328 87.449 0.021559 70.785  0.37854 -137.1
  900  0.71654 176.75 10.96322 84.792 0.023788 72.427  0.37601 -141.2
 1000  0.72346 175.11  9.85416 82.271 0.026277 73.391  0.37650 -144.9
 1200  0.73560 172.21  8.12801 77.538 0.030936 74.802  0.38491 -150.8
 1400  0.74463 169.98  6.87641 72.895 0.035621 75.614  0.39617 -155.1
 1600  0.74952 167.66  5.99576 69.043 0.040969 76.182  0.40343 -158.4
 1800  0.74955 165.12  5.32839 65.646 0.046727 76.575  0.41191 -162.0
 2000  0.75889 162.95  4.71554 62.729 0.051446 77.199  0.42410 -166.3
 2200  0.77746 160.88  4.20768 59.227 0.056068 76.945  0.44451 -169.9
 2400  0.78736 159.13  3.76968 55.552 0.061035 76.364  0.46936 -172.2
 2600  0.78622 157.48  3.44425 52.198 0.067275 75.579  0.48924 -173.6
 2800  0.78235 155.17  3.19214 47.787 0.072002 74.169  0.49945 -175.4
 3000  0.78724 152.52  2.96412 44.369 0.077431 73.350  0.50769 -178.2
