! Filename: 420bfg425.001
! BFG425W Field C1
! V1=8.380E-001V,V2=4.000E+000V, I1=2.416E-004A, I2=2.001E-002A
# GHz   S   MA   R 50
!                S11              S21              S12              S22
!Freq(GHz)  Mag     Ang      Mag     Ang      Mag     Ang      Mag     Ang 
   0.040    0.444  -5.740   35.015 173.238    0.002  57.283    0.925  -2.467
   0.100    0.449 -16.323   34.012 165.978    0.004  74.395    0.920  -7.741
   0.200    0.426 -32.523   32.146 153.780    0.008  72.224    0.883 -15.436
   0.300    0.399 -46.833   29.625 143.162    0.011  69.484    0.831 -21.866
   0.400    0.368 -60.392   26.991 133.670    0.014  66.710    0.775 -26.986
   0.500    0.338 -72.533   24.464 125.162    0.017  63.812    0.723 -31.060
   0.600    0.313 -83.188   22.132 118.218    0.019  62.486    0.676 -34.248
   0.700    0.293 -92.707   20.101 112.255    0.021  61.068    0.635 -36.770
   0.800    0.274 -101.751   18.325 106.783    0.023  60.307    0.601 -38.876
   0.900    0.259 -109.693   16.792 101.986    0.025  59.488    0.572 -40.758
   1.000    0.247 -117.306   15.455  97.628    0.028  58.900    0.547 -42.432
   1.100    0.238 -124.295   14.300  93.622    0.030  58.226    0.525 -43.994
   1.200    0.230 -130.850   13.286  89.910    0.032  57.713    0.506 -45.493
   1.300    0.224 -137.109   12.391  86.455    0.034  57.129    0.488 -46.863
   1.400    0.219 -143.019   11.609  83.233    0.036  56.474    0.473 -48.195
   1.500    0.216 -148.910   10.911  80.135    0.038  55.888    0.459 -49.500
   1.600    0.214 -154.320   10.288  77.181    0.040  55.207    0.447 -50.862
   1.700    0.212 -159.496    9.723  74.329    0.042  54.431    0.435 -52.231
   1.800    0.212 -164.497    9.220  71.581    0.044  53.626    0.425 -53.599
   1.900    0.211 -169.237    8.763  68.938    0.046  52.799    0.414 -55.076
   2.000    0.212 -173.784    8.346  66.346    0.049  51.903    0.405 -56.566
   2.200    0.214 177.505    7.618  61.360    0.053  50.000    0.386 -59.550
   2.400    0.220 169.387    7.002  56.567    0.058  48.008    0.368 -62.584
   2.600    0.226 161.799    6.470  51.846    0.062  45.810    0.350 -65.772
   2.800    0.234 154.738    6.010  47.320    0.067  43.523    0.332 -68.975
   3.000    0.244 148.081    5.611  42.869    0.071  41.088    0.315 -72.368
   3.500    0.272 133.106    4.797  32.067    0.083  34.564    0.270 -81.250
   4.000    0.305 119.750    4.170  21.486    0.095  27.557    0.222 -91.072
   4.500    0.342 108.182    3.677  11.205    0.106  20.170    0.174 -102.732
   5.000    0.386  96.923    3.260   0.631    0.116  11.754    0.117 -119.458
   5.500    0.420  85.931    2.883  -9.044    0.123   4.704    0.066 -138.588
   6.000    0.465  76.112    2.583 -19.410    0.131  -4.174    0.042 142.037
   6.500    0.474  69.577    2.371 -26.407    0.144  -7.284    0.053 121.603
   7.000    0.511  62.582    2.193 -35.644    0.157 -14.877    0.101  96.962
   7.500    0.577  53.398    1.978 -47.342    0.161 -26.927    0.185  71.967
   8.000    0.613  46.129    1.814 -56.762    0.167 -34.866    0.242  61.696
   8.500    0.656  38.230    1.643 -66.827    0.171 -44.330    0.308  50.737
   9.000    0.686  30.109    1.469 -75.916    0.169 -52.705    0.362  39.850
   9.500    0.716  22.888    1.330 -84.620    0.169 -61.156    0.404  31.180
  10.000    0.748  16.076    1.214 -94.596    0.171 -70.649    0.464  24.641
  10.500    0.771   9.008    1.095 -104.138    0.169 -79.838    0.518  16.752
  11.000    0.791   1.729    0.968 -113.210    0.162 -89.618    0.561   7.819
  11.500    0.806  -5.445    0.864 -122.619    0.156 -99.571    0.603   0.651
  12.000    0.813 -12.722    0.751 -131.719    0.147 -110.039    0.644  -7.665
!     DEEMBEDDED NOISE DATA
!FREQUENCY    FMIN    GAMMA OPT        Rn
!  (GHz)      (dB)    Mag    Ang   (NORMALIZED)
