! Filename BFG424F_3V_5mA.prm
! Created	by	janssen	on		nov	2006		
!	Column ranking S11, S21,S12,S22 both magnitude and phase.								
!	VCE	=	3	V,	IC	=	5	mA	
!	Common	Emitter	S-Parameters						
#	GHZ	S	MA	R	50				
	5.00E-01	0.737	-42.90	13.871	148.93	0.025	68.83	0.902	-21.18
	6.00E-01	0.714	-50.66	13.340	143.67	0.029	65.08	0.871	-24.61
	7.00E-01	0.687	-58.13	12.802	138.69	0.032	62.53	0.841	-27.73
	8.00E-01	0.660	-65.22	12.235	134.07	0.035	60.00	0.811	-30.55
	9.00E-01	0.638	-72.03	11.666	129.88	0.038	57.60	0.781	-33.24
	1.00E+00	0.615	-78.44	11.124	125.86	0.040	55.92	0.752	-35.57
	1.10E+00	0.594	-84.70	10.601	122.20	0.042	54.21	0.724	-37.74
	1.20E+00	0.573	-90.47	10.099	118.80	0.044	53.07	0.698	-39.69
	1.30E+00	0.555	-96.19	9.646	115.58	0.046	51.86	0.673	-41.55
	1.40E+00	0.538	-101.63	9.200	112.53	0.047	50.94	0.651	-43.23
	1.50E+00	0.524	-106.87	8.800	109.72	0.048	50.08	0.631	-44.70
	1.60E+00	0.510	-111.66	8.426	107.06	0.050	49.49	0.611	-46.34
	1.70E+00	0.498	-116.53	8.066	104.52	0.051	49.16	0.591	-47.71
	1.80E+00	0.486	-121.34	7.718	102.12	0.052	48.75	0.574	-49.06
	1.90E+00	0.477	-125.74	7.404	99.85	0.053	48.70	0.558	-50.38
	2.00E+00	0.470	-129.98	7.120	97.79	0.054	48.68	0.545	-51.63
	2.10E+00	0.462	-134.09	6.850	95.64	0.055	48.50	0.530	-53.01
	2.20E+00	0.456	-138.15	6.593	93.62	0.056	48.42	0.517	-54.20
	2.30E+00	0.451	-142.22	6.340	91.73	0.058	48.68	0.504	-55.46
	2.40E+00	0.448	-145.77	6.124	89.94	0.058	48.83	0.492	-56.71
	2.50E+00	0.447	-149.29	5.911	88.17	0.059	49.25	0.481	-57.99
	2.60E+00	0.443	-152.84	5.719	86.32	0.061	49.28	0.470	-59.34
	2.70E+00	0.440	-156.46	5.531	84.70	0.062	49.55	0.459	-60.64
	2.80E+00	0.439	-159.66	5.353	83.08	0.063	49.86	0.450	-61.81
	2.90E+00	0.440	-162.81	5.186	81.57	0.064	50.27	0.440	-63.29
	3.00E+00	0.440	-165.70	5.032	80.04	0.065	50.53	0.431	-64.54
	3.10E+00	0.440	-168.89	4.890	78.47	0.066	50.60	0.421	-65.97
	3.20E+00	0.440	-171.75	4.747	77.01	0.068	51.11	0.413	-67.29
	3.30E+00	0.441	-174.76	4.606	75.63	0.069	51.65	0.405	-68.80
	3.40E+00	0.445	-177.25	4.480	74.18	0.070	51.75	0.397	-70.36
	3.50E+00	0.447	-179.81	4.358	72.82	0.072	51.96	0.389	-71.96
	3.60E+00	0.446	177.36	4.245	71.36	0.073	52.32	0.381	-73.67
	3.70E+00	0.449	174.72	4.142	70.02	0.074	52.49	0.373	-75.29
	3.80E+00	0.454	172.42	4.034	68.77	0.076	52.91	0.365	-76.95
	3.90E+00	0.457	170.25	3.939	67.53	0.077	53.19	0.358	-78.54
	4.00E+00	0.459	167.88	3.842	66.18	0.079	53.38	0.351	-80.32
	4.10E+00	0.462	165.57	3.748	64.99	0.081	53.53	0.345	-82.26
	4.20E+00	0.465	163.22	3.662	63.66	0.082	53.77	0.338	-84.32
	4.30E+00	0.471	161.13	3.582	62.56	0.084	53.92	0.331	-85.99
	4.40E+00	0.476	159.32	3.500	61.30	0.085	54.12	0.325	-87.78
	4.50E+00	0.477	157.67	3.424	60.09	0.088	54.40	0.320	-89.75
	4.60E+00	0.479	155.32	3.349	58.95	0.089	54.27	0.315	-92.09
	4.70E+00	0.484	153.10	3.276	57.75	0.091	54.31	0.310	-94.41
	4.80E+00	0.492	151.50	3.214	56.54	0.093	54.48	0.304	-96.68
	4.90E+00	0.495	149.84	3.148	55.54	0.095	54.38	0.298	-98.90
	5.00E+00	0.499	148.25	3.083	54.40	0.097	54.40	0.293	-101.02
	5.10E+00	0.501	146.28	3.026	53.15	0.098	54.46	0.288	-103.27
	5.20E+00	0.506	144.51	2.966	52.17	0.101	54.51	0.284	-105.73
	5.30E+00	0.514	142.89	2.908	51.08	0.103	54.25	0.279	-108.33
	5.40E+00	0.518	141.38	2.859	49.88	0.104	54.11	0.274	-110.93
	5.50E+00	0.522	139.93	2.800	48.94	0.106	54.11	0.270	-113.42
	5.60E+00	0.525	138.19	2.742	47.73	0.108	54.03	0.268	-116.10
	5.70E+00	0.532	136.72	2.699	46.65	0.110	53.85	0.265	-118.87
	5.80E+00	0.538	135.37	2.648	45.77	0.112	53.73	0.263	-121.77
	5.90E+00	0.542	133.98	2.600	44.51	0.114	53.62	0.259	-124.65
	6.00E+00	0.545	132.54	2.561	43.65	0.117	53.31	0.256	-127.50
	6.10E+00	0.549	130.97	2.514	42.73	0.118	53.01	0.255	-130.41
	6.20E+00	0.554	129.47	2.463	41.42	0.120	52.91	0.254	-133.59
	6.30E+00	0.563	128.45	2.429	40.42	0.122	52.83	0.253	-136.74
	6.40E+00	0.564	127.24	2.385	39.59	0.124	52.65	0.252	-139.44
	6.50E+00	0.567	125.86	2.345	38.49	0.126	52.30	0.251	-142.13
	6.60E+00	0.572	124.33	2.306	37.60	0.128	52.14	0.251	-145.01
	6.70E+00	0.577	123.25	2.263	36.70	0.130	51.86	0.253	-148.05
	6.80E+00	0.584	122.04	2.228	35.50	0.133	51.42	0.254	-151.49
	6.90E+00	0.588	121.05	2.198	34.66	0.134	51.18	0.254	-154.44
	7.00E+00	0.589	119.95	2.157	33.84	0.136	51.17	0.254	-156.90
	7.10E+00	0.592	118.47	2.126	32.82	0.139	50.66	0.256	-159.30
	7.20E+00	0.598	117.24	2.092	32.03	0.141	50.22	0.258	-161.75
	7.30E+00	0.604	116.44	2.054	31.09	0.143	49.88	0.262	-164.67
	7.40E+00	0.607	115.39	2.027	29.92	0.145	49.76	0.265	-167.82
	7.50E+00	0.611	114.15	1.998	29.23	0.147	49.19	0.267	-170.91
	7.60E+00	0.616	113.28	1.966	28.36	0.149	48.80	0.269	-173.38
	7.70E+00	0.619	112.26	1.939	27.49	0.151	48.67	0.272	-175.56
	7.80E+00	0.623	111.21	1.913	26.71	0.153	48.25	0.276	-177.75
	7.90E+00	0.626	109.95	1.878	25.53	0.155	47.45	0.280	179.48
	8.00E+00	0.631	109.19	1.859	24.64	0.156	47.24	0.283	176.96
	8.10E+00	0.633	108.26	1.830	24.14	0.158	47.34	0.286	174.85
	8.20E+00	0.637	107.39	1.801	23.15	0.161	46.96	0.290	173.11
	8.30E+00	0.641	106.39	1.780	22.21	0.163	46.22	0.298	171.08
	8.40E+00	0.643	105.45	1.751	21.51	0.164	45.80	0.304	168.74
	8.50E+00	0.647	104.49	1.721	20.22	0.166	45.60	0.308	166.04
	8.60E+00	0.651	103.64	1.708	19.47	0.169	45.07	0.311	163.96
	8.70E+00	0.654	102.80	1.678	18.96	0.170	44.64	0.315	162.33
	8.80E+00	0.658	102.06	1.654	17.96	0.172	44.38	0.322	160.78
	8.90E+00	0.660	101.24	1.637	17.21	0.175	44.07	0.328	158.75
	9.00E+00	0.661	100.38	1.608	16.47	0.177	43.22	0.333	156.73
	9.10E+00	0.665	99.43	1.594	15.29	0.178	42.64	0.335	154.98
	9.20E+00	0.670	98.63	1.583	14.75	0.180	42.31	0.340	153.68
	9.30E+00	0.675	98.12	1.549	13.93	0.182	41.85	0.348	152.25
	9.40E+00	0.677	97.17	1.524	12.60	0.184	41.11	0.356	150.45
	9.50E+00	0.679	96.55	1.509	11.84	0.185	40.70	0.361	147.96
	9.60E+00	0.684	95.73	1.479	11.08	0.187	40.37	0.362	146.34
	9.70E+00	0.689	94.75	1.470	10.10	0.190	39.84	0.363	145.28
	9.80E+00	0.693	93.53	1.452	9.25	0.192	38.79	0.369	144.21
	9.90E+00	0.689	92.71	1.412	8.48	0.191	38.23	0.376	142.63
	1.00E+01	0.690	92.36	1.386	7.64	0.192	37.90	0.381	140.94
	1.01E+01	0.692	91.56	1.369	7.58	0.193	37.55	0.384	139.65
	1.02E+01	0.695	90.96	1.344	7.04	0.195	37.16	0.387	138.85
	1.03E+01	0.699	90.38	1.337	6.39	0.196	37.02	0.391	138.19
	1.04E+01	0.699	89.41	1.320	6.08	0.198	36.41	0.400	137.10
	1.05E+01	0.705	88.56	1.300	5.15	0.199	35.70	0.407	135.27
	1.06E+01	0.708	87.82	1.295	3.84	0.200	35.30	0.411	133.39
	1.07E+01	0.710	87.25	1.279	3.48	0.201	35.24	0.412	132.26
	1.08E+01	0.710	86.65	1.257	2.68	0.203	34.52	0.413	131.97
	1.09E+01	0.709	86.00	1.243	2.21	0.203	33.84	0.419	131.63
	1.10E+01	0.712	85.28	1.223	1.69	0.203	33.68	0.429	130.69
	1.11E+01	0.718	84.61	1.195	0.58	0.204	33.21	0.436	129.09
	1.12E+01	0.725	83.96	1.187	-0.08	0.205	32.65	0.438	127.53
	1.13E+01	0.732	83.43	1.171	-0.10	0.204	32.75	0.438	126.70
	1.14E+01	0.732	82.12	1.163	-0.75	0.207	33.08	0.442	126.59
	1.15E+01	0.734	81.22	1.158	-1.60	0.210	32.86	0.449	125.59
	1.16E+01	0.735	79.77	1.146	-2.43	0.213	31.99	0.458	124.68
	1.17E+01	0.729	78.99	1.129	-3.73	0.214	31.37	0.459	123.20
	1.18E+01	0.737	78.32	1.120	-4.29	0.216	31.07	0.457	122.42
	1.19E+01	0.732	76.85	1.105	-4.95	0.220	30.29	0.460	122.32
	1.20E+01	0.723	76.01	1.092	-6.34	0.220	28.97	0.473	122.00
	1.21E+01	0.715	75.05	1.070	-7.28	0.220	28.42	0.480	120.14
	1.22E+01	0.712	74.78	1.052	-7.78	0.223	27.68	0.481	119.45
	1.23E+01	0.704	74.44	1.047	-9.44	0.223	25.67	0.490	118.55
	1.24E+01	0.703	73.99	1.021	-9.97	0.217	25.29	0.490	117.15
	1.25E+01	0.702	73.31	0.994	-10.36	0.215	24.86	0.497	116.96
	1.26E+01	0.703	73.30	0.967	-10.79	0.213	26.20	0.500	114.72
	1.27E+01	0.699	72.93	0.955	-10.99	0.216	26.11	0.496	113.53
	1.28E+01	0.695	72.02	0.934	-11.57	0.216	25.71	0.492	112.55
	1.29E+01	0.699	71.43	0.923	-11.76	0.217	25.93	0.489	112.55
	1.30E+01	0.699	71.42	0.915	-11.69	0.220	25.93	0.493	112.59
	1.31E+01	0.697	70.73	0.899	-12.37	0.221	25.01	0.499	112.54
	1.32E+01	0.693	70.22	0.893	-13.07	0.221	24.67	0.507	111.92
	1.33E+01	0.694	69.76	0.886	-13.11	0.222	24.69	0.508	110.24
	1.34E+01	0.690	69.19	0.876	-13.82	0.225	24.24	0.508	110.40
	1.35E+01	0.694	69.02	0.868	-14.22	0.224	23.84	0.513	109.70
	1.36E+01	0.689	68.52	0.855	-14.43	0.225	23.89	0.519	109.48
	1.37E+01	0.689	67.94	0.840	-15.24	0.228	23.78	0.523	108.50
	1.38E+01	0.692	67.14	0.835	-15.97	0.229	23.04	0.524	107.28
	1.39E+01	0.690	67.08	0.826	-16.23	0.229	22.89	0.520	106.36
	1.40E+01	0.687	66.41	0.815	-16.78	0.230	22.99	0.521	106.16
	1.41E+01	0.684	65.68	0.803	-17.40	0.232	22.37	0.525	105.94
	1.42E+01	0.685	65.02	0.788	-17.97	0.234	21.60	0.528	105.17
	1.43E+01	0.683	64.55	0.775	-18.94	0.234	21.76	0.532	104.30
	1.44E+01	0.686	64.23	0.773	-19.16	0.236	21.54	0.530	103.69
	1.45E+01	0.678	63.71	0.758	-19.43	0.239	20.81	0.531	103.43
	1.46E+01	0.677	62.94	0.746	-19.70	0.239	19.84	0.533	102.84
	1.47E+01	0.678	62.07	0.735	-19.91	0.238	19.95	0.533	101.81
	1.48E+01	0.679	62.09	0.722	-20.42	0.241	19.93	0.529	100.84
	1.49E+01	0.670	61.25	0.713	-21.40	0.245	19.10	0.528	100.77
	1.50E+01	0.671	60.61	0.710	-21.41	0.243	18.24	0.533	101.02
