! Filename BFG424F_4V_15mA.prm
! Simulation_Values
! Created	by	janssen	on	nov	2006			
!	Column ranking S11, S21,S12,S22 both magnitude and phase.								
!	VCE	=	4	V,	IC	=	15	mA	
!	Common	Emitter	S-Parameters						
#	GHZ	S	MA	R	50				
	5.00E-01	0.455	-69.65	24.138	134.91	0.018	65.1	0.764	-28.35
	6.00E-01	0.433	-80.19	22.162	128.86	0.02	62.36	0.717	-31.49
	7.00E-01	0.412	-89.71	20.373	123.63	0.022	61.66	0.674	-34
	8.00E-01	0.393	-98.42	18.744	119.09	0.024	61	0.636	-35.94
	9.00E-01	0.383	-106.4	17.324	115.13	0.026	60.56	0.603	-37.64
	1.00E+00	0.371	-113.37	16.066	111.56	0.027	60.3	0.574	-38.99
	1.10E+00	0.362	-119.96	14.935	108.39	0.029	60.43	0.548	-40.21
	1.20E+00	0.353	-125.84	13.929	105.56	0.03	60.9	0.526	-41.24
	1.30E+00	0.348	-131.42	13.059	102.97	0.032	61.06	0.506	-42.22
	1.40E+00	0.343	-136.61	12.272	100.56	0.033	61.55	0.489	-43.12
	1.50E+00	0.342	-141.3	11.577	98.33	0.035	61.84	0.474	-43.93
	1.60E+00	0.337	-145.65	10.949	96.23	0.036	62.22	0.46	-44.84
	1.70E+00	0.335	-149.78	10.377	94.26	0.038	62.79	0.446	-45.68
	1.80E+00	0.335	-154.14	9.852	92.41	0.039	63.1	0.435	-46.5
	1.90E+00	0.335	-157.65	9.382	90.64	0.041	63.64	0.424	-47.4
	2.00E+00	0.336	-161.13	8.958	89.06	0.043	63.92	0.415	-48.26
	2.10E+00	0.336	-164.33	8.564	87.39	0.044	64.38	0.406	-49.32
	2.20E+00	0.338	-167.62	8.201	85.82	0.046	64.48	0.397	-50.27
	2.30E+00	0.339	-170.92	7.857	84.35	0.048	64.93	0.388	-51.25
	2.40E+00	0.343	-173.38	7.557	82.95	0.049	65.29	0.38	-52.29
	2.50E+00	0.346	-175.97	7.266	81.56	0.051	65.61	0.372	-53.37
	2.60E+00	0.347	-178.53	7.007	80.13	0.053	65.45	0.365	-54.6
	2.70E+00	0.349	178.52	6.76	78.83	0.055	65.83	0.357	-55.87
	2.80E+00	0.354	176.21	6.527	77.56	0.057	65.97	0.35	-56.91
	2.90E+00	0.358	174.1	6.309	76.34	0.059	66.16	0.343	-58.22
	3.00E+00	0.361	171.96	6.106	75.11	0.061	66.15	0.336	-59.39
	3.10E+00	0.365	169.61	5.924	73.88	0.062	66.07	0.329	-60.8
	3.20E+00	0.368	167.5	5.742	72.69	0.064	66.13	0.323	-62.1
	3.30E+00	0.373	165.29	5.566	71.56	0.066	66.38	0.316	-63.56
	3.40E+00	0.378	163.51	5.406	70.37	0.068	66.23	0.31	-65.18
	3.50E+00	0.383	161.84	5.251	69.29	0.07	66.03	0.304	-66.8
	3.60E+00	0.384	159.61	5.11	68.13	0.072	66.13	0.298	-68.49
	3.70E+00	0.39	157.67	4.982	67.02	0.074	65.86	0.291	-70.2
	3.80E+00	0.396	156.08	4.85	65.97	0.076	65.96	0.284	-71.94
	3.90E+00	0.401	154.52	4.731	64.92	0.078	65.85	0.278	-73.64
	4.00E+00	0.406	152.66	4.612	63.8	0.08	65.74	0.272	-75.58
	4.10E+00	0.41	151	4.499	62.83	0.082	65.57	0.267	-77.55
	4.20E+00	0.415	149.24	4.393	61.72	0.084	65.38	0.261	-79.65
	4.30E+00	0.421	147.73	4.296	60.79	0.086	65.22	0.255	-81.43
	4.40E+00	0.428	146.47	4.196	59.67	0.089	65.04	0.25	-83.41
	4.50E+00	0.43	145.22	4.102	58.64	0.091	64.91	0.245	-85.54
	4.60E+00	0.433	143.36	4.013	57.71	0.093	64.49	0.24	-88.16
	4.70E+00	0.44	141.67	3.925	56.67	0.095	64.11	0.236	-90.8
	4.80E+00	0.448	140.53	3.85	55.59	0.097	63.99	0.23	-93.37
	4.90E+00	0.452	139.29	3.77	54.72	0.1	63.52	0.226	-95.81
	5.00E+00	0.457	138.2	3.69	53.76	0.102	63.25	0.22	-98.17
	5.10E+00	0.46	136.56	3.623	52.63	0.104	63.03	0.216	-100.64
	5.20E+00	0.466	135.07	3.551	51.79	0.106	62.82	0.212	-103.54
	5.30E+00	0.476	133.98	3.479	50.84	0.108	62.25	0.208	-106.63
	5.40E+00	0.479	132.95	3.422	49.82	0.11	61.87	0.204	-109.63
	5.50E+00	0.483	131.62	3.352	48.98	0.112	61.64	0.201	-112.56
	5.60E+00	0.488	130.25	3.283	47.92	0.115	61.27	0.199	-115.61
	5.70E+00	0.496	129.13	3.233	47	0.117	60.79	0.197	-118.78
	5.80E+00	0.501	128.05	3.173	46.22	0.119	60.49	0.194	-122.17
	5.90E+00	0.506	126.97	3.114	45.08	0.121	60.15	0.191	-125.7
	6.00E+00	0.51	125.81	3.068	44.32	0.123	59.64	0.19	-129.12
	6.10E+00	0.515	124.5	3.011	43.49	0.125	59.21	0.189	-132.53
	6.20E+00	0.521	123.18	2.953	42.34	0.127	58.9	0.189	-136.12
	6.30E+00	0.53	122.46	2.914	41.46	0.129	58.61	0.189	-139.79
	6.40E+00	0.531	121.39	2.86	40.69	0.132	58.17	0.189	-143.06
	6.50E+00	0.535	120.2	2.811	39.66	0.134	57.62	0.189	-146.4
	6.60E+00	0.541	118.96	2.766	38.88	0.136	57.34	0.19	-149.7
	6.70E+00	0.547	118.13	2.717	38.12	0.138	56.92	0.191	-153.05
	6.80E+00	0.554	117.01	2.675	37.02	0.14	56.34	0.194	-156.82
	6.90E+00	0.558	116.22	2.64	36.24	0.142	55.96	0.196	-160.14
	7.00E+00	0.56	115.26	2.59	35.48	0.144	55.77	0.197	-163.02
	7.10E+00	0.563	114.03	2.553	34.54	0.147	55.1	0.2	-165.65
	7.20E+00	0.57	112.91	2.514	33.81	0.148	54.59	0.203	-168.2
	7.30E+00	0.576	112.39	2.47	32.95	0.15	54.16	0.208	-171.19
	7.40E+00	0.58	111.43	2.439	31.88	0.152	53.93	0.212	-174.54
	7.50E+00	0.583	110.25	2.403	31.25	0.155	53.24	0.217	-178.01
	7.60E+00	0.59	109.56	2.365	30.43	0.156	52.7	0.219	179.23
	7.70E+00	0.593	108.66	2.334	29.62	0.158	52.43	0.222	177.03
	7.80E+00	0.596	107.83	2.303	28.94	0.161	51.94	0.226	175.01
	7.90E+00	0.6	106.65	2.262	27.86	0.163	51.13	0.232	172.48
	8.00E+00	0.605	105.98	2.24	27.03	0.163	50.81	0.236	169.89
	8.10E+00	0.608	105.16	2.205	26.56	0.165	50.79	0.24	167.59
	8.20E+00	0.612	104.39	2.171	25.62	0.168	50.29	0.245	165.83
	8.30E+00	0.617	103.47	2.147	24.76	0.17	49.52	0.252	163.98
	8.40E+00	0.619	102.7	2.112	24.12	0.171	49.03	0.259	161.87
	8.50E+00	0.623	101.87	2.077	22.94	0.173	48.81	0.265	159.45
	8.60E+00	0.627	101.08	2.061	22.26	0.176	48.21	0.268	157.35
	8.70E+00	0.631	100.3	2.025	21.74	0.177	47.67	0.273	155.65
	8.80E+00	0.635	99.63	1.999	20.79	0.179	47.34	0.28	154.2
	8.90E+00	0.638	98.95	1.979	20.13	0.182	46.99	0.287	152.46
	9.00E+00	0.639	98.16	1.944	19.48	0.184	46.13	0.293	150.67
	9.10E+00	0.643	97.45	1.928	18.35	0.185	45.57	0.296	149.02
	9.20E+00	0.648	96.7	1.915	17.83	0.187	45.2	0.301	147.7
	9.30E+00	0.653	96.19	1.876	17.06	0.189	44.65	0.308	146.33
	9.40E+00	0.656	95.38	1.847	15.82	0.191	43.83	0.317	144.76
	9.50E+00	0.658	94.86	1.831	15.13	0.192	43.4	0.323	142.63
	9.60E+00	0.664	94.16	1.795	14.41	0.194	43.07	0.326	141.08
	9.70E+00	0.669	93.17	1.785	13.45	0.197	42.48	0.327	140.03
	9.80E+00	0.674	92.07	1.765	12.61	0.198	41.35	0.331	139.02
	9.90E+00	0.67	91.34	1.718	11.83	0.198	40.75	0.339	137.74
	1.00E+01	0.671	90.95	1.687	11.01	0.198	40.39	0.345	136.14
	1.01E+01	0.674	90.09	1.666	10.99	0.2	39.98	0.349	134.82
	1.02E+01	0.678	89.59	1.636	10.5	0.201	39.58	0.352	133.96
	1.03E+01	0.682	89.13	1.629	9.91	0.202	39.43	0.355	133.39
	1.04E+01	0.683	88.25	1.611	9.67	0.204	38.9	0.363	132.56
	1.05E+01	0.689	87.36	1.589	8.74	0.205	38.15	0.369	131
	1.06E+01	0.692	86.77	1.583	7.48	0.206	37.76	0.374	129.42
	1.07E+01	0.693	86.12	1.564	7.08	0.207	37.62	0.377	128.39
	1.08E+01	0.693	85.56	1.537	6.25	0.208	36.86	0.38	128.04
	1.09E+01	0.694	85.12	1.522	5.79	0.209	36.19	0.385	127.77
	1.10E+01	0.697	84.35	1.499	5.31	0.209	36.02	0.393	127.01
	1.11E+01	0.704	83.85	1.467	4.26	0.21	35.62	0.4	125.69
	1.12E+01	0.714	83.2	1.457	3.63	0.21	35.05	0.404	124.18
	1.13E+01	0.719	82.69	1.439	3.6	0.209	35.16	0.405	123.22
	1.14E+01	0.72	81.17	1.431	2.92	0.212	35.49	0.409	123.09
	1.15E+01	0.723	80.35	1.427	2.09	0.215	35.27	0.415	122.23
	1.16E+01	0.723	78.93	1.413	1.26	0.219	34.44	0.422	121.55
	1.17E+01	0.717	78.07	1.395	-0.09	0.219	33.77	0.423	120.29
	1.18E+01	0.726	77.44	1.383	-0.69	0.222	33.37	0.421	119.41
	1.19E+01	0.721	75.95	1.366	-1.38	0.226	32.58	0.423	119.49
	1.20E+01	0.71	75.06	1.351	-2.85	0.226	31.24	0.436	119.52
	1.21E+01	0.705	74.25	1.324	-3.82	0.225	30.69	0.444	117.83
	1.22E+01	0.701	74.2	1.302	-4.29	0.229	30	0.446	117.18
	1.23E+01	0.691	73.48	1.297	-5.95	0.228	27.95	0.453	116.49
	1.24E+01	0.69	73.07	1.264	-6.62	0.223	27.57	0.454	115.08
	1.25E+01	0.692	72.73	1.23	-7.01	0.221	27.15	0.46	114.87
	1.26E+01	0.69	72.79	1.201	-7.4	0.219	28.5	0.464	112.75
	1.27E+01	0.686	72.15	1.185	-7.68	0.222	28.35	0.462	111.75
	1.28E+01	0.684	71.35	1.16	-8.3	0.222	27.91	0.46	110.93
	1.29E+01	0.689	71.08	1.146	-8.54	0.222	28.11	0.457	110.87
	1.30E+01	0.684	70.84	1.135	-8.46	0.226	28.08	0.46	110.88
	1.31E+01	0.685	70.18	1.117	-9.16	0.227	27.18	0.463	111
	1.32E+01	0.682	69.67	1.109	-9.86	0.227	26.84	0.471	110.5
	1.33E+01	0.682	69.41	1.101	-9.98	0.228	26.77	0.474	108.89
	1.34E+01	0.678	68.67	1.087	-10.72	0.23	26.31	0.476	108.94
	1.35E+01	0.682	68.77	1.078	-11.15	0.229	25.94	0.48	108.2
	1.36E+01	0.677	68.19	1.064	-11.36	0.231	25.98	0.485	108.15
	1.37E+01	0.676	67.61	1.047	-12.18	0.233	25.79	0.488	107.4
	1.38E+01	0.681	66.75	1.04	-13	0.234	25.07	0.489	106.32
	1.39E+01	0.677	66.91	1.029	-13.3	0.234	24.85	0.486	105.44
	1.40E+01	0.676	66.14	1.016	-13.95	0.236	25	0.488	105.2
	1.41E+01	0.673	65.54	1.002	-14.59	0.238	24.4	0.491	105.02
	1.42E+01	0.674	65.04	0.984	-15.22	0.239	23.59	0.495	104.44
	1.43E+01	0.671	64.43	0.968	-16.24	0.239	23.73	0.498	103.8
	1.44E+01	0.674	64.12	0.965	-16.51	0.241	23.51	0.496	103.25
	1.45E+01	0.667	63.63	0.946	-16.8	0.245	22.76	0.496	102.99
	1.46E+01	0.667	63.25	0.933	-17.18	0.246	21.79	0.499	102.53
	1.47E+01	0.666	62.26	0.921	-17.54	0.244	21.79	0.5	101.69
	1.48E+01	0.666	62.25	0.903	-18.17	0.247	21.69	0.499	100.78
	1.49E+01	0.662	61.31	0.89	-19.18	0.25	20.87	0.5	100.66
	1.50E+01	0.661	61.17	0.888	-19.25	0.249	19.97	0.503	100.87
