! Filename: 210BFG480.001
! Title: BFG480W
! Bias: Vce=2V; Ic=10mA
! Company: Philips Semiconductors NL
! User: Quality&Reliability T&D
! Measure time: 10 Nov 1999 / 11:53:15
#  MHz  S  MA  R 50
! Freq       S11             S21             S12             S22    :
  100  0.60641 -33.54 19.35455 158.44 0.016805 70.935  0.91878 -26.06
  200  0.59909 -64.13 17.35977 142.04 0.029054 56.091  0.81628 -48.70
  300  0.59838 -90.47 15.67829 128.90 0.036708 45.996  0.71666 -66.01
  400  0.61232 -108.4 13.54361 118.99 0.041251 38.817  0.64665 -79.73
  500  0.62294 -122.8 11.92385 110.91 0.043628 33.964  0.59348 -91.01
  600  0.62956 -133.6 10.54468 104.24 0.045062 30.836  0.55479 -99.80
  700  0.63618 -141.6  9.34161 98.982 0.045831 28.877  0.52768 -107.1
  800  0.64143 -148.1  8.34722 94.388 0.046231 27.662  0.50795 -113.2
  900  0.64797 -153.1  7.45283 90.619 0.046314 27.245  0.49467 -118.6
 1000  0.65576 -157.8  6.76896 87.176 0.046524 27.244  0.48577 -123.6
 1200  0.67341 -165.3  5.65467 80.760 0.046366 27.919  0.48040 -132.1
 1400  0.68978 -170.8  4.83089 74.722 0.046100 29.741  0.48458 -138.9
 1600  0.70072 -175.1  4.21414 70.038 0.046682 32.872  0.49061 -144.1
 1800  0.70435 -179.2  3.75230 66.095 0.047953 36.714  0.49564 -149.2
 2000  0.71431 177.08  3.31640 62.235 0.048811 40.760  0.50315 -154.5
 2200  0.73401 173.55  2.95847 57.941 0.049971 44.245  0.52097 -159.5
 2400  0.74972 170.59  2.65032 53.616 0.052095 47.410  0.54542 -163.4
 2600  0.75647 168.02  2.41797 49.884 0.055821 50.474  0.56568 -166.1
 2800  0.75603 165.22  2.24596 45.057 0.059093 52.216  0.57652 -169.0
 3000  0.76185 162.06  2.07943 41.282 0.063009 54.345  0.58584 -172.5
