! Filename: 24bfg410.001
! BFG410W Field B1
! V1=8.519E-001V,V2=2.000E+000V, I1=5.851E-005A, I2=4.000E-003A
# GHz   S   MA   R 50
!                S11              S21              S12              S22
!Freq(GHz)  Mag     Ang      Mag     Ang      Mag     Ang      Mag     Ang 
   0.040    0.819  -2.259   11.452 177.256    0.001  70.644    0.993  -0.753
   0.100    0.826  -5.080   11.236 174.475    0.003  88.009    0.992  -2.688
   0.200    0.820 -10.096   11.062 168.769    0.006  82.815    0.980  -6.281
   0.300    0.812 -15.308   10.995 164.059    0.009  80.327    0.977  -9.134
   0.400    0.800 -20.084   10.885 158.411    0.012  77.038    0.968 -12.426
   0.500    0.786 -25.054   10.716 153.486    0.014  73.893    0.954 -15.026
   0.600    0.771 -29.843   10.512 148.584    0.017  71.118    0.944 -17.858
   0.700    0.754 -34.618   10.251 143.658    0.019  68.029    0.928 -20.806
   0.800    0.736 -39.299   10.030 139.038    0.021  65.597    0.913 -23.354
   0.900    0.716 -43.679    9.808 134.450    0.024  63.150    0.898 -25.970
   1.000    0.694 -48.078    9.545 129.957    0.025  60.816    0.880 -28.398
   1.100    0.674 -52.288    9.293 125.823    0.027  58.700    0.865 -30.646
   1.200    0.652 -56.361    9.034 121.602    0.029  56.722    0.848 -32.963
   1.300    0.632 -60.353    8.770 117.627    0.031  54.935    0.830 -35.063
   1.400    0.611 -64.260    8.527 113.774    0.032  53.204    0.814 -37.112
   1.500    0.590 -68.157    8.275 109.959    0.034  51.596    0.798 -39.093
   1.600    0.568 -71.991    8.039 106.295    0.035  50.199    0.782 -40.996
   1.700    0.549 -75.622    7.802 102.730    0.037  48.873    0.768 -42.876
   1.800    0.530 -79.152    7.563  99.274    0.038  47.574    0.753 -44.675
   1.900    0.512 -82.629    7.340  96.024    0.039  46.444    0.739 -46.459
   2.000    0.494 -86.073    7.121  92.759    0.040  45.345    0.725 -48.207
   2.200    0.461 -93.018    6.717  86.502    0.043  43.409    0.699 -51.581
   2.400    0.429 -99.810    6.342  80.484    0.045  41.711    0.674 -54.850
   2.600    0.400 -106.689    5.997  74.752    0.047  40.082    0.650 -58.105
   2.800    0.374 -113.643    5.683  69.229    0.050  38.547    0.627 -61.291
   3.000    0.350 -120.663    5.396  63.877    0.052  37.059    0.605 -64.494
   3.500    0.301 -139.621    4.776  51.053    0.059  33.182    0.552 -72.465
   4.000    0.265 -160.625    4.263  38.773    0.067  28.786    0.500 -80.564
   4.500    0.253 176.936    3.842  27.053    0.076  23.589    0.449 -89.310
   5.000    0.254 153.863    3.471  15.470    0.084  17.612    0.392 -98.360
   5.500    0.272 131.126    3.128   3.696    0.090  10.084    0.325 -107.819
   6.000    0.303 115.295    2.874  -6.779    0.102   4.562    0.280 -118.875
   6.500    0.335  98.674    2.593 -17.501    0.107  -2.145    0.217 -129.573
   7.000    0.313  88.896    2.342 -23.150    0.113   3.952    0.212 -125.805
   7.500    0.408  79.309    2.246 -36.466    0.134 -11.404    0.155 -162.420
   8.000    0.471  68.171    2.083 -47.987    0.145 -21.859    0.129 157.818
   8.500    0.531  56.576    1.886 -60.191    0.150 -34.312    0.138 106.041
   9.000    0.578  46.528    1.706 -70.953    0.152 -44.110    0.182  75.520
   9.500    0.613  36.672    1.515 -81.291    0.148 -54.008    0.238  52.845
  10.000    0.661  29.322    1.394 -92.585    0.156 -63.949    0.315  40.312
  10.500    0.699  20.773    1.245 -103.470    0.156 -74.416    0.382  27.469
  11.000    0.735  11.973    1.094 -114.807    0.152 -87.558    0.456  14.964
  11.500    0.752   3.376    0.940 -125.573    0.141 -99.202    0.519   3.596
  12.000    0.766  -5.290    0.796 -136.387    0.130 -112.836    0.580  -7.606
!     DEEMBEDDED NOISE DATA
!FREQUENCY    FMIN    GAMMA OPT        Rn
!  (GHz)      (dB)    Mag    Ang   (NORMALIZED)
