! Filename: 21bfg425.001
! BFG425W Field C1
! V1=7.884E-001V,V2=2.000E+000V, I1=1.297E-005A, I2=1.000E-003A
# GHz   S   MA   R 50
!                S11              S21              S12              S22
!Freq(GHz)  Mag     Ang      Mag     Ang      Mag     Ang      Mag     Ang 
   0.040    0.950  -1.927    3.575 177.729    0.003  83.537    0.996  -1.116
   0.100    0.954  -5.309    3.518 175.247    0.007  87.057    0.996  -3.082
   0.200    0.951 -10.517    3.504 170.441    0.014  82.341    0.991  -6.343
   0.300    0.947 -15.891    3.496 166.534    0.020  78.681    0.988  -9.405
   0.400    0.941 -20.987    3.493 161.221    0.027  75.109    0.982 -12.576
   0.500    0.935 -26.297    3.476 156.531    0.033  71.254    0.974 -15.593
   0.600    0.928 -31.508    3.433 151.954    0.040  67.636    0.965 -18.605
   0.700    0.919 -36.669    3.384 147.515    0.046  63.875    0.954 -21.674
   0.800    0.910 -41.871    3.350 143.152    0.051  60.357    0.943 -24.600
   0.900    0.898 -46.948    3.317 138.801    0.057  56.929    0.930 -27.559
   1.000    0.886 -52.161    3.272 134.309    0.062  53.488    0.916 -30.396
   1.100    0.874 -57.181    3.223 130.114    0.067  50.181    0.903 -33.098
   1.200    0.861 -62.218    3.171 125.837    0.071  46.955    0.888 -35.859
   1.300    0.849 -67.154    3.119 121.786    0.075  43.791    0.873 -38.531
   1.400    0.835 -72.157    3.072 117.682    0.079  40.631    0.857 -41.151
   1.500    0.820 -77.167    3.020 113.644    0.083  37.639    0.841 -43.709
   1.600    0.805 -82.207    2.970 109.592    0.086  34.711    0.825 -46.178
   1.700    0.791 -87.060    2.917 105.729    0.088  31.883    0.809 -48.647
   1.800    0.777 -91.950    2.856 101.784    0.091  29.108    0.792 -51.053
   1.900    0.764 -96.639    2.794  98.114    0.093  26.451    0.776 -53.419
   2.000    0.750 -101.391    2.732  94.423    0.095  23.911    0.760 -55.736
   2.200    0.724 -110.942    2.619  87.125    0.099  18.970    0.728 -60.215
   2.400    0.699 -120.367    2.508  80.116    0.101  14.466    0.696 -64.567
   2.600    0.676 -129.662    2.397  73.380    0.103  10.259    0.665 -68.830
   2.800    0.656 -138.908    2.292  66.760    0.104   6.351    0.635 -72.927
   3.000    0.639 -148.043    2.191  60.350    0.105   2.752    0.607 -77.079
   3.500    0.607 -170.569    1.965  44.988    0.105  -4.922    0.538 -87.169
   4.000    0.591 167.913    1.760  30.286    0.104 -11.140    0.472 -97.415
   4.500    0.592 148.037    1.581  16.706    0.103 -15.619    0.411 -108.389
   5.000    0.603 129.279    1.420   3.306    0.103 -20.774    0.348 -121.128
   5.500    0.615 112.791    1.265  -8.919    0.100 -23.649    0.286 -133.817
   6.000    0.639  97.500    1.136 -21.306    0.102 -28.478    0.231 -152.147
   6.500    0.650  86.266    1.036 -29.902    0.109 -22.727    0.210 -166.535
   7.000    0.677  74.825    0.954 -40.269    0.123 -25.968    0.198 168.722
   7.500    0.714  62.634    0.863 -52.788    0.127 -37.400    0.202 133.722
   8.000    0.738  53.058    0.789 -62.837    0.135 -42.879    0.235 108.985
   8.500    0.762  43.648    0.714 -73.508    0.141 -51.214    0.285  86.780
   9.000    0.780  34.660    0.635 -83.067    0.140 -58.367    0.332  68.494
   9.500    0.798  26.407    0.572 -91.630    0.142 -66.201    0.369  56.445
  10.000    0.817  18.924    0.527 -101.605    0.145 -75.297    0.443  45.753
  10.500    0.829  11.537    0.475 -111.309    0.145 -84.104    0.507  34.672
  11.000    0.838   4.225    0.420 -120.520    0.140 -93.915    0.556  23.257
  11.500    0.845  -2.938    0.375 -130.163    0.134 -104.397    0.607  14.337
  12.000    0.848  -9.981    0.326 -139.789    0.124 -115.184    0.658   4.326
!BFG425W_noise.xls                                                                 !Philips part #:BFG425W
! Bias condition: Vce=2V,Ic=1mA                                            # MHz dB Ratio deg ohm
! Freq. Fmin Gmag Gangle Rn
900 0.7 0.67 19.1 0.40                                                       2000 1.3 0.56 57.5 0.36
