! Filename: 47bfg410.001
! BFG410W Field B1
! V1=8.548E-001V,V2=4.000E+000V, I1=9.262E-005A, I2=7.010E-003A
# GHz   S   MA   R 50
!                S11              S21              S12              S22
!Freq(GHz)  Mag     Ang      Mag     Ang      Mag     Ang      Mag     Ang 
   0.040    0.731  -2.138   16.565 175.657    0.001  45.477    0.976  -0.823
   0.100    0.736  -5.867   16.187 172.566    0.003  75.497    0.977  -2.954
   0.200    0.729 -11.847   15.918 166.327    0.005  76.572    0.969  -6.458
   0.300    0.717 -17.731   15.643 160.541    0.007  75.995    0.961  -9.544
   0.400    0.701 -23.349   15.328 154.335    0.010  73.467    0.948 -12.691
   0.500    0.680 -29.101   14.939 148.392    0.012  70.472    0.932 -15.501
   0.600    0.659 -34.375   14.471 142.830    0.014  68.637    0.916 -18.215
   0.700    0.636 -39.459   13.961 137.600    0.016  66.330    0.898 -20.827
   0.800    0.611 -44.374   13.475 132.444    0.017  64.430    0.880 -23.196
   0.900    0.586 -48.906   12.981 127.572    0.019  62.655    0.862 -25.495
   1.000    0.561 -53.341   12.472 122.903    0.020  61.028    0.844 -27.631
   1.100    0.537 -57.512   11.985 118.523    0.022  59.539    0.827 -29.614
   1.200    0.514 -61.541   11.508 114.261    0.023  58.146    0.810 -31.578
   1.300    0.492 -65.368   11.041 110.271    0.024  57.120    0.794 -33.303
   1.400    0.470 -68.959   10.611 106.481    0.026  56.018    0.778 -34.979
   1.500    0.449 -72.716   10.193 102.785    0.027  55.084    0.764 -36.611
   1.600    0.428 -76.248    9.808  99.243    0.028  54.326    0.751 -38.201
   1.700    0.410 -79.606    9.432  95.870    0.029  53.508    0.738 -39.772
   1.800    0.392 -82.896    9.077  92.601    0.030  52.827    0.726 -41.278
   1.900    0.376 -86.009    8.750  89.482    0.032  52.173    0.715 -42.830
   2.000    0.360 -89.208    8.437  86.418    0.033  51.557    0.704 -44.331
   2.200    0.331 -95.630    7.870  80.594    0.035  50.280    0.682 -47.273
   2.400    0.304 -101.990    7.361  75.025    0.038  49.268    0.663 -50.163
   2.600    0.280 -108.598    6.907  69.654    0.040  48.016    0.644 -53.091
   2.800    0.259 -115.211    6.501  64.538    0.043  46.741    0.626 -56.046
   3.000    0.239 -122.309    6.141  59.569    0.046  45.426    0.609 -59.022
   3.500    0.201 -142.126    5.380  47.680    0.054  41.517    0.566 -66.507
   4.000    0.177 -165.344    4.774  36.238    0.062  36.775    0.522 -74.240
   4.500    0.175 169.612    4.290  25.216    0.071  31.083    0.476 -82.576
   5.000    0.188 144.984    3.869  14.239    0.080  24.636    0.424 -91.056
   5.500    0.217 121.967    3.487   2.980    0.087  16.923    0.359 -99.622
   6.000    0.253 108.105    3.207  -6.985    0.099  10.897    0.316 -109.714
   6.500    0.291  92.515    2.899 -17.338    0.104   3.790    0.253 -118.524
   7.000    0.268  82.935    2.621 -22.544    0.110   9.218    0.258 -115.913
   7.500    0.366  76.575    2.529 -35.707    0.132  -6.104    0.187 -145.759
   8.000    0.432  66.421    2.355 -47.095    0.143 -16.788    0.139 -178.407
   8.500    0.499  55.495    2.138 -59.303    0.149 -29.448    0.112 126.015
   9.000    0.550  45.893    1.939 -70.021    0.152 -39.421    0.144  84.898
   9.500    0.590  36.153    1.727 -80.486    0.149 -49.566    0.199  56.173
  10.000    0.643  29.118    1.591 -91.823    0.157 -59.848    0.279  42.667
  10.500    0.685  20.555    1.422 -102.822    0.157 -70.551    0.349  28.883
  11.000    0.724  11.657    1.248 -114.231    0.153 -83.966    0.428  15.682
  11.500    0.744   2.812    1.071 -125.050    0.142 -96.002    0.495   3.818
  12.000    0.760  -5.883    0.905 -135.824    0.132 -109.690    0.559  -7.763
!     DEEMBEDDED NOISE DATA
!FREQUENCY    FMIN    GAMMA OPT        Rn
!  (GHz)      (dB)    Mag    Ang   (NORMALIZED)
