! Filename: 430bfg425.001
! BFG425W Field C1
! V1=8.371E-001V,V2=4.000E+000V, I1=3.822E-004A, I2=2.995E-002A
# GHz   S   MA   R 50
!                S11              S21              S12              S22
!Freq(GHz)  Mag     Ang      Mag     Ang      Mag     Ang      Mag     Ang 
   0.040    0.329  -7.331   38.744 172.995    0.002  47.172    0.897  -2.328
   0.100    0.332 -19.911   37.774 164.455    0.004  70.195    0.894  -8.171
   0.200    0.316 -39.127   35.067 150.796    0.008  70.200    0.849 -16.502
   0.300    0.294 -55.803   31.545 139.568    0.011  68.419    0.789 -22.990
   0.400    0.275 -71.019   28.148 129.887    0.013  66.873    0.729 -27.838
   0.500    0.257 -84.720   25.092 121.536    0.016  65.144    0.677 -31.499
   0.600    0.243 -96.278   22.443 114.809    0.018  63.989    0.632 -34.311
   0.700    0.234 -106.548   20.215 109.139    0.020  63.050    0.594 -36.495
   0.800    0.225 -116.177   18.321 103.921    0.022  62.479    0.563 -38.336
   0.900    0.218 -124.517   16.715  99.332    0.024  61.892    0.537 -40.021
   1.000    0.213 -132.194   15.328  95.166    0.027  61.380    0.514 -41.500
   1.100    0.210 -139.081   14.137  91.336    0.029  60.765    0.495 -42.958
   1.200    0.207 -145.347   13.109  87.771    0.031  60.170    0.478 -44.359
   1.300    0.206 -151.338   12.202  84.450    0.033  59.639    0.462 -45.671
   1.400    0.206 -156.972   11.415  81.339    0.035  59.011    0.449 -46.986
   1.500    0.207 -162.412   10.718  78.337    0.037  58.288    0.436 -48.231
   1.600    0.207 -167.423   10.096  75.468    0.040  57.493    0.425 -49.597
   1.700    0.209 -172.214    9.533  72.714    0.042  56.664    0.415 -50.957
   1.800    0.211 -176.726    9.035  70.030    0.044  55.783    0.405 -52.310
   1.900    0.213 179.208    8.580  67.446    0.046  54.902    0.396 -53.796
   2.000    0.215 175.150    8.168  64.915    0.049  53.889    0.386 -55.282
   2.200    0.221 167.381    7.448  60.030    0.053  51.807    0.369 -58.294
   2.400    0.229 160.235    6.839  55.312    0.058  49.674    0.351 -61.332
   2.600    0.237 153.624    6.315  50.674    0.063  47.319    0.334 -64.518
   2.800    0.247 147.367    5.864  46.229    0.067  44.885    0.317 -67.724
   3.000    0.257 141.489    5.471  41.838    0.072  42.328    0.300 -71.091
   3.500    0.287 127.899    4.673  31.154    0.084  35.557    0.256 -79.855
   4.000    0.321 115.625    4.060  20.675    0.095  28.342    0.209 -89.463
   4.500    0.358 104.872    3.577  10.494    0.107  20.792    0.161 -100.887
   5.000    0.401  94.175    3.171  -0.005    0.117  12.280    0.104 -117.388
   5.500    0.435  83.614    2.803  -9.583    0.124   5.190    0.054 -137.064
   6.000    0.480  74.204    2.509 -19.903    0.132  -3.714    0.037 125.385
   6.500    0.488  67.711    2.304 -26.830    0.145  -7.046    0.051 108.080
   7.000    0.525  60.871    2.132 -36.010    0.158 -14.676    0.102  90.057
   7.500    0.587  52.000    1.923 -47.547    0.161 -26.610    0.187  68.517
   8.000    0.623  44.799    1.763 -56.938    0.168 -34.538    0.243  59.180
   8.500    0.665  37.068    1.599 -66.944    0.172 -43.967    0.309  48.887
   9.000    0.694  29.130    1.430 -75.931    0.170 -52.276    0.363  38.443
   9.500    0.723  21.909    1.297 -84.578    0.170 -60.658    0.405  30.038
  10.000    0.754  15.262    1.184 -94.456    0.172 -70.025    0.464  23.732
  10.500    0.778   8.247    1.069 -103.986    0.170 -79.247    0.518  16.027
  11.000    0.796   1.058    0.947 -112.976    0.164 -88.921    0.561   7.248
  11.500    0.811  -6.040    0.846 -122.380    0.158 -98.822    0.603   0.209
  12.000    0.818 -13.270    0.737 -131.448    0.148 -109.178    0.643  -8.013
!     DEEMBEDDED NOISE DATA
!FREQUENCY    FMIN    GAMMA OPT        Rn
!  (GHz)      (dB)    Mag    Ang   (NORMALIZED)
