! Filename: 32bfg410.001
! BFG410W Field B1
! V1=8.307E-001V,V2=3.000E+000V, I1=2.654E-005A, I2=2.000E-003A
# GHz   S   MA   R 50
!                S11              S21              S12              S22
!Freq(GHz)  Mag     Ang      Mag     Ang      Mag     Ang      Mag     Ang 
   0.040    0.907  -1.890    6.481 177.665    0.001  54.236    0.997  -0.689
   0.100    0.912  -3.976    6.346 175.628    0.003  88.335    0.997  -2.260
   0.200    0.909  -7.876    6.289 171.299    0.006  82.674    0.990  -5.063
   0.300    0.905 -11.947    6.284 168.061    0.008  80.897    0.989  -7.378
   0.400    0.899 -15.619    6.281 163.304    0.011  78.459    0.985 -10.043
   0.500    0.892 -19.713    6.250 159.300    0.014  75.633    0.977 -12.307
   0.600    0.884 -23.597    6.188 155.343    0.017  72.934    0.973 -14.706
   0.700    0.875 -27.422    6.101 151.346    0.019  70.380    0.965 -17.233
   0.800    0.866 -31.342    6.044 147.554    0.022  67.925    0.957 -19.540
   0.900    0.854 -35.053    5.994 143.697    0.024  65.526    0.948 -21.923
   1.000    0.840 -38.892    5.923 139.773    0.026  63.172    0.937 -24.210
   1.100    0.827 -42.574    5.848 136.107    0.029  60.909    0.928 -26.358
   1.200    0.813 -46.301    5.771 132.325    0.031  58.706    0.917 -28.610
   1.300    0.799 -49.954    5.686 128.766    0.033  56.559    0.906 -30.766
   1.400    0.785 -53.544    5.613 125.147    0.034  54.356    0.895 -32.857
   1.500    0.768 -57.223    5.530 121.562    0.036  52.382    0.883 -34.931
   1.600    0.750 -60.938    5.451 118.005    0.038  50.471    0.871 -36.933
   1.700    0.736 -64.421    5.368 114.539    0.039  48.553    0.859 -38.937
   1.800    0.719 -67.909    5.269 111.072    0.041  46.753    0.846 -40.920
   1.900    0.704 -71.280    5.173 107.850    0.042  45.128    0.834 -42.845
   2.000    0.688 -74.644    5.071 104.573    0.044  43.526    0.823 -44.758
   2.200    0.656 -81.513    4.893  98.125    0.046  40.472    0.798 -48.473
   2.400    0.623 -88.351    4.717  91.841    0.048  37.773    0.774 -52.077
   2.600    0.592 -95.021    4.536  85.811    0.050  35.334    0.750 -55.651
   2.800    0.562 -101.800    4.367  79.892    0.052  33.082    0.726 -59.053
   3.000    0.534 -108.546    4.205  74.141    0.054  31.058    0.703 -62.512
   3.500    0.467 -126.200    3.833  60.176    0.059  26.606    0.646 -70.981
   4.000    0.412 -144.938    3.495  46.712    0.064  22.590    0.591 -79.338
   4.500    0.376 -164.979    3.202  33.922    0.070  18.479    0.536 -88.096
   5.000    0.353 173.455    2.931  21.300    0.077  13.588    0.477 -97.094
   5.500    0.346 150.788    2.666   8.555    0.082   6.870    0.409 -106.544
   6.000    0.361 132.478    2.460  -2.831    0.092   3.171    0.361 -116.761
   6.500    0.377 113.551    2.227 -14.357    0.096  -2.635    0.296 -127.026
   7.000    0.354 102.585    2.007 -20.794    0.101   7.270    0.280 -126.171
   7.500    0.444  88.930    1.930 -34.503    0.124  -9.097    0.224 -153.923
   8.000    0.501  75.785    1.792 -46.485    0.136 -19.654    0.184 177.816
   8.500    0.554  62.818    1.625 -59.160    0.142 -32.465    0.153 135.606
   9.000    0.597  51.743    1.471 -70.411    0.145 -42.287    0.168  99.269
   9.500    0.630  41.077    1.302 -81.151    0.141 -52.335    0.209  69.546
  10.000    0.677  32.927    1.202 -92.726    0.150 -62.386    0.286  52.062
  10.500    0.712  23.814    1.071 -103.975    0.150 -73.071    0.353  36.540
  11.000    0.743  14.726    0.939 -115.905    0.146 -86.787    0.430  22.066
  11.500    0.760   5.819    0.805 -127.041    0.135 -99.100    0.499   9.379
  12.000    0.772  -2.915    0.681 -138.313    0.123 -113.361    0.564  -2.888
!     DEEMBEDDED NOISE DATA
!FREQUENCY    FMIN    GAMMA OPT        Rn
!  (GHz)      (dB)    Mag    Ang   (NORMALIZED)
