! Filename: 35bfg410.001
! BFG410W Field B1
! V1=8.531E-001V,V2=3.000E+000V, I1=6.983E-005A, I2=5.000E-003A
# GHz   S   MA   R 50
!                S11              S21              S12              S22
!Freq(GHz)  Mag     Ang      Mag     Ang      Mag     Ang      Mag     Ang 
   0.040    0.791  -2.517   13.388 176.553    0.001  77.729    0.989  -0.802
   0.100    0.797  -5.380   13.102 173.639    0.003  84.864    0.989  -2.797
   0.200    0.791 -10.765   12.903 167.853    0.005  81.541    0.979  -6.214
   0.300    0.781 -16.233   12.765 162.707    0.008  78.971    0.974  -9.125
   0.400    0.767 -21.330   12.590 156.903    0.010  76.297    0.964 -12.256
   0.500    0.750 -26.602   12.356 151.554    0.013  72.954    0.950 -14.939
   0.600    0.733 -31.596   12.063 146.427    0.015  70.385    0.938 -17.671
   0.700    0.713 -36.455   11.722 141.365    0.017  67.766    0.922 -20.428
   0.800    0.692 -41.226   11.416 136.557    0.019  65.471    0.905 -22.883
   0.900    0.669 -45.730   11.098 131.835    0.021  63.167    0.889 -25.334
   1.000    0.646 -50.175   10.753 127.246    0.022  61.162    0.872 -27.609
   1.100    0.624 -54.377   10.411 122.971    0.024  59.244    0.855 -29.743
   1.200    0.601 -58.462   10.070 118.737    0.026  57.569    0.839 -31.884
   1.300    0.579 -62.383    9.733 114.747    0.027  56.067    0.822 -33.790
   1.400    0.557 -66.216    9.418 110.872    0.028  54.556    0.807 -35.672
   1.500    0.535 -70.039    9.102 107.083    0.030  53.268    0.792 -37.475
   1.600    0.514 -73.767    8.806 103.470    0.031  52.130    0.777 -39.208
   1.700    0.494 -77.245    8.516  99.984    0.032  51.006    0.764 -40.915
   1.800    0.475 -80.699    8.229  96.590    0.033  50.058    0.750 -42.584
   1.900    0.457 -84.091    7.963  93.384    0.035  49.141    0.737 -44.241
   2.000    0.441 -87.394    7.705  90.191    0.036  48.315    0.725 -45.846
   2.200    0.408 -94.075    7.234  84.111    0.038  46.773    0.701 -48.990
   2.400    0.378 -100.702    6.803  78.282    0.040  45.446    0.680 -52.044
   2.600    0.350 -107.369    6.410  72.688    0.043  44.158    0.658 -55.102
   2.800    0.326 -114.141    6.057  67.327    0.045  42.867    0.638 -58.170
   3.000    0.303 -121.164    5.738  62.142    0.048  41.490    0.618 -61.244
   3.500    0.258 -140.145    5.056  49.730    0.055  37.870    0.571 -68.927
   4.000    0.227 -161.640    4.502  37.812    0.063  33.486    0.523 -76.795
   4.500    0.218 175.157    4.053  26.397    0.072  28.144    0.475 -85.276
   5.000    0.223 151.325    3.660  15.075    0.080  22.058    0.421 -93.974
   5.500    0.245 128.251    3.299   3.519    0.087  14.437    0.355 -102.920
   6.000    0.278 113.095    3.034  -6.739    0.099   8.743    0.311 -113.276
   6.500    0.312  96.606    2.741 -17.292    0.104   1.809    0.248 -122.813
   7.000    0.290  86.847    2.475 -22.781    0.110   7.818    0.247 -120.081
   7.500    0.387  78.593    2.383 -36.004    0.132  -7.694    0.182 -151.463
   8.000    0.451  67.789    2.214 -47.516    0.143 -18.337    0.141 174.403
   8.500    0.515  56.517    2.008 -59.776    0.149 -30.982    0.124 121.104
   9.000    0.563  46.624    1.819 -70.570    0.151 -40.912    0.158  83.795
   9.500    0.601  36.759    1.618 -81.034    0.148 -51.001    0.212  56.856
  10.000    0.653  29.489    1.490 -92.377    0.156 -61.182    0.290  43.143
  10.500    0.692  20.960    1.331 -103.350    0.156 -71.819    0.360  29.431
  11.000    0.729  12.031    1.168 -114.805    0.152 -85.194    0.437  16.268
  11.500    0.748   3.239    1.003 -125.662    0.141 -97.165    0.503   4.472
  12.000    0.763  -5.435    0.848 -136.458    0.130 -110.911    0.566  -7.107
!     DEEMBEDDED NOISE DATA
!FREQUENCY    FMIN    GAMMA OPT        Rn
!  (GHz)      (dB)    Mag    Ang   (NORMALIZED)
