! Filename: 12bfg425.001
! BFG425W Field C1
! V1=8.096E-001V,V2=1.000E+000V, I1=2.742E-005A, I2=2.000E-003A
# GHz   S   MA   R 50
!                S11              S21              S12              S22
!Freq(GHz)  Mag     Ang      Mag     Ang      Mag     Ang      Mag     Ang 
   0.040    0.899  -2.926    6.799 177.295    0.003  77.314    0.990  -1.651
   0.100    0.904  -6.963    6.673 173.970    0.008  85.419    0.988  -4.312
   0.200    0.898 -13.806    6.605 167.754    0.016  80.617    0.978  -8.952
   0.300    0.889 -20.767    6.557 162.447    0.024  76.012    0.970 -13.236
   0.400    0.878 -27.487    6.486 156.213    0.032  71.233    0.956 -17.608
   0.500    0.863 -34.119    6.387 150.475    0.039  67.041    0.938 -21.647
   0.600    0.848 -40.748    6.237 145.000    0.046  62.773    0.920 -25.684
   0.700    0.831 -47.186    6.073 139.708    0.052  58.476    0.898 -29.696
   0.800    0.813 -53.635    5.933 134.556    0.058  54.585    0.875 -33.406
   0.900    0.793 -59.800    5.790 129.507    0.063  50.902    0.851 -37.093
   1.000    0.772 -65.981    5.621 124.506    0.068  47.287    0.826 -40.532
   1.100    0.753 -71.937    5.452 119.848    0.072  43.883    0.802 -43.825
   1.200    0.733 -77.752    5.282 115.214    0.076  40.644    0.778 -47.051
   1.300    0.715 -83.440    5.116 110.844    0.080  37.635    0.753 -50.109
   1.400    0.696 -89.129    4.960 106.543    0.083  34.698    0.729 -53.033
   1.500    0.677 -94.686    4.801 102.357    0.085  31.952    0.705 -55.847
   1.600    0.658 -100.331    4.651  98.273    0.087  29.336    0.682 -58.529
   1.700    0.642 -105.606    4.503  94.360    0.090  26.928    0.660 -61.177
   1.800    0.627 -110.844    4.350  90.524    0.092  24.600    0.638 -63.709
   1.900    0.613 -115.891    4.208  86.900    0.093  22.421    0.618 -66.194
   2.000    0.600 -120.933    4.068  83.321    0.095  20.366    0.598 -68.584
   2.200    0.575 -130.928    3.814  76.404    0.097  16.528    0.560 -73.235
   2.400    0.554 -140.691    3.582  69.781    0.099  13.139    0.525 -77.706
   2.600    0.538 -150.132    3.366  63.479    0.100  10.036    0.492 -82.126
   2.800    0.525 -159.420    3.171  57.397    0.102   7.217    0.461 -86.419
   3.000    0.516 -168.414    2.992  51.494    0.103   4.624    0.432 -90.761
   3.500    0.506 169.931    2.610  37.449    0.106  -1.041    0.365 -101.869
   4.000    0.510 150.073    2.293  24.126    0.109  -6.113    0.304 -113.931
   4.500    0.527 132.401    2.032  11.592    0.113 -10.676    0.250 -128.154
   5.000    0.551 115.890    1.806  -0.836    0.117 -16.472    0.199 -147.139
   5.500    0.572 101.404    1.599 -12.120    0.118 -20.642    0.155 -168.655
   6.000    0.603  88.054    1.428 -23.729    0.122 -26.944    0.137 158.297
   6.500    0.616  78.514    1.306 -31.968    0.131 -25.550    0.143 140.546
   7.000    0.647  68.400    1.199 -42.117    0.143 -30.677    0.177 117.047
   7.500    0.688  57.431    1.079 -54.123    0.146 -41.819    0.234  91.453
   8.000    0.714  48.741    0.985 -63.924    0.152 -48.085    0.286  76.913
   8.500    0.742  39.955    0.890 -74.296    0.156 -56.466    0.346  63.150
   9.000    0.761  31.460    0.792 -83.657    0.154 -63.719    0.395  50.660
   9.500    0.781  23.704    0.715 -92.149    0.154 -71.366    0.431  41.453
  10.000    0.801  16.599    0.655 -102.051    0.156 -80.144    0.495  33.363
  10.500    0.815   9.460    0.590 -111.524    0.155 -88.635    0.549  24.471
  11.000    0.826   2.374    0.523 -120.537    0.149 -97.983    0.591  14.940
  11.500    0.833  -4.632    0.468 -129.998    0.143 -107.699    0.634   7.285
  12.000    0.837 -11.549    0.408 -139.251    0.133 -117.995    0.675  -1.447
!     DEEMBEDDED NOISE DATA
!FREQUENCY    FMIN    GAMMA OPT        Rn
!  (GHz)      (dB)    Mag    Ang   (NORMALIZED)
