! Filename: 4_5bfg403.001
! BFG403W Field A1
! V1=8.236E-001V,V2=4.000E+000V, I1=5.201E-006A, I2=5.000E-004A
# GHz   S   MA   R 50
!                S11              S21              S12              S22
!Freq(GHz)  Mag     Ang      Mag     Ang      Mag     Ang      Mag     Ang 
   0.040    0.979  -0.772    1.704 177.941    0.000  82.769    0.999  -0.660
   0.100    0.982  -2.127    1.667 176.969    0.001  91.538    0.999  -1.721
   0.200    0.981  -4.263    1.663 174.263    0.003  84.997    0.997  -3.580
   0.300    0.979  -6.286    1.665 173.023    0.004  83.045    0.997  -5.326
   0.400    0.980  -8.084    1.675 169.185    0.005  83.009    0.996  -7.171
   0.500    0.976 -10.661    1.679 166.352    0.007  79.723    0.994  -8.901
   0.600    0.974 -12.694    1.669 163.682    0.008  78.439    0.993 -10.648
   0.700    0.971 -14.764    1.659 161.036    0.009  77.108    0.990 -12.489
   0.800    0.967 -16.924    1.656 158.475    0.011  75.659    0.988 -14.213
   0.900    0.963 -18.977    1.657 155.972    0.012  73.923    0.986 -16.042
   1.000    0.959 -21.118    1.657 153.201    0.013  72.087    0.982 -17.821
   1.100    0.954 -23.184    1.654 150.656    0.014  70.686    0.979 -19.540
   1.200    0.948 -25.291    1.652 148.007    0.016  69.193    0.976 -21.326
   1.300    0.943 -27.367    1.652 145.916    0.017  67.596    0.972 -23.083
   1.400    0.937 -29.423    1.647 142.835    0.018  66.031    0.968 -24.807
   1.500    0.930 -31.583    1.649 140.391    0.019  64.499    0.964 -26.531
   1.600    0.924 -33.714    1.646 137.618    0.020  62.989    0.960 -28.258
   1.700    0.917 -35.793    1.642 135.040    0.021  61.446    0.956 -29.986
   1.800    0.909 -37.911    1.634 132.380    0.022  59.788    0.951 -31.737
   1.900    0.901 -39.936    1.625 129.912    0.023  58.474    0.946 -33.464
   2.000    0.894 -42.000    1.617 127.314    0.024  57.177    0.940 -35.185
   2.200    0.878 -46.189    1.606 122.250    0.026  54.369    0.929 -38.619
   2.400    0.858 -50.333    1.596 117.252    0.028  51.830    0.917 -42.015
   2.600    0.840 -54.516    1.581 112.350    0.030  49.462    0.904 -45.409
   2.800    0.822 -58.697    1.565 107.450    0.031  47.073    0.890 -48.759
   3.000    0.803 -62.893    1.554 102.604    0.033  44.937    0.875 -52.147
   3.500    0.750 -73.669    1.521  90.440    0.036  40.175    0.835 -60.535
   4.000    0.702 -84.809    1.488  78.415    0.040  36.274    0.791 -68.980
   4.500    0.655 -96.762    1.471  66.607    0.044  33.050    0.743 -77.560
   5.000    0.609 -109.711    1.453  54.338    0.048  29.112    0.688 -86.323
   5.500    0.564 -123.678    1.422  41.624    0.050  24.677    0.626 -95.114
   6.000    0.534 -139.240    1.405  28.546    0.059  18.956    0.564 -105.527
   6.500    0.503 -153.525    1.357  16.985    0.063  22.858    0.509 -114.050
   7.000    0.444 -169.692    1.230   4.121    0.049  25.810    0.407 -119.518
   7.500    0.480 173.271    1.285  -7.747    0.089  17.141    0.394 -136.718
   8.000    0.489 153.151    1.250 -22.686    0.103   2.354    0.326 -156.807
   8.500    0.489 133.760    1.163 -37.190    0.109  -9.536    0.250 -179.045
   9.000    0.504 115.410    1.092 -51.193    0.122 -20.483    0.224 152.936
   9.500    0.519  97.079    0.995 -64.894    0.127 -35.252    0.225 118.011
  10.000    0.534  80.571    0.914 -79.605    0.131 -49.088    0.272  86.415
  10.500    0.550  64.422    0.806 -94.331    0.130 -64.946    0.337  61.690
  11.000    0.550  49.581    0.685 -108.215    0.119 -80.540    0.407  41.616
  11.500    0.563  36.161    0.585 -121.379    0.110 -95.956    0.478  25.732
  12.000    0.560  22.637    0.479 -134.125    0.090 -115.222    0.536  10.478
!     DEEMBEDDED NOISE DATA
!FREQUENCY    FMIN    GAMMA OPT        Rn
!  (GHz)      (dB)    Mag    Ang   (NORMALIZED)
