! Filename: 3_6120BFG480.001
! Title: BFG480W
! Bias: Vce=3.6V; Ic=120mA
! Company: Philips Semiconductors NL
! User: Quality&Reliability T&D
! Measure time: 10 Nov 1999 / 12:01:24
#  MHz  S  MA  R 50
! Freq       S11             S21             S12             S22    :
  100  0.50364 -160.4 49.08640 144.98 0.005863 68.511  0.71887 -44.08
  200  0.61218 -164.8 37.56801 124.02 0.009107 61.290  0.57423 -76.36
  300  0.65788 -169.4 28.82641 112.06 0.011251 61.236  0.48532 -97.04
  400  0.68208 -172.9 22.86993 104.16 0.013214 63.211  0.43915 -111.1
  500  0.69511 -175.7 18.83172 98.457 0.015294 65.493  0.41409 -121.1
  600  0.70509 -178.0 15.88991 94.032 0.017338 67.454  0.39924 -128.5
  700  0.71051 180.00 13.73193 90.481 0.019470 69.410  0.38972 -134.1
  800  0.71624 178.11 12.04170 87.399 0.021717 71.010  0.38411 -138.8
  900  0.72349 176.34 10.69560 84.759 0.023948 72.646  0.38185 -142.9
 1000  0.72971 174.73  9.61534 82.243 0.026456 73.480  0.38263 -146.5
 1200  0.74177 171.87  7.93227 77.529 0.031150 74.880  0.39118 -152.3
 1400  0.75141 169.65  6.70898 72.892 0.035893 75.612  0.40234 -156.5
 1600  0.75542 167.36  5.85056 69.059 0.041326 76.122  0.40945 -159.8
 1800  0.75484 164.81  5.20106 65.667 0.047093 76.500  0.41787 -163.4
 2000  0.76523 162.66  4.60260 62.764 0.051937 77.055  0.43013 -167.5
 2200  0.78256 160.61  4.10570 59.259 0.056474 76.814  0.45037 -171.0
 2400  0.79188 158.86  3.67693 55.608 0.061438 76.188  0.47479 -173.3
 2600  0.79065 157.19  3.36063 52.278 0.067637 75.385  0.49412 -174.7
 2800  0.78563 154.89  3.11350 47.851 0.072380 73.956  0.50379 -176.5
 3000  0.79034 152.23  2.89123 44.442 0.077792 73.101  0.51194 -179.3
