! Filename: 235bfg425.001
! BFG425W Field C1
! V1=8.753E-001V,V2=2.000E+000V, I1=5.354E-004A, I2=3.494E-002A
# GHz   S   MA   R 50
!                S11              S21              S12              S22
!Freq(GHz)  Mag     Ang      Mag     Ang      Mag     Ang      Mag     Ang 
   0.040    0.201 -16.477   38.263 172.583    0.002  72.010    0.823  -3.578
   0.100    0.205 -38.446   37.572 162.683    0.005  79.202    0.813 -11.240
   0.200    0.212 -69.381   34.452 147.249    0.009  72.529    0.751 -21.377
   0.300    0.227 -93.863   29.612 134.687    0.012  69.622    0.676 -29.615
   0.400    0.238 -112.885   25.626 124.911    0.015  66.808    0.604 -34.876
   0.500    0.252 -127.465   22.343 116.488    0.018  64.917    0.550 -38.607
   0.600    0.260 -138.161   19.663 109.899    0.020  64.143    0.504 -41.807
   0.700    0.266 -146.546   17.543 104.300    0.023  63.278    0.466 -43.764
   0.800    0.272 -153.998   15.745  99.147    0.025  62.886    0.439 -45.773
   0.900    0.277 -160.328   14.248  94.665    0.027  62.390    0.412 -47.674
   1.000    0.281 -166.126   12.974  90.750    0.030  61.615    0.390 -48.844
   1.100    0.284 -171.212   11.905  87.119    0.032  60.952    0.373 -50.572
   1.200    0.288 -175.858   10.989  83.766    0.035  60.128    0.355 -51.925
   1.300    0.291 179.873   10.197  80.506    0.037  59.438    0.343 -53.239
   1.400    0.295 176.085    9.506  77.425    0.040  58.740    0.329 -55.014
   1.500    0.300 172.341    8.890  74.444    0.043  57.756    0.316 -56.225
   1.600    0.304 168.837    8.357  71.600    0.045  56.889    0.307 -57.756
   1.700    0.307 165.673    7.885  68.798    0.048  55.916    0.297 -59.557
   1.800    0.312 162.433    7.447  66.176    0.050  54.793    0.287 -60.837
   1.900    0.315 159.231    7.065  63.686    0.053  53.688    0.279 -62.595
   2.000    0.318 156.228    6.719  61.212    0.055  52.513    0.269 -64.292
   2.200    0.325 150.353    6.109  56.555    0.061  50.128    0.252 -67.617
   2.400    0.335 144.739    5.586  51.779    0.066  47.528    0.235 -70.977
   2.600    0.345 139.561    5.143  47.180    0.071  44.850    0.217 -74.831
   2.800    0.354 134.479    4.776  42.798    0.076  42.153    0.201 -78.911
   3.000    0.363 129.504    4.453  38.539    0.081  39.402    0.186 -82.889
   3.500    0.392 118.021    3.794  27.937    0.094  32.077    0.145 -94.684
   4.000    0.422 107.370    3.293  17.406    0.106  24.481    0.103 -110.860
   4.500    0.455  97.569    2.891   7.050    0.118  16.559    0.065 -140.957
   5.000    0.492  87.706    2.552  -3.355    0.127   7.946    0.053 154.968
   5.500    0.522  77.944    2.253 -12.818    0.135   0.690    0.077 107.703
   6.000    0.559  69.023    2.014 -22.932    0.141  -8.109    0.131  85.277
   6.500    0.568  62.314    1.848 -29.931    0.155 -12.172    0.149  78.764
   7.000    0.598  55.348    1.704 -39.056    0.167 -20.022    0.199  72.203
   7.500    0.650  46.960    1.532 -50.377    0.169 -31.362    0.277  60.151
   8.000    0.679  40.008    1.404 -59.545    0.174 -39.217    0.329  52.267
   8.500    0.713  32.656    1.272 -69.321    0.177 -48.418    0.388  43.548
   9.000    0.736  25.143    1.141 -77.989    0.174 -56.426    0.435  34.564
   9.500    0.758  18.311    1.036 -86.335    0.174 -64.507    0.470  26.944
  10.000    0.783  11.879    0.948 -95.907    0.175 -73.587    0.522  20.745
  10.500    0.801   5.269    0.857 -105.150    0.172 -82.421    0.569  13.510
  11.000    0.816  -1.558    0.763 -113.902    0.166 -91.695    0.606   5.371
  11.500    0.826  -8.283    0.685 -122.920    0.160 -101.122    0.642  -1.328
  12.000    0.832 -15.096    0.600 -131.750    0.151 -110.991    0.678  -9.037
!     DEEMBEDDED NOISE DATA
!FREQUENCY    FMIN    GAMMA OPT        Rn
!  (GHz)      (dB)    Mag    Ang   (NORMALIZED)
