! Filename: 42bfg425.001
! BFG425W Field C1
! V1=8.013E-001V,V2=4.000E+000V, I1=1.856E-005A, I2=2.000E-003A
# GHz   S   MA   R 50
!                S11              S21              S12              S22
!Freq(GHz)  Mag     Ang      Mag     Ang      Mag     Ang      Mag     Ang 
   0.040    0.925  -2.093    6.795 177.093    0.002  61.408    0.989  -1.360
   0.100    0.929  -6.211    6.635 174.221    0.006  80.286    0.989  -3.434
   0.200    0.924 -12.319    6.588 168.811    0.011  78.359    0.985  -6.864
   0.300    0.916 -18.493    6.557 164.077    0.017  75.722    0.979 -10.226
   0.400    0.906 -24.500    6.520 158.404    0.022  71.894    0.969 -13.547
   0.500    0.893 -30.633    6.457 152.932    0.027  68.378    0.958 -16.827
   0.600    0.880 -36.596    6.324 147.881    0.032  64.943    0.945 -19.994
   0.700    0.865 -42.384    6.188 143.107    0.037  61.260    0.930 -23.097
   0.800    0.848 -48.286    6.074 138.248    0.041  57.831    0.914 -26.105
   0.900    0.829 -53.894    5.962 133.524    0.045  54.530    0.896 -29.026
   1.000    0.809 -59.665    5.830 128.763    0.049  51.339    0.878 -31.829
   1.100    0.790 -65.145    5.684 124.298    0.052  48.293    0.861 -34.525
   1.200    0.771 -70.601    5.540 119.849    0.055  45.358    0.843 -37.156
   1.300    0.751 -75.891    5.396 115.607    0.058  42.543    0.824 -39.640
   1.400    0.731 -81.210    5.260 111.403    0.060  39.839    0.806 -42.052
   1.500    0.711 -86.451    5.120 107.317    0.062  37.344    0.788 -44.369
   1.600    0.691 -91.790    4.987 103.273    0.064  34.935    0.770 -46.631
   1.700    0.673 -96.796    4.851  99.407    0.066  32.726    0.752 -48.827
   1.800    0.656 -101.809    4.709  95.594    0.068  30.543    0.735 -50.963
   1.900    0.640 -106.568    4.571  92.012    0.069  28.531    0.719 -53.075
   2.000    0.624 -111.396    4.432  88.452    0.070  26.650    0.702 -55.133
   2.200    0.594 -121.034    4.185  81.530    0.072  23.158    0.671 -59.079
   2.400    0.567 -130.487    3.953  74.897    0.074  20.094    0.641 -62.861
   2.600    0.546 -139.746    3.734  68.576    0.076  17.395    0.613 -66.607
   2.800    0.527 -148.888    3.533  62.453    0.077  14.987    0.585 -70.292
   3.000    0.511 -158.013    3.348  56.502    0.078  12.829    0.559 -73.934
   3.500    0.488 179.976    2.945  42.352    0.081   8.403    0.497 -82.990
   4.000    0.483 159.271    2.605  28.875    0.085   4.560    0.437 -92.304
   4.500    0.493 140.431    2.321  16.216    0.090   1.044    0.380 -102.370
   5.000    0.515 122.810    2.073   3.575    0.095  -4.144    0.319 -114.154
   5.500    0.534 107.317    1.840  -7.997    0.098  -7.756    0.258 -125.218
   6.000    0.566  93.104    1.649 -19.881    0.104 -14.110    0.198 -142.512
   6.500    0.579  83.193    1.505 -28.225    0.116 -11.730    0.178 -155.451
   7.000    0.612  72.830    1.386 -38.489    0.131 -17.083    0.160 177.878
   7.500    0.659  61.196    1.251 -50.922    0.135 -29.323    0.156 134.867
   8.000    0.688  52.179    1.143 -61.090    0.144 -36.079    0.190 106.921
   8.500    0.721  43.096    1.033 -71.865    0.149 -45.247    0.244  83.229
   9.000    0.744  34.245    0.919 -81.689    0.149 -53.253    0.294  64.624
   9.500    0.766  26.234    0.826 -90.551    0.150 -61.606    0.334  52.379
  10.000    0.789  18.849    0.756 -100.955    0.153 -71.160    0.408  42.618
  10.500    0.806  11.514    0.679 -110.943    0.153 -80.409    0.473  32.073
  11.000    0.819   4.104    0.598 -120.452    0.147 -90.608    0.524  20.922
  11.500    0.828  -3.127    0.532 -130.345    0.141 -101.253    0.576  12.303
  12.000    0.832 -10.216    0.461 -140.132    0.131 -112.366    0.627   2.556
!     DEEMBEDDED NOISE DATA
!FREQUENCY    FMIN    GAMMA OPT        Rn
!  (GHz)      (dB)    Mag    Ang   (NORMALIZED)
