! Filename BFG424F_2V_25mA.prm
! Simulation_Values
! Created	by	janssen	on	nov	2006			
!	Column ranking S11, S21,S12,S22 both magnitude and phase.								
!	VCE	=	2	V,	IC	=	25	mA	
!	Common	Emitter	S-Parameters						
#	GHZ	S	MA	R	50				
	5.00E-01	0.352	-97.04	26.274	126.82	0.017	65.77	0.676	-34.76
	6.00E-01	0.347	-108.57	23.525	120.83	0.019	63.85	0.621	-37.69
	7.00E-01	0.342	-118.4	21.182	115.84	0.021	64.02	0.575	-39.83
	8.00E-01	0.339	-126.89	19.174	111.62	0.023	63.84	0.537	-41.41
	9.00E-01	0.34	-133.98	17.502	108.01	0.024	64.03	0.504	-42.79
	1.00E+00	0.339	-140.16	16.06	104.74	0.026	64.36	0.478	-43.83
	1.10E+00	0.34	-145.68	14.806	101.9	0.028	64.92	0.454	-44.81
	1.20E+00	0.339	-150.63	13.713	99.39	0.029	65.49	0.434	-45.65
	1.30E+00	0.341	-155.06	12.784	97.06	0.031	66.08	0.416	-46.49
	1.40E+00	0.343	-159.21	11.952	94.88	0.033	66.47	0.401	-47.29
	1.50E+00	0.346	-162.73	11.226	92.9	0.035	66.84	0.388	-47.99
	1.60E+00	0.346	-166.11	10.581	91.01	0.037	67.15	0.376	-48.96
	1.70E+00	0.348	-169.45	10	89.21	0.038	67.69	0.363	-49.78
	1.80E+00	0.351	-172.65	9.468	87.53	0.04	68.03	0.353	-50.68
	1.90E+00	0.354	-175.37	8.993	85.92	0.042	68.37	0.343	-51.62
	2.00E+00	0.358	-177.95	8.569	84.48	0.044	68.46	0.335	-52.5
	2.10E+00	0.36	179.46	8.176	82.95	0.046	68.52	0.327	-53.72
	2.20E+00	0.363	176.95	7.817	81.48	0.048	68.56	0.319	-54.8
	2.30E+00	0.368	174.42	7.476	80.13	0.05	68.8	0.311	-55.93
	2.40E+00	0.372	172.64	7.18	78.84	0.052	69.05	0.303	-57.11
	2.50E+00	0.377	170.66	6.896	77.54	0.054	69.06	0.296	-58.37
	2.60E+00	0.379	168.45	6.64	76.16	0.056	68.96	0.289	-59.88
	2.70E+00	0.382	166.1	6.395	74.96	0.058	68.99	0.281	-61.24
	2.80E+00	0.388	164.44	6.171	73.76	0.06	68.84	0.275	-62.47
	2.90E+00	0.393	162.69	5.957	72.61	0.063	68.84	0.268	-64.03
	3.00E+00	0.397	161.04	5.762	71.45	0.065	68.62	0.261	-65.43
	3.10E+00	0.401	159.05	5.581	70.25	0.067	68.34	0.254	-67.26
	3.20E+00	0.404	157.35	5.404	69.13	0.069	68.3	0.248	-68.8
	3.30E+00	0.41	155.5	5.234	68.04	0.071	68.23	0.242	-70.5
	3.40E+00	0.416	154.19	5.08	66.93	0.073	67.89	0.236	-72.45
	3.50E+00	0.42	152.67	4.93	65.89	0.075	67.76	0.23	-74.48
	3.60E+00	0.423	150.78	4.793	64.78	0.078	67.4	0.224	-76.75
	3.70E+00	0.43	149.18	4.668	63.69	0.08	67.05	0.217	-78.87
	3.80E+00	0.435	147.86	4.54	62.71	0.082	67.01	0.211	-81
	3.90E+00	0.44	146.5	4.425	61.7	0.084	66.77	0.205	-83.1
	4.00E+00	0.444	144.95	4.311	60.62	0.086	66.34	0.201	-85.5
	4.10E+00	0.449	143.41	4.202	59.68	0.089	66.05	0.196	-88.2
	4.20E+00	0.455	141.89	4.099	58.61	0.091	65.64	0.19	-91.09
	4.30E+00	0.461	140.6	4.006	57.73	0.093	65.33	0.185	-93.43
	4.40E+00	0.467	139.58	3.911	56.64	0.095	65.06	0.18	-95.99
	4.50E+00	0.469	138.4	3.822	55.65	0.098	64.77	0.177	-98.75
	4.60E+00	0.473	136.72	3.736	54.76	0.1	64.15	0.173	-102.23
	4.70E+00	0.479	135.19	3.651	53.75	0.102	63.78	0.17	-105.7
	4.80E+00	0.488	134.25	3.578	52.7	0.104	63.49	0.166	-109.13
	4.90E+00	0.492	133.11	3.502	51.87	0.107	62.94	0.162	-112.52
	5.00E+00	0.496	132.07	3.426	50.9	0.109	62.54	0.158	-115.85
	5.10E+00	0.499	130.61	3.36	49.84	0.111	62.29	0.156	-119.27
	5.20E+00	0.505	129.29	3.293	49.03	0.113	61.86	0.154	-122.97
	5.30E+00	0.514	128.22	3.223	48.08	0.116	61.16	0.152	-127.03
	5.40E+00	0.518	127.2	3.167	47.07	0.118	60.66	0.15	-131.16
	5.50E+00	0.521	126.08	3.101	46.29	0.12	60.4	0.149	-134.82
	5.60E+00	0.525	124.8	3.035	45.28	0.122	59.98	0.149	-138.72
	5.70E+00	0.533	123.76	2.987	44.39	0.124	59.39	0.15	-142.62
	5.80E+00	0.539	122.8	2.929	43.65	0.126	59.03	0.151	-146.84
	5.90E+00	0.543	121.8	2.872	42.54	0.128	58.62	0.152	-151.04
	6.00E+00	0.546	120.7	2.829	41.79	0.131	58.04	0.152	-154.94
	6.10E+00	0.551	119.43	2.776	41.02	0.132	57.5	0.155	-158.65
	6.20E+00	0.557	118.25	2.719	39.93	0.134	57.17	0.158	-162.58
	6.30E+00	0.565	117.55	2.68	39.04	0.136	56.8	0.161	-166.4
	6.40E+00	0.567	116.61	2.63	38.3	0.139	56.34	0.164	-169.66
	6.50E+00	0.57	115.47	2.585	37.33	0.141	55.72	0.167	-172.78
	6.60E+00	0.575	114.29	2.543	36.6	0.143	55.4	0.17	-175.8
	6.70E+00	0.58	113.46	2.496	35.84	0.145	54.92	0.175	-178.87
	6.80E+00	0.587	112.47	2.455	34.78	0.147	54.29	0.181	177.67
	6.90E+00	0.591	111.73	2.422	34.07	0.149	53.84	0.185	174.59
	7.00E+00	0.593	110.87	2.376	33.35	0.151	53.62	0.188	172.02
	7.10E+00	0.595	109.62	2.341	32.41	0.153	52.92	0.192	169.92
	7.20E+00	0.601	108.58	2.304	31.75	0.155	52.34	0.197	167.89
	7.30E+00	0.607	108	2.263	30.94	0.156	51.88	0.204	165.59
	7.40E+00	0.611	107.14	2.231	29.91	0.159	51.61	0.21	162.82
	7.50E+00	0.615	106.1	2.198	29.35	0.161	50.89	0.216	160.03
	7.60E+00	0.62	105.37	2.163	28.52	0.162	50.37	0.22	157.79
	7.70E+00	0.622	104.55	2.134	27.78	0.164	50.09	0.225	156.17
	7.80E+00	0.625	103.68	2.105	27.13	0.167	49.52	0.231	154.59
	7.90E+00	0.629	102.61	2.065	26.1	0.168	48.69	0.238	152.51
	8.00E+00	0.633	101.95	2.044	25.3	0.169	48.36	0.243	150.35
	8.10E+00	0.636	101.2	2.012	24.85	0.171	48.33	0.247	148.57
	8.20E+00	0.64	100.46	1.982	23.95	0.174	47.85	0.252	147.43
	8.30E+00	0.644	99.61	1.959	23.18	0.176	47.04	0.26	146.24
	8.40E+00	0.645	98.78	1.926	22.57	0.176	46.56	0.268	144.55
	8.50E+00	0.649	98.01	1.892	21.42	0.178	46.28	0.275	142.43
	8.60E+00	0.653	97.3	1.877	20.77	0.181	45.66	0.279	140.72
	8.70E+00	0.657	96.53	1.845	20.32	0.182	45.16	0.283	139.52
	8.80E+00	0.66	95.94	1.821	19.43	0.183	44.86	0.291	138.69
	8.90E+00	0.662	95.21	1.802	18.82	0.186	44.51	0.298	137.28
	9.00E+00	0.663	94.47	1.768	18.21	0.188	43.59	0.304	135.72
	9.10E+00	0.667	93.7	1.753	17.09	0.189	42.99	0.307	134.25
	9.20E+00	0.671	93.02	1.742	16.62	0.19	42.61	0.312	133.34
	9.30E+00	0.676	92.55	1.707	15.94	0.193	42.15	0.319	132.53
	9.40E+00	0.678	91.76	1.68	14.78	0.194	41.31	0.328	131.39
	9.50E+00	0.68	91.22	1.664	14.13	0.195	40.85	0.335	129.36
	9.60E+00	0.685	90.55	1.632	13.42	0.197	40.49	0.337	127.95
	9.70E+00	0.691	89.68	1.622	12.49	0.2	39.98	0.337	127.08
	9.80E+00	0.694	88.53	1.605	11.71	0.201	38.84	0.342	126.47
	9.90E+00	0.691	87.76	1.563	11.01	0.201	38.27	0.35	125.42
	1.00E+01	0.691	87.49	1.535	10.19	0.201	37.87	0.355	124.13
	1.01E+01	0.694	86.76	1.516	10.22	0.202	37.5	0.359	123.08
	1.02E+01	0.697	86.23	1.49	9.74	0.203	37.1	0.362	122.57
	1.03E+01	0.701	85.73	1.483	9.18	0.204	36.93	0.365	122.22
	1.04E+01	0.701	84.85	1.466	8.96	0.206	36.38	0.373	121.6
	1.05E+01	0.707	84.07	1.445	8.11	0.206	35.65	0.38	120.14
	1.06E+01	0.71	83.38	1.438	6.89	0.207	35.25	0.385	118.67
	1.07E+01	0.711	82.81	1.422	6.51	0.208	35.17	0.386	117.67
	1.08E+01	0.71	82.32	1.398	5.72	0.21	34.39	0.387	117.57
	1.09E+01	0.71	81.74	1.385	5.29	0.21	33.71	0.391	117.5
	1.10E+01	0.713	81.12	1.363	4.88	0.21	33.56	0.401	116.99
	1.11E+01	0.719	80.56	1.332	3.86	0.21	33.08	0.408	115.85
	1.12E+01	0.727	79.99	1.323	3.28	0.21	32.63	0.412	114.54
	1.13E+01	0.734	79.45	1.307	3.28	0.209	32.81	0.412	113.7
	1.14E+01	0.734	78.13	1.299	2.69	0.212	33.22	0.415	113.69
	1.15E+01	0.737	77.28	1.295	1.92	0.215	33.07	0.421	112.94
	1.16E+01	0.737	75.83	1.283	1.18	0.218	32.27	0.428	112.33
	1.17E+01	0.731	75.04	1.267	-0.14	0.219	31.6	0.43	111.03
	1.18E+01	0.739	74.43	1.258	-0.73	0.221	31.31	0.428	110.3
	1.19E+01	0.735	72.99	1.242	-1.39	0.225	30.51	0.429	110.33
	1.20E+01	0.724	72.12	1.228	-2.76	0.225	29.19	0.44	110.38
	1.21E+01	0.717	71.28	1.203	-3.65	0.225	28.61	0.447	108.83
	1.22E+01	0.714	71.06	1.183	-4.1	0.227	27.95	0.448	108.35
	1.23E+01	0.705	70.59	1.177	-5.65	0.228	26.06	0.455	107.67
	1.24E+01	0.703	70.23	1.15	-6.21	0.222	25.57	0.456	106.45
	1.25E+01	0.702	69.7	1.121	-6.64	0.22	25.07	0.461	106.57
	1.26E+01	0.703	69.73	1.093	-6.94	0.217	26.46	0.465	104.67
	1.27E+01	0.698	69.3	1.081	-7.15	0.221	26.37	0.462	103.64
	1.28E+01	0.695	68.51	1.057	-7.75	0.22	25.91	0.46	102.76
	1.29E+01	0.699	68.03	1.045	-7.94	0.221	26.16	0.456	102.77
	1.30E+01	0.697	67.95	1.036	-7.83	0.225	26.2	0.459	102.95
	1.31E+01	0.696	67.27	1.02	-8.48	0.226	25.26	0.463	103.21
	1.32E+01	0.693	66.79	1.013	-9.2	0.225	24.91	0.47	102.78
	1.33E+01	0.693	66.4	1.006	-9.29	0.226	24.9	0.473	101.26
	1.34E+01	0.689	65.83	0.994	-9.99	0.228	24.4	0.472	101.44
	1.35E+01	0.692	65.75	0.987	-10.35	0.227	24.06	0.476	100.85
	1.36E+01	0.687	65.25	0.974	-10.51	0.229	24.14	0.481	100.85
	1.37E+01	0.687	64.72	0.958	-11.36	0.231	24.01	0.484	100.09
	1.38E+01	0.69	63.92	0.952	-12.09	0.232	23.28	0.486	98.96
	1.39E+01	0.688	63.92	0.943	-12.42	0.232	23.05	0.483	98.16
	1.40E+01	0.686	63.27	0.931	-13.02	0.233	23.18	0.483	98.09
	1.41E+01	0.682	62.62	0.919	-13.58	0.235	22.62	0.485	98.1
	1.42E+01	0.683	62.04	0.903	-14.16	0.236	21.88	0.489	97.5
	1.43E+01	0.681	61.55	0.889	-15.13	0.236	21.97	0.492	96.82
	1.44E+01	0.683	61.22	0.886	-15.39	0.238	21.76	0.491	96.2
	1.45E+01	0.676	60.8	0.869	-15.72	0.242	21	0.491	96.08
	1.46E+01	0.675	60.09	0.858	-16.03	0.242	20.13	0.493	95.7
	1.47E+01	0.676	59.3	0.846	-16.27	0.241	20.1	0.494	94.84
	1.48E+01	0.674	59.23	0.831	-16.77	0.243	20.11	0.49	93.89
	1.49E+01	0.668	58.43	0.82	-17.81	0.247	19.33	0.489	93.89
	1.50E+01	0.669	57.96	0.817	-17.87	0.245	18.41	0.492	94.22
!	Noise	data:							
!	Freq.	Fmin	Gamma-opt	rn					
	0.9	2.1	0.25	-166.3	0.19				
	2	2.5	0.22	-152.2	0.21
