! Filename BFG424W_3V_10mA.prm
! Simulation_Values
!	! Created	by	janssen	on	Thu	Sep	15	10:02:03	WETDST	2005
!	Column ranking S11, S21,S12,S22 both magnitude and phase.									
!	VCE	=	3	V,	IC	=	10	mA		
!	Common	Emitter	S-Parameters							
#	GHz	S	MA	R	50					
1.00E-01	0.657	-12.683	23.876	169.394	0.006	87.812	0.966	-6.745		
2.00E-01	0.636	-25.401	22.970	159.511	0.011	78.050	0.936	-13.477		
3.00E-01	0.605	-37.090	21.630	150.525	0.016	73.559	0.894	-19.387		
4.00E-01	0.571	-48.142	20.232	142.544	0.020	68.813	0.845	-24.504		
5.00E-01	0.534	-58.371	18.774	135.322	0.023	65.436	0.796	-28.789		
6.00E-01	0.499	-67.724	17.357	129.039	0.026	62.956	0.747	-32.380		
7.00E-01	0.467	-76.345	16.019	123.510	0.029	61.233	0.703	-35.333		
8.00E-01	0.438	-84.305	14.810	118.672	0.031	60.220	0.664	-37.777		
9.00E-01	0.413	-91.786	13.732	114.284	0.033	59.275	0.627	-39.842		
1.00E+00	0.392	-98.664	12.759	110.413	0.035	58.975	0.596	-41.586		
1.10E+00	0.373	-105.288	11.887	106.872	0.037	58.717	0.568	-43.157		
1.20E+00	0.358	-111.484	11.112	103.673	0.039	58.565	0.543	-44.526
1.30E+00	0.345	-117.347	10.429	100.680	0.041	58.517	0.521	-45.839
1.40E+00	0.334	-123.216	9.802	97.933	0.043	58.481	0.501	-47.028
1.50E+00	0.325	-128.581	9.244	95.368	0.045	58.695	0.483	-48.223
1.60E+00	0.318	-133.863	8.740	92.905	0.046	58.888	0.467	-49.341
1.70E+00	0.313	-138.753	8.283	90.631	0.048	59.252	0.452	-50.512
1.80E+00	0.308	-143.601	7.867	88.459	0.050	59.315	0.438	-51.658
1.90E+00	0.306	-148.215	7.489	86.430	0.052	59.573	0.425	-52.803
2.00E+00	0.304	-152.682	7.140	84.428	0.054	59.742	0.413	-54.002
2.10E+00	0.303	-156.832	6.822	82.560	0.056	60.014	0.402	-55.248
2.20E+00	0.303	-161.050	6.530	80.699	0.058	60.112	0.390	-56.518
2.30E+00	0.304	-164.928	6.255	78.910	0.060	60.392	0.380	-57.807
2.40E+00	0.305	-168.656	6.003	77.250	0.062	60.337	0.370	-59.121
2.50E+00	0.308	-172.038	5.773	75.656	0.064	60.554	0.360	-60.506
2.60E+00	0.310	-175.565	5.554	74.045	0.066	60.540	0.351	-61.900
2.70E+00	0.313	-178.973	5.357	72.455	0.068	60.857	0.342	-63.368
2.80E+00	0.316	177.917	5.163	70.933	0.071	60.586	0.334	-64.967
2.90E+00	0.320	174.940	4.987	69.404	0.073	60.635	0.325	-66.561
3.00E+00	0.326	172.108	4.825	67.964	0.075	60.757	0.317	-68.277
3.10E+00	0.330	169.219	4.668	66.531	0.077	60.671	0.309	-70.041
3.20E+00	0.335	166.484	4.522	65.087	0.080	60.466	0.301	-71.856
3.30E+00	0.341	163.826	4.386	63.693	0.082	60.380	0.293	-73.780
3.40E+00	0.347	161.356	4.255	62.316	0.084	60.211	0.286	-75.789
3.50E+00	0.353	158.975	4.134	60.940	0.087	59.985	0.278	-78.007
3.60E+00	0.359	156.464	4.016	59.588	0.089	59.593	0.270	-80.282
3.70E+00	0.366	154.351	3.901	58.289	0.091	59.384	0.263	-82.528
3.80E+00	0.372	152.142	3.800	56.974	0.094	59.224	0.256	-84.934
3.90E+00	0.379	150.146	3.699	55.683	0.096	58.798	0.249	-87.535
4.00E+00	0.386	147.936	3.598	54.404	0.098	58.500	0.242	-90.205
4.10E+00	0.393	145.984	3.514	53.118	0.101	58.190	0.236	-92.917
4.20E+00	0.400	144.053	3.424	51.950	0.103	57.921	0.229	-95.870
4.30E+00	0.407	142.089	3.338	50.680	0.106	57.508	0.223	-98.909
4.40E+00	0.415	140.206	3.259	49.483	0.108	57.084	0.217	-102.079
4.50E+00	0.422	138.546	3.184	48.358	0.111	56.955	0.212	-105.263
4.60E+00	0.429	136.790	3.109	47.116	0.113	56.451	0.207	-108.757
4.70E+00	0.437	135.048	3.041	45.972	0.115	55.850	0.202	-112.446
4.80E+00	0.444	133.333	2.972	44.854	0.118	55.598	0.198	-116.113
4.90E+00	0.452	131.777	2.907	43.631	0.121	55.241	0.195	-119.934
5.00E+00	0.458	130.069	2.849	42.570	0.123	54.584	0.191	-124.053
5.10E+00	0.466	128.417	2.787	41.547	0.125	54.076	0.188	-128.097
5.20E+00	0.473	127.004	2.730	40.342	0.127	53.866	0.186	-132.077
5.30E+00	0.480	125.597	2.682	39.241	0.131	53.276	0.185	-136.416
5.40E+00	0.487	123.936	2.625	38.236	0.133	52.551	0.184	-140.895
5.50E+00	0.495	122.552	2.574	37.042	0.134	52.123	0.183	-145.014
5.60E+00	0.502	121.277	2.531	35.973	0.137	51.819	0.183	-149.273
5.70E+00	0.509	119.903	2.480	34.998	0.140	51.098	0.185	-153.666
5.80E+00	0.517	118.446	2.435	33.823	0.142	50.362	0.186	-157.980
5.90E+00	0.524	117.083	2.393	32.785	0.144	50.039	0.188	-162.086
6.00E+00	0.530	115.873	2.346	31.829	0.147	49.587	0.190	-166.144
6.10E+00	0.537	114.610	2.306	30.708	0.150	48.840	0.193	-170.065
6.20E+00	0.544	113.411	2.270	29.769	0.151	48.184	0.197	-173.891
6.30E+00	0.551	112.100	2.228	28.752	0.153	47.894	0.201	-177.590
6.40E+00	0.557	110.976	2.193	27.644	0.156	47.361	0.206	178.966
6.50E+00	0.563	109.810	2.162	26.709	0.158	46.596	0.211	175.562
6.60E+00	0.571	108.549	2.123	25.718	0.160	46.036	0.216	172.300
6.70E+00	0.577	107.474	2.090	24.596	0.163	45.859	0.221	169.245
6.80E+00	0.582	106.330	2.060	23.709	0.166	45.085	0.228	166.100
6.90E+00	0.590	105.046	2.024	22.694	0.168	44.190	0.233	163.088
7.00E+00	0.596	103.974	1.994	21.617	0.169	43.839	0.239	160.353
7.10E+00	0.601	102.916	1.966	20.715	0.172	43.530	0.246	157.644
7.20E+00	0.606	101.803	1.934	19.780	0.175	42.679	0.252	155.296
7.30E+00	0.612	100.759	1.909	18.714	0.176	41.979	0.259	152.901
7.40E+00	0.617	99.766	1.882	17.841	0.178	41.689	0.266	150.707
7.50E+00	0.623	98.748	1.853	16.819	0.182	41.034	0.273	148.239
7.60E+00	0.628	97.682	1.829	15.821	0.184	40.074	0.280	146.087
7.70E+00	0.633	96.639	1.803	14.999	0.185	39.530	0.287	143.961
7.80E+00	0.638	95.687	1.774	13.981	0.188	39.179	0.294	142.092
7.90E+00	0.643	94.827	1.756	13.063	0.191	38.296	0.302	140.153
8.00E+00	0.647	93.638	1.731	12.287	0.192	37.510	0.308	138.365
8.10E+00	0.651	92.766	1.706	11.231	0.193	37.067	0.316	136.643
8.20E+00	0.655	91.961	1.688	10.329	0.197	36.771	0.323	134.965
8.30E+00	0.659	91.021	1.665	9.566	0.199	35.763	0.330	133.280
8.40E+00	0.664	90.145	1.643	8.528	0.200	35.047	0.337	131.773
8.50E+00	0.668	89.410	1.627	7.625	0.202	34.718	0.345	130.307
8.60E+00	0.671	88.539	1.605	6.840	0.206	34.160	0.352	128.792
8.70E+00	0.675	87.625	1.585	5.788	0.207	33.117	0.359	127.486
8.80E+00	0.678	86.849	1.570	4.986	0.208	32.603	0.366	126.064
8.90E+00	0.682	86.163	1.547	4.231	0.211	32.322	0.373	124.618
9.00E+00	0.686	85.370	1.530	3.139	0.214	31.240	0.380	123.181
9.10E+00	0.690	84.675	1.516	2.358	0.216	30.358	0.387	121.887
9.20E+00	0.693	84.050	1.493	1.684	0.217	29.949	0.394	120.537
9.30E+00	0.698	83.495	1.477	0.682	0.220	29.391	0.401	119.159
9.40E+00	0.703	82.773	1.467	-0.094	0.222	28.332	0.407	117.760
9.50E+00	0.708	81.938	1.447	-0.726	0.222	27.728	0.412	116.485
9.60E+00	0.716	81.324	1.434	-1.682	0.224	27.508	0.417	115.099
9.70E+00	0.722	80.419	1.428	-2.567	0.227	26.840	0.421	113.955
9.80E+00	0.726	78.963	1.409	-3.470	0.229	25.791	0.426	112.916
9.90E+00	0.725	78.050	1.395	-4.528	0.230	25.331	0.431	111.908
1.00E+01	0.724	77.512	1.385	-5.243	0.232	24.904	0.437	110.872
1.01E+01	0.726	76.869	1.365	-6.126	0.235	23.979	0.441	109.942
1.02E+01	0.731	76.157	1.354	-7.207	0.236	23.062	0.445	108.963
1.03E+01	0.734	75.474	1.343	-7.858	0.237	22.587	0.449	108.058
1.04E+01	0.737	74.754	1.324	-8.727	0.239	22.033	0.454	107.212
1.05E+01	0.740	73.871	1.314	-9.776	0.241	21.145	0.458	106.197
1.06E+01	0.742	73.060	1.305	-10.415	0.242	20.344	0.462	105.486
1.07E+01	0.745	72.378	1.288	-11.369	0.243	19.889	0.467	104.864
1.08E+01	0.747	71.862	1.277	-12.490	0.245	19.126	0.472	104.159
1.09E+01	0.749	71.236	1.263	-13.071	0.246	18.220	0.476	103.448
1.10E+01	0.754	70.641	1.246	-13.815	0.245	17.711	0.481	102.775
1.11E+01	0.761	69.954	1.239	-14.603	0.247	17.674	0.486	101.914
1.12E+01	0.766	68.985	1.232	-15.160	0.251	17.116	0.490	101.073
1.13E+01	0.768	67.808	1.222	-16.164	0.253	16.082	0.493	100.404
1.14E+01	0.767	66.713	1.216	-17.356	0.253	15.375	0.498	99.894
1.15E+01	0.765	66.112	1.205	-18.040	0.256	14.844	0.503	99.250
1.16E+01	0.763	65.159	1.192	-19.101	0.258	13.778	0.509	98.825
1.17E+01	0.759	64.552	1.181	-20.142	0.257	12.849	0.514	97.994
1.18E+01	0.765	64.067	1.168	-20.691	0.257	12.701	0.518	97.252
1.19E+01	0.764	62.910	1.153	-21.613	0.259	12.392	0.524	96.656
1.20E+01	0.758	61.929	1.149	-22.336	0.260	11.651	0.532	95.920
1.21E+01	0.755	61.164	1.139	-23.114	0.261	11.176	0.538	94.629
1.22E+01	0.750	60.413	1.125	-24.165	0.264	11.240	0.541	93.807
1.23E+01	0.744	60.323	1.116	-25.217	0.269	9.877	0.545	92.701
1.24E+01	0.746	59.791	1.099	-25.675	0.267	9.005	0.548	91.957
1.25E+01	0.743	58.997	1.090	-26.579	0.268	8.458	0.551	90.863
1.26E+01	0.741	58.897	1.081	-27.161	0.268	8.454	0.548	89.350
1.27E+01	0.739	58.416	1.072	-27.891	0.272	7.749	0.544	88.830
1.28E+01	0.738	57.866	1.060	-28.822	0.272	6.979	0.542	88.460
1.29E+01	0.739	57.531	1.051	-29.479	0.272	6.815	0.541	88.229
1.30E+01	0.738	57.216	1.041	-29.994	0.276	6.503	0.542	88.062
1.31E+01	0.737	56.586	1.033	-30.988	0.279	5.443	0.542	87.756
1.32E+01	0.737	55.908	1.026	-31.707	0.279	4.631	0.548	87.557
1.33E+01	0.735	55.472	1.015	-32.288	0.280	4.325	0.551	86.676
1.34E+01	0.735	55.254	1.006	-33.136	0.282	3.728	0.553	86.885
1.35E+01	0.734	54.602	1.004	-33.684	0.284	2.777	0.561	86.203
1.36E+01	0.733	54.137	0.990	-34.497	0.283	2.071	0.565	85.625
1.37E+01	0.735	53.841	0.982	-35.109	0.283	2.417	0.568	84.899
1.38E+01	0.735	53.378	0.979	-35.546	0.287	1.643	0.572	84.240
1.39E+01	0.734	52.658	0.968	-36.437	0.287	0.654	0.571	83.454
1.40E+01	0.735	52.260	0.962	-37.276	0.285	0.877	0.574	82.856
1.41E+01	0.736	51.943	0.958	-37.607	0.289	1.206	0.575	82.205
1.42E+01	0.734	51.407	0.948	-38.550	0.295	-0.112	0.576	81.684
1.43E+01	0.734	50.752	0.941	-39.554	0.295	-0.774	0.577	81.243
1.44E+01	0.734	50.353	0.936	-39.901	0.296	-0.535	0.579	80.721
1.45E+01	0.732	49.899	0.922	-40.858	0.304	-1.553	0.579	80.084
1.46E+01	0.730	49.309	0.915	-41.764	0.304	-3.008	0.579	79.629
1.47E+01	0.731	48.689	0.908	-42.011	0.302	-3.258	0.582	79.124
1.48E+01	0.730	48.237	0.898	-42.754	0.306	-3.298	0.583	78.526
1.49E+01	0.728	47.687	0.891	-43.779	0.311	-4.581	0.583	78.020
1.50E+01	0.728	47.019	0.883	-44.124	0.310	-5.584	0.586	77.617
