! Filename: 130bfg425.001
! BFG425W Field C1
! V1=8.877E-001V,V2=1.000E+000V, I1=4.808E-004A, I2=2.994E-002A
# GHz   S   MA   R 50
!                S11              S21              S12              S22
!Freq(GHz)  Mag     Ang      Mag     Ang      Mag     Ang      Mag     Ang 
   0.040    0.208 -17.989   37.003 172.795    0.002  78.574    0.815  -4.446
   0.100    0.222 -44.870   35.436 161.664    0.006  79.103    0.801 -13.814
   0.200    0.254 -82.439   30.892 144.617    0.011  71.859    0.730 -27.074
   0.300    0.266 -102.316   27.912 132.438    0.015  67.620    0.646 -37.125
   0.400    0.281 -119.389   24.274 122.194    0.018  64.547    0.568 -44.301
   0.500    0.298 -132.873   21.159 113.843    0.021  62.812    0.502 -49.753
   0.600    0.306 -142.979   18.594 107.198    0.024  61.850    0.450 -53.918
   0.700    0.311 -151.082   16.484 101.603    0.027  60.735    0.406 -57.278
   0.800    0.317 -158.053   14.775  96.597    0.029  60.267    0.372 -60.062
   0.900    0.320 -163.931   13.364  92.208    0.032  59.640    0.344 -62.570
   1.000    0.324 -169.203   12.166  88.247    0.035  58.960    0.320 -64.913
   1.100    0.327 -173.878   11.153  84.585    0.038  58.209    0.299 -67.113
   1.200    0.331 -178.157   10.287  81.161    0.040  57.435    0.282 -69.319
   1.300    0.334 177.870    9.536  77.942    0.043  56.690    0.265 -71.425
   1.400    0.337 174.293    8.889  74.939    0.046  55.778    0.251 -73.477
   1.500    0.341 170.669    8.320  72.015    0.049  54.823    0.238 -75.521
   1.600    0.345 167.234    7.812  69.213    0.052  53.806    0.227 -77.707
   1.700    0.348 164.037    7.357  66.522    0.055  52.738    0.216 -79.916
   1.800    0.352 160.992    6.955  63.892    0.057  51.637    0.206 -82.163
   1.900    0.355 157.954    6.589  61.312    0.060  50.498    0.197 -84.660
   2.000    0.359 155.124    6.259  58.797    0.063  49.272    0.188 -87.272
   2.200    0.367 149.527    5.682  53.877    0.069  46.759    0.171 -92.705
   2.400    0.376 144.164    5.201  49.141    0.075  44.120    0.155 -98.656
   2.600    0.385 139.065    4.788  44.521    0.080  41.369    0.140 -105.513
   2.800    0.395 134.080    4.431  40.030    0.086  38.495    0.126 -113.152
   3.000    0.406 129.326    4.121  35.581    0.092  35.563    0.114 -122.167
   3.500    0.435 117.805    3.495  24.741    0.105  27.939    0.091 -151.454
   4.000    0.465 106.997    3.014  14.159    0.118  20.062    0.087 170.299
   4.500    0.497  96.959    2.639   3.856    0.130  11.896    0.108 137.080
   5.000    0.533  86.996    2.319  -6.622    0.139   3.198    0.149 111.982
   5.500    0.561  77.282    2.042 -16.180    0.147  -4.245    0.184  93.905
   6.000    0.596  68.179    1.815 -26.236    0.153 -13.094    0.237  80.240
   6.500    0.606  61.497    1.664 -33.461    0.167 -17.572    0.255  73.960
   7.000    0.636  54.205    1.526 -42.593    0.178 -25.597    0.303  67.044
   7.500    0.681  45.732    1.367 -53.489    0.178 -36.643    0.373  56.272
   8.000    0.708  38.573    1.247 -62.439    0.182 -44.432    0.419  48.472
   8.500    0.736  31.196    1.128 -71.843    0.183 -53.418    0.469  40.088
   9.000    0.756  23.748    1.009 -80.192    0.180 -61.267    0.509  31.584
   9.500    0.776  16.991    0.919 -88.320    0.179 -69.076    0.538  24.380
  10.000    0.797  10.644    0.838 -97.565    0.178 -77.905    0.583  18.108
  10.500    0.812   4.104    0.760 -106.402    0.176 -86.469    0.622  11.062
  11.000    0.823  -2.512    0.679 -114.656    0.169 -95.325    0.652   3.349
  11.500    0.832  -9.132    0.612 -123.445    0.162 -104.368    0.682  -3.124
  12.000    0.836 -15.802    0.540 -132.011    0.153 -113.844    0.711 -10.478
!     DEEMBEDDED NOISE DATA
!FREQUENCY    FMIN    GAMMA OPT        Rn
!  (GHz)      (dB)    Mag    Ang   (NORMALIZED)
