! Filename: 3_6110BFG480.001
! Title: BFG480W
! Bias: Vce=3.6V; Ic=110mA
! Company: Philips Semiconductors NL
! User: Quality&Reliability T&D
! Measure time: 10 Nov 1999 / 12:01:12
#  MHz  S  MA  R 50
! Freq       S11             S21             S12             S22    :
  100  0.47785 -158.8 51.15832 145.70 0.005974 69.147  0.73956 -43.31
  200  0.59401 -163.4 39.00386 124.68 0.009242 61.245  0.59149 -75.19
  300  0.64442 -168.3 29.78921 112.60 0.011469 60.475  0.49896 -95.81
  400  0.67095 -172.0 23.61957 104.62 0.013466 62.513  0.44984 -109.9
  500  0.68494 -174.9 19.43961 98.872 0.015441 64.863  0.42270 -120.1
  600  0.69466 -177.3 16.39822 94.413 0.017499 66.625  0.40647 -127.5
  700  0.70152 -179.4 14.17042 90.825 0.019558 68.662  0.39606 -133.3
  800  0.70746 178.68 12.42616 87.741 0.021803 70.310  0.38947 -138.1
  900  0.71460 176.86 11.03767 85.084 0.024098 71.925  0.38656 -142.3
 1000  0.72091 175.21  9.92388 82.582 0.026516 72.882  0.38692 -145.9
 1200  0.73402 172.31  8.18623 77.852 0.031168 74.336  0.39457 -151.9
 1400  0.74318 170.07  6.92657 73.226 0.035889 75.057  0.40506 -156.2
 1600  0.74759 167.77  6.04171 69.390 0.041250 75.746  0.41172 -159.6
 1800  0.74727 165.20  5.37122 66.010 0.046999 76.166  0.41953 -163.2
 2000  0.75834 163.04  4.75369 63.111 0.051791 76.636  0.43168 -167.5
 2200  0.77678 160.97  4.24126 59.634 0.056372 76.479  0.45121 -171.0
 2400  0.78562 159.23  3.79967 55.995 0.061285 75.921  0.47547 -173.3
 2600  0.78539 157.55  3.47365 52.660 0.067423 75.186  0.49451 -174.7
 2800  0.78102 155.26  3.21897 48.265 0.072240 73.688  0.50390 -176.5
 3000  0.78594 152.62  2.98933 44.861 0.077572 72.910  0.51169 -179.3
