! Filename: 410bfg410.001
! BFG410W Field B1
! V1=8.604E-001V,V2=4.000E+000V, I1=1.388E-004A, I2=1.002E-002A
# GHz   S   MA   R 50
!                S11              S21              S12              S22
!Freq(GHz)  Mag     Ang      Mag     Ang      Mag     Ang      Mag     Ang 
   0.040    0.654  -2.206   20.309 175.137    0.001  31.558    0.970  -0.745
   0.100    0.661  -6.661   19.866 171.582    0.003  77.944    0.973  -3.168
   0.200    0.652 -13.504   19.460 164.441    0.005  77.640    0.963  -6.999
   0.300    0.636 -20.186   18.984 157.835    0.007  76.489    0.951 -10.347
   0.400    0.616 -26.423   18.429 150.978    0.009  74.275    0.934 -13.658
   0.500    0.592 -32.714   17.774 144.374    0.011  70.579    0.914 -16.558
   0.600    0.568 -38.374   17.038 138.423    0.013  68.888    0.895 -19.278
   0.700    0.541 -43.684   16.257 132.852    0.015  66.896    0.873 -21.818
   0.800    0.515 -48.865   15.513 127.450    0.016  65.211    0.852 -24.087
   0.900    0.488 -53.399   14.785 122.435    0.017  63.843    0.832 -26.242
   1.000    0.463 -57.840   14.066 117.693    0.019  62.403    0.813 -28.218
   1.100    0.439 -61.986   13.387 113.325    0.020  61.244    0.795 -30.046
   1.200    0.417 -65.929   12.753 109.095    0.021  60.283    0.778 -31.841
   1.300    0.396 -69.716   12.144 105.179    0.023  59.455    0.762 -33.451
   1.400    0.376 -73.296   11.591 101.481    0.024  58.706    0.747 -34.990
   1.500    0.357 -76.880   11.068  97.896    0.025  58.031    0.734 -36.472
   1.600    0.339 -80.255   10.588  94.502    0.026  57.448    0.721 -37.937
   1.700    0.322 -83.670   10.135  91.259    0.028  56.798    0.709 -39.374
   1.800    0.307 -86.840    9.711  88.130    0.029  56.235    0.698 -40.793
   1.900    0.293 -89.960    9.324  85.141    0.030  55.709    0.688 -42.254
   2.000    0.279 -93.121    8.958  82.210    0.032  55.152    0.678 -43.687
   2.200    0.254 -99.540    8.307  76.645    0.034  54.111    0.659 -46.506
   2.400    0.232 -106.115    7.734  71.317    0.037  52.955    0.641 -49.311
   2.600    0.212 -113.011    7.227  66.242    0.040  51.684    0.624 -52.179
   2.800    0.195 -120.202    6.780  61.362    0.043  50.247    0.608 -55.026
   3.000    0.179 -128.144    6.383  56.539    0.046  48.720    0.592 -57.967
   3.500    0.152 -150.652    5.563  45.116    0.054  44.306    0.552 -65.422
   4.000    0.139 -176.884    4.918  34.072    0.063  39.139    0.509 -73.119
   4.500    0.150 156.886    4.407  23.375    0.072  32.970    0.464 -81.444
   5.000    0.174 133.343    3.967  12.698    0.081  26.212    0.413 -89.847
   5.500    0.211 112.656    3.570   1.707    0.089  18.222    0.349 -98.222
   6.000    0.249 100.848    3.282  -8.038    0.100  11.887    0.305 -108.284
   6.500    0.290  86.911    2.966 -18.159    0.106   4.632    0.243 -116.790
   7.000    0.268  77.427    2.683 -23.160    0.113   9.293    0.251 -114.047
   7.500    0.364  72.767    2.589 -36.202    0.133  -5.834    0.177 -144.174
   8.000    0.431  63.615    2.410 -47.448    0.145 -16.488    0.127 -178.163
   8.500    0.498  53.287    2.188 -59.508    0.150 -29.051    0.104 121.816
   9.000    0.550  44.111    1.985 -70.085    0.153 -39.016    0.141  80.592
   9.500    0.590  34.587    1.770 -80.453    0.150 -49.099    0.199  52.942
  10.000    0.643  27.853    1.630 -91.673    0.158 -59.385    0.279  40.466
  10.500    0.686  19.560    1.458 -102.524    0.158 -70.023    0.350  27.181
  11.000    0.724  10.716    1.280 -113.855    0.154 -83.300    0.429  14.380
  11.500    0.746   1.986    1.101 -124.522    0.144 -95.184    0.496   2.746
  12.000    0.762  -6.662    0.930 -135.228    0.133 -108.734    0.560  -8.661
!     DEEMBEDDED NOISE DATA
!FREQUENCY    FMIN    GAMMA OPT        Rn
!  (GHz)      (dB)    Mag    Ang   (NORMALIZED)
