! Filename: 37bfg425.001
! BFG425W Field C1
! V1=8.328E-001V,V2=3.000E+000V, I1=8.713E-005A, I2=7.010E-003A
# GHz   S   MA   R 50
!                S11              S21              S12              S22
!Freq(GHz)  Mag     Ang      Mag     Ang      Mag     Ang      Mag     Ang 
   0.040    0.725  -4.150   19.192 175.379    0.002  68.217    0.972  -2.153
   0.100    0.731 -10.324   18.746 170.428    0.005  80.668    0.970  -5.782
   0.200    0.716 -20.705   18.314 161.759    0.010  76.709    0.952 -11.479
   0.300    0.692 -30.679   17.694 153.808    0.015  72.536    0.927 -16.831
   0.400    0.663 -40.247   16.971 145.940    0.019  67.575    0.894 -21.739
   0.500    0.632 -49.394   16.176 138.376    0.023  63.635    0.858 -26.204
   0.600    0.600 -57.933   15.269 131.681    0.026  60.163    0.822 -30.162
   0.700    0.569 -65.977   14.402 125.673    0.029  56.886    0.785 -33.704
   0.800    0.538 -73.800   13.575 119.827    0.032  54.287    0.750 -36.857
   0.900    0.509 -80.853   12.791 114.508    0.034  51.936    0.718 -39.735
   1.000    0.482 -87.725   12.037 109.532    0.036  50.029    0.688 -42.334
   1.100    0.459 -94.288   11.345 104.941    0.038  48.228    0.660 -44.704
   1.200    0.438 -100.480   10.706 100.615    0.040  46.718    0.635 -46.928
   1.300    0.419 -106.426   10.119  96.562    0.042  45.443    0.610 -48.969
   1.400    0.402 -112.239    9.584  92.744    0.044  44.320    0.589 -50.856
   1.500    0.386 -117.973    9.092  89.089    0.045  43.294    0.569 -52.636
   1.600    0.373 -123.598    8.643  85.579    0.047  42.399    0.551 -54.394
   1.700    0.361 -128.925    8.225  82.252    0.049  41.524    0.534 -56.095
   1.800    0.351 -134.078    7.841  79.056    0.050  40.775    0.518 -57.740
   1.900    0.342 -139.203    7.492  75.965    0.052  39.996    0.503 -59.443
   2.000    0.335 -144.183    7.166  72.973    0.053  39.219    0.489 -61.099
   2.200    0.323 -153.947    6.587  67.233    0.057  37.748    0.463 -64.376
   2.400    0.315 -163.448    6.085  61.713    0.060  36.274    0.439 -67.604
   2.600    0.311 -172.466    5.648  56.470    0.064  34.721    0.416 -70.928
   2.800    0.310 178.768    5.264  51.406    0.068  33.058    0.394 -74.259
   3.000    0.312 170.388    4.926  46.466    0.071  31.304    0.373 -77.722
   3.500    0.327 151.130    4.232  34.600    0.081  26.393    0.322 -86.809
   4.000    0.351 134.027    3.687  23.132    0.091  20.686    0.270 -96.843
   4.500    0.383 119.344    3.254  12.137    0.102  14.423    0.219 -108.620
   5.000    0.422 105.500    2.887   0.936    0.111   6.803    0.163 -124.671
   5.500    0.452  92.993    2.553  -9.296    0.118   0.537    0.111 -141.795
   6.000    0.495  81.621    2.284 -20.151    0.125  -7.834    0.073 174.520
   6.500    0.506  74.067    2.093 -27.584    0.138  -9.823    0.075 153.257
   7.000    0.543  65.897    1.932 -37.171    0.152 -16.953    0.108 118.084
   7.500    0.602  55.884    1.741 -49.095    0.155 -29.065    0.177  84.434
   8.000    0.638  47.953    1.593 -58.763    0.162 -36.751    0.233  70.746
   8.500    0.677  39.672    1.441 -69.078    0.166 -46.124    0.298  57.573
   9.000    0.704  31.311    1.286 -78.386    0.164 -54.367    0.352  45.365
   9.500    0.731  23.795    1.161 -87.168    0.164 -62.785    0.392  36.065
  10.000    0.760  16.783    1.060 -97.272    0.166 -72.294    0.455  28.870
  10.500    0.780   9.658    0.953 -107.039    0.164 -81.481    0.511  20.485
  11.000    0.797   2.352    0.843 -116.199    0.158 -91.345    0.555  11.133
  11.500    0.810  -4.864    0.751 -125.780    0.152 -101.449    0.599   3.695
  12.000    0.816 -12.026    0.653 -135.085    0.142 -112.126    0.641  -4.863
!     DEEMBEDDED NOISE DATA
!FREQUENCY    FMIN    GAMMA OPT        Rn
!  (GHz)      (dB)    Mag    Ang   (NORMALIZED)
