! Filename: 44bfg425.001
! BFG425W Field C1
! V1=8.166E-001V,V2=4.000E+000V, I1=3.940E-005A, I2=4.000E-003A
# GHz   S   MA   R 50
!                S11              S21              S12              S22
!Freq(GHz)  Mag     Ang      Mag     Ang      Mag     Ang      Mag     Ang 
   0.040    0.846  -3.393   12.335 176.208    0.002  50.296    0.977  -1.639
   0.100    0.852  -7.917   12.006 172.512    0.005  74.308    0.976  -4.377
   0.200    0.843 -15.791   11.855 165.713    0.011  74.756    0.967  -8.763
   0.300    0.828 -23.639   11.671 159.394    0.016  71.963    0.954 -12.992
   0.400    0.808 -31.219   11.441 152.743    0.021  68.416    0.936 -17.045
   0.500    0.785 -38.718   11.164 146.229    0.025  64.663    0.914 -20.906
   0.600    0.761 -45.940   10.769 140.320    0.029  61.194    0.891 -24.532
   0.700    0.736 -52.846   10.377 134.767    0.033  57.453    0.865 -27.972
   0.800    0.709 -59.782   10.011 129.233    0.036  54.366    0.839 -31.156
   0.900    0.681 -66.195    9.643 124.015    0.039  51.504    0.813 -34.158
   1.000    0.654 -72.578    9.252 118.973    0.042  48.757    0.788 -36.957
   1.100    0.629 -78.652    8.867 114.295    0.044  46.247    0.764 -39.575
   1.200    0.604 -84.499    8.500 109.793    0.046  44.000    0.741 -42.070
   1.300    0.581 -90.182    8.146 105.511    0.048  41.911    0.718 -44.399
   1.400    0.559 -95.788    7.813 101.387    0.050  40.009    0.696 -46.574
   1.500    0.538 -101.289    7.495  97.425    0.051  38.299    0.676 -48.625
   1.600    0.518 -106.755    7.196  93.590    0.053  36.755    0.656 -50.621
   1.700    0.500 -111.929    6.906  89.895    0.054  35.351    0.638 -52.557
   1.800    0.484 -116.997    6.631  86.366    0.056  34.052    0.621 -54.406
   1.900    0.470 -121.924    6.375  83.017    0.057  32.847    0.605 -56.264
   2.000    0.457 -126.825    6.131  79.722    0.058  31.727    0.589 -58.067
   2.200    0.434 -136.567    5.693  73.412    0.061  29.710    0.559 -61.560
   2.400    0.415 -146.020    5.303  67.408    0.063  27.995    0.532 -64.955
   2.600    0.401 -155.350    4.952  61.669    0.065  26.409    0.507 -68.360
   2.800    0.391 -164.438    4.641  56.136    0.068  24.861    0.482 -71.702
   3.000    0.384 -173.312    4.363  50.778    0.071  23.383    0.459 -75.131
   3.500    0.381 165.499    3.778  37.980    0.078  19.535    0.404 -83.868
   4.000    0.393 146.244    3.309  25.700    0.086  15.131    0.349 -93.140
   4.500    0.416 129.413    2.931  14.042    0.094  10.248    0.296 -103.518
   5.000    0.449 113.590    2.607   2.272    0.102   3.616    0.236 -116.306
   5.500    0.475  99.581    2.309  -8.503    0.108  -1.616    0.179 -128.252
   6.000    0.515  86.853    2.067 -19.812    0.115  -9.282    0.123 -151.227
   6.500    0.527  78.380    1.892 -27.634    0.128  -9.691    0.111 -167.090
   7.000    0.563  69.251    1.744 -37.548    0.142 -16.198    0.110 155.956
   7.500    0.619  58.521    1.574 -49.711    0.146 -28.439    0.143 107.110
   8.000    0.652  50.100    1.439 -59.650    0.154 -35.804    0.194  85.970
   8.500    0.689  41.454    1.301 -70.225    0.158 -45.177    0.258  68.174
   9.000    0.715  32.923    1.160 -79.839    0.157 -53.393    0.313  53.261
   9.500    0.742  25.142    1.045 -88.706    0.158 -61.849    0.354  42.716
  10.000    0.769  17.970    0.955 -99.004    0.160 -71.398    0.423  34.704
  10.500    0.788  10.720    0.857 -108.975    0.159 -80.646    0.483  25.512
  11.000    0.804   3.347    0.756 -118.365    0.153 -90.701    0.532  15.396
  11.500    0.815  -3.886    0.673 -128.107    0.147 -101.138    0.580   7.499
  12.000    0.821 -11.091    0.584 -137.718    0.137 -112.075    0.626  -1.578
!     DEEMBEDDED NOISE DATA
!FREQUENCY    FMIN    GAMMA OPT        Rn
!  (GHz)      (dB)    Mag    Ang   (NORMALIZED)
