! Filename: 317bfg425.001
! BFG425W Field C1
! V1=8.486E-001V,V2=3.000E+000V, I1=2.294E-004A, I2=1.752E-002A
# GHz   S   MA   R 50
!                S11              S21              S12              S22
!Freq(GHz)  Mag     Ang      Mag     Ang      Mag     Ang      Mag     Ang 
   0.040    0.476  -5.659   33.520 173.658    0.002  66.982    0.946  -2.816
   0.100    0.478 -16.353   32.629 166.365    0.005  81.485    0.940  -7.975
   0.200    0.456 -32.230   30.890 154.207    0.009  75.722    0.902 -15.894
   0.300    0.426 -46.549   28.567 143.648    0.012  71.275    0.849 -22.552
   0.400    0.394 -59.973   26.094 134.145    0.015  67.911    0.791 -27.917
   0.500    0.364 -72.129   23.712 125.628    0.018  64.533    0.737 -32.232
   0.600    0.338 -82.733   21.490 118.647    0.020  62.452    0.688 -35.659
   0.700    0.316 -92.369   19.542 112.627    0.023  60.746    0.645 -38.398
   0.800    0.297 -101.463   17.837 107.091    0.025  59.629    0.608 -40.682
   0.900    0.280 -109.460   16.361 102.246    0.027  58.739    0.577 -42.704
   1.000    0.267 -116.988   15.068  97.835    0.029  57.920    0.550 -44.514
   1.100    0.257 -124.048   13.947  93.788    0.031  57.208    0.527 -46.179
   1.200    0.249 -130.643   12.963  90.032    0.033  56.581    0.506 -47.760
   1.300    0.243 -136.820   12.091  86.538    0.035  55.976    0.487 -49.211
   1.400    0.238 -142.651   11.330  83.259    0.037  55.363    0.470 -50.606
   1.500    0.234 -148.583   10.647  80.139    0.039  54.691    0.456 -51.966
   1.600    0.231 -154.008   10.042  77.132    0.041  53.953    0.442 -53.402
   1.700    0.230 -159.212    9.491  74.255    0.043  53.204    0.430 -54.815
   1.800    0.229 -164.153    9.001  71.478    0.046  52.482    0.419 -56.215
   1.900    0.228 -168.769    8.553  68.811    0.048  51.550    0.408 -57.742
   2.000    0.228 -173.281    8.149  66.192    0.050  50.722    0.397 -59.258
   2.200    0.231 177.954    7.436  61.147    0.054  48.872    0.377 -62.339
   2.400    0.236 169.887    6.833  56.301    0.059  46.875    0.358 -65.446
   2.600    0.242 162.342    6.314  51.539    0.064  44.725    0.340 -68.731
   2.800    0.250 155.233    5.864  46.971    0.068  42.403    0.322 -72.048
   3.000    0.259 148.561    5.472  42.480    0.073  40.000    0.304 -75.571
   3.500    0.288 133.560    4.676  31.577    0.085  33.498    0.258 -84.917
   4.000    0.320 120.037    4.061  20.934    0.096  26.463    0.210 -95.503
   4.500    0.357 108.414    3.578  10.586    0.108  19.095    0.162 -108.542
   5.000    0.400  97.008    3.171  -0.056    0.118  10.685    0.108 -128.673
   5.500    0.433  86.014    2.803  -9.760    0.125   3.622    0.062 -155.897
   6.000    0.478  76.120    2.507 -20.195    0.132  -5.267    0.057 128.917
   6.500    0.488  69.488    2.301 -27.215    0.146  -8.416    0.070 113.795
   7.000    0.524  62.337    2.127 -36.466    0.159 -16.025    0.120  94.520
   7.500    0.587  53.126    1.917 -48.124    0.162 -28.055    0.202  71.812
   8.000    0.624  45.747    1.755 -57.562    0.168 -35.984    0.259  61.577
   8.500    0.665  37.839    1.589 -67.615    0.172 -45.409    0.324  50.691
   9.000    0.694  29.749    1.420 -76.671    0.170 -53.759    0.377  39.958
   9.500    0.723  22.505    1.285 -85.344    0.169 -62.127    0.417  31.313
  10.000    0.753  15.630    1.173 -95.268    0.171 -71.557    0.476  24.642
  10.500    0.776   8.625    1.057 -104.843    0.169 -80.794    0.529  16.741
  11.000    0.794   1.352    0.935 -113.803    0.162 -90.514    0.571   7.854
  11.500    0.808  -5.770    0.835 -123.154    0.156 -100.411    0.612   0.699
  12.000    0.815 -12.954    0.726 -132.269    0.147 -110.795    0.651  -7.559
!     DEEMBEDDED NOISE DATA
!FREQUENCY    FMIN    GAMMA OPT        Rn
!  (GHz)      (dB)    Mag    Ang   (NORMALIZED)
