! Filename: 16bfg425.001
! BFG425W Field C1
! V1=8.393E-001V,V2=1.000E+000V, I1=8.543E-005A, I2=6.000E-003A
# GHz   S   MA   R 50
!                S11              S21              S12              S22
!Freq(GHz)  Mag     Ang      Mag     Ang      Mag     Ang      Mag     Ang 
   0.040    0.735  -4.677   17.087 175.862    0.003  84.320    0.964  -2.678
   0.100    0.738 -11.441   16.731 170.497    0.008  84.441    0.959  -7.124
   0.200    0.721 -22.641   16.288 161.309    0.015  77.291    0.936 -14.425
   0.300    0.698 -33.452   15.755 152.951    0.021  71.407    0.907 -21.159
   0.400    0.669 -43.810   15.063 144.765    0.027  65.823    0.868 -27.416
   0.500    0.639 -53.853   14.314 137.139    0.033  61.239    0.825 -32.960
   0.600    0.609 -63.170   13.483 130.301    0.037  57.083    0.782 -38.077
   0.700    0.579 -71.841   12.683 124.006    0.041  53.232    0.738 -42.770
   0.800    0.551 -80.305   11.928 118.058    0.044  50.100    0.697 -46.890
   0.900    0.524 -88.031   11.216 112.603    0.047  47.328    0.658 -50.711
   1.000    0.499 -95.352   10.526 107.563    0.050  44.972    0.622 -54.131
   1.100    0.479 -102.352    9.906 102.913    0.052  42.879    0.590 -57.313
   1.200    0.460 -108.967    9.330  98.506    0.055  41.043    0.560 -60.296
   1.300    0.444 -115.286    8.805  94.401    0.057  39.415    0.531 -63.067
   1.400    0.430 -121.466    8.330  90.514    0.058  37.982    0.505 -65.634
   1.500    0.417 -127.376    7.891  86.809    0.060  36.696    0.481 -68.068
   1.600    0.406 -133.178    7.488  83.256    0.062  35.541    0.460 -70.429
   1.700    0.398 -138.606    7.117  79.833    0.064  34.444    0.440 -72.743
   1.800    0.390 -143.999    6.777  76.577    0.066  33.432    0.420 -74.948
   1.900    0.383 -149.043    6.468  73.455    0.068  32.453    0.403 -77.195
   2.000    0.379 -154.026    6.180  70.412    0.069  31.484    0.387 -79.391
   2.200    0.371 -163.621    5.669  64.582    0.073  29.658    0.356 -83.773
   2.400    0.367 -172.766    5.229  59.026    0.077  27.910    0.329 -88.136
   2.600    0.367 178.580    4.845  53.687    0.081  26.088    0.303 -92.688
   2.800    0.369 170.358    4.510  48.555    0.085  24.182    0.280 -97.369
   3.000    0.373 162.519    4.212  43.524    0.088  22.258    0.257 -102.360
   3.500    0.392 144.577    3.604  31.483    0.099  16.953    0.207 -116.505
   4.000    0.418 128.555    3.127  19.877    0.109  11.023    0.162 -134.822
   4.500    0.449 114.635    2.749   8.792    0.119   4.609    0.130 -159.934
   5.000    0.486 101.491    2.428  -2.447    0.127  -2.960    0.117 164.117
   5.500    0.514  89.396    2.141 -12.677    0.133  -9.202    0.122 130.696
   6.000    0.553  78.309    1.908 -23.386    0.139 -17.335    0.161 103.120
   6.500    0.564  70.622    1.749 -30.941    0.152 -19.766    0.179  93.884
   7.000    0.597  62.342    1.606 -40.494    0.164 -26.916    0.229  83.040
   7.500    0.648  52.524    1.441 -52.043    0.166 -38.278    0.301  67.774
   8.000    0.678  44.661    1.315 -61.460    0.171 -45.659    0.352  58.251
   8.500    0.710  36.560    1.188 -71.407    0.173 -54.560    0.409  48.296
   9.000    0.732  28.550    1.061 -80.291    0.170 -62.330    0.454  38.450
   9.500    0.755  21.260    0.961 -88.729    0.170 -70.277    0.486  30.479
  10.000    0.779  14.430    0.877 -98.482    0.170 -79.222    0.539  23.651
  10.500    0.796   7.597    0.791 -107.735    0.168 -87.884    0.585  15.957
  11.000    0.809   0.629    0.703 -116.467    0.161 -97.085    0.620   7.547
  11.500    0.819  -6.321    0.630 -125.689    0.155 -106.511    0.655   0.637
  12.000    0.823 -13.282    0.551 -134.655    0.145 -116.487    0.688  -7.248
!     DEEMBEDDED NOISE DATA
!FREQUENCY    FMIN    GAMMA OPT        Rn
!  (GHz)      (dB)    Mag    Ang   (NORMALIZED)
