! Filename: 23bfg403.001
! BFG403W Field A1
! V1=8.791E-001V,V2=2.000E+000V, I1=4.308E-005A, I2=3.000E-003A
# GHz   S   MA   R 50
!                S11              S21              S12              S22
!Freq(GHz)  Mag     Ang      Mag     Ang      Mag     Ang      Mag     Ang 
   0.040    0.879  -1.364    7.211 177.009    0.001  31.643    0.991  -0.662
   0.100    0.883  -3.156    7.093 175.130    0.001  92.445    0.992  -2.015
   0.200    0.880  -6.244    7.069 170.888    0.003  84.816    0.991  -4.220
   0.300    0.875  -9.327    7.029 167.027    0.004  82.310    0.989  -6.350
   0.400    0.867 -12.180    6.996 162.549    0.005  80.116    0.985  -8.501
   0.500    0.856 -15.613    6.947 158.123    0.007  77.686    0.980 -10.569
   0.600    0.845 -18.511    6.847 153.997    0.008  75.120    0.975 -12.617
   0.700    0.832 -21.347    6.737 150.043    0.009  73.410    0.969 -14.670
   0.800    0.819 -24.306    6.645 146.020    0.010  71.465    0.962 -16.669
   0.900    0.804 -27.038    6.546 142.123    0.011  69.706    0.955 -18.648
   1.000    0.787 -29.852    6.441 138.225    0.012  67.938    0.947 -20.577
   1.100    0.771 -32.477    6.324 134.513    0.013  66.236    0.939 -22.379
   1.200    0.754 -35.069    6.204 130.774    0.014  64.926    0.931 -24.257
   1.300    0.736 -37.591    6.074 127.188    0.015  63.344    0.923 -26.078
   1.400    0.718 -39.992    5.959 123.705    0.016  61.999    0.914 -27.815
   1.500    0.698 -42.441    5.834 120.220    0.017  60.724    0.905 -29.520
   1.600    0.680 -44.782    5.714 116.841    0.017  59.838    0.897 -31.212
   1.700    0.661 -47.111    5.589 113.561    0.018  58.730    0.888 -32.891
   1.800    0.642 -49.349    5.461 110.315    0.019  57.764    0.880 -34.551
   1.900    0.624 -51.307    5.332 107.220    0.020  56.993    0.871 -36.186
   2.000    0.609 -53.651    5.223 104.247    0.020  56.296    0.863 -37.812
   2.200    0.571 -57.579    4.984  98.269    0.022  55.082    0.845 -40.963
   2.400    0.539 -61.740    4.775  92.619    0.023  54.271    0.829 -44.054
   2.600    0.505 -65.624    4.561  87.157    0.024  53.509    0.812 -47.098
   2.800    0.481 -70.015    4.392  82.018    0.026  52.792    0.796 -50.106
   3.000    0.456 -74.228    4.234  77.005    0.027  52.220    0.780 -53.098
   3.500    0.388 -84.777    3.846  64.763    0.032  50.864    0.739 -60.507
   4.000    0.324 -96.029    3.506  53.028    0.037  48.933    0.697 -67.987
   4.500    0.272 -110.286    3.229  41.820    0.044  45.659    0.655 -75.720
   5.000    0.233 -127.720    3.005  30.626    0.051  41.120    0.607 -83.669
   5.500    0.206 -148.627    2.791  19.292    0.057  35.689    0.553 -91.519
   6.000    0.210 -170.863    2.661   7.558    0.067  27.409    0.496 -101.768
   6.500    0.210 170.793    2.467  -2.341    0.076  25.939    0.454 -109.710
   7.000    0.189 148.598    2.166 -13.108    0.068  24.270    0.369 -111.652
   7.500    0.266 137.688    2.207 -24.139    0.101  13.627    0.355 -133.260
   8.000    0.314 119.739    2.091 -37.705    0.113  -0.475    0.281 -155.776
   8.500    0.344 103.705    1.908 -50.668    0.118 -12.358    0.205 178.732
   9.000    0.379  90.391    1.764 -63.147    0.128 -23.365    0.185 144.454
   9.500    0.407  75.853    1.593 -76.081    0.132 -37.164    0.202 104.346
  10.000    0.427  62.633    1.429 -89.317    0.134 -50.016    0.263  73.335
  10.500    0.442  49.051    1.250 -102.377    0.133 -64.441    0.336  50.535
  11.000    0.443  35.889    1.066 -114.185    0.124 -78.561    0.404  32.362
  11.500    0.451  23.704    0.910 -126.085    0.116 -92.326    0.471  18.039
  12.000    0.447  10.728    0.746 -136.740    0.099 -108.689    0.522   4.098
!     DEEMBEDDED NOISE DATA
!FREQUENCY    FMIN    GAMMA OPT        Rn
!  (GHz)      (dB)    Mag    Ang   (NORMALIZED)
