! Filename: 15bfg403.001
! BFG403W Field A2
! V1=9.050E-001V,V2=1.000E+000V, I1=8.704E-005A, I2=5.000E-003A
# GHz   S   MA   R 50
!                S11              S21              S12              S22
!Freq(GHz)  Mag     Ang      Mag     Ang      Mag     Ang      Mag     Ang 
   0.040    0.790  -2.581    8.425 177.106    0.001  30.480    0.950  -0.564
   0.100    0.793  -5.570    8.338 173.903    0.002  88.483    0.952  -2.271
   0.200    0.784 -11.053    8.260 167.637    0.004  81.358    0.948  -4.977
   0.300    0.772 -16.115    8.163 161.241    0.006  78.449    0.943  -7.667
   0.400    0.757 -20.658    8.037 155.810    0.008  76.484    0.937  -9.937
   0.500    0.735 -27.021    7.860 149.921    0.010  71.526    0.927 -12.241
   0.600    0.714 -31.428    7.641 144.614    0.011  69.253    0.918 -14.428
   0.700    0.691 -35.871    7.392 139.430    0.013  66.734    0.907 -16.633
   0.800    0.667 -40.348    7.164 134.221    0.014  64.343    0.896 -18.715
   0.900    0.642 -44.390    6.934 129.317    0.015  62.409    0.885 -20.726
   1.000    0.617 -48.554    6.697 124.672    0.016  60.518    0.874 -22.647
   1.100    0.593 -52.244    6.454 120.253    0.017  58.918    0.863 -24.405
   1.200    0.569 -55.833    6.222 115.930    0.018  57.668    0.853 -26.221
   1.300    0.545 -59.414    5.987 111.693    0.019  56.345    0.841 -27.992
   1.400    0.525 -62.521    5.786 108.019    0.020  55.588    0.832 -29.621
   1.500    0.501 -65.839    5.572 104.131    0.021  54.769    0.822 -31.270
   1.600    0.480 -69.118    5.383 100.561    0.022  54.015    0.813 -32.888
   1.700    0.460 -72.027    5.193  97.049    0.022  53.530    0.805 -34.467
   1.800    0.441 -74.982    5.015  93.741    0.023  53.092    0.796 -36.073
   1.900    0.423 -77.615    4.844  90.490    0.024  52.710    0.787 -37.696
   2.000    0.406 -80.473    4.675  87.336    0.025  52.573    0.779 -39.296
   2.200    0.373 -85.877    4.383  81.292    0.026  52.212    0.762 -42.443
   2.400    0.342 -91.133    4.115  75.464    0.028  52.055    0.746 -45.591
   2.600    0.315 -96.713    3.870  69.944    0.030  51.829    0.730 -48.752
   2.800    0.291 -102.098    3.658  64.615    0.032  51.588    0.714 -51.914
   3.000    0.268 -107.849    3.460  59.424    0.034  51.095    0.698 -55.156
   3.500    0.216 -123.478    3.054  47.059    0.041  49.185    0.656 -63.372
   4.000    0.178 -142.457    2.730  35.227    0.048  46.228    0.612 -71.754
   4.500    0.154 -165.900    2.458  23.744    0.057  41.619    0.565 -80.536
   5.000    0.146 166.110    2.219  12.273    0.065  35.566    0.509 -89.531
   5.500    0.159 138.135    2.014   0.653    0.072  27.838    0.446 -99.238
   6.000    0.183 120.949    1.862  -9.303    0.086  23.923    0.404 -109.367
   6.500    0.229 103.706    1.726 -21.122    0.098  12.772    0.336 -123.808
   7.000    0.226  85.519    1.494 -28.805    0.093  17.304    0.283 -123.715
   7.500    0.297  80.243    1.472 -40.807    0.121   1.825    0.243 -151.609
   8.000    0.350  67.960    1.342 -52.737    0.128  -9.491    0.179 -178.299
   8.500    0.406  57.360    1.223 -64.182    0.135 -21.033    0.145 145.157
   9.000    0.451  47.984    1.115 -74.505    0.142 -30.315    0.153 107.740
   9.500    0.504  38.814    1.019 -85.573    0.147 -41.880    0.200  79.411
  10.000    0.546  30.526    0.926 -96.907    0.151 -53.260    0.269  58.535
  10.500    0.591  21.528    0.819 -108.791    0.148 -66.624    0.341  40.653
  11.000    0.619  12.873    0.722 -119.541    0.141 -79.854    0.411  25.627
  11.500    0.638   5.771    0.637 -128.653    0.134 -87.133    0.459  14.301
  12.000    0.670  -2.363    0.558 -141.293    0.129 -103.168    0.535   3.720
!     DEEMBEDDED NOISE DATA
!FREQUENCY    FMIN    GAMMA OPT        Rn
!  (GHz)      (dB)    Mag    Ang   (NORMALIZED)
