! Filename: 122bfg425.001
! BFG425W Field C1
! V1=8.780E-001V,V2=1.000E+000V, I1=3.480E-004A, I2=2.251E-002A
# GHz   S   MA   R 50
!                S11              S21              S12              S22
!Freq(GHz)  Mag     Ang      Mag     Ang      Mag     Ang      Mag     Ang 
   0.040    0.316 -10.439   35.553 173.350    0.002  71.059    0.868  -4.324
   0.100    0.324 -29.034   34.531 163.744    0.006  80.420    0.858 -12.364
   0.200    0.316 -55.692   31.470 148.501    0.011  73.058    0.796 -24.401
   0.300    0.307 -76.139   28.360 136.540    0.015  68.168    0.718 -34.030
   0.400    0.301 -94.139   25.040 126.353    0.019  64.241    0.642 -41.363
   0.500    0.299 -109.698   22.088 117.767    0.022  61.958    0.574 -47.058
   0.600    0.296 -121.656   19.587 110.892    0.025  60.305    0.518 -51.554
   0.700    0.293 -131.646   17.491 105.064    0.028  59.130    0.471 -55.207
   0.800    0.293 -140.366   15.748  99.824    0.030  58.369    0.432 -58.252
   0.900    0.293 -147.800   14.292  95.243    0.033  57.604    0.400 -60.971
   1.000    0.293 -154.363   13.051  91.114    0.035  56.876    0.373 -63.420
   1.100    0.294 -160.231   11.991  87.296    0.038  56.138    0.349 -65.731
   1.200    0.296 -165.473   11.081  83.756    0.041  55.410    0.329 -67.979
   1.300    0.297 -170.350   10.288  80.438    0.043  54.687    0.310 -70.079
   1.400    0.300 -174.793    9.600  77.324    0.046  53.900    0.293 -72.118
   1.500    0.303 -179.101    8.992  74.342    0.049  52.992    0.279 -74.125
   1.600    0.305 176.841    8.452  71.459    0.051  52.095    0.265 -76.212
   1.700    0.308 173.148    7.968  68.698    0.054  51.125    0.253 -78.303
   1.800    0.311 169.469    7.537  66.018    0.057  50.093    0.241 -80.418
   1.900    0.315 166.062    7.145  63.389    0.060  49.038    0.231 -82.733
   2.000    0.318 162.793    6.791  60.839    0.063  47.921    0.221 -85.133
   2.200    0.326 156.485    6.173  55.923    0.068  45.542    0.202 -90.080
   2.400    0.334 150.393    5.655  51.056    0.074  43.062    0.184 -95.403
   2.600    0.344 144.808    5.210  46.407    0.079  40.466    0.168 -101.380
   2.800    0.354 139.392    4.825  41.877    0.085  37.723    0.152 -107.953
   3.000    0.364 134.160    4.491  37.403    0.090  34.924    0.137 -115.547
   3.500    0.394 121.931    3.815  26.512    0.104  27.529    0.107 -139.828
   4.000    0.426 110.445    3.293  15.896    0.116  19.814    0.092 -174.326
   4.500    0.460 100.098    2.886   5.556    0.128  11.812    0.103 149.331
   5.000    0.499  89.681    2.541  -4.989    0.138   3.146    0.137 119.342
   5.500    0.528  79.711    2.238 -14.522    0.145  -4.216    0.170  98.592
   6.000    0.566  70.348    1.991 -24.751    0.151 -13.072    0.223  83.272
   6.500    0.576  63.627    1.825 -31.924    0.165 -17.292    0.241  76.851
   7.000    0.608  56.310    1.676 -41.104    0.176 -25.238    0.289  69.627
   7.500    0.657  47.573    1.501 -52.181    0.177 -36.506    0.362  58.024
   8.000    0.686  40.383    1.369 -61.225    0.181 -44.314    0.409  50.046
   8.500    0.718  32.825    1.237 -70.763    0.183 -53.372    0.461  41.343
   9.000    0.740  25.237    1.107 -79.227    0.180 -61.217    0.502  32.595
   9.500    0.762  18.321    1.006 -87.434    0.178 -69.167    0.532  25.192
  10.000    0.784  11.840    0.918 -96.791    0.178 -78.030    0.578  18.786
  10.500    0.801   5.242    0.829 -105.776    0.175 -86.687    0.618  11.584
  11.000    0.814  -1.571    0.739 -114.209    0.168 -95.651    0.649   3.714
  11.500    0.824  -8.272    0.665 -122.995    0.161 -104.781    0.679  -2.852
  12.000    0.829 -15.108    0.584 -131.705    0.152 -114.362    0.708 -10.344
!     DEEMBEDDED NOISE DATA
!FREQUENCY    FMIN    GAMMA OPT        Rn
!  (GHz)      (dB)    Mag    Ang   (NORMALIZED)
