! Filename BFG424F_4V_5mA.prm
! Simulation_Values
! Created	by	janssen	on	nov	2006			
!	Column ranking S11, S21,S12,S22 both magnitude and phase.								
!	VCE	=	4	V,	IC	=	5	mA	
!	Common	Emitter	S-Parameters						
#	GHZ	S	MA	R	50				
	5.00E-01	0.757	-40.92	13.394	150.1	0.024	68.16	0.905	-19.75
	6.00E-01	0.734	-48.4	12.92	144.97	0.028	64.7	0.877	-23.02
	7.00E-01	0.708	-55.64	12.446	140.09	0.031	62.36	0.85	-25.99
	8.00E-01	0.68	-62.55	11.939	135.54	0.034	59.87	0.822	-28.7
	9.00E-01	0.659	-69.22	11.41	131.36	0.037	57.81	0.794	-31.28
	1.00E+00	0.635	-75.46	10.909	127.37	0.039	55.92	0.767	-33.53
	1.10E+00	0.614	-81.61	10.428	123.72	0.042	54.24	0.741	-35.64
	1.20E+00	0.591	-87.31	9.957	120.32	0.043	53.05	0.716	-37.52
	1.30E+00	0.572	-92.92	9.531	117.09	0.045	51.82	0.692	-39.33
	1.40E+00	0.555	-98.34	9.108	114.04	0.047	50.87	0.671	-40.98
	1.50E+00	0.539	-103.54	8.728	111.19	0.048	50.03	0.651	-42.44
	1.60E+00	0.524	-108.33	8.37	108.51	0.049	49.44	0.632	-43.99
	1.70E+00	0.51	-113.11	8.023	105.95	0.05	49.01	0.613	-45.35
	1.80E+00	0.498	-117.99	7.687	103.53	0.051	48.68	0.597	-46.67
	1.90E+00	0.488	-122.33	7.382	101.23	0.052	48.49	0.581	-47.93
	2.00E+00	0.479	-126.61	7.108	99.13	0.053	48.33	0.568	-49.18
	2.10E+00	0.471	-130.69	6.843	96.94	0.055	48.16	0.554	-50.5
	2.20E+00	0.464	-134.85	6.589	94.9	0.055	48.06	0.541	-51.68
	2.30E+00	0.457	-138.9	6.344	92.99	0.056	48.38	0.528	-52.89
	2.40E+00	0.454	-142.53	6.133	91.18	0.057	48.5	0.517	-54.09
	2.50E+00	0.452	-146.13	5.923	89.39	0.058	48.82	0.505	-55.33
	2.60E+00	0.447	-149.67	5.734	87.53	0.059	48.82	0.495	-56.67
	2.70E+00	0.442	-153.36	5.549	85.87	0.06	49.12	0.484	-57.94
	2.80E+00	0.442	-156.69	5.372	84.24	0.061	49.49	0.475	-59.07
	2.90E+00	0.442	-159.87	5.208	82.71	0.063	49.8	0.465	-60.44
	3.00E+00	0.441	-162.8	5.055	81.16	0.064	50.17	0.456	-61.64
	3.10E+00	0.441	-166.05	4.916	79.57	0.065	50.22	0.447	-63.03
	3.20E+00	0.44	-168.95	4.774	78.09	0.066	50.66	0.439	-64.31
	3.30E+00	0.441	-172.07	4.634	76.7	0.067	51.18	0.431	-65.71
	3.40E+00	0.444	-174.67	4.509	75.22	0.068	51.38	0.423	-67.26
	3.50E+00	0.446	-177.12	4.387	73.87	0.07	51.73	0.416	-68.78
	3.60E+00	0.445	179.9	4.276	72.43	0.071	52.17	0.408	-70.38
	3.70E+00	0.447	177.22	4.175	71.04	0.072	52.39	0.4	-71.93
	3.80E+00	0.451	174.78	4.068	69.78	0.074	52.92	0.392	-73.48
	3.90E+00	0.454	172.57	3.972	68.53	0.075	53.18	0.385	-75.08
	4.00E+00	0.456	170.12	3.876	67.16	0.077	53.44	0.378	-76.8
	4.10E+00	0.459	167.79	3.784	65.98	0.078	53.64	0.372	-78.59
	4.20E+00	0.461	165.37	3.698	64.62	0.08	53.94	0.365	-80.48
	4.30E+00	0.467	163.23	3.618	63.49	0.081	54.19	0.358	-82.08
	4.40E+00	0.472	161.33	3.534	62.22	0.083	54.46	0.352	-83.8
	4.50E+00	0.473	159.64	3.459	61.01	0.085	54.75	0.347	-85.68
	4.60E+00	0.475	157.24	3.385	59.86	0.087	54.72	0.342	-87.89
	4.70E+00	0.48	155.02	3.312	58.66	0.088	54.79	0.336	-90.08
	4.80E+00	0.488	153.37	3.249	57.39	0.09	54.95	0.33	-92.22
	4.90E+00	0.49	151.67	3.184	56.36	0.092	54.93	0.325	-94.33
	5.00E+00	0.495	150.1	3.118	55.26	0.094	55.02	0.319	-96.3
	5.10E+00	0.496	148.01	3.062	53.98	0.095	55.13	0.314	-98.38
	5.20E+00	0.501	146.19	3.002	52.98	0.097	55.23	0.309	-100.71
	5.30E+00	0.51	144.49	2.944	51.89	0.1	55.05	0.304	-103.18
	5.40E+00	0.514	143.12	2.895	50.7	0.101	54.9	0.299	-105.65
	5.50E+00	0.517	141.51	2.837	49.73	0.103	55.01	0.295	-108
	5.60E+00	0.52	139.79	2.778	48.52	0.105	54.98	0.292	-110.51
	5.70E+00	0.528	138.3	2.736	47.4	0.107	54.83	0.289	-113.03
	5.80E+00	0.533	136.93	2.685	46.5	0.109	54.73	0.285	-115.73
	5.90E+00	0.537	135.52	2.637	45.25	0.111	54.69	0.281	-118.48
	6.00E+00	0.54	134.07	2.598	44.36	0.113	54.45	0.278	-121.2
	6.10E+00	0.544	132.49	2.55	43.43	0.115	54.21	0.276	-123.97
	6.20E+00	0.55	130.91	2.5	42.1	0.117	54.11	0.275	-126.97
	6.30E+00	0.558	129.9	2.466	41.09	0.119	54.05	0.273	-129.89
	6.40E+00	0.559	128.65	2.422	40.24	0.121	53.89	0.271	-132.59
	6.50E+00	0.562	127.21	2.381	39.12	0.123	53.56	0.27	-135.27
	6.60E+00	0.568	125.75	2.341	38.22	0.125	53.42	0.269	-138.1
	6.70E+00	0.573	124.67	2.299	37.33	0.127	53.17	0.269	-141
	6.80E+00	0.58	123.38	2.264	36.09	0.13	52.79	0.27	-144.26
	6.90E+00	0.583	122.37	2.234	35.24	0.131	52.57	0.269	-147.17
	7.00E+00	0.585	121.23	2.192	34.4	0.134	52.56	0.269	-149.67
	7.10E+00	0.588	119.81	2.16	33.37	0.136	52.06	0.27	-152.1
	7.20E+00	0.594	118.5	2.127	32.58	0.138	51.68	0.272	-154.56
	7.30E+00	0.6	117.78	2.089	31.6	0.14	51.34	0.275	-157.48
	7.40E+00	0.604	116.69	2.063	30.41	0.142	51.24	0.277	-160.64
	7.50E+00	0.607	115.39	2.033	29.71	0.145	50.63	0.279	-163.82
	7.60E+00	0.613	114.48	2.001	28.83	0.146	50.28	0.28	-166.39
	7.70E+00	0.616	113.48	1.972	27.95	0.148	50.14	0.282	-168.64
	7.80E+00	0.619	112.48	1.947	27.15	0.151	49.75	0.285	-170.83
	7.90E+00	0.622	111.13	1.913	25.96	0.153	49	0.289	-173.53
	8.00E+00	0.627	110.35	1.893	25.06	0.154	48.79	0.291	-176.13
	8.10E+00	0.63	109.43	1.863	24.53	0.156	48.88	0.294	-178.44
	8.20E+00	0.633	108.56	1.834	23.52	0.159	48.46	0.298	179.6
	8.30E+00	0.638	107.54	1.813	22.56	0.161	47.77	0.305	177.43
	8.40E+00	0.64	106.58	1.784	21.82	0.162	47.36	0.31	175.08
	8.50E+00	0.644	105.65	1.754	20.53	0.165	47.18	0.314	172.43
	8.60E+00	0.647	104.77	1.741	19.79	0.167	46.64	0.317	170.24
	8.70E+00	0.652	103.88	1.709	19.23	0.168	46.17	0.321	168.39
	8.80E+00	0.656	103.17	1.685	18.21	0.17	45.91	0.327	166.6
	8.90E+00	0.658	102.32	1.669	17.42	0.173	45.57	0.333	164.54
	9.00E+00	0.659	101.44	1.639	16.69	0.176	44.75	0.338	162.48
	9.10E+00	0.663	100.58	1.625	15.5	0.177	44.22	0.34	160.7
	9.20E+00	0.668	99.74	1.613	14.94	0.178	43.88	0.345	159.18
	9.30E+00	0.673	99.17	1.579	14.06	0.181	43.39	0.352	157.53
	9.40E+00	0.675	98.23	1.553	12.72	0.183	42.6	0.36	155.61
	9.50E+00	0.677	97.61	1.539	11.94	0.184	42.19	0.365	153.2
	9.60E+00	0.682	96.81	1.508	11.18	0.186	41.89	0.366	151.54
	9.70E+00	0.688	95.76	1.498	10.18	0.189	41.35	0.367	150.33
	9.80E+00	0.692	94.56	1.48	9.33	0.191	40.26	0.372	149.1
	9.90E+00	0.687	93.75	1.439	8.52	0.191	39.69	0.379	147.51
	1.00E+01	0.688	93.35	1.412	7.65	0.191	39.37	0.384	145.7
	1.01E+01	0.691	92.49	1.394	7.57	0.193	39.01	0.388	144.25
	1.02E+01	0.694	91.93	1.368	7.05	0.194	38.6	0.391	143.24
	1.03E+01	0.698	91.36	1.361	6.4	0.195	38.48	0.395	142.48
	1.04E+01	0.698	90.4	1.345	6.07	0.198	37.89	0.403	141.34
	1.05E+01	0.705	89.5	1.325	5.11	0.199	37.18	0.409	139.55
	1.06E+01	0.708	88.78	1.319	3.81	0.2	36.78	0.413	137.76
	1.07E+01	0.709	88.14	1.302	3.41	0.201	36.69	0.415	136.55
	1.08E+01	0.709	87.53	1.279	2.62	0.203	35.93	0.418	136.06
	1.09E+01	0.709	86.98	1.266	2.11	0.203	35.27	0.423	135.61
	1.10E+01	0.711	86.18	1.245	1.57	0.204	35.12	0.433	134.57
	1.11E+01	0.718	85.55	1.218	0.46	0.205	34.64	0.438	132.98
	1.12E+01	0.727	84.84	1.209	-0.23	0.205	34.02	0.441	131.36
	1.13E+01	0.731	84.36	1.193	-0.27	0.205	34.1	0.442	130.41
	1.14E+01	0.732	82.94	1.184	-0.95	0.207	34.38	0.446	130.19
	1.15E+01	0.734	82.09	1.18	-1.8	0.211	34.14	0.453	129.19
	1.16E+01	0.735	80.69	1.167	-2.68	0.214	33.26	0.461	128.3
	1.17E+01	0.728	79.81	1.15	-3.97	0.215	32.61	0.462	126.85
	1.18E+01	0.737	79.18	1.14	-4.53	0.217	32.29	0.461	125.99
	1.19E+01	0.732	77.69	1.125	-5.21	0.221	31.45	0.463	125.85
	1.20E+01	0.722	76.8	1.112	-6.63	0.221	30.16	0.477	125.52
	1.21E+01	0.717	75.91	1.089	-7.6	0.221	29.57	0.485	123.59
	1.22E+01	0.713	75.78	1.072	-8.1	0.224	28.85	0.487	122.79
	1.23E+01	0.703	75.24	1.065	-9.78	0.224	26.74	0.495	121.81
	1.24E+01	0.703	74.76	1.038	-10.31	0.218	26.44	0.495	120.39
	1.25E+01	0.704	74.15	1.01	-10.72	0.216	26.05	0.501	120
	1.26E+01	0.703	74.23	0.984	-11.15	0.214	27.35	0.504	117.78
	1.27E+01	0.699	73.67	0.971	-11.4	0.218	27.24	0.501	116.64
	1.28E+01	0.696	72.8	0.95	-12	0.217	26.82	0.498	115.72
	1.29E+01	0.7	72.36	0.938	-12.2	0.218	26.98	0.495	115.65
	1.30E+01	0.698	72.18	0.929	-12.12	0.222	27.01	0.498	115.59
	1.31E+01	0.698	71.51	0.913	-12.83	0.223	26.09	0.503	115.5
	1.32E+01	0.694	70.99	0.906	-13.51	0.223	25.76	0.511	114.82
	1.33E+01	0.694	70.62	0.9	-13.58	0.224	25.77	0.514	113.13
	1.34E+01	0.691	69.91	0.888	-14.3	0.226	25.25	0.515	113.15
	1.35E+01	0.695	69.88	0.88	-14.68	0.226	24.91	0.52	112.33
	1.36E+01	0.69	69.29	0.867	-14.91	0.227	24.92	0.525	112.12
	1.37E+01	0.689	68.7	0.852	-15.75	0.23	24.77	0.528	111.16
	1.38E+01	0.693	67.85	0.846	-16.49	0.23	24.04	0.529	109.98
	1.39E+01	0.69	67.9	0.837	-16.73	0.23	23.82	0.526	109.06
	1.40E+01	0.689	67.12	0.826	-17.31	0.232	23.97	0.527	108.72
	1.41E+01	0.684	66.54	0.814	-17.9	0.234	23.32	0.531	108.41
	1.42E+01	0.687	65.9	0.798	-18.52	0.236	22.54	0.535	107.68
	1.43E+01	0.683	65.26	0.786	-19.45	0.236	22.72	0.537	106.9
	1.44E+01	0.687	64.98	0.783	-19.67	0.238	22.49	0.536	106.26
	1.45E+01	0.68	64.4	0.767	-19.94	0.241	21.72	0.536	105.88
	1.46E+01	0.679	63.81	0.755	-20.23	0.242	20.76	0.539	105.27
	1.47E+01	0.679	62.88	0.745	-20.5	0.241	20.78	0.539	104.33
	1.48E+01	0.678	62.86	0.73	-21.06	0.243	20.69	0.537	103.35
	1.49E+01	0.673	61.94	0.72	-22.05	0.247	19.91	0.537	103.18
	1.50E+01	0.672	61.54	0.717	-21.98	0.245	19.05	0.541	103.27
