! Filename: 2120BFG480.001
! Title: BFG480W
! Bias: Vce=2V; Ic=120mA
! Company: Philips Semiconductors NL
! User: Quality&Reliability T&D
! Measure time: 10 Nov 1999 / 11:55:25
#  MHz  S  MA  R 50
! Freq       S11             S21             S12             S22    :
  100  0.63205 -165.2 31.56811 140.14 0.006541 64.627  0.54311 -59.03
  200  0.72654 -169.7 23.16688 119.75 0.009819 58.047  0.47791 -97.73
  300  0.75666 -173.7 18.13127 108.80 0.012055 58.536  0.44613 -119.5
  400  0.76972 -176.6 14.65385 101.52 0.014204 61.368  0.43464 -132.4
  500  0.77600 -179.0 12.37945 96.423 0.016393 63.864  0.43097 -141.1
  600  0.77988 178.98 10.59522 92.398 0.018568 65.997  0.42851 -147.1
  700  0.78233 177.16  9.30193 89.098 0.020915 67.711  0.42727 -151.7
  800  0.78575 175.41  8.21448 86.237 0.023282 69.308  0.42742 -155.4
  900  0.78975 173.78  7.32598 83.805 0.025699 70.926  0.42912 -158.6
 1000  0.79415 172.25  6.63372 81.411 0.028353 71.731  0.43307 -161.4
 1200  0.80228 169.54  5.49999 76.926 0.033352 72.954  0.44425 -165.8
 1400  0.80740 167.31  4.66038 72.406 0.038271 73.514  0.45547 -169.1
 1600  0.80952 164.94  4.07755 68.674 0.043888 73.967  0.46225 -171.9
 1800  0.80725 162.37  3.64259 65.328 0.049931 74.127  0.47077 -174.9
 2000  0.81573 160.34  3.22692 62.594 0.054759 74.401  0.48440 -178.3
 2200  0.83073 158.31  2.87651 59.220 0.059440 74.321  0.50259 178.94
 2400  0.83502 156.51  2.57440 55.715 0.064333 73.644  0.52284 177.20
 2600  0.82971 154.61  2.35590 52.503 0.070586 72.747  0.53737 175.97
 2800  0.82384 152.20  2.18127 48.037 0.075220 71.214  0.54397 174.21
 3000  0.82803 149.54  2.02545 44.685 0.080619 70.300  0.55149 171.55
