! Filename: 313bfg410.001
! BFG410W Field B1
! V1=8.741E-001V,V2=3.000E+000V, I1=1.977E-004A, I2=1.302E-002A
# GHz   S   MA   R 50
!                S11              S21              S12              S22
!Freq(GHz)  Mag     Ang      Mag     Ang      Mag     Ang      Mag     Ang 
   0.040    0.585  -2.798   23.188 175.366    0.001  80.575    0.971  -0.721
   0.100    0.587  -7.800   22.777 171.030    0.002  86.761    0.974  -3.407
   0.200    0.574 -15.717   22.211 162.798    0.005  81.106    0.960  -7.722
   0.300    0.557 -23.443   21.535 155.329    0.007  78.350    0.945 -11.366
   0.400    0.532 -30.365   20.692 147.763    0.009  75.317    0.923 -14.914
   0.500    0.506 -37.451   19.729 140.655    0.011  71.925    0.898 -17.871
   0.600    0.479 -43.578   18.705 134.314    0.012  69.804    0.874 -20.609
   0.700    0.453 -49.253   17.660 128.438    0.014  67.590    0.849 -23.103
   0.800    0.426 -54.780   16.677 122.900    0.016  66.373    0.826 -25.260
   0.900    0.400 -59.663   15.750 117.814    0.017  65.055    0.804 -27.312
   1.000    0.376 -64.298   14.850 113.104    0.018  63.818    0.784 -29.171
   1.100    0.354 -68.555   14.034 108.754    0.020  62.915    0.766 -30.867
   1.200    0.334 -72.771   13.277 104.586    0.021  62.166    0.749 -32.547
   1.300    0.315 -76.717   12.569 100.752    0.022  61.587    0.732 -34.044
   1.400    0.298 -80.470   11.936  97.166    0.023  60.947    0.718 -35.485
   1.500    0.281 -84.322   11.343  93.699    0.025  60.450    0.705 -36.885
   1.600    0.265 -88.031   10.806  90.406    0.026  59.884    0.693 -38.290
   1.700    0.251 -91.640   10.307  87.256    0.027  59.333    0.683 -39.676
   1.800    0.238 -95.190    9.847  84.228    0.029  58.751    0.672 -41.057
   1.900    0.227 -98.575    9.426  81.350    0.030  58.254    0.662 -42.472
   2.000    0.216 -102.131    9.035  78.520    0.032  57.779    0.653 -43.882
   2.200    0.196 -109.472    8.340  73.145    0.034  56.566    0.635 -46.670
   2.400    0.178 -117.219    7.736  67.986    0.037  55.412    0.619 -49.479
   2.600    0.164 -125.498    7.210  63.059    0.040  53.891    0.602 -52.366
   2.800    0.151 -134.289    6.747  58.298    0.044  52.301    0.586 -55.226
   3.000    0.141 -143.866    6.339  53.609    0.047  50.676    0.571 -58.209
   3.500    0.129 -170.266    5.499  42.441    0.056  45.772    0.531 -65.783
   4.000    0.134 162.358    4.845  31.618    0.065  40.128    0.488 -73.597
   4.500    0.158 139.676    4.330  21.082    0.075  33.593    0.443 -82.057
   5.000    0.190 120.456    3.888  10.562    0.084  26.539    0.392 -90.589
   5.500    0.233 103.550    3.489  -0.241    0.091  18.435    0.328 -99.042
   6.000    0.273  93.576    3.204  -9.897    0.103  11.712    0.283 -109.421
   6.500    0.314  81.359    2.890 -19.864    0.109   4.330    0.222 -118.157
   7.000    0.294  72.478    2.618 -24.871    0.116   8.201    0.229 -115.179
   7.500    0.387  68.264    2.515 -37.745    0.136  -6.798    0.155 -147.785
   8.000    0.451  59.813    2.336 -48.849    0.147 -17.394    0.112 173.083
   8.500    0.517  50.129    2.120 -60.718    0.152 -29.769    0.106 109.585
   9.000    0.566  41.295    1.921 -71.122    0.155 -39.657    0.152  73.641
   9.500    0.604  32.266    1.714 -81.322    0.152 -49.589    0.213  49.394
  10.000    0.655  25.703    1.577 -92.376    0.160 -59.772    0.292  37.988
  10.500    0.695  17.726    1.411 -103.049    0.159 -70.278    0.362  25.438
  11.000    0.733   9.200    1.241 -114.198    0.155 -83.323    0.439  13.166
  11.500    0.754   0.721    1.069 -124.763    0.145 -94.963    0.504   1.874
  12.000    0.770  -7.685    0.906 -135.280    0.134 -108.253    0.567  -9.213
!     DEEMBEDDED NOISE DATA
!FREQUENCY    FMIN    GAMMA OPT        Rn
!  (GHz)      (dB)    Mag    Ang   (NORMALIZED)
