! Filename: 45bfg425.001
! BFG425W Field C1
! V1=8.213E-001V,V2=4.000E+000V, I1=5.090E-005A, I2=5.010E-003A
# GHz   S   MA   R 50
!                S11              S21              S12              S22
!Freq(GHz)  Mag     Ang      Mag     Ang      Mag     Ang      Mag     Ang 
   0.040    0.806  -3.832   14.819 175.822    0.003  47.213    0.971  -1.831
   0.100    0.813  -8.676   14.422 171.723    0.005  72.390    0.969  -4.778
   0.200    0.803 -17.339   14.192 164.367    0.011  73.454    0.958  -9.572
   0.300    0.783 -25.916   13.887 157.447    0.015  70.834    0.941 -14.145
   0.400    0.761 -34.205   13.520 150.374    0.020  67.192    0.918 -18.448
   0.500    0.733 -42.206   13.095 143.457    0.024  63.440    0.893 -22.501
   0.600    0.706 -49.860   12.540 137.251    0.028  59.961    0.865 -26.234
   0.700    0.678 -57.204   12.002 131.510    0.031  56.620    0.835 -29.707
   0.800    0.648 -64.405   11.481 125.826    0.034  53.676    0.806 -32.870
   0.900    0.618 -71.122   10.969 120.515    0.037  51.096    0.778 -35.816
   1.000    0.590 -77.663   10.450 115.450    0.039  48.605    0.751 -38.523
   1.100    0.564 -83.814    9.949 110.785    0.041  46.411    0.725 -41.041
   1.200    0.540 -89.828    9.478 106.298    0.043  44.491    0.702 -43.412
   1.300    0.517 -95.590    9.032 102.077    0.045  42.809    0.678 -45.617
   1.400    0.496 -101.228    8.620  98.053    0.047  41.194    0.656 -47.655
   1.500    0.476 -106.816    8.228  94.203    0.048  39.823    0.636 -49.576
   1.600    0.458 -112.312    7.869  90.493    0.049  38.572    0.617 -51.455
   1.700    0.442 -117.464    7.528  86.966    0.051  37.437    0.600 -53.265
   1.800    0.428 -122.627    7.204  83.501    0.052  36.402    0.583 -55.017
   1.900    0.415 -127.572    6.907  80.259    0.054  35.463    0.568 -56.777
   2.000    0.404 -132.488    6.628  77.089    0.055  34.568    0.553 -58.495
   2.200    0.385 -142.258    6.128  71.005    0.058  32.869    0.525 -61.847
   2.400    0.369 -151.764    5.689  65.220    0.061  31.354    0.499 -65.125
   2.600    0.359 -161.083    5.298  59.686    0.064  29.948    0.475 -68.463
   2.800    0.352 -170.064    4.955  54.357    0.067  28.433    0.452 -71.728
   3.000    0.348 -178.887    4.648  49.169    0.070  26.932    0.430 -75.115
   3.500    0.353 160.448    4.012  36.764    0.078  22.788    0.377 -83.826
   4.000    0.369 141.870    3.506  24.851    0.087  17.951    0.323 -93.174
   4.500    0.396 125.732    3.103  13.465    0.096  12.524    0.271 -103.732
   5.000    0.432 110.660    2.758   1.947    0.105   5.491    0.212 -117.026
   5.500    0.460  97.222    2.441  -8.614    0.111  -0.185    0.156 -129.549
   6.000    0.501  84.941    2.185 -19.745    0.118  -8.146    0.102 -156.077
   6.500    0.513  76.879    2.001 -27.409    0.131  -9.207    0.093 -173.644
   7.000    0.550  68.201    1.847 -37.198    0.145 -15.970    0.101 145.858
   7.500    0.608  57.695    1.666 -49.282    0.149 -28.205    0.147  98.824
   8.000    0.643  49.493    1.524 -59.132    0.157 -35.718    0.201  80.343
   8.500    0.680  40.943    1.379 -69.621    0.161 -45.145    0.266  64.223
   9.000    0.708  32.497    1.229 -79.144    0.160 -53.412    0.321  50.284
   9.500    0.735  24.827    1.109 -87.996    0.160 -61.877    0.363  40.204
  10.000    0.763  17.673    1.012 -98.293    0.162 -71.425    0.430  32.527
  10.500    0.784  10.476    0.909 -108.194    0.161 -80.644    0.489  23.642
  11.000    0.800   3.100    0.803 -117.502    0.155 -90.695    0.537  13.791
  11.500    0.811  -4.104    0.715 -127.217    0.149 -101.024    0.583   6.085
  12.000    0.817 -11.320    0.620 -136.717    0.139 -111.919    0.629  -2.813
!     DEEMBEDDED NOISE DATA
!FREQUENCY    FMIN    GAMMA OPT        Rn
!  (GHz)      (dB)    Mag    Ang   (NORMALIZED)
