! Filename: 2140BFG480.001
! Title: BFG480W
! Bias: Vce=2V; Ic=140mA
! Company: Philips Semiconductors NL
! User: Quality&Reliability T&D
! Measure time: 10 Nov 1999 / 11:55:48
#  MHz  S  MA  R 50
! Freq       S11             S21             S12             S22    :
  100  0.68382 -167.7 24.45814 138.28 0.007155 58.146  0.29907 -99.21
  200  0.77800 -171.9 15.95992 116.98 0.010256 53.382  0.36383 -132.9
  300  0.81148 -175.7 11.33552 106.12 0.012426 55.389  0.38977 -147.3
  400  0.82626 -178.5  8.67820 99.267 0.014434 58.710  0.40348 -155.0
  500  0.83444 179.15  6.96288 94.291 0.016623 61.774  0.41140 -159.7
  600  0.83950 177.12  5.79706 90.463 0.018852 64.138  0.41702 -162.9
  700  0.84265 175.33  4.95735 87.375 0.021144 66.277  0.42122 -165.4
  800  0.84647 173.62  4.32342 84.699 0.023558 68.011  0.42551 -167.5
  900  0.84967 172.00  3.83604 82.444 0.026076 69.745  0.43076 -169.4
 1000  0.85372 170.51  3.43720 80.168 0.028762 70.664  0.43696 -171.1
 1200  0.85901 167.76  2.82522 75.911 0.033840 72.070  0.45122 -173.8
 1400  0.86111 165.42  2.38337 71.541 0.038783 72.666  0.46401 -175.9
 1600  0.86106 162.92  2.08595 67.922 0.044503 73.146  0.47281 -177.9
 1800  0.85777 160.30  1.86305 64.610 0.050646 73.260  0.48338 179.60
 2000  0.86480 158.31  1.65199 62.045 0.055656 74.047  0.49831 176.95
 2200  0.87664 156.31  1.47479 58.795 0.060264 73.662  0.51805 174.78
 2400  0.87618 154.39  1.32221 55.430 0.065153 72.974  0.53752 173.38
 2600  0.86672 152.32  1.21335 52.299 0.071598 72.035  0.55107 172.26
 2800  0.85951 149.74  1.12564 47.864 0.076065 70.506  0.55810 170.61
 3000  0.86290 147.05  1.04920 44.651 0.081455 69.580  0.56699 168.10
