! Filename: 11bfg403.001
! BFG403W Field A1
! V1=8.458E-001V,V2=1.000E+000V, I1=1.381E-005A, I2=1.000E-003A
# GHz   S   MA   R 50
!                S11              S21              S12              S22
!Freq(GHz)  Mag     Ang      Mag     Ang      Mag     Ang      Mag     Ang 
   0.040    0.954  -0.722    3.149 178.255    0.001  40.275    0.994  -0.651
   0.100    0.956  -2.446    3.101 176.897    0.002  91.173    0.994  -1.941
   0.200    0.955  -4.834    3.099 173.919    0.003  86.382    0.993  -3.995
   0.300    0.954  -7.163    3.099 171.965    0.005  84.786    0.992  -5.983
   0.400    0.953  -9.246    3.110 168.179    0.007  83.165    0.990  -8.025
   0.500    0.950 -12.178    3.115 165.113    0.008  80.191    0.988  -9.959
   0.600    0.948 -14.498    3.095 162.174    0.010  78.599    0.985 -11.909
   0.700    0.946 -16.795    3.077 159.357    0.012  76.953    0.982 -13.960
   0.800    0.944 -19.241    3.068 156.509    0.013  75.079    0.978 -15.870
   0.900    0.940 -21.557    3.063 153.705    0.015  73.429    0.974 -17.897
   1.000    0.936 -23.989    3.058 150.706    0.016  71.802    0.969 -19.846
   1.100    0.932 -26.321    3.048 147.905    0.018  69.992    0.964 -21.745
   1.200    0.927 -28.669    3.038 145.028    0.019  68.620    0.959 -23.702
   1.300    0.922 -31.043    3.023 142.373    0.021  66.862    0.954 -25.637
   1.400    0.917 -33.308    3.015 139.392    0.022  65.236    0.947 -27.523
   1.500    0.911 -35.726    3.007 136.653    0.023  63.589    0.941 -29.406
   1.600    0.905 -38.109    2.997 133.720    0.025  62.094    0.935 -31.271
   1.700    0.899 -40.434    2.985 130.946    0.026  60.357    0.928 -33.138
   1.800    0.892 -42.790    2.964 128.046    0.027  58.866    0.921 -35.025
   1.900    0.886 -45.016    2.942 125.379    0.029  57.447    0.913 -36.877
   2.000    0.879 -47.309    2.920 122.615    0.030  56.013    0.905 -38.719
   2.200    0.864 -51.903    2.884 117.116    0.032  53.282    0.889 -42.351
   2.400    0.847 -56.469    2.850 111.690    0.034  50.681    0.872 -45.944
   2.600    0.831 -60.987    2.808 106.399    0.036  48.238    0.854 -49.486
   2.800    0.814 -65.472    2.763 101.090    0.038  45.891    0.836 -52.978
   3.000    0.796 -69.938    2.722  95.889    0.040  43.668    0.816 -56.479
   3.500    0.746 -81.280    2.621  82.842    0.045  38.819    0.766 -65.039
   4.000    0.695 -92.727    2.514  69.996    0.050  34.501    0.713 -73.559
   4.500    0.644 -104.768    2.423  57.458    0.055  30.421    0.657 -82.184
   5.000    0.588 -117.561    2.329  44.729    0.061  25.557    0.596 -90.958
   5.500    0.528 -131.186    2.212  31.778    0.065  20.142    0.528 -99.598
   6.000    0.482 -146.872    2.123  18.663    0.075  12.972    0.461 -110.473
   6.500    0.435 -160.664    1.994   7.398    0.080  13.265    0.405 -118.795
   7.000    0.355 -176.616    1.769  -4.411    0.067  12.155    0.310 -121.911
   7.500    0.390 164.275    1.800 -16.105    0.103   4.725    0.294 -143.762
   8.000    0.397 141.305    1.705 -30.030    0.117  -8.665    0.228 -169.103
   8.500    0.404 119.607    1.561 -43.194    0.120 -19.672    0.169 159.888
   9.000    0.438 100.544    1.451 -55.811    0.131 -29.448    0.171 124.654
   9.500    0.478  82.308    1.316 -68.370    0.137 -42.573    0.211  90.682
  10.000    0.522  66.845    1.201 -81.729    0.139 -54.910    0.280  65.888
  10.500    0.567  52.409    1.064 -95.079    0.139 -68.984    0.354  47.171
  11.000    0.595  39.099    0.915 -107.688    0.130 -83.291    0.424  31.219
  11.500    0.628  27.452    0.790 -120.042    0.122 -97.458    0.491  18.196
  12.000    0.643  15.627    0.655 -131.831    0.104 -114.941    0.545   4.916
!     DEEMBEDDED NOISE DATA
!FREQUENCY    FMIN    GAMMA OPT        Rn
!  (GHz)      (dB)    Mag    Ang   (NORMALIZED)
