! Filename BFG424F_1V_5mA.prm
! Created	by	janssen	on	nov	2006			
!	Column ranking S11, S21,S12,S22 both magnitude and phase.								
!	VCE	=	1	V,	IC	=	5	mA	
!	Common	Emitter	S-Parameters						
#	GHz	S	MA	R	50				
	5.00E-01	0.736	-46.40	12.753	147.26	0.034	66.53	0.874	-26.74
	6.00E-01	0.712	-54.71	12.215	141.77	0.039	62.57	0.837	-31.14
	7.00E-01	0.686	-62.66	11.679	136.63	0.043	59.60	0.801	-35.15
	8.00E-01	0.659	-70.23	11.121	131.86	0.047	56.60	0.764	-38.83
	9.00E-01	0.639	-77.41	10.552	127.57	0.050	54.20	0.728	-42.27
	1.00E+00	0.617	-84.10	10.029	123.50	0.053	52.01	0.694	-45.33
	1.10E+00	0.598	-90.61	9.531	119.79	0.056	50.19	0.661	-48.17
	1.20E+00	0.579	-96.63	9.053	116.36	0.058	48.72	0.631	-50.77
	1.30E+00	0.562	-102.56	8.619	113.11	0.060	47.35	0.602	-53.20
	1.40E+00	0.548	-108.09	8.204	110.08	0.062	46.30	0.576	-55.50
	1.50E+00	0.537	-113.47	7.830	107.18	0.063	45.34	0.551	-57.67
	1.60E+00	0.524	-118.51	7.477	104.50	0.065	44.53	0.528	-59.71
	1.70E+00	0.513	-123.25	7.138	102.00	0.066	43.91	0.506	-61.68
	1.80E+00	0.505	-128.06	6.823	99.62	0.067	43.38	0.485	-63.51
	1.90E+00	0.499	-132.44	6.536	97.33	0.069	43.11	0.467	-65.29
	2.00E+00	0.494	-136.77	6.276	95.22	0.070	42.83	0.449	-67.06
	2.10E+00	0.487	-140.82	6.024	93.08	0.071	42.55	0.433	-68.81
	2.20E+00	0.482	-144.73	5.789	91.07	0.072	42.34	0.418	-70.64
	2.30E+00	0.479	-148.73	5.565	89.18	0.073	42.44	0.403	-72.37
	2.40E+00	0.479	-152.24	5.364	87.35	0.074	42.32	0.389	-74.08
	2.50E+00	0.478	-155.59	5.172	85.61	0.075	42.51	0.376	-75.78
	2.60E+00	0.474	-159.05	4.997	83.80	0.077	42.33	0.364	-77.52
	2.70E+00	0.472	-162.55	4.829	82.14	0.078	42.52	0.352	-79.46
	2.80E+00	0.474	-165.78	4.668	80.52	0.079	42.64	0.341	-81.30
	2.90E+00	0.476	-168.71	4.516	78.98	0.080	42.80	0.330	-83.18
	3.00E+00	0.476	-171.56	4.374	77.44	0.081	42.94	0.320	-85.02
	3.10E+00	0.476	-174.57	4.246	75.87	0.083	42.90	0.311	-86.94
	3.20E+00	0.477	-177.45	4.118	74.39	0.084	43.20	0.302	-88.94
	3.30E+00	0.481	179.78	3.996	73.01	0.085	43.62	0.293	-90.96
	3.40E+00	0.484	177.27	3.881	71.54	0.087	43.54	0.284	-93.16
	3.50E+00	0.486	174.88	3.769	70.23	0.088	43.68	0.276	-95.35
	3.60E+00	0.487	172.23	3.666	68.82	0.089	43.88	0.269	-97.68
	3.70E+00	0.490	169.76	3.574	67.47	0.091	43.97	0.262	-100.04
	3.80E+00	0.494	167.47	3.478	66.21	0.092	44.25	0.256	-102.55
	3.90E+00	0.497	165.29	3.392	64.95	0.093	44.39	0.249	-104.97
	4.00E+00	0.500	163.05	3.304	63.63	0.095	44.48	0.242	-107.54
	4.10E+00	0.502	160.82	3.222	62.47	0.097	44.72	0.237	-110.05
	4.20E+00	0.506	158.57	3.143	61.15	0.099	44.69	0.231	-112.92
	4.30E+00	0.512	156.58	3.071	60.07	0.100	44.70	0.227	-115.81
	4.40E+00	0.516	154.81	3.001	58.81	0.101	44.92	0.222	-118.71
	4.50E+00	0.518	152.99	2.932	57.61	0.104	45.06	0.218	-121.56
	4.60E+00	0.521	150.91	2.866	56.54	0.105	44.89	0.215	-124.52
	4.70E+00	0.526	148.88	2.800	55.36	0.107	44.87	0.212	-127.51
	4.80E+00	0.533	147.21	2.745	54.13	0.109	44.94	0.210	-130.88
	4.90E+00	0.537	145.71	2.686	53.14	0.111	44.78	0.207	-134.23
	5.00E+00	0.540	144.11	2.629	52.01	0.112	44.76	0.205	-137.49
	5.10E+00	0.541	142.17	2.577	50.75	0.114	44.82	0.203	-140.54
	5.20E+00	0.547	140.33	2.525	49.79	0.116	44.80	0.203	-143.54
	5.30E+00	0.554	139.07	2.470	48.72	0.118	44.51	0.203	-146.86
	5.40E+00	0.557	137.53	2.427	47.58	0.119	44.35	0.203	-150.37
	5.50E+00	0.560	136.08	2.377	46.68	0.121	44.36	0.203	-153.72
	5.60E+00	0.564	134.39	2.325	45.50	0.123	44.29	0.203	-156.94
	5.70E+00	0.570	133.02	2.287	44.50	0.124	44.03	0.204	-159.85
	5.80E+00	0.575	131.60	2.241	43.62	0.126	43.94	0.207	-163.00
	5.90E+00	0.579	130.35	2.197	42.40	0.128	43.81	0.209	-166.10
	6.00E+00	0.582	128.98	2.164	41.57	0.130	43.58	0.211	-169.25
	6.10E+00	0.585	127.42	2.123	40.67	0.131	43.28	0.212	-172.22
	6.20E+00	0.590	125.93	2.078	39.46	0.133	43.19	0.215	-174.91
	6.30E+00	0.597	124.91	2.048	38.52	0.135	43.15	0.220	-177.75
	6.40E+00	0.598	123.67	2.008	37.68	0.137	42.95	0.224	179.56
	6.50E+00	0.601	122.33	1.973	36.63	0.139	42.63	0.228	176.67
	6.60E+00	0.605	121.05	1.940	35.83	0.140	42.55	0.231	174.21
	6.70E+00	0.610	119.92	1.904	35.00	0.142	42.26	0.234	171.89
	6.80E+00	0.616	118.73	1.871	33.87	0.144	41.90	0.239	169.48
	6.90E+00	0.619	117.72	1.845	33.07	0.145	41.69	0.244	167.14
	7.00E+00	0.620	116.59	1.809	32.26	0.147	41.69	0.249	164.75
	7.10E+00	0.623	115.31	1.782	31.29	0.150	41.24	0.253	162.64
	7.20E+00	0.629	114.11	1.754	30.58	0.151	40.84	0.257	160.94
	7.30E+00	0.634	113.37	1.722	29.71	0.152	40.59	0.263	159.25
	7.40E+00	0.636	112.33	1.697	28.62	0.154	40.53	0.270	157.36
	7.50E+00	0.638	111.18	1.671	27.97	0.156	40.03	0.276	154.96
	7.60E+00	0.643	110.14	1.644	27.08	0.158	39.68	0.281	152.75
	7.70E+00	0.646	109.23	1.621	26.31	0.159	39.55	0.285	151.04
	7.80E+00	0.649	108.40	1.598	25.64	0.161	39.23	0.289	149.80
	7.90E+00	0.650	107.20	1.568	24.59	0.163	38.58	0.296	148.51
	8.00E+00	0.655	106.23	1.551	23.72	0.164	38.37	0.302	146.83
	8.10E+00	0.657	105.44	1.527	23.23	0.165	38.51	0.308	144.96
	8.20E+00	0.660	104.54	1.503	22.28	0.168	38.15	0.312	143.35
	8.30E+00	0.664	103.63	1.484	21.51	0.170	37.55	0.317	142.10
	8.40E+00	0.666	102.81	1.459	20.89	0.171	37.27	0.324	140.91
	8.50E+00	0.667	101.87	1.434	19.73	0.172	37.16	0.332	139.54
	8.60E+00	0.671	100.98	1.421	19.03	0.175	36.71	0.337	138.05
	8.70E+00	0.675	100.09	1.396	18.52	0.175	36.29	0.342	136.68
	8.80E+00	0.679	99.56	1.378	17.64	0.177	36.11	0.346	135.51
	8.90E+00	0.679	98.62	1.363	17.01	0.179	35.90	0.352	134.40
	9.00E+00	0.681	97.81	1.337	16.37	0.182	35.16	0.360	133.13
	9.10E+00	0.684	97.03	1.326	15.25	0.182	34.71	0.365	131.78
	9.20E+00	0.687	96.27	1.316	14.77	0.183	34.48	0.370	130.59
	9.30E+00	0.692	95.59	1.290	14.06	0.186	34.10	0.375	129.50
	9.40E+00	0.694	94.78	1.270	12.92	0.187	33.42	0.381	128.47
	9.50E+00	0.696	94.16	1.257	12.26	0.188	33.13	0.388	127.13
	9.60E+00	0.699	93.37	1.233	11.54	0.190	32.89	0.392	125.81
	9.70E+00	0.704	92.40	1.225	10.58	0.192	32.43	0.394	124.67
	9.80E+00	0.707	91.26	1.212	9.82	0.194	31.46	0.396	123.87
	9.90E+00	0.702	90.50	1.181	9.10	0.193	30.91	0.401	123.18
	1.00E+01	0.703	90.07	1.159	8.25	0.194	30.59	0.407	122.20
	1.01E+01	0.705	89.29	1.143	8.21	0.195	30.31	0.412	121.14
	1.02E+01	0.708	88.75	1.122	7.75	0.195	29.95	0.416	120.09
	1.03E+01	0.710	88.26	1.115	7.21	0.196	29.92	0.417	119.36
	1.04E+01	0.712	87.36	1.102	7.07	0.198	29.47	0.422	118.76
	1.05E+01	0.716	86.54	1.087	6.23	0.199	28.88	0.427	117.92
	1.06E+01	0.718	85.88	1.082	5.05	0.200	28.62	0.433	117.16
	1.07E+01	0.718	85.16	1.069	4.68	0.201	28.56	0.436	116.28
	1.08E+01	0.719	84.58	1.050	3.86	0.202	27.79	0.439	115.55
	1.09E+01	0.719	84.12	1.039	3.44	0.202	27.17	0.443	115.10
	1.10E+01	0.720	83.41	1.024	3.09	0.202	27.08	0.449	114.54
	1.11E+01	0.725	82.79	1.001	2.08	0.202	26.72	0.455	113.83
	1.12E+01	0.732	82.19	0.993	1.47	0.202	26.20	0.460	112.82
	1.13E+01	0.737	81.65	0.979	1.47	0.201	26.42	0.462	111.86
	1.14E+01	0.738	80.32	0.972	0.95	0.203	26.93	0.465	111.43
	1.15E+01	0.740	79.61	0.968	0.27	0.206	26.92	0.470	110.82
	1.16E+01	0.740	78.25	0.959	-0.38	0.209	26.31	0.475	110.30
	1.17E+01	0.734	77.34	0.947	-1.60	0.210	25.79	0.478	109.27
	1.18E+01	0.742	76.75	0.941	-2.19	0.212	25.53	0.477	108.45
	1.19E+01	0.738	75.29	0.927	-2.81	0.215	24.86	0.479	108.33
	1.20E+01	0.729	74.39	0.918	-4.08	0.216	23.65	0.490	108.36
	1.21E+01	0.723	73.75	0.901	-4.90	0.216	23.14	0.497	106.99
	1.22E+01	0.716	73.54	0.885	-5.38	0.218	22.59	0.500	106.25
	1.23E+01	0.708	73.05	0.877	-6.81	0.218	20.88	0.505	104.90
	1.24E+01	0.711	72.47	0.857	-7.13	0.213	20.37	0.503	103.76
	1.25E+01	0.710	72.11	0.839	-7.54	0.211	19.81	0.507	103.58
	1.26E+01	0.706	72.02	0.818	-7.83	0.208	21.20	0.508	102.13
	1.27E+01	0.703	71.43	0.809	-8.00	0.212	21.24	0.505	101.53
	1.28E+01	0.702	70.81	0.792	-8.48	0.211	20.93	0.503	101.01
	1.29E+01	0.704	70.47	0.784	-8.68	0.212	21.20	0.502	100.71
	1.30E+01	0.701	70.08	0.777	-8.51	0.215	21.33	0.503	100.38
	1.31E+01	0.701	69.36	0.765	-9.09	0.216	20.54	0.504	100.58
	1.32E+01	0.699	68.89	0.761	-9.79	0.216	20.21	0.513	100.37
	1.33E+01	0.698	68.59	0.755	-9.83	0.217	20.19	0.517	99.17
	1.34E+01	0.694	67.94	0.746	-10.55	0.218	19.76	0.519	98.97
	1.35E+01	0.696	67.70	0.739	-10.81	0.217	19.49	0.522	98.02
	1.36E+01	0.692	67.19	0.730	-10.84	0.219	19.73	0.523	97.71
	1.37E+01	0.692	66.72	0.719	-11.58	0.221	19.65	0.526	97.02
	1.38E+01	0.694	65.85	0.714	-12.31	0.222	18.96	0.530	96.09
	1.39E+01	0.693	65.76	0.707	-12.61	0.222	18.74	0.528	95.38
	1.40E+01	0.691	65.05	0.698	-13.05	0.223	18.97	0.528	95.10
	1.41E+01	0.688	64.59	0.689	-13.41	0.225	18.57	0.527	94.83
	1.42E+01	0.688	63.98	0.678	-13.90	0.226	17.95	0.528	94.43
	1.43E+01	0.685	63.43	0.668	-14.76	0.226	18.15	0.529	93.63
	1.44E+01	0.686	62.88	0.666	-15.02	0.228	17.97	0.530	92.98
	1.45E+01	0.682	62.43	0.653	-15.14	0.231	17.32	0.530	92.53
	1.46E+01	0.682	61.99	0.646	-15.45	0.231	16.40	0.532	92.43
	1.47E+01	0.679	61.37	0.640	-15.65	0.231	16.49	0.533	92.01
	1.48E+01	0.677	60.73	0.628	-16.26	0.233	16.36	0.535	91.44
	1.49E+01	0.676	59.97	0.618	-17.08	0.236	15.74	0.535	90.71
	1.50E+01	0.675	59.88	0.616	-16.84	0.234	15.10	0.534	90.02
