! Filename: 125bfg425.001
! BFG425W Field C1
! V1=8.814E-001V,V2=1.000E+000V, I1=3.896E-004A, I2=2.496E-002A
# GHz   S   MA   R 50
!                S11              S21              S12              S22
!Freq(GHz)  Mag     Ang      Mag     Ang      Mag     Ang      Mag     Ang 
   0.040    0.278 -13.100   36.442 173.190    0.002  75.113    0.855  -4.314
   0.100    0.286 -32.738   35.276 163.110    0.006  79.820    0.843 -12.776
   0.200    0.287 -62.669   31.783 147.315    0.011  72.745    0.777 -25.195
   0.300    0.284 -83.546   28.575 135.212    0.015  68.276    0.697 -34.980
   0.400    0.286 -102.037   25.081 124.990    0.019  64.362    0.620 -42.255
   0.500    0.291 -117.339   22.026 116.464    0.022  62.383    0.552 -47.844
   0.600    0.292 -128.947   19.460 109.653    0.024  61.040    0.497 -52.213
   0.700    0.293 -138.311   17.334 103.896    0.027  59.799    0.451 -55.768
   0.800    0.295 -146.570   15.574  98.742    0.030  59.153    0.413 -58.688
   0.900    0.296 -153.556   14.118  94.222    0.032  58.495    0.383 -61.314
   1.000    0.298 -159.631   12.873  90.155    0.035  57.747    0.356 -63.705
   1.100    0.300 -165.175   11.822  86.392    0.038  57.062    0.334 -65.958
   1.200    0.303 -169.990   10.915  82.895    0.040  56.306    0.314 -68.164
   1.300    0.305 -174.530   10.129  79.621    0.043  55.535    0.296 -70.251
   1.400    0.308 -178.639    9.448  76.532    0.046  54.710    0.280 -72.273
   1.500    0.311 177.244    8.845  73.576    0.049  53.820    0.266 -74.278
   1.600    0.315 173.343    8.313  70.718    0.051  52.849    0.254 -76.371
   1.700    0.318 169.921    7.834  67.991    0.054  51.891    0.242 -78.485
   1.800    0.321 166.474    7.406  65.351    0.057  50.852    0.231 -80.604
   1.900    0.324 163.169    7.021  62.721    0.060  49.710    0.221 -82.973
   2.000    0.328 160.115    6.671  60.190    0.063  48.556    0.211 -85.415
   2.200    0.336 154.020    6.060  55.292    0.068  46.127    0.193 -90.454
   2.400    0.345 148.223    5.549  50.473    0.074  43.602    0.176 -95.898
   2.600    0.354 142.805    5.112  45.840    0.080  40.931    0.160 -102.068
   2.800    0.364 137.543    4.734  41.330    0.085  38.149    0.144 -108.879
   3.000    0.375 132.538    4.404  36.866    0.091  35.303    0.130 -116.792
   3.500    0.404 120.583    3.739  26.011    0.104  27.826    0.102 -142.284
   4.000    0.436 109.263    3.227  15.409    0.117  20.050    0.090 -178.133
   4.500    0.470  99.114    2.827   5.092    0.129  11.977    0.103 145.896
   5.000    0.508  88.900    2.488  -5.425    0.138   3.283    0.139 117.173
   5.500    0.537  78.957    2.190 -15.015    0.145  -4.093    0.173  97.187
   6.000    0.574  69.708    1.949 -25.139    0.152 -12.954    0.226  82.371
   6.500    0.584  63.028    1.787 -32.321    0.165 -17.300    0.244  75.995
   7.000    0.615  55.689    1.639 -41.498    0.177 -25.252    0.292  68.883
   7.500    0.663  47.062    1.469 -52.516    0.177 -36.447    0.365  57.544
   8.000    0.692  39.874    1.339 -61.536    0.182 -44.280    0.412  49.580
   8.500    0.723  32.406    1.211 -71.038    0.183 -53.300    0.463  40.991
   9.000    0.745  24.812    1.083 -79.467    0.180 -61.169    0.503  32.297
   9.500    0.765  17.973    0.985 -87.673    0.178 -69.073    0.533  24.935
  10.000    0.788  11.490    0.899 -97.002    0.178 -77.938    0.579  18.573
  10.500    0.804   4.936    0.813 -105.932    0.175 -86.564    0.619  11.411
  11.000    0.817  -1.838    0.725 -114.290    0.168 -95.494    0.650   3.587
  11.500    0.827  -8.483    0.652 -123.091    0.161 -104.589    0.679  -2.948
  12.000    0.831 -15.290    0.573 -131.756    0.152 -114.189    0.708 -10.412
!     DEEMBEDDED NOISE DATA
!FREQUENCY    FMIN    GAMMA OPT        Rn
!  (GHz)      (dB)    Mag    Ang   (NORMALIZED)
