! Filename BFG424W_2V_25mA.prm
! Simulation_Values
!	! Created	by	janssen	on	Thu	Sep	15	10:02:03	WETDST	2005
!	Column ranking S11, S21,S12,S22 both magnitude and phase.									
!	VCE	=	2	V,	IC	=	25	mA		
!	Common	Emitter	S-Parameters							
#	GHz	S	MA	R	50					
	1.00E-01	0.354	-23.421	38.185	164.314	0.005	82.84	0.916	-9.386	
	2.00E-01	0.338	-45.003	35.478	150.143	0.009	75.807	0.864	-18.442	
	3.00E-01	0.313	-64.177	31.706	138.069	0.012	70.582	0.79	-25.41	
	4.00E-01	0.293	-80.895	28.163	128.269	0.015	68.061	0.718	-30.495	
	5.00E-01	0.274	-95.699	24.925	120.045	0.018	66.395	0.654	-33.971	
	6.00E-01	0.261	-108.762	22.179	113.31	0.02	64.692	0.599	-36.539	
	7.00E-01	0.251	-119.725	19.86	107.573	0.023	64.348	0.556	-38.292	
	8.00E-01	0.245	-129.714	17.932	102.66	0.025	63.884	0.519	-39.664	
	9.00E-01	0.243	-138.849	16.3	98.18	0.027	63.17	0.487	-40.902	
	1.00E+00	0.242	-146.825	14.924	94.256	0.03	63.181	0.461	-41.816	
	1.10E+00	0.242	-154.128	13.757	90.577	0.032	62.597	0.439	-42.761	
	1.20E+00	0.245	-160.557	12.742	87.154	0.034	62.159	0.42	-43.782
	1.30E+00	0.249	-166.539	11.855	83.948	0.037	61.644	0.401	-44.879
	1.40E+00	0.254	-172.084	11.078	80.931	0.039	60.81	0.385	-45.873
	1.50E+00	0.26	-177.096	10.393	78.038	0.042	60.306	0.369	-47.077
	1.60E+00	0.267	178.168	9.777	75.272	0.044	59.669	0.354	-48.221
	1.70E+00	0.274	174.008	9.241	72.611	0.047	58.93	0.34	-49.583
	1.80E+00	0.282	169.938	8.744	70.011	0.049	58.197	0.326	-50.938
	1.90E+00	0.29	166.16	8.308	67.549	0.052	57.358	0.312	-52.391
	2.00E+00	0.3	162.655	7.904	65.029	0.054	56.452	0.3	-54.068
	2.10E+00	0.309	159.379	7.544	62.682	0.057	55.44	0.287	-55.738
	2.20E+00	0.319	156.218	7.202	60.227	0.059	54.516	0.274	-57.639
	2.30E+00	0.328	153.305	6.895	57.957	0.062	53.566	0.261	-59.54
	2.40E+00	0.339	150.48	6.604	55.675	0.065	52.367	0.249	-61.73
	2.50E+00	0.349	148.051	6.349	53.512	0.067	51.432	0.236	-63.853
	2.60E+00	0.36	145.456	6.106	51.283	0.07	50.345	0.223	-66.469
	2.70E+00	0.37	142.946	5.872	49.029	0.073	49.359	0.211	-68.994
	2.80E+00	0.382	140.722	5.653	46.892	0.075	47.933	0.198	-72.075
	2.90E+00	0.393	138.562	5.45	44.695	0.078	47.003	0.186	-75.352
	3.00E+00	0.405	136.499	5.269	42.585	0.081	45.777	0.174	-79.007
	3.10E+00	0.416	134.407	5.09	40.46	0.083	44.555	0.163	-83.163
	3.20E+00	0.428	132.317	4.921	38.333	0.086	43.28	0.151	-87.8
	3.30E+00	0.439	130.462	4.764	36.222	0.088	42.032	0.14	-92.876
	3.40E+00	0.451	128.584	4.612	34.091	0.091	40.732	0.13	-98.913
	3.50E+00	0.463	126.815	4.47	31.988	0.093	39.362	0.122	-105.924
	3.60E+00	0.475	125	4.33	29.931	0.096	37.908	0.113	-114.031
	3.70E+00	0.487	123.303	4.194	27.903	0.098	36.696	0.107	-122.564
	3.80E+00	0.498	121.577	4.073	25.832	0.101	35.296	0.103	-132.185
	3.90E+00	0.51	119.987	3.951	23.803	0.103	33.926	0.102	-142.369
	4.00E+00	0.522	118.349	3.83	21.839	0.105	32.547	0.102	-152.62
	4.10E+00	0.534	116.792	3.724	19.779	0.107	31.276	0.105	-162.713
	4.20E+00	0.545	115.251	3.616	17.911	0.11	29.975	0.111	-171.931
	4.30E+00	0.556	113.68	3.512	15.911	0.112	28.483	0.118	179.699
	4.40E+00	0.567	112.241	3.411	14.005	0.113	27.2	0.127	172.401
	4.50E+00	0.578	110.88	3.319	12.185	0.116	26.029	0.137	165.933
	4.60E+00	0.589	109.469	3.222	10.219	0.118	24.502	0.149	160.27
	4.70E+00	0.599	108.039	3.138	8.373	0.12	23.044	0.16	155.03
	4.80E+00	0.609	106.668	3.049	6.599	0.121	21.898	0.172	150.644
	4.90E+00	0.619	105.403	2.966	4.707	0.123	20.618	0.186	146.724
	5.00E+00	0.629	103.988	2.889	2.929	0.125	19.065	0.199	142.982
	5.10E+00	0.638	102.71	2.81	1.294	0.127	17.76	0.212	139.838
	5.20E+00	0.647	101.535	2.735	-0.561	0.128	16.72	0.225	136.986
	5.30E+00	0.656	100.324	2.671	-2.251	0.13	15.275	0.239	134.153
	5.40E+00	0.664	99.01	2.595	-3.915	0.132	13.779	0.252	131.596
	5.50E+00	0.673	97.897	2.527	-5.653	0.132	12.665	0.265	129.199
	5.60E+00	0.681	96.836	2.469	-7.308	0.134	11.612	0.278	127.101
	5.70E+00	0.689	95.698	2.402	-8.829	0.136	10.104	0.291	125.044
	5.80E+00	0.697	94.545	2.342	-10.605	0.137	8.78	0.304	123.094
	5.90E+00	0.704	93.509	2.285	-12.101	0.138	7.777	0.316	121.312
	6.00E+00	0.711	92.519	2.224	-13.607	0.139	6.615	0.328	119.561
	6.10E+00	0.718	91.49	2.169	-15.192	0.14	5.279	0.34	117.898
	6.20E+00	0.723	90.552	2.122	-16.618	0.141	4.103	0.352	116.344
	6.30E+00	0.73	89.612	2.065	-18.062	0.142	3.246	0.363	114.986
	6.40E+00	0.736	88.68	2.019	-19.607	0.143	2.099	0.375	113.544
	6.50E+00	0.741	87.787	1.972	-20.958	0.144	0.812	0.386	112.228
	6.60E+00	0.747	86.87	1.924	-22.351	0.144	-0.137	0.397	111.025
	6.70E+00	0.752	86.075	1.879	-23.892	0.146	-0.872	0.407	109.846
	6.80E+00	0.757	85.212	1.839	-25.096	0.147	-2.175	0.418	108.538
	6.90E+00	0.762	84.308	1.792	-26.484	0.147	-3.459	0.428	107.434
	7.00E+00	0.766	83.579	1.755	-27.886	0.148	-4.15	0.437	106.387
	7.10E+00	0.771	82.838	1.716	-29.094	0.149	-4.947	0.447	105.325
	7.20E+00	0.774	82.057	1.676	-30.288	0.15	-6.188	0.456	104.371
	7.30E+00	0.778	81.334	1.642	-31.665	0.15	-7.164	0.465	103.46
	7.40E+00	0.781	80.7	1.606	-32.699	0.151	-7.749	0.475	102.661
	7.50E+00	0.785	79.992	1.57	-34.038	0.153	-8.827	0.483	101.655
	7.60E+00	0.788	79.277	1.539	-35.265	0.153	-10.04	0.491	100.785
	7.70E+00	0.791	78.67	1.507	-36.333	0.152	-10.751	0.499	100.024
	7.80E+00	0.793	78.099	1.471	-37.506	0.154	-11.4	0.507	99.318
	7.90E+00	0.796	77.505	1.447	-38.565	0.155	-12.516	0.514	98.473
	8.00E+00	0.798	76.834	1.416	-39.509	0.154	-13.493	0.521	97.86
	8.10E+00	0.799	76.361	1.387	-40.715	0.154	-14.009	0.529	97.262
	8.20E+00	0.802	75.87	1.363	-41.708	0.156	-14.545	0.536	96.576
	8.30E+00	0.804	75.336	1.335	-42.532	0.157	-15.674	0.543	95.908
	8.40E+00	0.805	74.871	1.309	-43.727	0.156	-16.435	0.549	95.41
	8.50E+00	0.807	74.485	1.29	-44.604	0.157	-16.723	0.556	94.84
	8.60E+00	0.809	74.008	1.265	-45.449	0.159	-17.444	0.563	94.242
	8.70E+00	0.81	73.519	1.242	-46.519	0.159	-18.407	0.568	93.791
	8.80E+00	0.811	73.148	1.224	-47.338	0.159	-18.831	0.574	93.283
	8.90E+00	0.812	72.821	1.2	-48.065	0.16	-19.065	0.581	92.728
	9.00E+00	0.813	72.417	1.183	-49.246	0.162	-20.089	0.585	92.166
	9.10E+00	0.814	72.15	1.166	-49.941	0.162	-20.914	0.59	91.732
	9.20E+00	0.815	71.941	1.141	-50.613	0.162	-21.132	0.595	91.275
	9.30E+00	0.816	71.742	1.126	-51.465	0.165	-21.572	0.6	90.754
	9.40E+00	0.818	71.487	1.115	-52.183	0.166	-22.58	0.602	90.276
	9.50E+00	0.819	71.199	1.093	-52.824	0.166	-23.157	0.605	89.997
	9.60E+00	0.823	71.05	1.08	-53.683	0.167	-23.292	0.607	89.602
	9.70E+00	0.826	70.565	1.071	-54.405	0.17	-23.996	0.608	89.358
	9.80E+00	0.824	69.783	1.056	-55.327	0.172	-25.088	0.609	89.355
	9.90E+00	0.818	69.591	1.039	-56.491	0.173	-26.067	0.613	89.381
	1.00E+01	0.815	69.739	1.023	-57.13	0.173	-27.058	0.617	89.319
	1.01E+01	0.815	69.764	1.002	-57.85	0.174	-28.251	0.62	89.374
	1.02E+01	0.818	69.682	0.993	-58.571	0.173	-29.018	0.623	89.304
	1.03E+01	0.82	69.571	0.981	-59.058	0.173	-29.423	0.627	89.304
	1.04E+01	0.822	69.42	0.966	-59.646	0.175	-29.886	0.631	89.302
	1.05E+01	0.823	69.175	0.96	-60.498	0.176	-30.913	0.633	89.247
	1.06E+01	0.823	68.994	0.952	-60.947	0.176	-31.822	0.636	89.369
	1.07E+01	0.824	68.914	0.94	-61.893	0.176	-32.353	0.64	89.598
	1.08E+01	0.824	68.964	0.931	-62.761	0.177	-33.486	0.644	89.739
	1.09E+01	0.826	69.03	0.92	-63.297	0.176	-34.578	0.648	89.927
	1.10E+01	0.83	69.009	0.904	-63.825	0.173	-34.801	0.654	90.034
	1.11E+01	0.836	68.83	0.898	-64.286	0.172	-34.319	0.658	89.894
	1.12E+01	0.839	68.365	0.892	-64.584	0.174	-34.547	0.659	89.874
	1.13E+01	0.839	67.812	0.886	-65.361	0.175	-34.894	0.661	90.064
	1.14E+01	0.834	67.194	0.881	-66.249	0.175	-34.704	0.665	90.307
	1.15E+01	0.825	67.13	0.871	-66.492	0.179	-34.328	0.666	90.41
	1.16E+01	0.817	67.017	0.866	-67.267	0.184	-35.991	0.67	91.128
	1.17E+01	0.811	67.455	0.858	-68.127	0.182	-37.764	0.676	91.366
	1.18E+01	0.817	67.633	0.851	-68.262	0.183	-37.663	0.681	91.642
	1.19E+01	0.813	67.035	0.845	-69.132	0.184	-38.429	0.688	91.989
	1.20E+01	0.8	66.924	0.847	-69.57	0.186	-39.559	0.698	92.088
	1.21E+01	0.795	67.289	0.843	-70.788	0.185	-41.637	0.704	91.734
	1.22E+01	0.789	67.249	0.833	-71.874	0.184	-41.691	0.708	91.794
	1.23E+01	0.782	68.179	0.83	-72.992	0.185	-43.719	0.71	91.47
	1.24E+01	0.786	68.379	0.816	-73.856	0.178	-45.336	0.714	91.553
	1.25E+01	0.782	68.345	0.808	-74.893	0.174	-46.145	0.718	91.38
	1.26E+01	0.777	68.481	0.781	-76.006	0.162	-43.884	0.707	90.464
	1.27E+01	0.768	68.859	0.764	-75.737	0.165	-41.446	0.695	91.257
	1.28E+01	0.762	69.399	0.755	-75.927	0.167	-40.926	0.691	92.269
	1.29E+01	0.76	69.977	0.746	-75.865	0.169	-40.281	0.69	93.403
	1.30E+01	0.756	70.608	0.741	-75.598	0.173	-39.741	0.692	94.31
	1.31E+01	0.75	71.228	0.736	-75.992	0.175	-40.657	0.694	95.447
	1.32E+01	0.748	71.703	0.733	-76.085	0.175	-41.245	0.705	96.28
	1.33E+01	0.743	72.234	0.726	-76.671	0.175	-41.025	0.708	96.409
	1.34E+01	0.74	73.187	0.717	-76.91	0.175	-41.259	0.713	97.629
	1.35E+01	0.736	73.726	0.717	-77.01	0.176	-41.871	0.721	97.819
	1.36E+01	0.734	74.541	0.706	-77.57	0.173	-42.071	0.727	98.287
	1.37E+01	0.736	75.211	0.699	-77.584	0.173	-40.762	0.727	98.675
	1.38E+01	0.733	76.004	0.701	-77.41	0.175	-41.368	0.732	99.192
	1.39E+01	0.73	76.611	0.693	-78.16	0.174	-41.633	0.729	99.868
	1.40E+01	0.731	77.417	0.688	-78.266	0.171	-40.944	0.734	100.521
	1.41E+01	0.731	78.117	0.685	-78.118	0.173	-39.608	0.733	101.044
	1.42E+01	0.722	79.259	0.679	-78.716	0.176	-40.286	0.733	102.141
	1.43E+01	0.719	80.128	0.674	-79.123	0.175	-40.577	0.737	103.15
	1.44E+01	0.718	80.909	0.669	-78.886	0.174	-39.633	0.741	103.911
	1.45E+01	0.713	82.277	0.664	-79.454	0.179	-40.078	0.742	105.015
	1.46E+01	0.708	83.589	0.656	-79.985	0.177	-41.335	0.746	106.246
	1.47E+01	0.709	84.341	0.651	-79.668	0.174	-40.692	0.752	107.132
	1.48E+01	0.705	85.589	0.644	-80.018	0.175	-39.982	0.755	108.083
	1.49E+01	0.701	87.276	0.64	-80.557	0.177	-41.263	0.757	109.425
	1.50E+01	0.7	88.646	0.632	-80.378	0.175	-41.61	0.766	110.577
!	Noise	data:							
!	Freq.	Fmin	Gamma-opt	rn					
	0.9	2.1	0.25	-166.3	0.19				
	2	2.5	0.22	-152.2	0.21
