! Filename: 3_270BFG480.001
! Title: BFG480W
! Bias: Vce=3.2V; Ic=70mA
! Company: Philips Semiconductors NL
! User: Quality&Reliability T&D
! Measure time: 10 Nov 1999 / 11:57:22
#  MHz  S  MA  R 50
! Freq       S11             S21             S12             S22    :
  100  0.38563 -148.1 51.02337 148.01 0.006874 69.027  0.79236 -40.89
  200  0.53601 -155.5 39.33690 127.18 0.010775 59.095  0.64299 -71.42
  300  0.60327 -162.3 30.35451 114.73 0.013122 56.727  0.54250 -91.89
  400  0.63742 -167.2 24.22520 106.44 0.015071 57.371  0.48602 -106.3
  500  0.65726 -170.9 20.00884 100.44 0.016841 59.313  0.45358 -116.8
  600  0.66970 -173.8 16.92061 95.800 0.018735 61.050  0.43337 -124.7
  700  0.67818 -176.4 14.63848 92.072 0.020685 63.234  0.42005 -130.8
  800  0.68538 -178.6 12.85159 88.877 0.022693 65.030  0.41129 -135.9
  900  0.69350 179.32 11.42117 86.159 0.024746 67.036  0.40653 -140.4
 1000  0.70028 177.45 10.27413 83.593 0.027011 68.301  0.40519 -144.3
 1200  0.71499 174.23  8.48376 78.786 0.031471 70.248  0.41051 -150.7
 1400  0.72558 171.79  7.18500 74.073 0.035912 71.642  0.41949 -155.4
 1600  0.73080 169.36  6.26866 70.230 0.041056 72.669  0.42521 -159.1
 1800  0.73127 166.72  5.57546 66.861 0.046601 73.488  0.43169 -162.9
 2000  0.74186 164.40  4.93635 63.929 0.051358 74.287  0.44242 -167.3
 2200  0.76155 162.20  4.40435 60.439 0.055736 74.421  0.46117 -171.0
 2400  0.77191 160.46  3.94907 56.800 0.060629 74.029  0.48492 -173.4
 2600  0.77164 158.74  3.61203 53.487 0.066641 73.488  0.50288 -174.9
 2800  0.76801 156.47  3.34907 49.109 0.071333 72.217  0.51131 -176.8
 3000  0.77265 153.79  3.10972 45.719 0.076653 71.539  0.51856 -179.7
