! Filename: 432bfg425.001
! BFG425W Field C1
! V1=8.380E-001V,V2=4.000E+000V, I1=4.223E-004A, I2=3.246E-002A
# GHz   S   MA   R 50
!                S11              S21              S12              S22
!Freq(GHz)  Mag     Ang      Mag     Ang      Mag     Ang      Mag     Ang 
   0.040    0.298  -8.445   38.149 173.003    0.003  41.885    0.882  -2.469
   0.100    0.308 -20.808   37.182 164.244    0.004  66.769    0.878  -8.215
   0.200    0.293 -40.878   34.372 150.348    0.008  67.996    0.832 -16.515
   0.300    0.275 -58.008   30.801 139.092    0.011  67.277    0.772 -22.901
   0.400    0.258 -73.451   27.409 129.479    0.013  65.935    0.714 -27.634
   0.500    0.245 -87.820   24.395 121.224    0.016  64.376    0.663 -31.159
   0.600    0.235 -99.623   21.814 114.590    0.018  63.505    0.620 -33.936
   0.700    0.228 -109.848   19.649 108.984    0.020  62.557    0.584 -36.076
   0.800    0.223 -119.611   17.816 103.814    0.022  62.010    0.554 -37.915
   0.900    0.219 -127.832   16.260  99.251    0.024  61.524    0.528 -39.610
   1.000    0.215 -135.728   14.913  95.076    0.027  61.046    0.507 -41.070
   1.100    0.213 -142.497   13.758  91.266    0.029  60.449    0.488 -42.565
   1.200    0.212 -148.675   12.755  87.718    0.031  59.982    0.472 -43.975
   1.300    0.212 -154.552   11.876  84.391    0.033  59.360    0.457 -45.309
   1.400    0.212 -159.947   11.111  81.273    0.035  58.728    0.443 -46.647
   1.500    0.214 -165.475   10.436  78.264    0.037  58.023    0.431 -47.904
   1.600    0.215 -170.346    9.831  75.370    0.040  57.266    0.420 -49.281
   1.700    0.218 -174.754    9.288  72.607    0.042  56.492    0.410 -50.665
   1.800    0.220 -179.188    8.799  69.922    0.044  55.578    0.400 -52.028
   1.900    0.222 176.753    8.357  67.332    0.046  54.650    0.391 -53.536
   2.000    0.225 172.868    7.957  64.790    0.049  53.654    0.382 -55.040
   2.200    0.231 165.443    7.254  59.921    0.053  51.611    0.364 -58.067
   2.400    0.239 158.327    6.662  55.167    0.058  49.470    0.347 -61.119
   2.600    0.248 151.961    6.152  50.514    0.063  47.134    0.330 -64.309
   2.800    0.258 145.776    5.712  46.061    0.068  44.697    0.313 -67.531
   3.000    0.269 140.026    5.329  41.671    0.072  42.143    0.296 -70.905
   3.500    0.299 126.802    4.551  30.967    0.084  35.366    0.252 -79.667
   4.000    0.332 114.654    3.954  20.466    0.096  28.162    0.205 -89.195
   4.500    0.369 103.987    3.483  10.247    0.107  20.603    0.157 -100.648
   5.000    0.411  93.416    3.087  -0.246    0.117  12.135    0.101 -117.211
   5.500    0.445  82.930    2.729  -9.834    0.125   5.046    0.050 -137.499
   6.000    0.488  73.654    2.443 -20.145    0.132  -3.815    0.037 121.290
   6.500    0.498  67.063    2.243 -27.113    0.145  -7.193    0.052 104.758
   7.000    0.533  60.116    2.073 -36.247    0.158 -14.853    0.103  88.290
   7.500    0.594  51.383    1.872 -47.785    0.161 -26.702    0.188  67.818
   8.000    0.630  44.227    1.716 -57.180    0.168 -34.619    0.244  58.670
   8.500    0.670  36.551    1.556 -67.159    0.172 -44.008    0.310  48.550
   9.000    0.699  28.687    1.393 -76.134    0.170 -52.302    0.364  38.231
   9.500    0.728  21.513    1.263 -84.765    0.170 -60.632    0.405  29.907
  10.000    0.758  14.852    1.154 -94.613    0.172 -70.019    0.464  23.641
  10.500    0.780   8.002    1.042 -104.168    0.170 -79.184    0.517  15.995
  11.000    0.798   0.826    0.924 -113.121    0.164 -88.849    0.561   7.264
  11.500    0.813  -6.260    0.826 -122.458    0.158 -98.674    0.603   0.252
  12.000    0.820 -13.440    0.720 -131.576    0.149 -109.012    0.644  -7.932
!     DEEMBEDDED NOISE DATA
!FREQUENCY    FMIN    GAMMA OPT        Rn
!  (GHz)      (dB)    Mag    Ang   (NORMALIZED)
