! Filename: 42bfg403.001
! Filename: 42bf403.001
! BFG403W Field A1
! V1=8.597E-001V,V2=4.000E+000V, I1=2.445E-005A, I2=2.000E-003A
# GHz   S   MA   R 50
!                S11              S21              S12              S22
!Freq(GHz)  Mag     Ang      Mag     Ang      Mag     Ang      Mag     Ang 
   0.040    0.919  -1.110    5.429 176.514    0.001  17.153    0.995  -0.634
   0.100    0.923  -2.699    5.294 175.392    0.001  88.004    0.995  -1.821
   0.200    0.922  -5.438    5.260 172.040    0.003  83.593    0.993  -3.892
   0.300    0.919  -8.118    5.244 169.307    0.004  83.013    0.992  -5.805
   0.400    0.915 -10.530    5.241 165.335    0.005  80.740    0.990  -7.822
   0.500    0.908 -13.650    5.227 161.618    0.006  77.774    0.986  -9.692
   0.600    0.902 -16.277    5.182 158.181    0.008  76.482    0.984 -11.593
   0.700    0.895 -18.807    5.129 154.802    0.009  75.280    0.979 -13.570
   0.800    0.888 -21.554    5.091 151.376    0.010  73.361    0.975 -15.393
   0.900    0.879 -24.084    5.054 148.000    0.011  71.761    0.970 -17.310
   1.000    0.868 -26.681    5.010 144.498    0.012  70.188    0.964 -19.182
   1.100    0.858 -29.152    4.960 141.215    0.013  68.483    0.959 -20.977
   1.200    0.846 -31.696    4.909 137.850    0.014  67.164    0.953 -22.832
   1.300    0.835 -34.162    4.846 134.649    0.015  65.721    0.947 -24.621
   1.400    0.822 -36.517    4.795 131.402    0.016  64.144    0.940 -26.376
   1.500    0.809 -38.987    4.738 128.211    0.017  62.759    0.933 -28.109
   1.600    0.796 -41.405    4.682 125.016    0.018  61.596    0.926 -29.819
   1.700    0.782 -43.753    4.621 121.913    0.019  60.299    0.919 -31.538
   1.800    0.768 -46.092    4.551 118.793    0.020  59.118    0.912 -33.241
   1.900    0.756 -48.254    4.484 115.881    0.020  58.017    0.905 -34.916
   2.000    0.742 -50.530    4.415 112.907    0.021  57.053    0.897 -36.576
   2.200    0.714 -54.941    4.286 107.096    0.023  55.281    0.882 -39.849
   2.400    0.685 -59.294    4.160 101.423    0.024  53.842    0.866 -43.045
   2.600    0.658 -63.531    4.030  95.985    0.025  52.487    0.850 -46.220
   2.800    0.630 -67.693    3.906  90.635    0.027  51.324    0.834 -49.299
   3.000    0.604 -71.862    3.791  85.444    0.028  50.278    0.818 -52.416
   3.500    0.539 -82.400    3.524  72.809    0.032  48.322    0.776 -60.039
   4.000    0.481 -93.225    3.285  60.657    0.037  46.371    0.733 -67.691
   4.500    0.430 -105.177    3.086  48.959    0.043  43.652    0.689 -75.513
   5.000    0.382 -118.414    2.907  37.243    0.049  39.636    0.640 -83.519
   5.500    0.337 -133.101    2.724  25.371    0.054  34.827    0.583 -91.382
   6.000    0.311 -150.918    2.600  13.285    0.064  27.178    0.526 -101.420
   6.500    0.289 -165.164    2.434   2.946    0.072  27.359    0.483 -109.081
   7.000    0.233 177.578    2.150  -8.306    0.062  27.010    0.393 -111.347
   7.500    0.294 159.337    2.200 -19.385    0.097  16.768    0.383 -131.176
   8.000    0.323 136.842    2.096 -33.108    0.111   2.567    0.308 -151.664
   8.500    0.344 116.618    1.925 -46.259    0.116  -9.165    0.228 -173.946
   9.000    0.382  99.527    1.794 -58.954    0.128 -20.034    0.197 155.571
   9.500    0.420  82.174    1.630 -72.026    0.133 -34.075    0.198 116.006
  10.000    0.456  66.966    1.478 -85.682    0.136 -47.295    0.249  81.906
  10.500    0.490  52.186    1.301 -99.345    0.136 -62.359    0.319  56.599
  11.000    0.506  38.195    1.113 -111.896    0.127 -77.242    0.388  36.782
  11.500    0.526  25.978    0.951 -124.532    0.119 -91.847    0.459  21.351
  12.000    0.531  13.205    0.780 -135.957    0.101 -109.582    0.514   6.482
!     DEEMBEDDED NOISE DATA
!FREQUENCY    FMIN    GAMMA OPT        Rn
!  (GHz)      (dB)    Mag    Ang   (NORMALIZED)
