! Filename: 2110BFG480.001
! Title: BFG480W
! Bias: Vce=2V; Ic=110mA
! Company: Philips Semiconductors NL
! User: Quality&Reliability T&D
! Measure time: 10 Nov 1999 / 11:55:13
#  MHz  S  MA  R 50
! Freq       S11             S21             S12             S22    :
  100  0.60353 -163.6 34.90471 141.04 0.006595 65.531  0.61334 -54.60
  200  0.69985 -168.3 26.47012 120.85 0.009946 58.584  0.52136 -91.94
  300  0.73008 -172.5 21.08261 109.83 0.012175 58.942  0.47262 -113.9
  400  0.74495 -175.5 17.10564 102.44 0.014303 61.218  0.45204 -127.6
  500  0.75192 -178.0 14.39615 97.182 0.016447 63.607  0.44280 -137.0
  600  0.75739 179.84 12.26595 93.053 0.018669 65.488  0.43722 -143.5
  700  0.76019 177.96 10.69252 89.707 0.020947 67.606  0.43386 -148.5
  800  0.76494 176.19  9.40829 86.793 0.023297 69.017  0.43227 -152.7
  900  0.77002 174.50  8.37503 84.325 0.025685 70.600  0.43293 -156.1
 1000  0.77496 172.95  7.55334 81.929 0.028351 71.449  0.43562 -159.2
 1200  0.78533 170.17  6.24374 77.416 0.033265 72.660  0.44548 -164.0
 1400  0.79101 167.94  5.28059 72.872 0.038129 73.266  0.45601 -167.6
 1600  0.79357 165.59  4.61326 69.171 0.043707 73.772  0.46208 -170.6
 1800  0.79174 163.03  4.11569 65.846 0.049710 73.963  0.46975 -173.8
 2000  0.80054 160.95  3.64350 63.109 0.054649 74.577  0.48181 -177.3
 2200  0.81667 158.94  3.24478 59.742 0.059219 74.207  0.50028 179.78
 2400  0.82221 157.14  2.90575 56.241 0.064040 73.557  0.52069 177.94
 2600  0.81825 155.32  2.65811 53.042 0.070307 72.712  0.53499 176.67
 2800  0.81257 152.93  2.46130 48.585 0.074934 71.168  0.54139 174.90
 3000  0.81658 150.26  2.28543 45.249 0.080250 70.261  0.54838 172.20
