! Filename: 2100BFG480.001
! Title: BFG480W
! Bias: Vce=2V; Ic=100mA
! Company: Philips Semiconductors NL
! User: Quality&Reliability T&D
! Measure time: 10 Nov 1999 / 11:55:01
#  MHz  S  MA  R 50
! Freq       S11             S21             S12             S22    :
  100  0.57281 -161.8 37.95208 141.93 0.006639 66.696  0.65698 -52.14
  200  0.67228 -166.8 29.37862 121.84 0.010145 58.708  0.55023 -88.52
  300  0.70651 -171.1 23.42600 110.68 0.012421 58.603  0.49137 -110.5
  400  0.72395 -174.4 18.88222 103.18 0.014517 60.390  0.46450 -124.6
  500  0.73327 -177.1 15.72072 97.776 0.016625 62.926  0.45147 -134.3
  600  0.74112 -179.3 13.31770 93.561 0.018762 64.769  0.44367 -141.2
  700  0.74493 178.73 11.54790 90.170 0.021058 66.802  0.43866 -146.5
  800  0.75080 176.89 10.14171 87.232 0.023372 68.244  0.43601 -150.8
  900  0.75610 175.15  9.01671 84.758 0.025712 70.066  0.43575 -154.4
 1000  0.76176 173.56  8.11910 82.352 0.028403 70.777  0.43783 -157.7
 1200  0.77251 170.74  6.70105 77.843 0.033171 72.194  0.44674 -162.8
 1400  0.77917 168.46  5.66595 73.292 0.038041 72.775  0.45669 -166.6
 1600  0.78217 166.10  4.94775 69.600 0.043579 73.323  0.46222 -169.7
 1800  0.78080 163.57  4.41125 66.295 0.049512 73.676  0.46944 -173.0
 2000  0.79051 161.42  3.90439 63.563 0.054633 73.957  0.48156 -176.6
 2200  0.80663 159.40  3.47885 60.207 0.058914 73.938  0.49917 -179.7
 2400  0.81272 157.61  3.11451 56.705 0.063824 73.296  0.51954 178.44
 2600  0.80936 155.84  2.84919 53.523 0.069968 72.449  0.53383 177.15
 2800  0.80467 153.46  2.63901 49.081 0.074574 70.989  0.53986 175.35
 3000  0.80850 150.80  2.45084 45.769 0.079938 70.099  0.54679 172.62
