! Filename: 332bfg425.001
! BFG425W Field C1
! V1=8.569E-001V,V2=3.000E+000V, I1=4.679E-004A, I2=3.255E-002A
# GHz   S   MA   R 50
!                S11              S21              S12              S22
!Freq(GHz)  Mag     Ang      Mag     Ang      Mag     Ang      Mag     Ang 
   0.040    0.279  -9.924   38.127 173.036    0.002  67.146    0.881  -2.668
   0.100    0.278 -25.176   37.246 163.717    0.004  76.822    0.875  -9.173
   0.200    0.266 -48.234   34.189 149.293    0.008  73.316    0.823 -18.149
   0.300    0.255 -67.890   30.348 137.658    0.011  70.162    0.758 -25.146
   0.400    0.245 -85.297   26.763 127.960    0.014  67.824    0.692 -30.114
   0.500    0.241 -100.365   23.670 119.669    0.017  65.950    0.639 -33.758
   0.600    0.238 -112.425   21.070 113.034    0.019  64.867    0.593 -36.713
   0.700    0.236 -122.646   18.919 107.423    0.021  63.695    0.555 -38.849
   0.800    0.235 -131.963   17.099 102.248    0.023  62.953    0.525 -40.776
   0.900    0.235 -139.833   15.561  97.692    0.026  62.428    0.498 -42.521
   1.000    0.234 -147.122   14.234  93.606    0.028  61.781    0.476 -43.940
   1.100    0.235 -153.499   13.106  89.843    0.030  61.068    0.457 -45.505
   1.200    0.236 -159.173   12.136  86.340    0.032  60.396    0.440 -46.913
   1.300    0.237 -164.521   11.287  83.037    0.035  59.712    0.425 -48.262
   1.400    0.239 -169.320   10.548  79.923    0.037  59.051    0.411 -49.709
   1.500    0.242 -174.103    9.891  76.923    0.039  58.206    0.398 -50.943
   1.600    0.245 -178.537    9.313  74.032    0.041  57.355    0.387 -52.373
   1.700    0.248 177.437    8.792  71.263    0.044  56.514    0.377 -53.825
   1.800    0.251 173.525    8.323  68.591    0.046  55.543    0.367 -55.178
   1.900    0.255 169.832    7.902  66.005    0.049  54.539    0.358 -56.768
   2.000    0.257 166.313    7.518  63.512    0.051  53.474    0.348 -58.318
   2.200    0.265 159.453    6.849  58.676    0.056  51.277    0.330 -61.458
   2.400    0.273 153.047    6.281  53.949    0.061  48.982    0.313 -64.603
   2.600    0.283 147.216    5.793  49.273    0.066  46.531    0.295 -67.958
   2.800    0.293 141.457    5.378  44.830    0.070  44.010    0.278 -71.392
   3.000    0.303 136.114    5.015  40.471    0.075  41.348    0.262 -74.931
   3.500    0.333 123.574    4.278  29.771    0.088  34.314    0.218 -84.410
   4.000    0.365 112.018    3.715  19.238    0.099  26.996    0.171 -95.260
   4.500    0.401 101.677    3.269   8.974    0.111  19.273    0.125 -109.655
   5.000    0.442  91.357    2.892  -1.520    0.121  10.746    0.074 -135.271
   5.500    0.474  81.212    2.555 -11.080    0.128   3.563    0.038 175.336
   6.000    0.515  71.963    2.284 -21.351    0.135  -5.320    0.069 101.998
   6.500    0.525  65.410    2.096 -28.346    0.149  -8.938    0.086  92.531
   7.000    0.559  58.439    1.935 -37.527    0.161 -16.688    0.138  82.266
   7.500    0.616  49.791    1.744 -48.982    0.164 -28.380    0.220  65.707
   8.000    0.649  42.659    1.598 -58.255    0.170 -36.299    0.275  56.909
   8.500    0.687  35.115    1.448 -68.191    0.174 -45.624    0.338  47.237
   9.000    0.713  27.331    1.296 -77.067    0.172 -53.820    0.390  37.363
   9.500    0.740  20.303    1.176 -85.623    0.171 -62.097    0.429  29.231
  10.000    0.767  13.683    1.074 -95.369    0.173 -71.381    0.486  22.900
  10.500    0.788   6.906    0.969 -104.795    0.171 -80.433    0.537  15.362
  11.000    0.804  -0.094    0.861 -113.672    0.164 -89.954    0.578   6.813
  11.500    0.817  -7.009    0.771 -122.920    0.158 -99.683    0.618  -0.123
  12.000    0.824 -14.092    0.673 -131.889    0.149 -109.834    0.657  -8.159
!     DEEMBEDDED NOISE DATA
!FREQUENCY    FMIN    GAMMA OPT        Rn
!  (GHz)      (dB)    Mag    Ang   (NORMALIZED)
