! Filename: 240BFG480.001
! Title: BFG480W
! Bias: Vce=2V; Ic=40mA
! Company: Philips Semiconductors NL
! User: Quality&Reliability T&D
! Measure time: 10 Nov 1999 / 11:53:50
#  MHz  S  MA  R 50
! Freq       S11             S21             S12             S22    :
  100  0.33054 -121.3 42.35042 148.81 0.009705 66.950  0.80384 -42.53
  200  0.51313 -141.7 33.39435 128.27 0.015154 54.151  0.66791 -74.34
  300  0.59407 -153.3 26.11204 115.71 0.017964 49.325  0.57692 -95.79
  400  0.63454 -160.4 20.93448 107.34 0.019953 48.076  0.52635 -110.8
  500  0.65785 -165.6 17.35821 101.24 0.021593 48.814  0.49722 -121.7
  600  0.67199 -169.5 14.71083 96.535 0.023145 49.957  0.47913 -129.8
  700  0.68139 -172.7 12.74445 92.776 0.024790 51.887  0.46702 -136.1
  800  0.68898 -175.5 11.19760 89.560 0.026527 53.723  0.45910 -141.3
  900  0.69729 -177.9  9.95690 86.854 0.028273 55.869  0.45468 -145.7
 1000  0.70417 179.84  8.96641 84.287 0.030241 57.366  0.45347 -149.6
 1200  0.71889 176.06  7.41132 79.454 0.034108 60.241  0.45799 -156.0
 1400  0.72982 173.23  6.27675 74.714 0.038037 62.358  0.46579 -160.8
 1600  0.73589 170.53  5.47997 70.929 0.042834 64.271  0.47051 -164.6
 1800  0.73609 167.68  4.88643 67.588 0.048041 65.777  0.47604 -168.3
 2000  0.74506 165.22  4.32341 64.714 0.052438 67.068  0.48619 -172.5
 2200  0.76342 162.86  3.85647 61.228 0.056476 67.766  0.50298 -176.0
 2400  0.77394 160.92  3.45766 57.646 0.061012 67.921  0.52372 -178.4
 2600  0.77415 159.07  3.16599 54.421 0.066779 67.773  0.53827 -179.9
 2800  0.76950 156.71  2.93471 49.998 0.071287 66.836  0.54413 178.07
 3000  0.77373 153.99  2.72501 46.639 0.076378 66.462  0.55059 175.15
