! Filename BFG424F_5V_25mA.prm
! Simulation_Values
! Created	by	janssen	on	nov	2006			
!	Column ranking S11, S21,S12,S22 both magnitude and phase.								
!	VCE	=	5	V,	IC	=	25	mA	
!	Common	Emitter	S-Parameters						
#	GHZ	S	MA	R	50				
	5.00E-01	0.342	-84.75	26.824	130.39	0.015	62.61	0.691	-28.73
	6.00E-01	0.332	-96.10	24.294	124.38	0.017	61.75	0.645	-31.35
	7.00E-01	0.322	-106.27	22.056	119.27	0.019	62.48	0.605	-33.21
	8.00E-01	0.313	-115.06	20.098	114.94	0.021	62.54	0.572	-34.56
	9.00E-01	0.312	-122.75	18.453	111.18	0.022	62.86	0.543	-35.79
	1.00E+00	0.308	-129.61	16.992	107.76	0.024	63.20	0.520	-36.82
	1.10E+00	0.305	-135.66	15.713	104.83	0.025	63.89	0.498	-37.72
	1.20E+00	0.302	-141.10	14.595	102.25	0.027	64.84	0.480	-38.41
	1.30E+00	0.302	-146.11	13.653	99.83	0.029	65.25	0.464	-39.23
	1.40E+00	0.303	-150.91	12.788	97.52	0.030	65.92	0.450	-39.90
	1.50E+00	0.304	-154.86	12.028	95.50	0.032	66.19	0.440	-40.42
	1.60E+00	0.302	-158.50	11.355	93.58	0.034	66.72	0.427	-41.42
	1.70E+00	0.303	-162.39	10.750	91.70	0.035	67.26	0.416	-42.04
	1.80E+00	0.307	-166.15	10.187	89.96	0.037	67.69	0.407	-42.89
	1.90E+00	0.309	-169.25	9.687	88.33	0.039	68.23	0.398	-43.69
	2.00E+00	0.311	-172.03	9.241	86.86	0.040	68.45	0.392	-44.48
	2.10E+00	0.313	-175.08	8.829	85.30	0.042	68.55	0.383	-45.58
	2.20E+00	0.316	-177.69	8.445	83.80	0.044	68.82	0.376	-46.36
	2.30E+00	0.319	179.48	8.086	82.44	0.046	69.02	0.369	-47.46
	2.40E+00	0.323	177.28	7.776	81.14	0.048	69.26	0.362	-48.43
	2.50E+00	0.328	175.13	7.477	79.78	0.050	69.48	0.356	-49.59
	2.60E+00	0.330	172.89	7.202	78.38	0.051	69.33	0.349	-50.86
	2.70E+00	0.333	170.35	6.942	77.19	0.054	69.57	0.342	-51.87
	2.80E+00	0.338	168.44	6.704	75.99	0.055	69.44	0.337	-52.84
	2.90E+00	0.343	166.60	6.478	74.84	0.057	69.50	0.330	-54.20
	3.00E+00	0.346	164.85	6.271	73.65	0.059	69.54	0.324	-55.41
	3.10E+00	0.351	162.63	6.078	72.43	0.061	69.32	0.316	-56.83
	3.20E+00	0.354	160.90	5.888	71.30	0.063	69.38	0.310	-57.86
	3.30E+00	0.359	158.81	5.707	70.24	0.065	69.39	0.306	-59.31
	3.40E+00	0.365	157.31	5.546	69.11	0.067	69.21	0.300	-61.04
	3.50E+00	0.370	155.85	5.387	68.05	0.069	68.95	0.295	-62.83
	3.60E+00	0.372	153.75	5.242	66.89	0.071	68.81	0.288	-64.59
	3.70E+00	0.379	151.90	5.106	65.82	0.073	68.48	0.279	-66.11
	3.80E+00	0.386	150.67	4.969	64.87	0.075	68.51	0.273	-67.57
	3.90E+00	0.390	149.46	4.850	63.90	0.077	68.33	0.268	-69.09
	4.00E+00	0.394	147.74	4.730	62.77	0.079	68.09	0.263	-71.11
	4.10E+00	0.398	146.25	4.613	61.80	0.082	67.76	0.258	-73.29
	4.20E+00	0.403	144.48	4.503	60.70	0.084	67.55	0.250	-75.48
	4.30E+00	0.411	143.15	4.401	59.83	0.086	67.28	0.245	-77.06
	4.40E+00	0.418	142.20	4.301	58.78	0.088	67.15	0.241	-78.68
	4.50E+00	0.418	141.28	4.207	57.75	0.090	66.80	0.238	-80.72
	4.60E+00	0.421	139.13	4.116	56.78	0.092	66.32	0.233	-83.68
	4.70E+00	0.429	137.60	4.022	55.77	0.094	66.01	0.227	-86.38
	4.80E+00	0.438	136.88	3.944	54.77	0.097	65.83	0.222	-88.72
	4.90E+00	0.439	135.45	3.865	53.90	0.099	65.24	0.217	-91.16
	5.00E+00	0.447	134.36	3.783	52.96	0.101	64.86	0.212	-93.37
	5.10E+00	0.450	133.09	3.715	51.88	0.103	64.68	0.207	-95.87
	5.20E+00	0.454	131.83	3.642	51.03	0.105	64.41	0.203	-98.66
	5.30E+00	0.463	130.27	3.569	50.04	0.108	63.72	0.197	-101.51
	5.40E+00	0.469	129.48	3.508	49.06	0.110	63.27	0.191	-104.23
	5.50E+00	0.472	128.42	3.438	48.27	0.112	63.02	0.189	-106.89
	5.60E+00	0.476	127.01	3.368	47.23	0.114	62.62	0.188	-110.37
	5.70E+00	0.486	125.87	3.316	46.30	0.116	62.15	0.186	-114.03
	5.80E+00	0.491	125.16	3.253	45.55	0.118	61.83	0.182	-117.56
	5.90E+00	0.495	123.98	3.193	44.45	0.120	61.44	0.178	-121.03
	6.00E+00	0.499	122.78	3.147	43.71	0.123	60.86	0.176	-124.57
	6.10E+00	0.505	121.63	3.090	42.90	0.125	60.40	0.175	-128.22
	6.20E+00	0.511	120.28	3.030	41.74	0.126	60.06	0.175	-132.58
	6.30E+00	0.521	119.76	2.988	40.87	0.129	59.78	0.173	-136.43
	6.40E+00	0.522	118.92	2.935	40.18	0.131	59.34	0.172	-139.36
	6.50E+00	0.524	117.78	2.888	39.17	0.133	58.73	0.173	-142.33
	6.60E+00	0.531	116.22	2.843	38.35	0.135	58.40	0.174	-146.02
	6.70E+00	0.537	115.55	2.791	37.55	0.137	57.99	0.177	-149.90
	6.80E+00	0.544	114.65	2.745	36.48	0.140	57.40	0.179	-154.34
	6.90E+00	0.548	113.86	2.710	35.77	0.141	56.98	0.180	-157.74
	7.00E+00	0.551	113.04	2.662	35.04	0.143	56.81	0.180	-160.14
	7.10E+00	0.552	111.80	2.626	34.08	0.146	56.12	0.183	-162.77
	7.20E+00	0.559	110.71	2.586	33.34	0.148	55.55	0.186	-165.71
	7.30E+00	0.565	109.94	2.539	32.44	0.150	55.07	0.191	-169.36
	7.40E+00	0.571	109.09	2.506	31.37	0.152	54.80	0.193	-173.40
	7.50E+00	0.575	108.11	2.470	30.79	0.154	54.10	0.197	-176.54
	7.60E+00	0.580	107.61	2.431	30.00	0.156	53.57	0.199	-178.70
	7.70E+00	0.582	106.52	2.402	29.18	0.158	53.32	0.205	179.23
	7.80E+00	0.586	105.58	2.370	28.43	0.160	52.80	0.210	176.48
	7.90E+00	0.592	104.38	2.326	27.33	0.162	51.91	0.214	172.51
	8.00E+00	0.596	103.98	2.303	26.54	0.163	51.53	0.216	169.53
	8.10E+00	0.599	103.09	2.268	26.10	0.165	51.56	0.219	168.08
	8.20E+00	0.604	102.43	2.236	25.18	0.168	51.09	0.225	167.20
	8.30E+00	0.608	101.66	2.211	24.31	0.170	50.32	0.236	165.25
	8.40E+00	0.608	100.56	2.176	23.62	0.171	49.77	0.243	162.41
	8.50E+00	0.615	99.70	2.139	22.40	0.173	49.46	0.247	158.99
	8.60E+00	0.620	99.13	2.123	21.74	0.176	48.84	0.249	156.92
	8.70E+00	0.623	98.49	2.087	21.28	0.177	48.40	0.253	155.68
	8.80E+00	0.627	97.60	2.059	20.32	0.178	48.03	0.263	154.51
	8.90E+00	0.630	97.11	2.038	19.63	0.181	47.65	0.270	152.13
	9.00E+00	0.630	96.24	2.003	18.95	0.184	46.70	0.275	150.18
	9.10E+00	0.634	95.28	1.987	17.77	0.185	46.04	0.275	148.61
	9.20E+00	0.641	94.55	1.973	17.29	0.186	45.74	0.279	147.82
	9.30E+00	0.645	94.30	1.934	16.57	0.189	45.30	0.290	146.70
	9.40E+00	0.648	93.46	1.904	15.32	0.190	44.44	0.301	144.90
	9.50E+00	0.651	92.84	1.887	14.59	0.191	43.91	0.307	142.00
	9.60E+00	0.657	92.29	1.851	13.87	0.193	43.53	0.307	140.48
	9.70E+00	0.661	91.31	1.841	12.91	0.196	43.00	0.307	139.56
	9.80E+00	0.666	90.06	1.820	12.04	0.198	41.83	0.313	138.74
	9.90E+00	0.665	89.31	1.769	11.27	0.197	41.22	0.324	136.95
	1.00E+01	0.665	89.20	1.737	10.53	0.198	40.89	0.328	135.12
	1.01E+01	0.667	88.52	1.719	10.56	0.199	40.56	0.327	134.00
	1.02E+01	0.670	87.84	1.691	10.05	0.201	40.11	0.330	133.99
	1.03E+01	0.675	87.27	1.684	9.35	0.202	39.89	0.338	133.90
	1.04E+01	0.676	86.33	1.664	9.02	0.204	39.27	0.352	132.85
	1.05E+01	0.681	85.41	1.640	8.10	0.205	38.48	0.359	130.48
	1.06E+01	0.687	84.72	1.632	6.80	0.205	38.08	0.362	127.90
	1.07E+01	0.690	84.37	1.614	6.44	0.206	37.99	0.359	126.71
	1.08E+01	0.686	83.89	1.589	5.66	0.209	37.28	0.359	127.34
	1.09E+01	0.687	83.13	1.573	5.18	0.209	36.58	0.367	127.69
	1.10E+01	0.691	82.34	1.548	4.62	0.209	36.37	0.380	126.86
	1.11E+01	0.698	81.89	1.512	3.58	0.209	35.90	0.387	124.79
	1.12E+01	0.709	81.12	1.501	2.97	0.209	35.39	0.388	122.88
	1.13E+01	0.716	80.82	1.486	3.00	0.209	35.57	0.387	122.31
	1.14E+01	0.715	79.54	1.480	2.28	0.212	35.89	0.392	122.97
	1.15E+01	0.717	78.28	1.475	1.38	0.216	35.60	0.400	121.99
	1.16E+01	0.719	76.94	1.458	0.54	0.219	34.67	0.409	120.87
	1.17E+01	0.714	76.25	1.439	-0.82	0.219	33.97	0.409	119.00
	1.18E+01	0.719	75.56	1.429	-1.36	0.222	33.69	0.407	118.39
	1.19E+01	0.718	74.03	1.412	-2.07	0.226	32.86	0.408	118.73
	1.20E+01	0.706	73.34	1.396	-3.59	0.226	31.48	0.421	118.62
	1.21E+01	0.696	72.37	1.365	-4.58	0.225	30.90	0.427	116.49
	1.22E+01	0.698	71.61	1.340	-5.08	0.228	30.12	0.426	115.66
	1.23E+01	0.691	71.61	1.341	-6.69	0.229	28.14	0.434	115.79
	1.24E+01	0.683	71.46	1.310	-7.46	0.223	27.72	0.438	115.07
	1.25E+01	0.681	70.36	1.271	-7.94	0.221	27.27	0.450	115.04
	1.26E+01	0.689	70.46	1.237	-8.30	0.218	28.67	0.456	112.01
	1.27E+01	0.684	70.55	1.223	-8.53	0.222	28.52	0.450	110.39
	1.28E+01	0.674	69.30	1.195	-9.20	0.222	28.02	0.445	109.30
	1.29E+01	0.681	68.55	1.181	-9.38	0.222	28.28	0.439	109.79
	1.30E+01	0.686	68.70	1.171	-9.33	0.226	28.23	0.444	110.31
	1.31E+01	0.681	68.38	1.151	-10.09	0.227	27.21	0.453	110.23
	1.32E+01	0.676	67.67	1.143	-10.86	0.227	26.83	0.462	109.40
	1.33E+01	0.677	67.07	1.135	-10.90	0.228	26.84	0.462	107.62
	1.34E+01	0.675	66.74	1.124	-11.63	0.231	26.42	0.459	108.29
	1.35E+01	0.678	66.63	1.115	-12.06	0.231	26.02	0.464	107.93
	1.36E+01	0.673	66.21	1.098	-12.30	0.232	25.99	0.474	107.85
	1.37E+01	0.671	65.69	1.080	-13.14	0.234	25.85	0.478	106.82
	1.38E+01	0.676	64.82	1.074	-13.88	0.235	25.17	0.477	105.61
	1.39E+01	0.675	64.93	1.064	-14.16	0.235	24.96	0.470	104.79
	1.40E+01	0.673	64.29	1.051	-14.90	0.237	25.04	0.473	104.81
	1.41E+01	0.665	63.38	1.036	-15.71	0.239	24.25	0.481	104.79
	1.42E+01	0.669	62.77	1.014	-16.37	0.240	23.46	0.488	103.99
	1.43E+01	0.669	62.14	0.999	-17.37	0.240	23.54	0.492	103.28
	1.44E+01	0.673	62.40	0.998	-17.60	0.243	23.37	0.486	102.64
	1.45E+01	0.662	61.76	0.978	-18.00	0.246	22.50	0.488	102.39
	1.46E+01	0.656	60.63	0.961	-18.34	0.246	21.59	0.492	101.56
	1.47E+01	0.668	59.36	0.945	-18.68	0.244	21.58	0.492	100.30
	1.48E+01	0.668	60.31	0.929	-19.16	0.247	21.58	0.484	99.38
	1.49E+01	0.651	59.62	0.917	-20.22	0.252	20.74	0.481	99.75
	1.50E+01	0.652	57.96	0.915	-20.42	0.250	19.72	0.488	100.84
