! Filename: 135bfg425.001
! BFG425W Field C1
! V1=8.936E-001V,V2=1.000E+000V, I1=5.768E-004A, I2=3.501E-002A
# GHz   S   MA   R 50
!                S11              S21              S12              S22
!Freq(GHz)  Mag     Ang      Mag     Ang      Mag     Ang      Mag     Ang 
   0.040    0.140 -29.787   35.003 172.068    0.003  68.390    0.738  -5.124
   0.100    0.185 -67.335   33.024 159.678    0.006  76.400    0.720 -15.678
   0.200    0.266 -105.739   27.927 141.528    0.011  69.715    0.642 -30.405
   0.300    0.298 -123.501   24.982 128.916    0.015  65.645    0.559 -41.055
   0.400    0.324 -136.976   21.497 118.690    0.019  63.388    0.484 -48.257
   0.500    0.350 -147.858   18.609 110.604    0.022  61.904    0.423 -53.773
   0.600    0.360 -155.987   16.287 104.204    0.024  61.088    0.376 -57.933
   0.700    0.368 -162.613   14.381  98.834    0.027  60.384    0.338 -61.339
   0.800    0.374 -168.338   12.870  94.009    0.030  59.935    0.307 -64.226
   0.900    0.378 -173.312   11.633  89.762    0.033  59.418    0.283 -66.812
   1.000    0.383 -177.744   10.582  85.923    0.036  58.792    0.262 -69.299
   1.100    0.387 178.232    9.688  82.338    0.039  58.033    0.245 -71.689
   1.200    0.390 174.492    8.929  79.002    0.041  57.262    0.229 -74.141
   1.300    0.394 170.970    8.275  75.847    0.044  56.409    0.215 -76.507
   1.400    0.396 167.772    7.712  72.897    0.047  55.576    0.203 -78.839
   1.500    0.401 164.513    7.218  70.010    0.050  54.542    0.192 -81.237
   1.600    0.404 161.458    6.774  67.239    0.053  53.506    0.182 -83.768
   1.700    0.407 158.551    6.376  64.521    0.056  52.379    0.173 -86.382
   1.800    0.410 155.701    6.024  61.941    0.059  51.230    0.164 -89.099
   1.900    0.414 152.954    5.704  59.357    0.062  50.055    0.156 -92.124
   2.000    0.418 150.255    5.414  56.855    0.065  48.804    0.148 -95.364
   2.200    0.425 145.038    4.914  51.993    0.071  46.179    0.133 -102.167
   2.400    0.434 139.942    4.497  47.253    0.077  43.469    0.120 -109.873
   2.600    0.442 135.147    4.137  42.638    0.083  40.647    0.108 -118.959
   2.800    0.452 130.320    3.827  38.137    0.089  37.732    0.098 -129.207
   3.000    0.461 125.760    3.556  33.684    0.094  34.749    0.090 -141.225
   3.500    0.488 114.694    3.013  22.828    0.108  26.977    0.083 -177.118
   4.000    0.516 104.077    2.596  12.240    0.121  19.030    0.098 147.948
   4.500    0.546  94.191    2.271   1.934    0.133  10.790    0.130 123.084
   5.000    0.577  84.412    1.993  -8.551    0.142   2.096    0.173 103.989
   5.500    0.602  74.929    1.755 -18.016    0.149  -5.349    0.210  88.831
   6.000    0.634  65.970    1.560 -27.982    0.155 -14.094    0.261  76.851
   6.500    0.643  59.141    1.430 -35.238    0.169 -18.809    0.281  70.607
   7.000    0.669  51.821    1.310 -44.288    0.179 -26.843    0.326  63.928
   7.500    0.708  43.563    1.175 -54.949    0.179 -37.627    0.392  54.010
   8.000    0.731  36.545    1.072 -63.743    0.183 -45.428    0.437  46.477
   8.500    0.758  29.305    0.971 -72.997    0.184 -54.252    0.484  38.445
   9.000    0.775  22.009    0.871 -81.142    0.181 -61.972    0.522  30.284
   9.500    0.792  15.449    0.795 -89.165    0.179 -69.682    0.549  23.329
  10.000    0.810   9.197    0.727 -98.168    0.179 -78.376    0.592  17.192
  10.500    0.822   2.843    0.661 -106.834    0.176 -86.789    0.630  10.354
  11.000    0.832  -3.667    0.593 -114.980    0.169 -95.558    0.659   2.851
  11.500    0.840 -10.013    0.537 -123.580    0.163 -104.457    0.688  -3.481
  12.000    0.843 -16.591    0.476 -132.089    0.154 -113.751    0.716 -10.654
!     DEEMBEDDED NOISE DATA
!FREQUENCY    FMIN    GAMMA OPT        Rn
!  (GHz)      (dB)    Mag    Ang   (NORMALIZED)
