! Filename BFG424W_3V_25mA.prm
! Simulation_Values
!	! Created	by	janssen	on	Thu	Sep	15	10:02:03	WETDST	2005
!	Column ranking S11, S21,S12,S22 both magnitude and phase.									
!	VCE	=	3	V,	IC	=	25	mA		
!	Common	Emitter	S-Parameters							
#	GHz	S	MA	R	50					
1.00E-01	0.360	-23.218	38.347	164.586	0.005	86.159	0.923	-9.284		
2.00E-01	0.341	-45.074	35.253	150.723	0.009	77.014	0.865	-18.416		
3.00E-01	0.317	-63.903	31.352	139.247	0.012	71.827	0.789	-25.191		
4.00E-01	0.298	-80.043	27.679	130.087	0.015	69.707	0.717	-30.034		
5.00E-01	0.281	-93.966	24.418	122.606	0.018	68.816	0.654	-33.325		
6.00E-01	0.268	-105.802	21.658	116.579	0.020	67.938	0.602	-35.640		
7.00E-01	0.259	-115.782	19.346	111.567	0.022	68.295	0.560	-37.285		
8.00E-01	0.253	-124.460	17.424	107.376	0.024	68.651	0.526	-38.478		
9.00E-01	0.249	-132.216	15.824	103.649	0.027	68.627	0.497	-39.406		
1.00E+00	0.246	-138.974	14.464	100.426	0.029	69.474	0.474	-40.211		
1.10E+00	0.245	-145.149	13.304	97.513	0.031	69.627	0.454	-40.973		
1.20E+00	0.245	-150.573	12.302	94.874	0.033	69.922	0.437	-41.691
1.30E+00	0.245	-155.548	11.442	92.419	0.036	70.133	0.422	-42.470
1.40E+00	0.247	-160.250	10.680	90.167	0.038	70.056	0.408	-43.227
1.50E+00	0.249	-164.462	10.007	88.050	0.040	70.278	0.396	-44.082
1.60E+00	0.252	-168.472	9.414	86.010	0.043	70.415	0.385	-44.935
1.70E+00	0.255	-172.025	8.883	84.112	0.045	70.446	0.375	-45.936
1.80E+00	0.259	-175.545	8.405	82.283	0.047	70.467	0.365	-46.896
1.90E+00	0.262	-178.846	7.975	80.579	0.050	70.405	0.356	-47.942
2.00E+00	0.266	178.061	7.584	78.887	0.052	70.262	0.348	-49.094
2.10E+00	0.271	175.205	7.227	77.287	0.055	70.081	0.339	-50.285
2.20E+00	0.276	172.345	6.903	75.691	0.057	69.905	0.331	-51.532
2.30E+00	0.280	169.720	6.601	74.144	0.059	69.784	0.323	-52.825
2.40E+00	0.285	167.165	6.324	72.709	0.062	69.333	0.315	-54.194
2.50E+00	0.291	165.034	6.073	71.321	0.064	69.269	0.308	-55.529
2.60E+00	0.296	162.580	5.836	69.923	0.067	68.977	0.300	-57.056
2.70E+00	0.302	160.234	5.621	68.515	0.070	68.902	0.293	-58.561
2.80E+00	0.307	158.216	5.411	67.164	0.072	68.244	0.285	-60.236
2.90E+00	0.314	156.156	5.221	65.811	0.075	68.135	0.278	-61.879
3.00E+00	0.320	154.278	5.048	64.532	0.077	67.772	0.271	-63.678
3.10E+00	0.327	152.278	4.881	63.251	0.080	67.404	0.264	-65.574
3.20E+00	0.333	150.303	4.724	61.956	0.082	66.938	0.257	-67.535
3.30E+00	0.340	148.501	4.579	60.689	0.085	66.562	0.250	-69.513
3.40E+00	0.347	146.718	4.441	59.444	0.088	66.129	0.243	-71.670
3.50E+00	0.353	145.103	4.309	58.201	0.090	65.641	0.236	-74.060
3.60E+00	0.360	143.323	4.186	56.979	0.092	65.005	0.228	-76.540
3.70E+00	0.368	141.699	4.065	55.795	0.095	64.622	0.221	-78.932
3.80E+00	0.375	140.057	3.958	54.602	0.098	64.069	0.215	-81.537
3.90E+00	0.382	138.573	3.852	53.397	0.100	63.562	0.208	-84.417
4.00E+00	0.390	136.956	3.746	52.245	0.103	63.008	0.201	-87.318
4.10E+00	0.397	135.466	3.657	51.047	0.105	62.547	0.195	-90.397
4.20E+00	0.405	133.971	3.563	49.976	0.108	62.095	0.189	-93.688
4.30E+00	0.412	132.458	3.474	48.805	0.110	61.400	0.183	-97.096
4.40E+00	0.420	131.000	3.389	47.690	0.113	60.933	0.177	-100.618
4.50E+00	0.428	129.710	3.313	46.648	0.116	60.561	0.173	-104.319
4.60E+00	0.435	128.351	3.233	45.492	0.118	59.852	0.168	-108.339
4.70E+00	0.443	126.965	3.163	44.423	0.121	59.141	0.164	-112.616
4.80E+00	0.450	125.539	3.091	43.372	0.123	58.772	0.159	-116.865
4.90E+00	0.457	124.320	3.023	42.244	0.126	58.278	0.157	-121.401
5.00E+00	0.465	122.886	2.963	41.241	0.128	57.448	0.154	-126.195
5.10E+00	0.472	121.534	2.899	40.282	0.131	56.856	0.152	-130.884
5.20E+00	0.480	120.344	2.838	39.155	0.133	56.532	0.151	-135.565
5.30E+00	0.487	119.181	2.788	38.112	0.136	55.780	0.150	-140.611
5.40E+00	0.494	117.765	2.729	37.153	0.138	54.970	0.150	-145.772
5.50E+00	0.502	116.614	2.676	36.042	0.140	54.462	0.150	-150.594
5.60E+00	0.509	115.528	2.630	35.022	0.143	54.054	0.152	-155.300
5.70E+00	0.516	114.341	2.579	34.100	0.146	53.214	0.155	-160.173
5.80E+00	0.524	113.106	2.532	33.000	0.148	52.456	0.158	-164.915
5.90E+00	0.530	111.918	2.488	32.008	0.150	52.022	0.160	-169.324
6.00E+00	0.537	110.854	2.440	31.099	0.153	51.455	0.164	-173.667
6.10E+00	0.544	109.759	2.399	30.036	0.155	50.620	0.168	-177.689
6.20E+00	0.550	108.719	2.362	29.124	0.157	49.929	0.173	178.310
6.30E+00	0.557	107.574	2.318	28.170	0.159	49.614	0.178	174.612
6.40E+00	0.564	106.554	2.282	27.118	0.162	48.947	0.184	171.180
6.50E+00	0.570	105.515	2.248	26.200	0.164	48.128	0.190	167.828
6.60E+00	0.577	104.369	2.209	25.263	0.166	47.580	0.197	164.696
6.70E+00	0.583	103.426	2.175	24.202	0.169	47.296	0.203	161.743
6.80E+00	0.589	102.397	2.144	23.333	0.172	46.437	0.210	158.734
6.90E+00	0.596	101.221	2.107	22.374	0.173	45.498	0.217	155.849
7.00E+00	0.602	100.292	2.077	21.328	0.175	45.133	0.224	153.288
7.10E+00	0.607	99.319	2.047	20.460	0.178	44.725	0.231	150.766
7.20E+00	0.613	98.298	2.015	19.570	0.181	43.826	0.237	148.569
7.30E+00	0.618	97.335	1.988	18.559	0.182	43.085	0.245	146.370
7.40E+00	0.623	96.426	1.961	17.721	0.184	42.798	0.253	144.371
7.50E+00	0.629	95.488	1.931	16.725	0.188	42.043	0.260	142.096
7.60E+00	0.634	94.492	1.906	15.740	0.190	41.085	0.267	140.092
7.70E+00	0.639	93.550	1.879	14.943	0.191	40.526	0.275	138.156
7.80E+00	0.644	92.694	1.850	13.965	0.193	40.110	0.282	136.431
7.90E+00	0.649	91.844	1.830	13.062	0.197	39.179	0.290	134.658
8.00E+00	0.653	90.761	1.806	12.301	0.198	38.375	0.297	133.045
8.10E+00	0.657	89.958	1.780	11.308	0.199	37.919	0.304	131.487
8.20E+00	0.661	89.197	1.761	10.410	0.202	37.561	0.312	129.964
8.30E+00	0.665	88.305	1.738	9.652	0.205	36.528	0.319	128.395
8.40E+00	0.669	87.486	1.715	8.650	0.206	35.765	0.326	127.037
8.50E+00	0.673	86.807	1.698	7.768	0.208	35.466	0.334	125.729
8.60E+00	0.677	85.987	1.676	6.989	0.211	34.832	0.341	124.329
8.70E+00	0.681	85.096	1.655	5.989	0.213	33.774	0.348	123.136
8.80E+00	0.684	84.375	1.640	5.189	0.214	33.237	0.355	121.846
8.90E+00	0.688	83.734	1.616	4.451	0.217	32.924	0.363	120.507
9.00E+00	0.691	83.006	1.598	3.379	0.220	31.838	0.370	119.165
9.10E+00	0.695	82.339	1.583	2.598	0.221	30.901	0.376	117.995
9.20E+00	0.699	81.755	1.560	1.953	0.222	30.472	0.384	116.750
9.30E+00	0.703	81.272	1.544	0.991	0.225	29.883	0.391	115.465
9.40E+00	0.708	80.591	1.532	0.216	0.227	28.815	0.397	114.164
9.50E+00	0.714	79.788	1.512	-0.394	0.227	28.194	0.402	112.953
9.60E+00	0.721	79.225	1.499	-1.310	0.229	27.998	0.407	111.644
9.70E+00	0.727	78.353	1.492	-2.182	0.233	27.280	0.411	110.568
9.80E+00	0.732	76.938	1.473	-3.079	0.234	26.262	0.416	109.595
9.90E+00	0.730	76.044	1.459	-4.082	0.235	25.807	0.421	108.677
1.00E+01	0.729	75.533	1.448	-4.796	0.237	25.351	0.426	107.715
1.01E+01	0.732	74.915	1.429	-5.671	0.240	24.407	0.430	106.839
1.02E+01	0.736	74.244	1.417	-6.708	0.241	23.494	0.435	105.935
1.03E+01	0.740	73.564	1.406	-7.381	0.242	23.015	0.439	105.080
1.04E+01	0.743	72.842	1.388	-8.225	0.244	22.433	0.444	104.286
1.05E+01	0.747	72.012	1.377	-9.267	0.247	21.527	0.447	103.317
1.06E+01	0.748	71.185	1.368	-9.933	0.247	20.725	0.451	102.677
1.07E+01	0.750	70.528	1.350	-10.868	0.248	20.259	0.456	102.125
1.08E+01	0.753	70.028	1.338	-11.983	0.250	19.473	0.461	101.466
1.09E+01	0.754	69.453	1.324	-12.563	0.251	18.570	0.465	100.841
1.10E+01	0.760	68.856	1.307	-13.278	0.250	18.091	0.469	100.215
1.11E+01	0.767	68.196	1.299	-14.046	0.251	18.064	0.475	99.405
1.12E+01	0.772	67.221	1.293	-14.622	0.256	17.491	0.478	98.596
1.13E+01	0.775	66.050	1.283	-15.596	0.258	16.441	0.482	97.995
1.14E+01	0.774	64.942	1.276	-16.796	0.258	15.757	0.486	97.538
1.15E+01	0.770	64.366	1.265	-17.503	0.261	15.189	0.491	96.942
1.16E+01	0.769	63.401	1.251	-18.532	0.263	14.096	0.497	96.552
1.17E+01	0.765	62.789	1.240	-19.582	0.261	13.190	0.502	95.786
1.18E+01	0.770	62.306	1.227	-20.116	0.261	13.085	0.506	95.096
1.19E+01	0.769	61.177	1.212	-21.043	0.264	12.750	0.512	94.488
1.20E+01	0.764	60.203	1.207	-21.753	0.265	11.998	0.520	93.798
1.21E+01	0.760	59.469	1.197	-22.561	0.265	11.511	0.525	92.531
1.22E+01	0.756	58.682	1.183	-23.596	0.269	11.583	0.528	91.744
1.23E+01	0.749	58.606	1.173	-24.671	0.274	10.162	0.532	90.678
1.24E+01	0.750	58.081	1.156	-25.096	0.271	9.338	0.535	89.989
1.25E+01	0.749	57.322	1.146	-25.983	0.273	8.778	0.538	88.966
1.26E+01	0.746	57.196	1.137	-26.571	0.272	8.736	0.535	87.474
1.27E+01	0.743	56.764	1.127	-27.286	0.276	8.031	0.531	87.000
1.28E+01	0.743	56.212	1.115	-28.242	0.276	7.256	0.530	86.664
1.29E+01	0.744	55.878	1.107	-28.898	0.277	7.066	0.528	86.447
1.30E+01	0.744	55.543	1.096	-29.384	0.281	6.751	0.529	86.318
1.31E+01	0.742	54.942	1.088	-30.408	0.283	5.687	0.529	86.011
1.32E+01	0.742	54.283	1.081	-31.085	0.283	4.860	0.534	85.885
1.33E+01	0.739	53.819	1.069	-31.691	0.285	4.592	0.537	85.022
1.34E+01	0.739	53.581	1.060	-32.546	0.287	3.984	0.539	85.278
1.35E+01	0.738	52.948	1.058	-33.098	0.289	3.018	0.547	84.643
1.36E+01	0.737	52.515	1.043	-33.927	0.287	2.324	0.551	84.126
1.37E+01	0.739	52.225	1.035	-34.522	0.288	2.660	0.554	83.421
1.38E+01	0.740	51.756	1.033	-35.002	0.291	1.836	0.558	82.769
1.39E+01	0.738	51.037	1.021	-35.869	0.291	0.879	0.557	82.045
1.40E+01	0.739	50.620	1.015	-36.736	0.289	1.109	0.560	81.477
1.41E+01	0.740	50.312	1.011	-37.086	0.294	1.419	0.561	80.846
1.42E+01	0.737	49.765	1.000	-38.026	0.300	0.066	0.561	80.354
1.43E+01	0.737	49.128	0.994	-39.027	0.299	-0.593	0.563	79.946
1.44E+01	0.738	48.713	0.988	-39.374	0.301	-0.359	0.565	79.443
1.45E+01	0.736	48.285	0.974	-40.357	0.308	-1.417	0.565	78.826
1.46E+01	0.734	47.677	0.967	-41.252	0.309	-2.888	0.565	78.410
1.47E+01	0.735	47.062	0.959	-41.542	0.306	-3.123	0.567	77.941
1.48E+01	0.733	46.608	0.949	-42.277	0.311	-3.184	0.569	77.359
1.49E+01	0.732	46.084	0.942	-43.299	0.316	-4.525	0.569	76.896
1.50E+01	0.731	45.441	0.935	-43.605	0.314	-5.487	0.572	76.531
