! Filename: 114bfg410.001
! BFG410W Field B1
! V1=8.979E-001V,V2=1.000E+000V, I1=2.441E-004A, I2=1.398E-002A
# GHz   S   MA   R 50
!                S11              S21              S12              S22
!Freq(GHz)  Mag     Ang      Mag     Ang      Mag     Ang      Mag     Ang 
   0.040    0.507  -4.566   22.537 176.127    0.001  63.295    0.924  -0.970
   0.100    0.509 -11.881   22.115 170.278    0.004  84.482    0.926  -4.462
   0.200    0.492 -23.904   21.027 159.744    0.007  78.232    0.903 -10.329
   0.300    0.472 -33.671   20.494 151.167    0.010  74.667    0.880 -15.096
   0.400    0.445 -42.789   19.460 142.733    0.012  70.889    0.848 -19.449
   0.500    0.418 -53.218   18.267 135.123    0.015  67.567    0.812 -22.882
   0.600    0.391 -61.431   17.103 128.328    0.017  65.188    0.781 -26.052
   0.700    0.366 -69.321   15.904 122.083    0.019  63.045    0.748 -28.912
   0.800    0.343 -76.711   14.860 116.445    0.020  61.458    0.719 -31.226
   0.900    0.321 -83.214   13.911 111.287    0.022  60.117    0.693 -33.398
   1.000    0.301 -89.702   13.003 106.601    0.024  59.097    0.669 -35.312
   1.100    0.284 -95.842   12.195 102.268    0.025  58.191    0.648 -37.047
   1.200    0.269 -101.770   11.456  98.153    0.027  57.384    0.629 -38.761
   1.300    0.256 -107.505   10.783  94.359    0.028  56.700    0.611 -40.296
   1.400    0.244 -112.761   10.199  90.858    0.030  56.202    0.596 -41.722
   1.500    0.233 -118.554    9.652  87.422    0.032  55.595    0.581 -43.153
   1.600    0.224 -124.034    9.161  84.216    0.033  55.035    0.568 -44.580
   1.700    0.216 -129.380    8.709  81.102    0.035  54.341    0.557 -46.004
   1.800    0.209 -134.655    8.293  78.134    0.036  53.827    0.545 -47.408
   1.900    0.203 -139.687    7.911  75.265    0.038  53.176    0.534 -48.865
   2.000    0.199 -144.906    7.559  72.441    0.040  52.518    0.524 -50.334
   2.200    0.192 -154.999    6.943  67.112    0.043  51.151    0.505 -53.255
   2.400    0.187 -165.038    6.416  61.968    0.047  49.597    0.487 -56.190
   2.600    0.187 -174.635    5.951  56.949    0.051  47.897    0.469 -59.245
   2.800    0.189 176.218    5.550  52.189    0.055  46.028    0.451 -62.273
   3.000    0.192 167.402    5.195  47.500    0.058  44.055    0.434 -65.447
   3.500    0.210 147.448    4.473  36.236    0.069  38.456    0.390 -73.591
   4.000    0.238 130.244    3.911  25.304    0.079  32.240    0.344 -82.120
   4.500    0.272 116.180    3.468  14.633    0.089  25.182    0.297 -91.635
   5.000    0.309 103.207    3.089   4.062    0.099  17.801    0.243 -101.663
   5.500    0.351  90.742    2.752  -6.653    0.106   9.602    0.181 -112.267
   6.000    0.390  81.868    2.505 -16.443    0.118   2.410    0.137 -128.127
   6.500    0.427  71.686    2.249 -26.298    0.124  -4.927    0.083 -147.654
   7.000    0.417  63.960    2.042 -31.707    0.132  -2.957    0.076 -136.681
   7.500    0.493  58.038    1.926 -44.246    0.149 -17.219    0.071 129.718
   8.000    0.546  50.197    1.772 -54.954    0.157 -27.298    0.125  89.654
   8.500    0.596  41.457    1.597 -66.144    0.160 -38.788    0.196  63.454
   9.000    0.634  33.457    1.443 -75.950    0.162 -48.166    0.255  48.914
   9.500    0.662  25.503    1.289 -85.601    0.158 -57.294    0.314  35.679
  10.000    0.701  19.341    1.182 -96.027    0.164 -66.884    0.383  27.297
  10.500    0.732  12.046    1.061 -106.021    0.163 -76.706    0.442  17.532
  11.000    0.760   4.500    0.940 -116.495    0.159 -88.663    0.507   7.597
  11.500    0.775  -2.915    0.817 -126.447    0.149 -99.141    0.562  -1.974
  12.000    0.788 -10.579    0.700 -136.589    0.138 -111.371    0.615 -11.626
!     DEEMBEDDED NOISE DATA
!FREQUENCY    FMIN    GAMMA OPT        Rn
!  (GHz)      (dB)    Mag    Ang   (NORMALIZED)
