! Filename: 470BFG480.001
! Title: BFG480W
! Bias: Vce=4V; Ic=70mA
! Company: Philips Semiconductors NL
! User: Quality&Reliability T&D
! Measure time: 10 Nov 1999 / 12:03:23
#  MHz  S  MA  R 50
! Freq       S11             S21             S12             S22    :
  100  0.36081 -146.1 51.95107 148.95 0.006828 68.456  0.79024 -39.34
  200  0.51504 -153.5 40.40895 128.18 0.010705 58.585  0.64259 -69.06
  300  0.58695 -160.7 31.28813 115.50 0.013067 56.150  0.54034 -89.16
  400  0.62329 -165.8 25.01174 107.06 0.014982 57.005  0.48160 -103.4
  500  0.64451 -169.7 20.67843 100.94 0.016757 58.816  0.44716 -113.9
  600  0.65784 -172.8 17.49750 96.219 0.018570 60.643  0.42594 -121.8
  700  0.66694 -175.5 15.14153 92.429 0.020428 62.851  0.41173 -128.0
  800  0.67445 -177.8 13.29437 89.167 0.022403 64.735  0.40224 -133.2
  900  0.68286 -179.9 11.81393 86.393 0.024375 66.661  0.39712 -137.7
 1000  0.69006 178.14 10.62766 83.796 0.026735 68.039  0.39529 -141.7
 1200  0.70544 174.86  8.78154 78.931 0.031021 70.216  0.40013 -148.2
 1400  0.71679 172.37  7.43882 74.185 0.035393 71.643  0.40939 -153.1
 1600  0.72233 169.95  6.48936 70.296 0.040514 72.817  0.41518 -156.8
 1800  0.72283 167.26  5.76999 66.906 0.045982 73.649  0.42182 -160.7
 2000  0.73345 164.94  5.10800 63.944 0.050619 74.438  0.43273 -165.2
 2200  0.75305 162.72  4.56102 60.413 0.055062 74.662  0.45165 -169.0
 2400  0.76490 160.94  4.09035 56.742 0.059903 74.335  0.47595 -171.6
 2600  0.76602 159.26  3.73994 53.411 0.065899 73.871  0.49497 -173.1
 2800  0.76184 157.02  3.47077 49.036 0.070591 72.638  0.50390 -175.0
 3000  0.76671 154.32  3.22239 45.617 0.075990 71.969  0.51145 -177.9
