! Filename: 36bfg425.001
! BFG425W Field C1
! V1=8.294E-001V,V2=3.000E+000V, I1=7.360E-005A, I2=5.990E-003A
# GHz   S   MA   R 50
!                S11              S21              S12              S22
!Freq(GHz)  Mag     Ang      Mag     Ang      Mag     Ang      Mag     Ang 
   0.040    0.762  -4.036   17.063 175.674    0.002  70.708    0.976  -2.037
   0.100    0.765  -9.600   16.670 171.040    0.005  81.592    0.973  -5.429
   0.200    0.751 -19.254   16.344 162.956    0.011  77.196    0.959 -10.770
   0.300    0.730 -28.507   15.879 155.413    0.015  73.305    0.937 -15.837
   0.400    0.705 -37.645   15.327 147.878    0.020  68.352    0.909 -20.563
   0.500    0.674 -46.366   14.715 140.575    0.024  64.249    0.877 -24.952
   0.600    0.645 -54.547   13.978 134.100    0.028  60.459    0.843 -28.909
   0.700    0.615 -62.310   13.272 128.167    0.031  56.982    0.809 -32.484
   0.800    0.584 -69.912   12.592 122.346    0.034  54.182    0.776 -35.727
   0.900    0.554 -76.866   11.933 117.016    0.036  51.695    0.745 -38.698
   1.000    0.527 -83.640   11.285 111.987    0.038  49.390    0.715 -41.409
   1.100    0.502 -90.027   10.683 107.338    0.040  47.392    0.688 -43.904
   1.200    0.481 -96.162   10.120 102.927    0.042  45.625    0.662 -46.244
   1.300    0.460 -102.130    9.599  98.772    0.044  44.142    0.638 -48.409
   1.400    0.441 -107.824    9.119  94.856    0.046  42.714    0.615 -50.398
   1.500    0.424 -113.489    8.670  91.116    0.047  41.609    0.595 -52.277
   1.600    0.408 -119.101    8.260  87.517    0.049  40.511    0.576 -54.122
   1.700    0.395 -124.400    7.879  84.085    0.050  39.501    0.558 -55.903
   1.800    0.384 -129.644    7.524  80.793    0.052  38.630    0.541 -57.619
   1.900    0.373 -134.683    7.198  77.632    0.053  37.738    0.526 -59.369
   2.000    0.364 -139.594    6.891  74.548    0.055  36.940    0.511 -61.068
   2.200    0.349 -149.414    6.346  68.679    0.058  35.368    0.483 -64.412
   2.400    0.339 -158.946    5.874  63.003    0.061  33.918    0.458 -67.703
   2.600    0.333 -168.166    5.458  57.628    0.065  32.386    0.434 -71.079
   2.800    0.330 -177.026    5.094  52.450    0.068  30.819    0.412 -74.424
   3.000    0.330 174.479    4.771  47.399    0.072  29.133    0.390 -77.890
   3.500    0.341 154.580    4.104  35.286    0.081  24.549    0.337 -86.928
   4.000    0.362 136.902    3.578  23.637    0.090  19.170    0.284 -96.807
   4.500    0.392 121.677    3.160  12.469    0.101  13.185    0.233 -108.358
   5.000    0.430 107.384    2.805   1.137    0.110   5.798    0.176 -123.761
   5.500    0.460  94.438    2.481  -9.225    0.116  -0.245    0.123 -139.729
   6.000    0.501  82.719    2.218 -20.177    0.123  -8.460    0.081 -178.015
   6.500    0.513  75.018    2.033 -27.720    0.136 -10.157    0.080 161.245
   7.000    0.549  66.551    1.876 -37.395    0.150 -17.165    0.108 124.293
   7.500    0.608  56.377    1.691 -49.335    0.153 -29.256    0.171  87.961
   8.000    0.642  48.336    1.546 -59.082    0.160 -36.848    0.227  73.228
   8.500    0.680  39.980    1.398 -69.423    0.164 -46.239    0.292  59.393
   9.000    0.707  31.627    1.248 -78.785    0.163 -54.480    0.346  46.791
   9.500    0.734  24.079    1.126 -87.576    0.163 -62.886    0.386  37.309
  10.000    0.762  16.972    1.029 -97.771    0.165 -72.352    0.450  29.966
  10.500    0.783   9.821    0.925 -107.546    0.163 -81.546    0.507  21.433
  11.000    0.800   2.518    0.817 -116.743    0.157 -91.417    0.552  11.974
  11.500    0.812  -4.690    0.728 -126.365    0.151 -101.587    0.596   4.454
  12.000    0.818 -11.862    0.633 -135.735    0.141 -112.294    0.639  -4.178
!     DEEMBEDDED NOISE DATA
!FREQUENCY    FMIN    GAMMA OPT        Rn
!  (GHz)      (dB)    Mag    Ang   (NORMALIZED)
