! Filename: 232bfg425.001
! BFG425W Field C1
! V1=8.734E-001V,V2=2.000E+000V, I1=4.905E-004A, I2=3.245E-002A
# GHz   S   MA   R 50
!                S11              S21              S12              S22
!Freq(GHz)  Mag     Ang      Mag     Ang      Mag     Ang      Mag     Ang 
   0.040    0.231 -13.062   39.050 172.858    0.002  76.768    0.862  -3.344
   0.100    0.233 -32.341   38.282 163.177    0.005  79.988    0.853 -10.641
   0.200    0.230 -60.280   35.175 148.041    0.009  74.227    0.793 -20.734
   0.300    0.234 -83.309   30.686 135.715    0.012  70.585    0.719 -28.663
   0.400    0.236 -102.177   26.758 125.797    0.015  68.010    0.647 -34.092
   0.500    0.243 -117.586   23.425 117.350    0.017  65.850    0.589 -37.985
   0.600    0.246 -129.063   20.681 110.672    0.020  64.786    0.541 -41.122
   0.700    0.249 -138.387   18.451 105.025    0.022  63.824    0.501 -43.274
   0.800    0.254 -146.556   16.580  99.869    0.025  63.329    0.471 -45.233
   0.900    0.256 -153.543   15.017  95.388    0.027  62.731    0.443 -47.079
   1.000    0.259 -159.795   13.691  91.384    0.029  61.886    0.421 -48.461
   1.100    0.261 -165.343   12.573  87.688    0.032  61.243    0.402 -50.083
   1.200    0.264 -170.304   11.611  84.264    0.034  60.491    0.384 -51.522
   1.300    0.267 -174.901   10.778  81.009    0.037  59.753    0.370 -52.872
   1.400    0.270 -179.009   10.055  77.929    0.039  59.035    0.356 -54.466
   1.500    0.275 176.916    9.413  74.963    0.042  58.101    0.343 -55.732
   1.600    0.278 173.075    8.847  72.126    0.044  57.244    0.333 -57.219
   1.700    0.281 169.643    8.344  69.369    0.047  56.282    0.322 -58.837
   1.800    0.285 166.266    7.890  66.726    0.049  55.188    0.312 -60.220
   1.900    0.288 162.803    7.484  64.194    0.052  54.147    0.303 -61.908
   2.000    0.292 159.721    7.114  61.712    0.054  52.945    0.293 -63.591
   2.200    0.300 153.635    6.473  56.949    0.059  50.584    0.276 -66.919
   2.400    0.310 147.786    5.925  52.170    0.065  48.108    0.258 -70.322
   2.600    0.319 142.482    5.459  47.568    0.070  45.462    0.240 -74.084
   2.800    0.329 137.199    5.066  43.154    0.075  42.807    0.224 -77.985
   3.000    0.339 132.119    4.720  38.828    0.080  40.040    0.207 -81.956
   3.500    0.368 120.361    4.019  28.165    0.093  32.766    0.165 -93.373
   4.000    0.400 109.325    3.484  17.657    0.105  25.191    0.121 -108.107
   4.500    0.434  99.327    3.059   7.379    0.116  17.280    0.081 -132.469
   5.000    0.474  89.306    2.701  -3.077    0.126   8.664    0.055 173.949
   5.500    0.504  79.374    2.385 -12.586    0.134   1.353    0.067 118.665
   6.000    0.543  70.289    2.129 -22.791    0.140  -7.498    0.119  89.677
   6.500    0.552  63.708    1.953 -29.790    0.154 -11.464    0.136  82.778
   7.000    0.585  56.651    1.800 -38.951    0.166 -19.334    0.187  75.349
   7.500    0.638  48.140    1.619 -50.289    0.168 -30.744    0.267  62.023
   8.000    0.669  41.091    1.482 -59.470    0.174 -38.668    0.320  53.790
   8.500    0.705  33.622    1.342 -69.252    0.176 -47.917    0.379  44.729
   9.000    0.728  26.032    1.202 -77.978    0.174 -56.011    0.428  35.430
   9.500    0.752  19.069    1.090 -86.382    0.173 -64.132    0.463  27.666
  10.000    0.778  12.598    0.996 -96.015    0.174 -73.264    0.517  21.357
  10.500    0.796   5.899    0.900 -105.279    0.172 -82.173    0.564  13.978
  11.000    0.812  -0.993    0.801 -113.985    0.166 -91.512    0.602   5.727
  11.500    0.823  -7.827    0.718 -123.083    0.159 -101.021    0.638  -1.032
  12.000    0.829 -14.764    0.628 -131.950    0.150 -110.954    0.674  -8.864
!     DEEMBEDDED NOISE DATA
!FREQUENCY    FMIN    GAMMA OPT        Rn
!  (GHz)      (dB)    Mag    Ang   (NORMALIZED)
