! Filename: 410BFG480.001
! Title: BFG480W
! Bias: Vce=4V; Ic=10mA
! Company: Philips Semiconductors NL
! User: Quality&Reliability T&D
! Measure time: 10 Nov 1999 / 12:02:13
#  MHz  S  MA  R 50
! Freq       S11             S21             S12             S22    :
  100  0.63713 -29.20 19.66594 160.21 0.013555 67.435  0.91689 -21.53
  200  0.62540 -56.50 17.86256 144.59 0.023790 56.203  0.82804 -40.65
  300  0.61317 -81.35 16.42634 131.68 0.030598 47.329  0.73457 -55.63
  400  0.61880 -99.46 14.42075 121.65 0.034782 40.421  0.66417 -67.73
  500  0.62349 -114.3 12.84003 113.30 0.037037 35.695  0.60771 -77.92
  600  0.62565 -126.0 11.47979 106.21 0.038376 32.501  0.56533 -85.94
  700  0.63014 -134.7 10.23576 100.57 0.039032 30.574  0.53452 -92.69
  800  0.63348 -141.9  9.19732 95.575 0.039310 29.476  0.51135 -98.52
  900  0.63964 -147.4  8.22679 91.459 0.039279 29.226  0.49514 -103.8
 1000  0.64702 -152.7  7.48737 87.720 0.039352 29.393  0.48358 -108.8
 1200  0.66485 -160.9  6.27153 80.832 0.039039 30.861  0.47445 -117.7
 1400  0.68245 -166.9  5.37391 74.423 0.038640 33.665  0.47708 -125.0
 1600  0.69475 -171.5  4.68070 69.415 0.039170 38.108  0.48278 -130.9
 1800  0.69947 -175.9  4.15692 65.244 0.040623 43.368  0.48754 -136.4
 2000  0.70954 -179.9  3.67273 61.084 0.041833 48.419  0.49400 -142.4
 2200  0.73039 176.32  3.27663 56.518 0.043770 52.714  0.51156 -148.2
 2400  0.74748 173.14  2.93360 51.932 0.046766 56.407  0.53764 -152.9
 2600  0.75645 170.44  2.66916 47.947 0.051319 59.816  0.56233 -156.4
 2800  0.75763 167.52  2.48170 43.081 0.055390 61.462  0.57659 -159.5
 3000  0.76426 164.28  2.29639 39.158 0.060172 63.424  0.58608 -163.4
