! Filename: 314bfg410.001
! BFG410W Field B1
! V1=8.758E-001V,V2=3.000E+000V, I1=2.143E-004A, I2=1.402E-002A
# GHz   S   MA   R 50
!                S11              S21              S12              S22
!Freq(GHz)  Mag     Ang      Mag     Ang      Mag     Ang      Mag     Ang 
   0.040    0.562  -2.618   23.859 175.294    0.001  59.617    0.967  -0.691
   0.100    0.567  -8.063   23.454 170.834    0.002  87.227    0.972  -3.453
   0.200    0.554 -16.312   22.854 162.397    0.005  81.178    0.958  -7.824
   0.300    0.536 -23.989   22.111 154.737    0.007  78.672    0.942 -11.532
   0.400    0.512 -31.274   21.199 147.014    0.009  75.128    0.919 -15.081
   0.500    0.484 -38.468   20.155 139.811    0.011  71.398    0.893 -18.037
   0.600    0.457 -44.767   19.059 133.395    0.012  70.002    0.869 -20.747
   0.700    0.431 -50.630   17.949 127.467    0.014  67.661    0.843 -23.208
   0.800    0.405 -56.151   16.915 121.912    0.015  66.482    0.819 -25.323
   0.900    0.379 -61.046   15.935 116.836    0.017  65.317    0.798 -27.330
   1.000    0.355 -65.705   14.999 112.135    0.018  64.204    0.778 -29.147
   1.100    0.334 -70.156   14.157 107.788    0.019  63.341    0.760 -30.811
   1.200    0.314 -74.303   13.372 103.663    0.021  62.619    0.743 -32.456
   1.300    0.296 -78.312   12.644  99.853    0.022  62.088    0.727 -33.928
   1.400    0.280 -82.129   11.995  96.298    0.023  61.503    0.713 -35.344
   1.500    0.264 -86.082   11.390  92.845    0.025  60.970    0.700 -36.723
   1.600    0.249 -89.763   10.841  89.599    0.026  60.554    0.689 -38.110
   1.700    0.236 -93.464   10.331  86.480    0.027  59.984    0.678 -39.483
   1.800    0.223 -97.090    9.865  83.481    0.029  59.365    0.668 -40.846
   1.900    0.212 -100.644    9.437  80.614    0.030  58.929    0.658 -42.258
   2.000    0.202 -104.314    9.042  77.809    0.031  58.438    0.649 -43.666
   2.200    0.183 -111.879    8.340  72.484    0.034  57.194    0.632 -46.458
   2.400    0.166 -120.021    7.732  67.347    0.037  55.981    0.616 -49.257
   2.600    0.153 -128.718    7.200  62.463    0.040  54.541    0.600 -52.145
   2.800    0.142 -137.901    6.735  57.749    0.044  52.880    0.584 -55.015
   3.000    0.133 -147.778    6.327  53.075    0.047  51.146    0.569 -57.999
   3.500    0.125 -175.103    5.484  41.966    0.056  46.193    0.529 -65.569
   4.000    0.133 157.913    4.830  31.195    0.065  40.513    0.487 -73.380
   4.500    0.160 136.319    4.314  20.708    0.075  33.862    0.442 -81.847
   5.000    0.194 118.064    3.872  10.217    0.084  26.774    0.390 -90.364
   5.500    0.237 101.828    3.474  -0.553    0.092  18.648    0.326 -98.782
   6.000    0.276  92.189    3.189 -10.180    0.103  11.887    0.282 -109.146
   6.500    0.318  80.199    2.876 -20.114    0.110   4.468    0.221 -117.825
   7.000    0.299  71.574    2.606 -25.119    0.117   8.234    0.227 -114.917
   7.500    0.390  67.412    2.502 -37.955    0.137  -6.728    0.153 -147.476
   8.000    0.454  59.058    2.324 -49.036    0.147 -17.328    0.110 173.147
   8.500    0.519  49.466    2.109 -60.873    0.152 -29.654    0.105 108.933
   9.000    0.568  40.825    1.911 -71.233    0.155 -39.553    0.152  73.084
   9.500    0.607  31.830    1.705 -81.431    0.152 -49.452    0.213  49.025
  10.000    0.657  25.303    1.569 -92.457    0.160 -59.646    0.291  37.736
  10.500    0.697  17.334    1.405 -103.105    0.159 -70.146    0.361  25.269
  11.000    0.735   8.954    1.235 -114.211    0.156 -83.169    0.439  13.054
  11.500    0.755   0.458    1.065 -124.776    0.145 -94.783    0.504   1.813
  12.000    0.771  -7.872    0.903 -135.253    0.135 -108.000    0.567  -9.265
!     DEEMBEDDED NOISE DATA
!FREQUENCY    FMIN    GAMMA OPT        Rn
!  (GHz)      (dB)    Mag    Ang   (NORMALIZED)
