! Filename: 34bfg425.001
! BFG425W Field C1
! V1=8.204E-001V,V2=3.000E+000V, I1=4.819E-005A, I2=4.000E-003A
# GHz   S   MA   R 50
!                S11              S21              S12              S22
!Freq(GHz)  Mag     Ang      Mag     Ang      Mag     Ang      Mag     Ang 
   0.040    0.833  -3.635   12.402 176.308    0.002  70.290    0.983  -1.750
   0.100    0.836  -8.172   12.114 172.471    0.006  82.343    0.982  -4.605
   0.200    0.827 -16.175   11.969 165.528    0.011  78.567    0.973  -9.153
   0.300    0.811 -24.156   11.759 159.085    0.016  74.311    0.959 -13.585
   0.400    0.791 -31.971   11.505 152.362    0.021  69.807    0.939 -17.797
   0.500    0.770 -39.597   11.209 145.762    0.026  66.015    0.916 -21.870
   0.600    0.745 -46.950   10.801 139.788    0.030  61.948    0.891 -25.640
   0.700    0.721 -53.971   10.401 134.187    0.034  58.287    0.864 -29.184
   0.800    0.694 -60.944   10.017 128.616    0.037  54.956    0.836 -32.502
   0.900    0.666 -67.512    9.633 123.384    0.040  51.894    0.809 -35.637
   1.000    0.640 -73.974    9.231 118.322    0.043  49.072    0.783 -38.533
   1.100    0.615 -80.062    8.837 113.628    0.046  46.486    0.757 -41.247
   1.200    0.592 -86.035    8.460 109.085    0.048  44.129    0.733 -43.831
   1.300    0.569 -91.790    8.099 104.787    0.050  42.033    0.709 -46.252
   1.400    0.548 -97.481    7.762 100.671    0.051  40.066    0.686 -48.502
   1.500    0.528 -103.034    7.438  96.706    0.053  38.343    0.665 -50.624
   1.600    0.509 -108.595    7.136  92.867    0.055  36.748    0.644 -52.684
   1.700    0.493 -113.760    6.846  89.228    0.056  35.293    0.625 -54.667
   1.800    0.477 -118.931    6.569  85.699    0.057  33.953    0.607 -56.587
   1.900    0.463 -123.880    6.313  82.348    0.059  32.768    0.590 -58.496
   2.000    0.451 -128.801    6.068  79.063    0.060  31.612    0.574 -60.345
   2.200    0.430 -138.634    5.629  72.751    0.062  29.532    0.543 -63.931
   2.400    0.412 -148.152    5.240  66.751    0.065  27.768    0.515 -67.421
   2.600    0.400 -157.453    4.890  61.020    0.068  26.149    0.489 -70.907
   2.800    0.391 -166.588    4.580  55.506    0.070  24.521    0.463 -74.351
   3.000    0.385 -175.425    4.302  50.142    0.073  22.962    0.440 -77.878
   3.500    0.385 163.616    3.721  37.371    0.080  18.938    0.383 -86.875
   4.000    0.398 144.543    3.255  25.105    0.088  14.345    0.327 -96.560
   4.500    0.423 127.900    2.879  13.477    0.097   9.285    0.274 -107.527
   5.000    0.457 112.378    2.559   1.734    0.105   2.546    0.215 -121.490
   5.500    0.483  98.610    2.265  -8.986    0.111  -2.788    0.159 -135.246
   6.000    0.523  86.029    2.027 -20.251    0.118 -10.484    0.109 -163.191
   6.500    0.534  77.560    1.854 -28.062    0.131 -11.126    0.101 178.850
   7.000    0.570  68.561    1.709 -37.932    0.144 -17.680    0.113 141.903
   7.500    0.624  57.852    1.540 -50.023    0.148 -29.797    0.160  99.506
   8.000    0.658  49.472    1.408 -59.922    0.155 -37.176    0.213  81.277
   8.500    0.694  40.917    1.273 -70.402    0.160 -46.472    0.276  65.185
   9.000    0.719  32.380    1.134 -79.930    0.158 -54.627    0.330  51.240
   9.500    0.745  24.666    1.023 -88.736    0.159 -62.980    0.371  41.200
  10.000    0.771  17.485    0.935 -98.980    0.161 -72.427    0.437  33.329
  10.500    0.790  10.285    0.840 -108.865    0.160 -81.614    0.496  24.345
  11.000    0.805   2.952    0.741 -118.163    0.154 -91.552    0.543  14.469
  11.500    0.817  -4.252    0.661 -127.866    0.148 -101.859    0.589   6.704
  12.000    0.822 -11.411    0.574 -137.385    0.138 -112.690    0.635  -2.189
!     DEEMBEDDED NOISE DATA
!FREQUENCY    FMIN    GAMMA OPT        Rn
!  (GHz)      (dB)    Mag    Ang   (NORMALIZED)
