! Filename: 48bfg425.001
! BFG425W Field C1
! V1=8.298E-001V,V2=4.000E+000V, I1=8.674E-005A, I2=7.990E-003A
# GHz   S   MA   R 50
!                S11              S21              S12              S22
!Freq(GHz)  Mag     Ang      Mag     Ang      Mag     Ang      Mag     Ang 
   0.040    0.703  -4.393   20.872 174.938    0.003  46.491    0.956  -2.221
   0.100    0.710 -10.634   20.316 169.964    0.005  71.000    0.952  -5.730
   0.200    0.694 -21.262   19.821 161.101    0.010  71.415    0.935 -11.440
   0.300    0.669 -31.356   19.076 152.929    0.014  68.777    0.908 -16.717
   0.400    0.639 -41.279   18.232 144.922    0.018  65.439    0.875 -21.511
   0.500    0.605 -50.589   17.313 137.197    0.022  61.731    0.839 -25.823
   0.600    0.573 -59.119   16.280 130.494    0.025  58.946    0.802 -29.614
   0.700    0.541 -67.214   15.301 124.481    0.027  55.999    0.766 -32.949
   0.800    0.509 -74.992   14.373 118.639    0.030  53.715    0.732 -35.899
   0.900    0.480 -82.063   13.503 113.371    0.032  51.906    0.701 -38.571
   1.000    0.453 -88.907   12.679 108.444    0.034  50.205    0.672 -40.976
   1.100    0.430 -95.381   11.928 103.907    0.036  48.743    0.646 -43.176
   1.200    0.410 -101.551   11.234  99.641    0.038  47.532    0.622 -45.235
   1.300    0.391 -107.485   10.598  95.662    0.039  46.411    0.600 -47.117
   1.400    0.375 -113.295   10.027  91.910    0.041  45.494    0.579 -48.857
   1.500    0.360 -118.935    9.503  88.336    0.043  44.659    0.561 -50.512
   1.600    0.347 -124.549    9.024  84.904    0.044  43.904    0.544 -52.162
   1.700    0.336 -129.888    8.580  81.635    0.046  43.122    0.529 -53.761
   1.800    0.326 -135.040    8.177  78.497    0.048  42.445    0.514 -55.316
   1.900    0.318 -140.076    7.808  75.474    0.049  41.769    0.501 -56.931
   2.000    0.311 -145.098    7.463  72.538    0.051  40.992    0.488 -58.512
   2.200    0.300 -154.873    6.856  66.925    0.054  39.649    0.463 -61.654
   2.400    0.293 -164.304    6.331  61.488    0.058  38.266    0.441 -64.770
   2.600    0.290 -173.444    5.874  56.324    0.062  36.703    0.420 -68.000
   2.800    0.289 177.880    5.475  51.346    0.066  35.013    0.399 -71.212
   3.000    0.291 169.481    5.123  46.478    0.069  33.260    0.379 -74.568
   3.500    0.307 150.331    4.401  34.774    0.080  28.226    0.330 -83.334
   4.000    0.333 133.279    3.837  23.442    0.090  22.460    0.279 -92.869
   4.500    0.365 118.850    3.388  12.563    0.100  16.090    0.229 -103.923
   5.000    0.405 105.207    3.009   1.444    0.110   8.397    0.171 -118.444
   5.500    0.436  92.637    2.662  -8.750    0.116   2.060    0.117 -132.703
   6.000    0.480  81.442    2.383 -19.558    0.124  -6.387    0.069 -170.939
   6.500    0.491  74.064    2.185 -26.919    0.137  -8.414    0.067 167.190
   7.000    0.529  66.079    2.020 -36.494    0.151 -15.588    0.094 124.771
   7.500    0.590  56.126    1.821 -48.425    0.154 -27.783    0.161  85.864
   8.000    0.626  48.256    1.667 -58.108    0.161 -35.487    0.217  71.558
   8.500    0.667  39.966    1.509 -68.442    0.166 -44.979    0.284  57.998
   9.000    0.695  31.676    1.347 -77.793    0.164 -53.291    0.339  45.533
   9.500    0.725  24.155    1.217 -86.619    0.164 -61.760    0.381  36.101
  10.000    0.754  17.120    1.111 -96.775    0.166 -71.338    0.445  28.967
  10.500    0.776   9.958    0.999 -106.601    0.164 -80.592    0.501  20.553
  11.000    0.794   2.579    0.882 -115.790    0.158 -90.528    0.547  11.137
  11.500    0.807  -4.608    0.786 -125.393    0.152 -100.687    0.591   3.683
  12.000    0.814 -11.839    0.683 -134.731    0.143 -111.422    0.634  -4.947
!     DEEMBEDDED NOISE DATA
!FREQUENCY    FMIN    GAMMA OPT        Rn
!  (GHz)      (dB)    Mag    Ang   (NORMALIZED)
