! Filename: 17bfg425.001
! BFG425W Field C1
! V1=8.436E-001V,V2=1.000E+000V, I1=1.005E-004A, I2=7.010E-003A
# GHz   S   MA   R 50
!                S11              S21              S12              S22
!Freq(GHz)  Mag     Ang      Mag     Ang      Mag     Ang      Mag     Ang 
   0.040    0.699  -5.071   19.147 175.581    0.003  82.408    0.958  -2.916
   0.100    0.701 -12.433   18.744 169.824    0.007  84.110    0.952  -7.702
   0.200    0.683 -24.586   18.167 159.992    0.014  76.586    0.926 -15.501
   0.300    0.658 -36.201   17.460 151.179    0.021  70.629    0.891 -22.638
   0.400    0.627 -47.350   16.564 142.661    0.026  65.100    0.847 -29.171
   0.500    0.595 -57.903   15.617 134.775    0.031  60.575    0.799 -34.900
   0.600    0.564 -67.657   14.604 127.777    0.035  56.614    0.753 -40.084
   0.700    0.534 -76.686   13.638 121.467    0.039  53.023    0.706 -44.758
   0.800    0.507 -85.410   12.746 115.514    0.042  50.220    0.664 -48.827
   0.900    0.481 -93.318   11.914 110.108    0.045  47.788    0.624 -52.563
   1.000    0.459 -100.815   11.131 105.149    0.047  45.666    0.588 -55.907
   1.100    0.440 -107.896   10.430 100.588    0.050  43.821    0.556 -58.999
   1.200    0.424 -114.558    9.790  96.287    0.052  42.221    0.526 -61.890
   1.300    0.410 -120.931    9.211  92.266    0.054  40.838    0.499 -64.572
   1.400    0.398 -127.034    8.691  88.497    0.056  39.633    0.474 -67.058
   1.500    0.387 -132.998    8.215  84.883    0.058  38.520    0.451 -69.430
   1.600    0.378 -138.828    7.782  81.439    0.060  37.490    0.430 -71.738
   1.700    0.371 -144.213    7.386  78.156    0.062  36.559    0.411 -73.992
   1.800    0.365 -149.480    7.021  74.940    0.064  35.649    0.393 -76.157
   1.900    0.360 -154.465    6.691  71.899    0.066  34.720    0.376 -78.387
   2.000    0.357 -159.273    6.387  68.941    0.068  33.869    0.361 -80.587
   2.200    0.352 -168.734    5.848  63.256    0.071  32.064    0.332 -84.971
   2.400    0.351 -177.617    5.388  57.834    0.076  30.323    0.306 -89.410
   2.600    0.353 174.007    4.986  52.610    0.080  28.472    0.281 -94.080
   2.800    0.356 166.068    4.636  47.579    0.084  26.512    0.259 -98.889
   3.000    0.362 158.493    4.328  42.664    0.088  24.491    0.238 -104.073
   3.500    0.384 141.270    3.698  30.831    0.099  18.905    0.190 -119.111
   4.000    0.411 125.920    3.205  19.414    0.110  12.688    0.149 -139.059
   4.500    0.444 112.533    2.818   8.456    0.120   5.980    0.121 -166.599
   5.000    0.482  99.754    2.486  -2.642    0.129  -1.799    0.116 156.006
   5.500    0.510  88.020    2.192 -12.769    0.135  -8.236    0.127 123.944
   6.000    0.549  77.235    1.954 -23.390    0.142 -16.498    0.171  98.969
   6.500    0.561  69.731    1.790 -30.863    0.155 -19.293    0.188  90.435
   7.000    0.594  61.529    1.644 -40.368    0.166 -26.590    0.238  80.466
   7.500    0.645  51.913    1.475 -51.834    0.168 -37.963    0.312  65.948
   8.000    0.675  44.211    1.346 -61.190    0.173 -45.437    0.362  56.720
   8.500    0.708  36.138    1.216 -71.082    0.175 -54.391    0.418  47.025
   9.000    0.731  28.155    1.086 -79.912    0.172 -62.221    0.462  37.351
   9.500    0.753  20.954    0.984 -88.316    0.171 -70.141    0.494  29.490
  10.000    0.777  14.190    0.898 -97.971    0.172 -79.078    0.546  22.730
  10.500    0.794   7.355    0.810 -107.249    0.169 -87.759    0.591  15.139
  11.000    0.807   0.372    0.720 -115.971    0.162 -96.940    0.625   6.814
  11.500    0.818  -6.538    0.646 -125.076    0.156 -106.299    0.659  -0.041
  12.000    0.823 -13.488    0.565 -134.036    0.146 -116.257    0.692  -7.856
!     DEEMBEDDED NOISE DATA
!FREQUENCY    FMIN    GAMMA OPT        Rn
!  (GHz)      (dB)    Mag    Ang   (NORMALIZED)
