! Filename BFG424F_1V_3mA.prm
! Simulation_Values
! Created	by	janssen	on	nov	2006			
!	Column ranking S11, S21,S12,S22 both magnitude and phase.								
!	VCE	=	1	V,	IC	=	3	mA	
!	Common	Emitter	S-Parameters						
#	GHz	S	MA	R	50				
	5.00E-01	0.820	-37.53	9.200	152.63	0.037	69.34	0.920	-21.89
	6.00E-01	0.802	-44.59	8.941	147.74	0.042	65.60	0.894	-25.80
	7.00E-01	0.780	-51.48	8.690	143.05	0.048	62.55	0.867	-29.47
	8.00E-01	0.758	-58.17	8.408	138.56	0.053	59.38	0.839	-32.92
	9.00E-01	0.739	-64.54	8.085	134.41	0.057	56.50	0.810	-36.28
	1.00E+00	0.718	-70.65	7.791	130.42	0.061	54.04	0.781	-39.33
	1.10E+00	0.699	-76.69	7.501	126.71	0.064	51.71	0.753	-42.22
	1.20E+00	0.679	-82.45	7.210	123.18	0.067	49.70	0.726	-44.93
	1.30E+00	0.660	-88.07	6.940	119.81	0.070	47.70	0.698	-47.50
	1.40E+00	0.644	-93.45	6.666	116.61	0.072	46.08	0.673	-49.95
	1.50E+00	0.629	-98.77	6.423	113.52	0.074	44.42	0.649	-52.27
	1.60E+00	0.613	-103.75	6.185	110.63	0.076	43.11	0.626	-54.47
	1.70E+00	0.599	-108.58	5.945	107.92	0.078	41.84	0.603	-56.62
	1.80E+00	0.587	-113.41	5.716	105.29	0.079	40.81	0.581	-58.61
	1.90E+00	0.576	-117.92	5.506	102.77	0.080	39.95	0.562	-60.55
	2.00E+00	0.568	-122.40	5.315	100.44	0.082	39.15	0.543	-62.41
	2.10E+00	0.559	-126.62	5.126	98.06	0.083	38.39	0.526	-64.28
	2.20E+00	0.550	-130.75	4.946	95.83	0.084	37.68	0.509	-66.16
	2.30E+00	0.543	-134.93	4.771	93.72	0.084	37.20	0.492	-67.98
	2.40E+00	0.539	-138.76	4.616	91.67	0.085	36.75	0.477	-69.73
	2.50E+00	0.536	-142.46	4.464	89.72	0.086	36.60	0.462	-71.45
	2.60E+00	0.529	-146.14	4.324	87.68	0.087	36.10	0.448	-73.21
	2.70E+00	0.525	-149.88	4.189	85.84	0.088	35.90	0.435	-75.07
	2.80E+00	0.523	-153.38	4.058	84.04	0.088	35.72	0.422	-76.88
	2.90E+00	0.522	-156.73	3.936	82.32	0.089	35.73	0.409	-78.69
	3.00E+00	0.520	-159.91	3.819	80.58	0.090	35.58	0.398	-80.45
	3.10E+00	0.519	-163.18	3.714	78.87	0.090	35.44	0.387	-82.22
	3.20E+00	0.518	-166.32	3.607	77.23	0.091	35.50	0.377	-84.15
	3.30E+00	0.519	-169.48	3.504	75.70	0.092	35.74	0.367	-86.03
	3.40E+00	0.521	-172.23	3.408	74.07	0.093	35.71	0.357	-88.03
	3.50E+00	0.521	-175.03	3.314	72.60	0.093	35.83	0.347	-90.03
	3.60E+00	0.521	-177.93	3.227	71.04	0.094	35.99	0.339	-92.01
	3.70E+00	0.522	179.30	3.149	69.55	0.095	36.02	0.330	-94.14
	3.80E+00	0.525	176.69	3.068	68.17	0.096	36.39	0.322	-96.40
	3.90E+00	0.527	174.24	2.995	66.78	0.097	36.52	0.315	-98.57
	4.00E+00	0.528	171.71	2.920	65.32	0.098	36.67	0.307	-100.82
	4.10E+00	0.530	169.20	2.848	64.03	0.099	36.92	0.300	-103.02
	4.20E+00	0.532	166.70	2.780	62.58	0.100	37.02	0.293	-105.47
	4.30E+00	0.537	164.42	2.718	61.39	0.101	37.23	0.287	-107.91
	4.40E+00	0.541	162.39	2.657	60.03	0.102	37.50	0.281	-110.48
	4.50E+00	0.542	160.38	2.597	58.73	0.104	37.77	0.276	-112.92
	4.60E+00	0.543	158.01	2.540	57.52	0.105	37.84	0.271	-115.50
	4.70E+00	0.548	155.71	2.483	56.24	0.106	37.89	0.267	-118.05
	4.80E+00	0.554	153.87	2.435	54.92	0.107	38.15	0.263	-120.99
	4.90E+00	0.557	152.16	2.384	53.85	0.109	38.20	0.259	-123.86
	5.00E+00	0.560	150.32	2.334	52.62	0.110	38.27	0.255	-126.74
	5.10E+00	0.561	148.19	2.290	51.27	0.111	38.51	0.251	-129.42
	5.20E+00	0.566	146.19	2.243	50.23	0.113	38.73	0.250	-132.06
	5.30E+00	0.573	144.66	2.195	49.08	0.115	38.62	0.249	-135.04
	5.40E+00	0.576	142.96	2.158	47.86	0.116	38.63	0.246	-138.21
	5.50E+00	0.578	141.35	2.114	46.87	0.117	38.86	0.244	-141.27
	5.60E+00	0.581	139.52	2.068	45.61	0.118	38.93	0.242	-144.25
	5.70E+00	0.586	137.96	2.034	44.51	0.120	38.86	0.242	-147.00
	5.80E+00	0.592	136.41	1.994	43.57	0.121	38.96	0.243	-149.96
	5.90E+00	0.595	134.97	1.955	42.28	0.123	39.05	0.244	-152.99
	6.00E+00	0.597	133.47	1.926	41.39	0.125	38.93	0.244	-156.03
	6.10E+00	0.600	131.79	1.890	40.43	0.126	38.83	0.244	-158.95
	6.20E+00	0.605	130.23	1.850	39.13	0.127	39.00	0.245	-161.63
	6.30E+00	0.612	129.01	1.823	38.11	0.129	39.04	0.248	-164.54
	6.40E+00	0.613	127.70	1.788	37.22	0.131	38.98	0.251	-167.39
	6.50E+00	0.615	126.22	1.757	36.11	0.132	38.84	0.253	-170.36
	6.60E+00	0.619	124.81	1.728	35.26	0.134	38.91	0.255	-172.97
	6.70E+00	0.624	123.54	1.696	34.36	0.136	38.77	0.257	-175.42
	6.80E+00	0.630	122.30	1.667	33.17	0.138	38.56	0.260	-177.96
	6.90E+00	0.633	121.16	1.643	32.31	0.139	38.49	0.265	179.50
	7.00E+00	0.633	119.96	1.611	31.46	0.140	38.63	0.269	176.90
	7.10E+00	0.636	118.56	1.588	30.44	0.143	38.30	0.272	174.55
	7.20E+00	0.641	117.26	1.563	29.68	0.144	38.06	0.276	172.62
	7.30E+00	0.647	116.41	1.534	28.76	0.145	37.89	0.281	170.67
	7.40E+00	0.649	115.31	1.512	27.60	0.147	37.95	0.287	168.56
	7.50E+00	0.651	114.12	1.489	26.92	0.149	37.55	0.293	165.90
	7.60E+00	0.655	113.01	1.464	26.00	0.151	37.34	0.296	163.51
	7.70E+00	0.659	112.00	1.444	25.18	0.152	37.34	0.299	161.57
	7.80E+00	0.662	111.11	1.423	24.48	0.154	37.12	0.304	160.10
	7.90E+00	0.662	109.79	1.397	23.37	0.156	36.52	0.310	158.54
	8.00E+00	0.667	108.80	1.383	22.47	0.156	36.45	0.316	156.68
	8.10E+00	0.669	107.90	1.360	21.95	0.158	36.67	0.321	154.54
	8.20E+00	0.673	106.98	1.339	20.97	0.161	36.43	0.325	152.74
	8.30E+00	0.676	106.00	1.322	20.14	0.163	35.92	0.330	151.25
	8.40E+00	0.678	105.05	1.300	19.47	0.164	35.66	0.337	149.87
	8.50E+00	0.679	104.11	1.277	18.27	0.165	35.65	0.344	148.33
	8.60E+00	0.683	103.18	1.267	17.52	0.168	35.26	0.350	146.61
	8.70E+00	0.687	102.21	1.244	17.02	0.169	34.94	0.354	145.00
	8.80E+00	0.690	101.63	1.227	16.09	0.170	34.79	0.358	143.62
	8.90E+00	0.691	100.67	1.214	15.43	0.173	34.67	0.364	142.35
	9.00E+00	0.692	99.82	1.191	14.74	0.175	33.99	0.372	140.89
	9.10E+00	0.696	98.94	1.180	13.58	0.175	33.55	0.378	139.39
	9.20E+00	0.699	98.13	1.172	13.06	0.177	33.38	0.383	138.00
	9.30E+00	0.704	97.41	1.148	12.33	0.179	33.02	0.387	136.70
	9.40E+00	0.706	96.52	1.130	11.14	0.181	32.45	0.393	135.50
	9.50E+00	0.707	95.84	1.118	10.46	0.182	32.22	0.400	134.04
	9.60E+00	0.710	95.01	1.097	9.72	0.184	32.03	0.404	132.57
	9.70E+00	0.716	93.98	1.089	8.75	0.186	31.61	0.406	131.33
	9.80E+00	0.718	92.84	1.076	7.98	0.188	30.64	0.408	130.42
	9.90E+00	0.713	92.07	1.049	7.27	0.187	30.17	0.413	129.61
	1.00E+01	0.713	91.62	1.029	6.39	0.188	29.92	0.420	128.48
	1.01E+01	0.715	90.82	1.015	6.36	0.189	29.64	0.425	127.24
	1.02E+01	0.718	90.21	0.995	5.86	0.190	29.35	0.429	126.03
	1.03E+01	0.721	89.69	0.990	5.32	0.191	29.34	0.430	125.18
	1.04E+01	0.722	88.76	0.978	5.16	0.193	28.92	0.435	124.49
	1.05E+01	0.726	87.92	0.964	4.32	0.194	28.32	0.440	123.59
	1.06E+01	0.728	87.24	0.960	3.13	0.195	28.09	0.446	122.73
	1.07E+01	0.729	86.46	0.947	2.77	0.196	28.07	0.450	121.74
	1.08E+01	0.729	85.85	0.931	1.96	0.197	27.34	0.453	120.82
	1.09E+01	0.729	85.35	0.921	1.54	0.197	26.71	0.457	120.27
	1.10E+01	0.730	84.62	0.907	1.16	0.198	26.66	0.463	119.58
	1.11E+01	0.734	83.93	0.887	0.12	0.198	26.28	0.469	118.76
	1.12E+01	0.741	83.33	0.880	-0.52	0.198	25.76	0.474	117.66
	1.13E+01	0.746	82.77	0.867	-0.48	0.197	25.93	0.476	116.67
	1.14E+01	0.747	81.49	0.859	-1.00	0.199	26.45	0.479	116.15
	1.15E+01	0.750	80.73	0.856	-1.65	0.202	26.39	0.484	115.46
	1.16E+01	0.748	79.35	0.847	-2.28	0.205	25.81	0.490	114.88
	1.17E+01	0.744	78.47	0.837	-3.52	0.205	25.31	0.493	113.77
	1.18E+01	0.751	77.86	0.830	-4.08	0.208	25.10	0.493	112.92
	1.19E+01	0.747	76.43	0.819	-4.72	0.211	24.44	0.495	112.74
	1.20E+01	0.738	75.53	0.810	-5.92	0.212	23.21	0.507	112.66
	1.21E+01	0.732	74.81	0.796	-6.70	0.212	22.80	0.514	111.17
	1.22E+01	0.725	74.57	0.782	-7.17	0.215	22.18	0.517	110.29
	1.23E+01	0.717	74.16	0.774	-8.65	0.215	20.40	0.523	108.82
	1.24E+01	0.720	73.53	0.756	-8.96	0.209	19.99	0.521	107.61
	1.25E+01	0.719	73.02	0.740	-9.34	0.208	19.48	0.524	107.30
	1.26E+01	0.715	72.91	0.721	-9.58	0.205	20.87	0.525	105.85
	1.27E+01	0.713	72.41	0.713	-9.68	0.208	20.92	0.523	105.22
	1.28E+01	0.711	71.74	0.698	-10.15	0.208	20.60	0.521	104.67
	1.29E+01	0.713	71.32	0.690	-10.34	0.208	20.88	0.520	104.25
	1.30E+01	0.711	70.95	0.684	-10.13	0.212	21.04	0.521	103.86
	1.31E+01	0.710	70.26	0.674	-10.65	0.213	20.27	0.522	103.95
	1.32E+01	0.709	69.77	0.670	-11.36	0.213	19.95	0.532	103.69
	1.33E+01	0.707	69.36	0.666	-11.35	0.214	19.94	0.536	102.46
	1.34E+01	0.703	68.75	0.657	-12.03	0.216	19.51	0.537	102.20
	1.35E+01	0.706	68.47	0.651	-12.29	0.214	19.24	0.540	101.19
	1.36E+01	0.702	67.94	0.643	-12.22	0.216	19.48	0.542	100.76
	1.37E+01	0.702	67.38	0.633	-12.97	0.218	19.41	0.545	99.99
	1.38E+01	0.704	66.62	0.628	-13.67	0.219	18.76	0.550	99.02
	1.39E+01	0.702	66.39	0.622	-13.88	0.219	18.55	0.548	98.27
	1.40E+01	0.701	65.71	0.614	-14.29	0.220	18.79	0.547	97.94
	1.41E+01	0.698	65.24	0.607	-14.64	0.222	18.34	0.546	97.60
	1.42E+01	0.698	64.60	0.597	-15.06	0.224	17.72	0.548	97.13
	1.43E+01	0.695	63.97	0.588	-15.89	0.224	18.00	0.548	96.28
	1.44E+01	0.696	63.46	0.586	-16.04	0.225	17.80	0.549	95.55
	1.45E+01	0.692	62.96	0.575	-16.19	0.228	17.16	0.549	95.04
	1.46E+01	0.692	62.45	0.569	-16.45	0.229	16.21	0.552	94.88
	1.47E+01	0.689	61.81	0.563	-16.60	0.229	16.30	0.553	94.47
	1.48E+01	0.687	61.14	0.554	-17.16	0.231	16.19	0.554	93.88
	1.49E+01	0.685	60.46	0.544	-17.92	0.234	15.60	0.554	93.07
	1.50E+01	0.685	60.19	0.542	-17.63	0.232	14.97	0.554	92.25
