! Filename: 34bfg410.001
! BFG410W Field B1
! V1=8.478E-001V,V2=3.000E+000V, I1=5.488E-005A, I2=4.000E-003A
# GHz   S   MA   R 50
!                S11              S21              S12              S22
!Freq(GHz)  Mag     Ang      Mag     Ang      Mag     Ang      Mag     Ang 
   0.040    0.829  -2.278   11.357 176.852    0.001  63.352    0.991  -0.804
   0.100    0.833  -4.957   11.111 174.233    0.003  86.940    0.991  -2.651
   0.200    0.827  -9.925   10.968 168.843    0.005  81.867    0.982  -5.885
   0.300    0.818 -15.000   10.886 164.223    0.008  79.281    0.979  -8.625
   0.400    0.809 -19.742   10.782 158.740    0.011  76.569    0.970 -11.648
   0.500    0.794 -24.603   10.633 153.777    0.013  73.783    0.959 -14.231
   0.600    0.779 -29.319   10.425 148.960    0.015  70.952    0.949 -16.886
   0.700    0.763 -33.927   10.181 144.177    0.018  68.255    0.935 -19.606
   0.800    0.744 -38.482    9.969 139.583    0.020  65.773    0.921 -22.055
   0.900    0.724 -42.809    9.751 135.061    0.022  63.583    0.907 -24.518
   1.000    0.703 -47.145    9.502 130.612    0.024  61.414    0.891 -26.837
   1.100    0.682 -51.263    9.257 126.490    0.025  59.279    0.877 -28.997
   1.200    0.661 -55.283    9.007 122.318    0.027  57.412    0.862 -31.200
   1.300    0.640 -59.242    8.750 118.378    0.028  55.644    0.845 -33.225
   1.400    0.620 -63.035    8.514 114.527    0.030  53.927    0.830 -35.195
   1.500    0.598 -66.878    8.267 110.740    0.031  52.450    0.816 -37.089
   1.600    0.577 -70.659    8.037 107.075    0.033  51.053    0.801 -38.922
   1.700    0.557 -74.170    7.804 103.551    0.034  49.762    0.788 -40.729
   1.800    0.538 -77.667    7.573 100.099    0.035  48.566    0.774 -42.486
   1.900    0.521 -81.084    7.354  96.850    0.036  47.478    0.761 -44.214
   2.000    0.503 -84.458    7.136  93.599    0.037  46.481    0.749 -45.922
   2.200    0.468 -91.180    6.740  87.360    0.039  44.607    0.724 -49.196
   2.400    0.436 -97.885    6.370  81.325    0.042  43.048    0.701 -52.385
   2.600    0.407 -104.494    6.028  75.628    0.044  41.623    0.679 -55.569
   2.800    0.380 -111.303    5.716  70.112    0.046  40.150    0.657 -58.638
   3.000    0.355 -118.155    5.432  64.770    0.049  38.828    0.636 -61.825
   3.500    0.303 -136.486    4.818  51.966    0.055  35.281    0.586 -69.619
   4.000    0.265 -156.922    4.308  39.690    0.063  31.227    0.536 -77.557
   4.500    0.249 -179.180    3.889  27.980    0.071  26.240    0.487 -86.070
   5.000    0.247 157.470    3.521  16.377    0.079  20.458    0.432 -94.820
   5.500    0.262 134.085    3.178   4.587    0.086  13.028    0.366 -103.877
   6.000    0.292 117.880    2.924  -5.898    0.097   7.712    0.321 -114.200
   6.500    0.323 100.629    2.642 -16.681    0.103   0.994    0.257 -123.922
   7.000    0.300  90.708    2.385 -22.342    0.109   7.742    0.254 -121.491
   7.500    0.396  81.036    2.295 -35.692    0.130  -7.953    0.191 -152.167
   8.000    0.459  69.774    2.132 -47.299    0.142 -18.601    0.150 175.143
   8.500    0.521  57.976    1.933 -59.637    0.147 -31.282    0.129 124.538
   9.000    0.569  47.793    1.751 -70.540    0.150 -41.219    0.159  87.136
   9.500    0.606  37.724    1.556 -81.059    0.147 -51.293    0.211  59.463
  10.000    0.656  30.287    1.433 -92.471    0.155 -61.444    0.289  44.989
  10.500    0.695  21.619    1.279 -103.530    0.155 -72.136    0.358  30.891
  11.000    0.730  12.631    1.123 -115.047    0.151 -85.561    0.435  17.462
  11.500    0.749   3.831    0.964 -125.988    0.140 -97.624    0.502   5.452
  12.000    0.764  -4.809    0.815 -136.908    0.129 -111.484    0.565  -6.238
!     DEEMBEDDED NOISE DATA
!FREQUENCY    FMIN    GAMMA OPT        Rn
!  (GHz)      (dB)    Mag    Ang   (NORMALIZED)
