! Filename: 16bfg410.001
! BFG410W Field B1
! V1=8.686E-001V,V2=1.000E+000V, I1=9.561E-005A, I2=6.010E-003A
# GHz   S   MA   R 50
!                S11              S21              S12              S22
!Freq(GHz)  Mag     Ang      Mag     Ang      Mag     Ang      Mag     Ang 
   0.040    0.733  -2.641   15.192 177.022    0.001  58.194    0.972  -1.133
   0.100    0.740  -6.510   14.969 173.376    0.004  87.829    0.972  -3.568
   0.200    0.732 -12.910   14.686 166.425    0.007  81.607    0.958  -8.051
   0.300    0.719 -19.239   14.490 160.393    0.010  78.738    0.949 -11.785
   0.400    0.701 -25.309   14.192 153.845    0.013  74.695    0.933 -15.743
   0.500    0.681 -31.543   13.808 147.882    0.016  71.390    0.911 -19.109
   0.600    0.660 -37.293   13.379 142.201    0.019  68.117    0.893 -22.499
   0.700    0.636 -42.779   12.886 136.721    0.022  65.231    0.868 -25.760
   0.800    0.612 -48.212   12.433 131.507    0.024  62.704    0.844 -28.638
   0.900    0.586 -53.245   11.982 126.458    0.026  60.349    0.821 -31.469
   1.000    0.561 -58.094   11.493 121.693    0.028  58.271    0.797 -34.065
   1.100    0.537 -62.770   11.036 117.255    0.030  56.336    0.775 -36.469
   1.200    0.514 -67.294   10.590 112.880    0.032  54.601    0.754 -38.823
   1.300    0.492 -71.623   10.153 108.806    0.034  53.087    0.732 -40.959
   1.400    0.471 -75.816    9.758 104.921    0.035  51.630    0.712 -42.947
   1.500    0.450 -79.984    9.364 101.114    0.037  50.371    0.693 -44.864
   1.600    0.429 -84.083    9.005  97.505    0.038  49.193    0.675 -46.722
   1.700    0.411 -88.042    8.656  94.042    0.040  48.112    0.659 -48.522
   1.800    0.394 -91.866    8.324  90.692    0.041  47.079    0.642 -50.253
   1.900    0.378 -95.594    8.017  87.512    0.043  46.097    0.627 -51.980
   2.000    0.363 -99.360    7.721  84.392    0.044  45.214    0.613 -53.657
   2.200    0.335 -106.868    7.191  78.421    0.047  43.540    0.585 -56.932
   2.400    0.310 -114.559    6.718  72.698    0.050  41.970    0.560 -60.112
   2.600    0.288 -122.421    6.292  67.200    0.053  40.336    0.536 -63.328
   2.800    0.269 -130.499    5.913  61.954    0.056  38.628    0.513 -66.436
   3.000    0.254 -138.749    5.576  56.858    0.060  36.943    0.491 -69.656
   3.500    0.226 -161.286    4.865  44.676    0.068  32.206    0.439 -77.804
   4.000    0.217 175.107    4.295  32.970    0.077  26.825    0.387 -86.326
   4.500    0.228 152.662    3.838  21.708    0.087  20.697    0.336 -95.801
   5.000    0.251 131.884    3.441  10.575    0.096  13.933    0.280 -105.896
   5.500    0.285 112.864    3.081  -0.699    0.103   6.050    0.214 -117.090
   6.000    0.322 100.272    2.818 -10.820    0.115  -0.353    0.171 -131.983
   6.500    0.360  86.490    2.533 -21.177    0.120  -7.384    0.115 -149.620
   7.000    0.343  77.640    2.295 -26.540    0.125  -3.591    0.106 -139.047
   7.500    0.433  70.079    2.183 -39.607    0.144 -18.100    0.090 149.432
   8.000    0.494  60.492    2.016 -50.761    0.154 -28.251    0.128 104.315
   8.500    0.550  50.142    1.818 -62.458    0.158 -40.096    0.191  71.900
   9.000    0.594  40.984    1.643 -72.736    0.159 -49.606    0.249  54.618
   9.500    0.627  31.946    1.461 -82.695    0.155 -59.009    0.308  39.521
  10.000    0.673  25.111    1.341 -93.544    0.161 -68.595    0.378  30.099
  10.500    0.708  17.068    1.200 -103.926    0.160 -78.639    0.439  19.598
  11.000    0.741   8.765    1.057 -114.784    0.156 -90.924    0.505   9.010
  11.500    0.757   0.713    0.914 -124.999    0.145 -101.755    0.560  -1.093
  12.000    0.771  -7.521    0.777 -135.367    0.135 -114.472    0.614 -11.162
!     DEEMBEDDED NOISE DATA
!FREQUENCY    FMIN    GAMMA OPT        Rn
!  (GHz)      (dB)    Mag    Ang   (NORMALIZED)
