! Filename: 24bfg403.001
! BFG403W Field A1
! V1=8.890E-001V,V2=2.000E+000V, I1=6.049E-005A, I2=4.000E-003A
# GHz   S   MA   R 50
!                S11              S21              S12              S22
!Freq(GHz)  Mag     Ang      Mag     Ang      Mag     Ang      Mag     Ang 
   0.040    0.847  -1.420    8.552 176.838    0.000 120.510    0.988  -0.583
   0.100    0.850  -3.463    8.429 174.711    0.001  92.872    0.990  -2.028
   0.200    0.844  -6.940    8.399 169.994    0.003  84.686    0.988  -4.335
   0.300    0.837 -10.322    8.334 165.498    0.004  82.317    0.985  -6.555
   0.400    0.827 -13.523    8.271 160.665    0.005  80.517    0.981  -8.768
   0.500    0.814 -17.250    8.181 155.771    0.007  76.647    0.975 -10.888
   0.600    0.799 -20.351    8.034 151.290    0.008  74.565    0.969 -12.963
   0.700    0.785 -23.409    7.871 146.954    0.009  72.787    0.961 -15.046
   0.800    0.767 -26.508    7.722 142.556    0.010  70.722    0.954 -17.041
   0.900    0.749 -29.391    7.563 138.347    0.011  68.934    0.945 -19.021
   1.000    0.728 -32.273    7.393 134.157    0.012  67.262    0.936 -20.929
   1.100    0.709 -34.970    7.217 130.216    0.013  65.760    0.928 -22.709
   1.200    0.689 -37.607    7.040 126.280    0.014  64.519    0.919 -24.545
   1.300    0.669 -40.153    6.851 122.502    0.014  63.314    0.909 -26.306
   1.400    0.649 -42.469    6.679 118.919    0.015  62.170    0.900 -28.016
   1.500    0.627 -44.909    6.500 115.330    0.016  61.046    0.891 -29.659
   1.600    0.607 -47.158    6.333 111.900    0.017  60.426    0.882 -31.297
   1.700    0.587 -49.419    6.163 108.567    0.017  59.451    0.874 -32.908
   1.800    0.568 -51.547    5.996 105.332    0.018  58.635    0.865 -34.506
   1.900    0.549 -53.537    5.833 102.235    0.019  58.188    0.857 -36.097
   2.000    0.531 -55.589    5.675  99.171    0.019  57.731    0.848 -37.660
   2.200    0.496 -59.527    5.385  93.303    0.021  56.975    0.832 -40.718
   2.400    0.461 -63.271    5.112  87.671    0.022  56.560    0.816 -43.709
   2.600    0.429 -67.119    4.858  82.305    0.023  56.060    0.800 -46.695
   2.800    0.400 -70.912    4.631  77.150    0.025  55.603    0.785 -49.597
   3.000    0.371 -74.735    4.418  72.148    0.027  55.286    0.769 -52.563
   3.500    0.306 -85.254    3.971  60.256    0.032  53.839    0.731 -59.842
   4.000    0.252 -97.595    3.608  48.877    0.037  51.602    0.692 -67.283
   4.500    0.209 -113.903    3.315  37.939    0.044  47.851    0.651 -75.009
   5.000    0.177 -134.790    3.065  26.995    0.052  42.833    0.605 -82.959
   5.500    0.159 -159.798    2.834  15.887    0.058  37.054    0.552 -90.808
   6.000    0.173 174.005    2.676   4.421    0.068  28.415    0.495 -101.087
   6.500    0.186 157.626    2.488  -5.341    0.077  26.321    0.455 -109.211
   7.000    0.176 135.680    2.189 -15.873    0.071  24.386    0.372 -111.097
   7.500    0.252 127.888    2.219 -26.829    0.102  13.376    0.355 -132.994
   8.000    0.304 111.538    2.094 -40.182    0.115  -0.636    0.280 -155.489
   8.500    0.336  96.405    1.908 -52.880    0.119 -12.468    0.202 178.976
   9.000    0.373  84.041    1.763 -65.062    0.129 -23.426    0.182 144.350
   9.500    0.402  70.237    1.592 -77.768    0.133 -37.101    0.199 103.866
  10.000    0.424  57.828    1.426 -90.723    0.135 -49.768    0.261  72.821
  10.500    0.441  44.930    1.248 -103.547    0.133 -64.016    0.334  50.065
  11.000    0.445  32.216    1.067 -115.125    0.125 -77.944    0.402  31.979
  11.500    0.454  20.546    0.912 -126.888    0.117 -91.431    0.470  17.701
  12.000    0.453   7.969    0.750 -137.381    0.100 -107.474    0.521   3.818
!     DEEMBEDDED NOISE DATA
!FREQUENCY    FMIN    GAMMA OPT        Rn
!  (GHz)      (dB)    Mag    Ang   (NORMALIZED)
