! Filename: 132bfg425.001
! BFG425W Field C1
! V1=8.907E-001V,V2=1.000E+000V, I1=5.288E-004A, I2=3.253E-002A
# GHz   S   MA   R 50
!                S11              S21              S12              S22
!Freq(GHz)  Mag     Ang      Mag     Ang      Mag     Ang      Mag     Ang 
   0.040    0.170 -24.846   36.420 172.470    0.003  72.392    0.785  -4.773
   0.100    0.199 -55.042   34.555 160.735    0.006  78.751    0.768 -14.574
   0.200    0.254 -94.454   29.597 143.093    0.011  70.858    0.694 -28.442
   0.300    0.275 -113.029   26.757 130.767    0.015  67.233    0.609 -38.726
   0.400    0.296 -128.482   23.163 120.550    0.018  64.189    0.532 -45.876
   0.500    0.318 -140.727   20.133 112.327    0.021  62.392    0.468 -51.292
   0.600    0.327 -149.724   17.664 105.801    0.024  61.625    0.418 -55.428
   0.700    0.334 -157.067   15.632 100.312    0.027  60.767    0.377 -58.769
   0.800    0.340 -163.438   13.999  95.390    0.030  60.328    0.344 -61.552
   0.900    0.344 -168.782   12.659  91.060    0.032  59.767    0.317 -64.048
   1.000    0.348 -173.707   11.517  87.171    0.035  59.105    0.295 -66.414
   1.100    0.352 -177.980   10.552  83.542    0.038  58.356    0.276 -68.667
   1.200    0.356 178.116    9.728  80.150    0.041  57.553    0.259 -70.942
   1.300    0.359 174.322    9.017  76.965    0.044  56.737    0.244 -73.121
   1.400    0.362 170.943    8.405  73.981    0.046  55.881    0.231 -75.248
   1.500    0.366 167.511    7.864  71.098    0.049  54.898    0.219 -77.420
   1.600    0.370 164.293    7.384  68.308    0.052  53.825    0.208 -79.698
   1.700    0.373 161.247    6.950  65.566    0.055  52.801    0.198 -82.039
   1.800    0.377 158.327    6.567  62.968    0.058  51.679    0.188 -84.402
   1.900    0.380 155.446    6.220  60.381    0.061  50.477    0.179 -87.085
   2.000    0.384 152.684    5.906  57.876    0.064  49.242    0.171 -89.912
   2.200    0.392 147.322    5.362  53.020    0.070  46.657    0.155 -95.820
   2.400    0.401 142.095    4.908  48.285    0.076  43.987    0.140 -102.334
   2.600    0.410 137.162    4.516  43.663    0.081  41.209    0.126 -109.953
   2.800    0.419 132.307    4.178  39.170    0.087  38.281    0.114 -118.506
   3.000    0.429 127.575    3.885  34.725    0.093  35.334    0.103 -128.668
   3.500    0.458 116.344    3.293  23.882    0.106  27.645    0.085 -161.180
   4.000    0.487 105.651    2.838  13.294    0.119  19.720    0.090 160.647
   4.500    0.518  95.722    2.483   2.982    0.131  11.502    0.116 130.783
   5.000    0.553  85.819    2.181  -7.478    0.140   2.804    0.158 108.413
   5.500    0.579  76.243    1.921 -17.013    0.148  -4.636    0.194  91.647
   6.000    0.613  67.254    1.708 -27.043    0.154 -13.436    0.246  78.760
   6.500    0.622  60.415    1.565 -34.279    0.167 -18.015    0.265  72.501
   7.000    0.651  53.151    1.434 -43.370    0.178 -26.049    0.312  65.704
   7.500    0.693  44.747    1.285 -54.169    0.178 -37.003    0.381  55.294
   8.000    0.718  37.663    1.172 -63.081    0.182 -44.805    0.426  47.636
   8.500    0.746  30.373    1.060 -72.409    0.184 -53.731    0.475  39.397
   9.000    0.765  22.994    0.950 -80.683    0.180 -61.524    0.514  31.030
   9.500    0.783  16.332    0.866 -88.713    0.179 -69.303    0.542  23.934
  10.000    0.802   9.995    0.791 -97.912    0.179 -78.049    0.587  17.726
  10.500    0.816   3.512    0.718 -106.659    0.176 -86.549    0.625  10.769
  11.000    0.828  -3.039    0.643 -114.888    0.169 -95.383    0.655   3.141
  11.500    0.835  -9.528    0.580 -123.555    0.162 -104.321    0.684  -3.264
  12.000    0.839 -16.167    0.512 -132.150    0.153 -113.756    0.713 -10.538
!     DEEMBEDDED NOISE DATA
!FREQUENCY    FMIN    GAMMA OPT        Rn
!  (GHz)      (dB)    Mag    Ang   (NORMALIZED)
