! Filename: 4100BFG480.001
! Title: BFG480W
! Bias: Vce=4V; Ic=100mA
! Company: Philips Semiconductors NL
! User: Quality&Reliability T&D
! Measure time: 10 Nov 1999 / 12:04:01
#  MHz  S  MA  R 50
! Freq       S11             S21             S12             S22    :
  100  0.43607 -155.6 53.56681 146.80 0.006144 68.930  0.76115 -41.93
  200  0.56586 -160.6 40.66925 125.63 0.009547 60.561  0.60896 -72.99
  300  0.62340 -166.2 31.02609 113.33 0.011776 59.824  0.51089 -93.30
  400  0.65247 -170.2 24.61279 105.23 0.013744 61.272  0.45740 -107.4
  500  0.66917 -173.4 20.25770 99.389 0.015663 63.313  0.42730 -117.6
  600  0.68091 -176.0 17.09491 94.870 0.017620 65.326  0.40894 -125.2
  700  0.68770 -178.3 14.76906 91.235 0.019668 67.416  0.39719 -131.1
  800  0.69413 179.71 12.95433 88.108 0.021817 69.066  0.38948 -136.0
  900  0.70101 177.81 11.50640 85.424 0.024022 70.886  0.38572 -140.3
 1000  0.70820 176.08 10.34576 82.908 0.026420 71.897  0.38527 -144.1
 1200  0.72211 173.09  8.53832 78.153 0.030940 73.482  0.39204 -150.2
 1400  0.73199 170.78  7.22639 73.497 0.035623 74.389  0.40217 -154.8
 1600  0.73753 168.45  6.30272 69.659 0.040882 75.253  0.40852 -158.2
 1800  0.73764 165.87  5.60277 66.284 0.046555 75.671  0.41600 -161.9
 2000  0.74723 163.64  4.95931 63.367 0.051201 76.242  0.42784 -166.3
 2200  0.76617 161.54  4.42755 59.889 0.055900 76.286  0.44705 -169.9
 2400  0.77656 159.81  3.96768 56.233 0.060794 75.731  0.47160 -172.3
 2600  0.77672 158.15  3.62732 52.906 0.066890 75.035  0.49091 -173.7
 2800  0.77212 155.90  3.36388 48.516 0.071632 73.602  0.50026 -175.5
 3000  0.77710 153.23  3.12381 45.136 0.077001 72.842  0.50798 -178.4
