! Filename: 460BFG480.001
! Title: BFG480W
! Bias: Vce=4V; Ic=60mA
! Company: Philips Semiconductors NL
! User: Quality&Reliability T&D
! Measure time: 10 Nov 1999 / 12:03:11
#  MHz  S  MA  R 50
! Freq       S11             S21             S12             S22    :
  100  0.32976 -139.5 50.37718 149.83 0.007111 67.399  0.79599 -38.07
  200  0.49408 -149.4 39.63948 129.30 0.011347 57.459  0.65254 -67.15
  300  0.57210 -157.8 30.93156 116.50 0.013789 54.719  0.55004 -87.12
  400  0.61185 -163.5 24.82831 107.91 0.015679 54.974  0.49000 -101.4
  500  0.63512 -167.8 20.57344 101.67 0.017364 56.474  0.45395 -112.0
  600  0.64960 -171.2 17.43620 96.829 0.019082 58.205  0.43153 -120.0
  700  0.65935 -174.0 15.10015 92.955 0.020880 60.449  0.41630 -126.3
  800  0.66753 -176.5 13.26542 89.629 0.022770 62.358  0.40637 -131.6
  900  0.67542 -178.8 11.79144 86.791 0.024693 64.488  0.40039 -136.1
 1000  0.68378 179.21 10.61225 84.132 0.026833 66.000  0.39830 -140.3
 1200  0.69973 175.76  8.77031 79.192 0.031031 68.404  0.40265 -147.0
 1400  0.71166 173.16  7.43288 74.375 0.035247 70.027  0.41147 -152.0
 1600  0.71761 170.66  6.48467 70.450 0.040218 71.539  0.41730 -155.8
 1800  0.71841 167.94  5.76573 67.031 0.045593 72.646  0.42378 -159.8
 2000  0.72920 165.55  5.10459 64.035 0.050312 73.703  0.43414 -164.3
 2200  0.74896 163.28  4.55661 60.474 0.054572 73.947  0.45312 -168.3
 2400  0.76122 161.44  4.08759 56.758 0.059369 73.731  0.47760 -170.9
 2600  0.76246 159.78  3.73750 53.412 0.065363 73.348  0.49667 -172.5
 2800  0.75885 157.49  3.46785 48.999 0.070079 72.114  0.50581 -174.4
 3000  0.76377 154.79  3.21944 45.596 0.075431 71.593  0.51329 -177.4
