! Filename: 18bfg425.001
! BFG425W Field C1
! V1=8.472E-001V,V2=1.000E+000V, I1=1.149E-004A, I2=7.990E-003A
# GHz   S   MA   R 50
!                S11              S21              S12              S22
!Freq(GHz)  Mag     Ang      Mag     Ang      Mag     Ang      Mag     Ang 
   0.040    0.668  -5.428   20.941 175.382    0.003  82.800    0.951  -3.012
   0.100    0.668 -13.422   20.495 169.241    0.007  82.587    0.946  -8.173
   0.200    0.648 -26.404   19.785 158.888    0.014  76.009    0.916 -16.446
   0.300    0.622 -38.794   18.899 149.652    0.020  70.000    0.877 -23.934
   0.400    0.589 -50.390   17.810 140.854    0.026  64.678    0.828 -30.667
   0.500    0.557 -61.627   16.673 132.809    0.030  60.149    0.777 -36.491
   0.600    0.527 -71.649   15.491 125.696    0.034  56.499    0.728 -41.704
   0.700    0.498 -81.039   14.388 119.367    0.037  53.058    0.680 -46.352
   0.800    0.471 -89.867   13.370 113.447    0.040  50.514    0.636 -50.359
   0.900    0.447 -97.961   12.445 108.120    0.043  48.326    0.597 -54.009
   1.000    0.427 -105.550   11.585 103.228    0.045  46.442    0.561 -57.273
   1.100    0.411 -112.684   10.822  98.732    0.048  44.855    0.529 -60.281
   1.200    0.396 -119.441   10.131  94.529    0.050  43.437    0.500 -63.090
   1.300    0.384 -125.816    9.508  90.614    0.052  42.186    0.473 -65.706
   1.400    0.374 -131.864    8.957  86.904    0.054  41.148    0.449 -68.126
   1.500    0.365 -137.844    8.450  83.396    0.056  40.168    0.427 -70.447
   1.600    0.358 -143.574    7.993  80.021    0.058  39.214    0.407 -72.711
   1.700    0.352 -148.914    7.577  76.826    0.060  38.359    0.388 -74.924
   1.800    0.348 -154.065    7.199  73.736    0.062  37.486    0.371 -77.077
   1.900    0.344 -159.010    6.855  70.738    0.064  36.640    0.356 -79.309
   2.000    0.342 -163.735    6.537  67.852    0.066  35.792    0.341 -81.497
   2.200    0.339 -172.933    5.978  62.233    0.070  34.013    0.313 -85.913
   2.400    0.340 178.344    5.502  56.908    0.075  32.252    0.288 -90.399
   2.600    0.343 170.237    5.087  51.782    0.079  30.358    0.265 -95.170
   2.800    0.348 162.562    4.726  46.840    0.084  28.322    0.243 -100.133
   3.000    0.355 155.314    4.409  41.993    0.088  26.170    0.223 -105.531
   3.500    0.378 138.668    3.764  30.323    0.100  20.340    0.177 -121.393
   4.000    0.407 123.846    3.260  19.047    0.111  13.887    0.139 -142.803
   4.500    0.440 110.865    2.865   8.190    0.122   6.978    0.116 -172.302
   5.000    0.479  98.429    2.528  -2.826    0.131  -0.965    0.117 149.818
   5.500    0.508  86.969    2.229 -12.813    0.137  -7.549    0.133 119.237
   6.000    0.547  76.356    1.985 -23.393    0.143 -15.920    0.179  96.130
   6.500    0.558  68.960    1.820 -30.829    0.156 -18.960    0.196  88.060
   7.000    0.592  60.966    1.672 -40.272    0.168 -26.354    0.246  78.639
   7.500    0.643  51.402    1.500 -51.697    0.169 -37.750    0.320  64.624
   8.000    0.674  43.779    1.368 -61.017    0.174 -45.285    0.370  55.621
   8.500    0.707  35.798    1.236 -70.859    0.177 -54.281    0.425  46.085
   9.000    0.729  27.858    1.104 -79.645    0.173 -62.106    0.468  36.577
   9.500    0.752  20.683    1.001 -88.041    0.173 -70.046    0.501  28.765
  10.000    0.776  13.946    0.913 -97.648    0.173 -78.958    0.552  22.060
  10.500    0.794   7.137    0.824 -106.885    0.170 -87.675    0.595  14.513
  11.000    0.807   0.152    0.733 -115.557    0.163 -96.841    0.629   6.264
  11.500    0.817  -6.718    0.657 -124.665    0.157 -106.192    0.662  -0.527
  12.000    0.823 -13.667    0.575 -133.571    0.147 -116.086    0.694  -8.307
!     DEEMBEDDED NOISE DATA
!FREQUENCY    FMIN    GAMMA OPT        Rn
!  (GHz)      (dB)    Mag    Ang   (NORMALIZED)
