! Filename BFG424F_5V_20mA.prm
! Simulation_Values
! Created	by	janssen	on	nov	2006			
!	Column ranking S11, S21,S12,S22 both magnitude and phase.								
!	VCE	=	5	V,	IC	=	20	mA	
!	Common	Emitter	S-Parameters						
#	GHZ	S	MA	R	50				
	5.00E-01	0.382	-76.31	25.576	132.97	0.016	62.05	0.715	-27.82
	6.00E-01	0.367	-87.34	23.353	126.95	0.018	60.37	0.670	-30.66
	7.00E-01	0.352	-97.29	21.348	121.75	0.020	60.87	0.630	-32.77
	8.00E-01	0.339	-106.12	19.556	117.30	0.022	60.74	0.596	-34.38
	9.00E-01	0.334	-114.01	18.030	113.44	0.024	60.72	0.567	-35.84
	1.00E+00	0.326	-121.10	16.664	109.90	0.025	61.07	0.541	-37.01
	1.10E+00	0.321	-127.46	15.454	106.85	0.027	61.59	0.519	-38.05
	1.20E+00	0.315	-133.22	14.389	104.14	0.028	62.31	0.499	-38.88
	1.30E+00	0.313	-138.62	13.483	101.62	0.030	62.77	0.482	-39.80
	1.40E+00	0.312	-143.73	12.649	99.24	0.031	63.43	0.467	-40.54
	1.50E+00	0.312	-148.01	11.917	97.11	0.033	63.82	0.455	-41.14
	1.60E+00	0.309	-152.06	11.263	95.10	0.035	64.37	0.442	-42.15
	1.70E+00	0.309	-156.17	10.671	93.16	0.036	64.92	0.430	-42.84
	1.80E+00	0.311	-160.23	10.119	91.35	0.038	65.42	0.420	-43.70
	1.90E+00	0.312	-163.60	9.630	89.65	0.039	66.01	0.410	-44.52
	2.00E+00	0.314	-166.68	9.193	88.14	0.041	66.25	0.404	-45.33
	2.10E+00	0.315	-170.00	8.787	86.51	0.043	66.33	0.395	-46.40
	2.20E+00	0.317	-172.80	8.409	84.97	0.044	66.70	0.387	-47.23
	2.30E+00	0.320	-175.87	8.056	83.56	0.046	67.05	0.380	-48.29
	2.40E+00	0.324	-178.28	7.749	82.21	0.048	67.29	0.372	-49.28
	2.50E+00	0.328	179.38	7.453	80.82	0.050	67.64	0.365	-50.43
	2.60E+00	0.330	176.85	7.183	79.39	0.052	67.45	0.358	-51.66
	2.70E+00	0.332	174.32	6.927	78.15	0.054	67.78	0.351	-52.75
	2.80E+00	0.337	172.20	6.689	76.92	0.055	67.74	0.346	-53.72
	2.90E+00	0.342	170.11	6.465	75.74	0.057	67.88	0.339	-55.06
	3.00E+00	0.345	168.18	6.259	74.51	0.059	67.88	0.333	-56.24
	3.10E+00	0.350	165.84	6.070	73.27	0.061	67.57	0.325	-57.67
	3.20E+00	0.352	163.97	5.883	72.12	0.063	67.87	0.319	-58.71
	3.30E+00	0.358	161.83	5.702	71.04	0.065	67.92	0.314	-60.16
	3.40E+00	0.363	160.23	5.540	69.88	0.067	67.65	0.308	-61.83
	3.50E+00	0.368	158.64	5.383	68.79	0.069	67.58	0.303	-63.59
	3.60E+00	0.370	156.47	5.238	67.60	0.071	67.41	0.296	-65.33
	3.70E+00	0.376	154.48	5.104	66.52	0.073	67.27	0.287	-66.84
	3.80E+00	0.383	153.09	4.968	65.55	0.075	67.35	0.281	-68.34
	3.90E+00	0.388	151.84	4.848	64.54	0.077	67.19	0.276	-69.88
	4.00E+00	0.392	150.05	4.729	63.40	0.079	66.95	0.271	-71.87
	4.10E+00	0.396	148.44	4.613	62.43	0.081	66.75	0.265	-74.04
	4.20E+00	0.401	146.64	4.504	61.31	0.083	66.54	0.258	-76.20
	4.30E+00	0.409	145.21	4.403	60.41	0.085	66.27	0.253	-77.74
	4.40E+00	0.415	144.19	4.301	59.34	0.087	66.13	0.248	-79.40
	4.50E+00	0.416	143.19	4.207	58.30	0.090	65.92	0.245	-81.43
	4.60E+00	0.419	141.07	4.117	57.34	0.092	65.40	0.240	-84.30
	4.70E+00	0.426	139.41	4.024	56.31	0.094	65.15	0.235	-86.97
	4.80E+00	0.435	138.55	3.948	55.28	0.096	64.95	0.229	-89.34
	4.90E+00	0.437	137.15	3.868	54.39	0.099	64.42	0.225	-91.72
	5.00E+00	0.444	136.03	3.786	53.43	0.100	64.12	0.219	-93.91
	5.10E+00	0.447	134.67	3.718	52.34	0.102	63.92	0.214	-96.36
	5.20E+00	0.451	133.36	3.645	51.49	0.105	63.64	0.210	-99.13
	5.30E+00	0.460	131.79	3.572	50.49	0.107	62.98	0.205	-101.95
	5.40E+00	0.467	130.97	3.511	49.49	0.109	62.58	0.199	-104.65
	5.50E+00	0.470	129.86	3.441	48.69	0.111	62.34	0.197	-107.34
	5.60E+00	0.474	128.44	3.370	47.64	0.113	61.98	0.195	-110.69
	5.70E+00	0.483	127.22	3.319	46.70	0.115	61.55	0.193	-114.17
	5.80E+00	0.489	126.47	3.257	45.94	0.118	61.21	0.190	-117.68
	5.90E+00	0.493	125.30	3.197	44.82	0.120	60.86	0.185	-121.05
	6.00E+00	0.497	124.06	3.151	44.06	0.122	60.31	0.183	-124.50
	6.10E+00	0.503	122.89	3.093	43.24	0.124	59.83	0.182	-128.05
	6.20E+00	0.509	121.53	3.033	42.08	0.126	59.51	0.182	-132.29
	6.30E+00	0.519	120.92	2.992	41.19	0.128	59.22	0.181	-136.02
	6.40E+00	0.520	120.06	2.939	40.48	0.131	58.82	0.179	-138.95
	6.50E+00	0.522	118.88	2.891	39.47	0.133	58.23	0.180	-141.88
	6.60E+00	0.529	117.33	2.845	38.64	0.134	57.89	0.181	-145.47
	6.70E+00	0.535	116.66	2.793	37.84	0.137	57.52	0.184	-149.21
	6.80E+00	0.542	115.67	2.749	36.76	0.139	56.92	0.186	-153.58
	6.90E+00	0.546	114.88	2.714	36.02	0.141	56.55	0.186	-156.91
	7.00E+00	0.549	114.03	2.665	35.28	0.143	56.31	0.187	-159.36
	7.10E+00	0.550	112.74	2.628	34.32	0.145	55.65	0.189	-161.94
	7.20E+00	0.557	111.63	2.588	33.58	0.147	55.09	0.192	-164.80
	7.30E+00	0.563	110.89	2.541	32.68	0.149	54.66	0.197	-168.40
	7.40E+00	0.569	109.97	2.509	31.59	0.151	54.34	0.200	-172.34
	7.50E+00	0.574	109.01	2.473	31.00	0.153	53.71	0.203	-175.53
	7.60E+00	0.578	108.51	2.434	30.20	0.155	53.19	0.205	-177.72
	7.70E+00	0.580	107.43	2.404	29.37	0.157	52.92	0.211	-179.87
	7.80E+00	0.584	106.47	2.372	28.63	0.160	52.35	0.215	177.45
	7.90E+00	0.590	105.23	2.329	27.51	0.161	51.46	0.220	173.66
	8.00E+00	0.594	104.84	2.305	26.72	0.162	51.16	0.222	170.77
	8.10E+00	0.598	103.91	2.271	26.26	0.164	51.16	0.225	169.19
	8.20E+00	0.602	103.23	2.238	25.34	0.167	50.70	0.230	168.16
	8.30E+00	0.607	102.44	2.213	24.46	0.169	49.91	0.241	166.18
	8.40E+00	0.607	101.39	2.178	23.77	0.170	49.37	0.248	163.40
	8.50E+00	0.614	100.52	2.141	22.54	0.172	49.08	0.252	160.07
	8.60E+00	0.618	99.89	2.125	21.87	0.175	48.50	0.254	157.99
	8.70E+00	0.621	99.26	2.089	21.42	0.176	48.01	0.258	156.70
	8.80E+00	0.625	98.39	2.061	20.44	0.178	47.69	0.268	155.42
	8.90E+00	0.629	97.86	2.040	19.75	0.181	47.30	0.275	153.13
	9.00E+00	0.628	97.01	2.005	19.06	0.183	46.39	0.279	151.15
	9.10E+00	0.633	96.04	1.988	17.88	0.184	45.71	0.280	149.55
	9.20E+00	0.639	95.29	1.975	17.39	0.186	45.38	0.284	148.68
	9.30E+00	0.644	95.00	1.935	16.66	0.188	44.94	0.294	147.54
	9.40E+00	0.646	94.17	1.905	15.40	0.190	44.08	0.305	145.73
	9.50E+00	0.649	93.60	1.888	14.67	0.191	43.60	0.311	142.87
	9.60E+00	0.655	92.98	1.852	13.95	0.193	43.25	0.311	141.34
	9.70E+00	0.660	91.99	1.842	12.97	0.196	42.65	0.311	140.41
	9.80E+00	0.664	90.75	1.821	12.11	0.197	41.49	0.318	139.53
	9.90E+00	0.664	89.98	1.770	11.32	0.197	40.89	0.328	137.77
	1.00E+01	0.664	89.87	1.738	10.56	0.197	40.58	0.332	135.95
	1.01E+01	0.666	89.15	1.719	10.60	0.199	40.22	0.332	134.80
	1.02E+01	0.669	88.47	1.692	10.07	0.200	39.77	0.335	134.67
	1.03E+01	0.674	87.89	1.684	9.40	0.201	39.58	0.342	134.55
	1.04E+01	0.674	87.00	1.664	9.06	0.203	38.94	0.355	133.48
	1.05E+01	0.680	86.07	1.640	8.15	0.204	38.19	0.362	131.18
	1.06E+01	0.685	85.38	1.632	6.84	0.204	37.74	0.365	128.66
	1.07E+01	0.688	85.03	1.614	6.47	0.206	37.68	0.363	127.53
	1.08E+01	0.684	84.53	1.589	5.70	0.208	36.99	0.364	128.04
	1.09E+01	0.686	83.77	1.573	5.20	0.208	36.31	0.371	128.28
	1.10E+01	0.690	83.03	1.548	4.65	0.208	36.08	0.384	127.43
	1.11E+01	0.696	82.52	1.512	3.61	0.209	35.60	0.391	125.43
	1.12E+01	0.707	81.77	1.502	2.98	0.209	35.08	0.392	123.58
	1.13E+01	0.714	81.43	1.486	3.00	0.209	35.27	0.391	122.99
	1.14E+01	0.713	80.17	1.480	2.29	0.212	35.58	0.396	123.52
	1.15E+01	0.715	78.93	1.475	1.39	0.215	35.28	0.404	122.54
	1.16E+01	0.718	77.56	1.458	0.53	0.218	34.38	0.413	121.46
	1.17E+01	0.712	76.88	1.438	-0.83	0.219	33.69	0.413	119.65
	1.18E+01	0.718	76.18	1.428	-1.36	0.222	33.39	0.411	119.01
	1.19E+01	0.716	74.64	1.411	-2.06	0.225	32.56	0.412	119.31
	1.20E+01	0.704	73.97	1.395	-3.59	0.225	31.21	0.425	119.19
	1.21E+01	0.695	73.00	1.365	-4.59	0.225	30.64	0.431	117.11
	1.22E+01	0.696	72.30	1.340	-5.10	0.227	29.81	0.431	116.30
	1.23E+01	0.689	72.21	1.340	-6.74	0.228	27.87	0.438	116.29
	1.24E+01	0.681	72.10	1.309	-7.48	0.223	27.43	0.443	115.51
	1.25E+01	0.681	71.05	1.270	-7.96	0.220	27.00	0.454	115.46
	1.26E+01	0.687	71.09	1.236	-8.32	0.218	28.37	0.459	112.51
	1.27E+01	0.682	71.15	1.222	-8.57	0.222	28.21	0.454	110.95
	1.28E+01	0.674	69.93	1.195	-9.23	0.221	27.75	0.449	109.86
	1.29E+01	0.680	69.21	1.181	-9.42	0.222	27.99	0.444	110.28
	1.30E+01	0.684	69.33	1.170	-9.37	0.226	27.97	0.448	110.76
	1.31E+01	0.679	68.97	1.151	-10.14	0.226	26.95	0.457	110.71
	1.32E+01	0.675	68.31	1.142	-10.89	0.226	26.58	0.465	109.90
	1.33E+01	0.676	67.73	1.134	-10.93	0.227	26.59	0.465	108.10
	1.34E+01	0.673	67.38	1.123	-11.64	0.230	26.16	0.463	108.72
	1.35E+01	0.676	67.25	1.114	-12.09	0.230	25.76	0.468	108.32
	1.36E+01	0.672	66.88	1.097	-12.36	0.231	25.76	0.477	108.27
	1.37E+01	0.670	66.33	1.079	-13.18	0.233	25.62	0.482	107.25
	1.38E+01	0.675	65.43	1.072	-13.95	0.234	24.89	0.480	106.05
	1.39E+01	0.674	65.56	1.062	-14.19	0.234	24.69	0.475	105.18
	1.40E+01	0.671	64.93	1.050	-14.96	0.236	24.80	0.477	105.21
	1.41E+01	0.664	64.08	1.034	-15.72	0.238	24.05	0.484	105.16
	1.42E+01	0.668	63.41	1.013	-16.41	0.239	23.20	0.491	104.37
	1.43E+01	0.667	62.86	0.997	-17.40	0.239	23.32	0.495	103.62
	1.44E+01	0.672	63.01	0.995	-17.65	0.242	23.15	0.490	103.02
	1.45E+01	0.662	62.36	0.976	-18.05	0.245	22.31	0.492	102.80
	1.46E+01	0.655	61.34	0.960	-18.38	0.245	21.39	0.495	102.01
	1.47E+01	0.666	60.06	0.944	-18.71	0.243	21.42	0.495	100.77
	1.48E+01	0.666	60.94	0.928	-19.22	0.246	21.37	0.488	99.83
	1.49E+01	0.650	60.25	0.916	-20.29	0.251	20.57	0.485	100.15
	1.50E+01	0.651	58.76	0.914	-20.47	0.249	19.57	0.492	101.14
