! Filename: 3_640BFG480.001
! Title: BFG480W
! Bias: Vce=3.6V; Ic=40mA
! Company: Philips Semiconductors NL
! User: Quality&Reliability T&D
! Measure time: 10 Nov 1999 / 11:59:46
#  MHz  S  MA  R 50
! Freq       S11             S21             S12             S22    :
  100  0.27868 -110.7 44.92046 151.76 0.008355 66.336  0.82275 -35.20
  200  0.45455 -134.7 36.45587 131.72 0.013433 55.652  0.68618 -62.79
  300  0.54291 -147.8 29.02288 118.69 0.016326 50.989  0.58119 -82.28
  400  0.58950 -155.8 23.52619 109.78 0.018270 49.719  0.51618 -96.48
  500  0.61731 -161.7 19.62821 103.22 0.019777 50.061  0.47588 -107.2
  600  0.63438 -166.0 16.70084 98.101 0.021235 51.261  0.44997 -115.5
  700  0.64584 -169.6 14.49552 94.014 0.022685 53.203  0.43231 -122.0
  800  0.65496 -172.6 12.75241 90.485 0.024279 55.265  0.42028 -127.5
  900  0.66373 -175.2 11.34433 87.496 0.025874 57.469  0.41286 -132.3
 1000  0.67271 -177.6 10.21517 84.723 0.027712 59.308  0.40939 -136.6
 1200  0.68999 178.42  8.45298 79.540 0.031394 62.488  0.41206 -143.8
 1400  0.70323 175.49  7.16931 74.548 0.035116 64.913  0.42012 -149.2
 1600  0.71026 172.75  6.25197 70.505 0.039689 67.154  0.42590 -153.3
 1800  0.71201 169.85  5.55754 67.012 0.044737 68.891  0.43237 -157.4
 2000  0.72284 167.27  4.91926 63.857 0.049076 70.512  0.44184 -162.2
 2200  0.74272 164.82  4.39094 60.193 0.053325 71.187  0.46088 -166.3
 2400  0.75528 162.84  3.93802 56.393 0.057947 71.353  0.48548 -169.2
 2600  0.75826 161.04  3.59948 52.970 0.063751 71.315  0.50512 -171.0
 2800  0.75529 158.72  3.33951 48.521 0.068375 70.480  0.51471 -173.0
 3000  0.76053 155.96  3.10033 45.035 0.073642 70.116  0.52242 -176.1
