! Filename: 3_620BFG480.001
! Title: BFG480W
! Bias: Vce=3.6V; Ic=20mA
! Company: Philips Semiconductors NL
! User: Quality&Reliability T&D
! Measure time: 10 Nov 1999 / 11:59:23
#  MHz  S  MA  R 50
! Freq       S11             S21             S12             S22    :
  100  0.40119 -51.62 31.92984 156.23 0.010958 65.724  0.86995 -28.53
  200  0.46137 -92.01 28.00388 137.90 0.018404 54.314  0.75258 -52.27
  300  0.51988 -117.7 23.84237 124.36 0.022652 46.788  0.64727 -69.94
  400  0.56276 -132.3 19.93122 114.66 0.025189 42.542  0.57477 -83.42
  500  0.59130 -143.0 17.03582 107.19 0.026701 40.362  0.52475 -94.10
  600  0.60906 -150.5 14.70421 101.30 0.027838 39.579  0.49054 -102.4
  700  0.62162 -156.2 12.86398 96.578 0.028721 39.984  0.46638 -109.3
  800  0.63148 -160.8 11.38102 92.508 0.029530 41.038  0.44923 -115.0
  900  0.64094 -164.6 10.13902 89.073 0.030279 42.603  0.43786 -120.1
 1000  0.65074 -168.1  9.15601 85.920 0.031290 44.215  0.43091 -124.8
 1200  0.67032 -173.7  7.60289 80.082 0.033208 47.810  0.42894 -132.9
 1400  0.68681 -177.7  6.46826 74.545 0.035375 51.396  0.43526 -139.2
 1600  0.69655 178.85  5.63558 70.129 0.038548 55.287  0.44148 -144.0
 1800  0.69988 175.41  5.00585 66.372 0.042380 58.852  0.44752 -148.7
 2000  0.71087 172.30  4.42697 62.816 0.045744 61.982  0.45597 -154.0
 2200  0.73162 169.34  3.95111 58.807 0.049224 64.102  0.47478 -158.9
 2400  0.74617 166.90  3.54180 54.667 0.053386 65.611  0.50045 -162.5
 2600  0.75238 164.79  3.23181 51.031 0.058737 66.730  0.52264 -164.9
 2800  0.75101 162.25  3.00075 46.401 0.063253 66.691  0.53418 -167.4
 3000  0.75672 159.32  2.78243 42.739 0.068259 67.121  0.54301 -170.8
