! Filename BFG424F_4V_10mA.prm
! Simulation_Values
! Created	by	janssen	on	nov	2006			
!	Column ranking S11, S21,S12,S22 both magnitude and phase.								
!	VCE	=	4	V,	IC	=	10	mA	
!	Common	Emitter	S-Parameters						
#	GHZ	S	MA	R	50				
	5.00E-01	0.575	-56.62	20.243	140.84	0.02	65.1	0.823	-25.29
	6.00E-01	0.548	-65.99	18.966	134.95	0.023	61.81	0.781	-28.69
	7.00E-01	0.52	-74.75	17.74	129.67	0.026	60.29	0.742	-31.55
	8.00E-01	0.494	-82.81	16.561	124.97	0.028	58.77	0.705	-33.92
	9.00E-01	0.475	-90.48	15.491	120.82	0.03	57.69	0.672	-36.06
	1.00E+00	0.457	-97.34	14.509	116.98	0.031	57.02	0.642	-37.83
	1.10E+00	0.441	-103.93	13.607	113.57	0.033	56.45	0.614	-39.42
	1.20E+00	0.425	-109.92	12.779	110.48	0.034	56.29	0.59	-40.8
	1.30E+00	0.414	-115.71	12.052	107.61	0.036	56.2	0.567	-42.09
	1.40E+00	0.404	-121.22	11.383	104.95	0.037	56.23	0.548	-43.26
	1.50E+00	0.396	-126.35	10.783	102.46	0.038	56.24	0.53	-44.29
	1.60E+00	0.388	-130.99	10.238	100.16	0.04	56.54	0.514	-45.41
	1.70E+00	0.382	-135.58	9.733	97.98	0.041	56.9	0.498	-46.4
	1.80E+00	0.377	-140.29	9.262	95.93	0.042	57.15	0.484	-47.38
	1.90E+00	0.374	-144.28	8.839	93.99	0.044	57.51	0.472	-48.36
	2.00E+00	0.372	-148.24	8.46	92.23	0.045	58.04	0.461	-49.33
	2.10E+00	0.369	-151.94	8.1	90.38	0.047	58.22	0.45	-50.44
	2.20E+00	0.368	-155.59	7.768	88.67	0.048	58.4	0.44	-51.44
	2.30E+00	0.367	-159.27	7.453	87.05	0.05	58.88	0.43	-52.5
	2.40E+00	0.369	-162.27	7.178	85.53	0.051	59.43	0.421	-53.54
	2.50E+00	0.37	-165.28	6.91	84	0.053	59.74	0.412	-54.69
	2.60E+00	0.37	-168.29	6.669	82.44	0.054	59.91	0.403	-55.87
	2.70E+00	0.37	-171.7	6.438	81.04	0.056	60.28	0.394	-57.13
	2.80E+00	0.373	-174.29	6.221	79.66	0.057	60.47	0.387	-58.23
	2.90E+00	0.376	-176.96	6.017	78.34	0.059	60.82	0.379	-59.5
	3.00E+00	0.378	-179.28	5.829	77.02	0.061	61.09	0.372	-60.66
	3.10E+00	0.381	177.94	5.657	75.68	0.062	61.1	0.363	-62.05
	3.20E+00	0.383	175.48	5.487	74.4	0.064	61.38	0.356	-63.33
	3.30E+00	0.387	172.94	5.322	73.19	0.066	61.78	0.35	-64.75
	3.40E+00	0.393	170.89	5.171	71.91	0.068	61.65	0.343	-66.33
	3.50E+00	0.396	168.86	5.024	70.74	0.069	61.8	0.337	-67.92
	3.60E+00	0.397	166.39	4.891	69.5	0.071	62.01	0.33	-69.52
	3.70E+00	0.402	164.18	4.77	68.31	0.073	61.89	0.322	-71.16
	3.80E+00	0.408	162.27	4.646	67.21	0.075	62.11	0.316	-72.83
	3.90E+00	0.412	160.51	4.532	66.09	0.077	62.17	0.309	-74.48
	4.00E+00	0.415	158.4	4.42	64.89	0.079	62.14	0.303	-76.35
	4.10E+00	0.419	156.55	4.312	63.86	0.081	62.11	0.298	-78.22
	4.20E+00	0.424	154.58	4.211	62.68	0.083	62.09	0.291	-80.26
	4.30E+00	0.43	152.78	4.119	61.7	0.085	61.98	0.285	-81.97
	4.40E+00	0.437	151.36	4.024	60.53	0.087	62.01	0.28	-83.85
	4.50E+00	0.438	149.94	3.934	59.44	0.089	61.97	0.275	-85.86
	4.60E+00	0.442	147.92	3.848	58.44	0.091	61.68	0.27	-88.3
	4.70E+00	0.448	146.05	3.764	57.37	0.093	61.5	0.265	-90.79
	4.80E+00	0.456	144.73	3.694	56.22	0.095	61.41	0.26	-93.17
	4.90E+00	0.46	143.36	3.617	55.32	0.097	61.07	0.255	-95.51
	5.00E+00	0.464	142.09	3.541	54.3	0.099	60.88	0.25	-97.7
	5.10E+00	0.467	140.28	3.476	53.13	0.101	60.76	0.245	-100.03
	5.20E+00	0.473	138.68	3.408	52.25	0.103	60.57	0.241	-102.68
	5.30E+00	0.482	137.36	3.339	51.25	0.106	60.11	0.237	-105.56
	5.40E+00	0.486	136.24	3.284	50.18	0.107	59.81	0.232	-108.34
	5.50E+00	0.489	134.84	3.218	49.29	0.109	59.66	0.229	-111.05
	5.60E+00	0.494	133.39	3.152	48.19	0.112	59.41	0.226	-113.88
	5.70E+00	0.501	132.15	3.104	47.22	0.114	59.02	0.224	-116.78
	5.80E+00	0.507	130.95	3.046	46.41	0.116	58.76	0.221	-119.92
	5.90E+00	0.512	129.77	2.99	45.24	0.118	58.49	0.218	-123.12
	6.00E+00	0.516	128.49	2.946	44.42	0.12	58.05	0.215	-126.29
	6.10E+00	0.52	127.11	2.891	43.57	0.122	57.65	0.214	-129.48
	6.20E+00	0.526	125.71	2.835	42.36	0.124	57.44	0.214	-132.83
	6.30E+00	0.535	124.91	2.797	41.45	0.126	57.2	0.213	-136.23
	6.40E+00	0.536	123.74	2.746	40.65	0.129	56.83	0.213	-139.27
	6.50E+00	0.54	122.5	2.7	39.6	0.131	56.35	0.212	-142.38
	6.60E+00	0.546	121.21	2.656	38.78	0.133	56.12	0.212	-145.49
	6.70E+00	0.551	120.28	2.608	37.98	0.135	55.73	0.214	-148.7
	6.80E+00	0.558	119.1	2.568	36.84	0.137	55.18	0.215	-152.33
	6.90E+00	0.562	118.25	2.535	36.03	0.139	54.84	0.216	-155.51
	7.00E+00	0.564	117.23	2.487	35.24	0.141	54.68	0.217	-158.26
	7.10E+00	0.567	115.95	2.451	34.26	0.144	54.08	0.219	-160.86
	7.20E+00	0.575	114.75	2.413	33.53	0.145	53.56	0.222	-163.37
	7.30E+00	0.58	114.14	2.371	32.64	0.147	53.16	0.226	-166.38
	7.40E+00	0.584	113.19	2.341	31.52	0.149	52.98	0.23	-169.7
	7.50E+00	0.588	111.97	2.307	30.88	0.152	52.29	0.234	-173.12
	7.60E+00	0.593	111.21	2.27	30.03	0.153	51.79	0.235	-175.79
	7.70E+00	0.597	110.28	2.239	29.21	0.155	51.6	0.238	-178.04
	7.80E+00	0.6	109.38	2.21	28.49	0.158	51.13	0.242	179.86
	7.90E+00	0.604	108.13	2.171	27.38	0.16	50.33	0.247	177.19
	8.00E+00	0.609	107.43	2.149	26.51	0.16	50.02	0.251	174.58
	8.10E+00	0.612	106.63	2.116	26.03	0.163	50.06	0.255	172.27
	8.20E+00	0.616	105.8	2.084	25.07	0.165	49.56	0.259	170.44
	8.30E+00	0.621	104.87	2.06	24.18	0.168	48.81	0.266	168.48
	8.40E+00	0.623	104	2.027	23.51	0.169	48.37	0.272	166.25
	8.50E+00	0.627	103.17	1.993	22.3	0.171	48.15	0.278	163.73
	8.60E+00	0.631	102.39	1.978	21.58	0.174	47.57	0.281	161.6
	8.70E+00	0.635	101.52	1.943	21.05	0.175	47.06	0.286	159.85
	8.80E+00	0.639	100.82	1.917	20.09	0.176	46.74	0.293	158.27
	8.90E+00	0.641	100.11	1.898	19.38	0.179	46.38	0.299	156.41
	9.00E+00	0.642	99.29	1.864	18.7	0.182	45.51	0.304	154.5
	9.10E+00	0.646	98.57	1.848	17.57	0.182	44.98	0.307	152.81
	9.20E+00	0.651	97.76	1.836	17.02	0.184	44.6	0.312	151.43
	9.30E+00	0.656	97.25	1.799	16.22	0.187	44.07	0.32	149.98
	9.40E+00	0.66	96.39	1.77	14.95	0.188	43.26	0.328	148.27
	9.50E+00	0.662	95.8	1.754	14.23	0.189	42.82	0.334	146.05
	9.60E+00	0.666	95.1	1.72	13.5	0.191	42.55	0.336	144.44
	9.70E+00	0.673	94.13	1.71	12.51	0.195	41.98	0.337	143.32
	9.80E+00	0.677	92.97	1.69	11.67	0.196	40.81	0.342	142.27
	9.90E+00	0.673	92.18	1.644	10.88	0.196	40.21	0.349	140.85
	1.00E+01	0.674	91.84	1.614	10.04	0.196	39.87	0.355	139.21
	1.01E+01	0.677	90.94	1.594	10	0.197	39.48	0.359	137.84
	1.02E+01	0.68	90.45	1.566	9.51	0.198	39.09	0.363	136.96
	1.03E+01	0.685	89.95	1.559	8.89	0.2	38.94	0.366	136.33
	1.04E+01	0.685	89.04	1.541	8.61	0.202	38.38	0.373	135.39
	1.05E+01	0.692	88.14	1.519	7.69	0.203	37.63	0.38	133.75
	1.06E+01	0.694	87.49	1.513	6.4	0.204	37.25	0.385	132.08
	1.07E+01	0.696	86.87	1.495	6	0.205	37.13	0.387	130.98
	1.08E+01	0.696	86.3	1.468	5.17	0.207	36.36	0.389	130.61
	1.09E+01	0.696	85.82	1.454	4.7	0.207	35.72	0.395	130.28
	1.10E+01	0.699	85.04	1.431	4.19	0.207	35.55	0.404	129.44
	1.11E+01	0.706	84.48	1.401	3.11	0.208	35.11	0.41	128.02
	1.12E+01	0.715	83.81	1.391	2.49	0.208	34.54	0.414	126.46
	1.13E+01	0.72	83.36	1.374	2.44	0.208	34.61	0.415	125.51
	1.14E+01	0.722	81.86	1.365	1.76	0.21	34.95	0.419	125.39
	1.15E+01	0.724	80.99	1.361	0.9	0.214	34.71	0.425	124.5
	1.16E+01	0.724	79.58	1.347	0.08	0.217	33.9	0.432	123.73
	1.17E+01	0.718	78.75	1.329	-1.26	0.218	33.2	0.434	122.39
	1.18E+01	0.727	78.11	1.318	-1.87	0.22	32.86	0.432	121.55
	1.19E+01	0.722	76.61	1.301	-2.56	0.224	32	0.433	121.56
	1.20E+01	0.712	75.74	1.287	-4.02	0.224	30.71	0.447	121.47
	1.21E+01	0.707	74.88	1.261	-5.02	0.224	30.17	0.455	119.68
	1.22E+01	0.702	74.79	1.24	-5.48	0.227	29.42	0.457	119
	1.23E+01	0.693	74.12	1.235	-7.14	0.227	27.38	0.465	118.25
	1.24E+01	0.692	73.74	1.203	-7.81	0.221	27.01	0.466	116.81
	1.25E+01	0.694	73.24	1.17	-8.18	0.219	26.63	0.472	116.55
	1.26E+01	0.692	73.37	1.142	-8.59	0.217	27.96	0.475	114.39
	1.27E+01	0.688	72.77	1.128	-8.87	0.221	27.82	0.473	113.31
	1.28E+01	0.686	71.93	1.103	-9.49	0.22	27.38	0.47	112.47
	1.29E+01	0.69	71.59	1.089	-9.73	0.221	27.59	0.468	112.43
	1.30E+01	0.687	71.38	1.079	-9.64	0.225	27.56	0.47	112.42
	1.31E+01	0.687	70.71	1.062	-10.35	0.225	26.66	0.474	112.48
	1.32E+01	0.683	70.24	1.054	-11.05	0.225	26.33	0.483	111.91
	1.33E+01	0.683	69.88	1.046	-11.15	0.226	26.3	0.486	110.27
	1.34E+01	0.68	69.21	1.033	-11.91	0.229	25.81	0.487	110.34
	1.35E+01	0.684	69.2	1.024	-12.32	0.228	25.42	0.491	109.58
	1.36E+01	0.679	68.64	1.01	-12.52	0.23	25.47	0.496	109.49
	1.37E+01	0.678	68.06	0.994	-13.37	0.232	25.31	0.499	108.66
	1.38E+01	0.682	67.24	0.987	-14.2	0.233	24.57	0.501	107.52
	1.39E+01	0.679	67.37	0.976	-14.47	0.233	24.36	0.498	106.64
	1.40E+01	0.678	66.59	0.963	-15.13	0.234	24.48	0.499	106.39
	1.41E+01	0.674	66	0.95	-15.72	0.236	23.87	0.503	106.16
	1.42E+01	0.676	65.44	0.933	-16.33	0.238	23.08	0.507	105.54
	1.43E+01	0.672	64.82	0.918	-17.36	0.238	23.24	0.51	104.86
	1.44E+01	0.676	64.58	0.915	-17.63	0.24	23.04	0.508	104.27
	1.45E+01	0.669	64.04	0.897	-17.88	0.243	22.27	0.508	103.95
	1.46E+01	0.669	63.57	0.884	-18.27	0.244	21.34	0.511	103.45
	1.47E+01	0.669	62.56	0.872	-18.6	0.243	21.31	0.512	102.56
	1.48E+01	0.667	62.64	0.855	-19.19	0.245	21.2	0.51	101.63
	1.49E+01	0.663	61.64	0.843	-20.28	0.249	20.41	0.511	101.52
	1.50E+01	0.663	61.4	0.84	-20.29	0.247	19.53	0.514	101.69
