! Filename: 3_610BFG480.001
! Title: BFG480W
! Bias: Vce=3.6V; Ic=10mA
! Company: Philips Semiconductors NL
! User: Quality&Reliability T&D
! Measure time: 10 Nov 1999 / 11:59:12
#  MHz  S  MA  R 50
! Freq       S11             S21             S12             S22    :
  100  0.63006 -29.66 19.63296 160.06 0.013704 69.131  0.92294 -21.87
  200  0.61913 -57.29 17.80787 144.38 0.024140 56.914  0.83298 -41.28
  300  0.60870 -82.32 16.35205 131.46 0.030978 47.650  0.73725 -56.44
  400  0.61582 -100.4 14.33451 121.43 0.035240 40.568  0.66612 -68.70
  500  0.62162 -115.2 12.75213 113.11 0.037561 35.841  0.60914 -78.98
  600  0.62470 -126.8 11.38934 106.04 0.038931 32.654  0.56650 -87.07
  700  0.62985 -135.4 10.14933 100.44 0.039558 30.618  0.53553 -93.89
  800  0.63370 -142.6  9.11443 95.481 0.039794 29.510  0.51220 -99.76
  900  0.63997 -148.0  8.15129 91.380 0.039850 29.301  0.49600 -105.0
 1000  0.64754 -153.2  7.41823 87.672 0.039963 29.465  0.48461 -110.1
 1200  0.66553 -161.4  6.21243 80.803 0.039605 30.831  0.47545 -118.9
 1400  0.68319 -167.3  5.32150 74.440 0.039289 33.486  0.47807 -126.2
 1600  0.69533 -171.9  4.63507 69.457 0.039836 37.825  0.48359 -132.0
 1800  0.70003 -176.3  4.11723 65.322 0.041246 42.764  0.48820 -137.6
 2000  0.71009 179.80  3.63709 61.178 0.042540 47.875  0.49504 -143.4
 2200  0.73083 176.02  3.24524 56.637 0.044416 51.952  0.51228 -149.2
 2400  0.74796 172.86  2.90588 52.060 0.047256 55.744  0.53825 -153.9
 2600  0.75604 170.17  2.64450 48.110 0.051724 58.997  0.56249 -157.2
 2800  0.75777 167.27  2.45853 43.227 0.055768 60.756  0.57646 -160.3
 3000  0.76421 164.03  2.27478 39.332 0.060498 62.687  0.58596 -164.2
