! Filename: 3_650BFG480.001
! Title: BFG480W
! Bias: Vce=3.6V; Ic=50mA
! Company: Philips Semiconductors NL
! User: Quality&Reliability T&D
! Measure time: 10 Nov 1999 / 11:59:58
#  MHz  S  MA  R 50
! Freq       S11             S21             S12             S22    :
  100  0.30498 -129.3 48.11965 150.43 0.007661 66.978  0.81187 -37.21
  200  0.47950 -144.2 38.23912 130.05 0.012259 56.869  0.66941 -65.85
  300  0.56234 -154.2 30.04205 117.20 0.014865 53.168  0.56525 -85.70
  400  0.60472 -160.8 24.19052 108.51 0.016744 52.563  0.50296 -99.99
  500  0.62977 -165.6 20.09189 102.17 0.018368 53.730  0.46543 -110.7
  600  0.64535 -169.4 17.05324 97.248 0.019962 55.446  0.44158 -118.8
  700  0.65578 -172.4 14.77835 93.296 0.021657 57.571  0.42551 -125.2
  800  0.66413 -175.1 12.98878 89.914 0.023403 59.518  0.41471 -130.6
  900  0.67251 -177.5 11.54975 87.024 0.025197 61.576  0.40828 -135.2
 1000  0.68092 -179.7 10.39455 84.333 0.027216 63.234  0.40565 -139.4
 1200  0.69737 176.68  8.59417 79.303 0.031244 65.995  0.40921 -146.3
 1400  0.70968 173.97  7.28457 74.440 0.035336 68.007  0.41760 -151.5
 1600  0.71599 171.37  6.35444 70.468 0.040167 69.651  0.42341 -155.4
 1800  0.71715 168.57  5.65042 67.030 0.045402 71.040  0.42982 -159.4
 2000  0.72795 166.13  5.00169 63.990 0.049923 72.336  0.43952 -164.0
 2200  0.74766 163.78  4.46472 60.382 0.054233 72.733  0.45861 -168.0
 2400  0.75998 161.89  4.00458 56.652 0.058965 72.648  0.48309 -170.7
 2600  0.76209 160.15  3.66095 53.288 0.064920 72.424  0.50212 -172.3
 2800  0.75833 157.87  3.39636 48.868 0.069566 71.352  0.51122 -174.3
 3000  0.76338 155.15  3.15324 45.436 0.074846 70.845  0.51873 -177.4
