! Filename: 35bfg425.001
! BFG425W Field C1
! V1=8.254E-001V,V2=3.000E+000V, I1=6.088E-005A, I2=5.000E-003A
# GHz   S   MA   R 50
!                S11              S21              S12              S22
!Freq(GHz)  Mag     Ang      Mag     Ang      Mag     Ang      Mag     Ang 
   0.040    0.795  -3.667   14.821 175.957    0.002  64.925    0.979  -1.917
   0.100    0.799  -8.910   14.489 171.699    0.005  82.411    0.977  -5.043
   0.200    0.789 -17.773   14.255 164.182    0.011  77.708    0.966 -10.004
   0.300    0.769 -26.425   13.927 157.151    0.016  73.670    0.948 -14.779
   0.400    0.747 -34.930   13.534 150.003    0.021  69.058    0.923 -19.272
   0.500    0.720 -43.125   13.085 143.002    0.025  64.848    0.896 -23.532
   0.600    0.693 -50.933   12.518 136.747    0.029  61.097    0.866 -27.427
   0.700    0.665 -58.348   11.964 130.960    0.032  57.446    0.835 -31.017
   0.800    0.635 -65.685   11.432 125.238    0.035  54.361    0.804 -34.310
   0.900    0.607 -72.480   10.910 119.917    0.038  51.612    0.775 -37.376
   1.000    0.579 -79.158   10.378 114.853    0.040  49.016    0.746 -40.194
   1.100    0.554 -85.417    9.874 110.171    0.043  46.713    0.719 -42.804
   1.200    0.531 -91.472    9.398 105.671    0.045  44.717    0.694 -45.264
   1.300    0.509 -97.295    8.949 101.462    0.046  42.950    0.670 -47.555
   1.400    0.489 -103.036    8.533  97.436    0.048  41.321    0.647 -49.661
   1.500    0.470 -108.655    8.141  93.593    0.050  39.891    0.626 -51.657
   1.600    0.452 -114.237    7.778  89.867    0.051  38.613    0.606 -53.601
   1.700    0.438 -119.456    7.437  86.350    0.053  37.406    0.588 -55.474
   1.800    0.424 -124.642    7.114  82.894    0.054  36.360    0.570 -57.275
   1.900    0.412 -129.638    6.818  79.649    0.056  35.351    0.554 -59.096
   2.000    0.402 -134.607    6.540  76.476    0.057  34.417    0.539 -60.861
   2.200    0.384 -144.451    6.041  70.396    0.060  32.656    0.509 -64.313
   2.400    0.370 -153.977    5.605  64.621    0.063  31.116    0.483 -67.686
   2.600    0.361 -163.258    5.217  59.084    0.066  29.582    0.458 -71.094
   2.800    0.355 -172.195    4.876  53.758    0.069  28.046    0.434 -74.476
   3.000    0.353 179.049    4.573  48.568    0.072  26.451    0.411 -77.960
   3.500    0.359 158.631    3.942  36.166    0.081  22.159    0.357 -86.974
   4.000    0.377 140.316    3.441  24.266    0.089  17.159    0.303 -96.768
   4.500    0.405 124.447    3.041  12.892    0.099  11.586    0.251 -108.018
   5.000    0.441 109.610    2.700   1.395    0.108   4.446    0.193 -122.725
   5.500    0.469  96.217    2.389  -9.129    0.114  -1.307    0.138 -137.570
   6.000    0.510  84.165    2.137 -20.217    0.121  -9.291    0.092 -170.604
   6.500    0.522  76.149    1.957 -27.865    0.134 -10.529    0.088 169.849
   7.000    0.558  67.446    1.805 -37.619    0.147 -17.356    0.109 132.037
   7.500    0.615  57.031    1.627 -49.638    0.151 -29.480    0.165  92.708
   8.000    0.649  48.843    1.487 -59.439    0.158 -36.996    0.220  76.531
   8.500    0.686  40.358    1.345 -69.865    0.162 -46.364    0.285  61.789
   9.000    0.712  31.957    1.200 -79.309    0.161 -54.551    0.339  48.634
   9.500    0.739  24.322    1.082 -88.093    0.161 -62.944    0.379  38.933
  10.000    0.765  17.230    0.988 -98.284    0.163 -72.416    0.444  31.371
  10.500    0.787  10.026    0.888 -108.115    0.162 -81.591    0.502  22.659
  11.000    0.802   2.668    0.785 -117.378    0.156 -91.493    0.548  13.035
  11.500    0.813  -4.495    0.699 -127.012    0.150 -101.718    0.593   5.417
  12.000    0.819 -11.644    0.607 -136.491    0.140 -112.489    0.637  -3.346
!     DEEMBEDDED NOISE DATA
!FREQUENCY    FMIN    GAMMA OPT        Rn
!  (GHz)      (dB)    Mag    Ang   (NORMALIZED)
