! Filename: 415bfg410.001
! BFG410W Field B1
! V1=8.649E-001V,V2=4.000E+000V, I1=2.178E-004A, I2=1.503E-002A
# GHz   S   MA   R 50
!                S11              S21              S12              S22
!Freq(GHz)  Mag     Ang      Mag     Ang      Mag     Ang      Mag     Ang 
   0.040    0.563  -2.323   24.368 174.716    0.001  53.569    0.964  -0.595
   0.100    0.569  -7.763   23.874 170.530    0.002  83.994    0.968  -3.364
   0.200    0.555 -15.942   23.280 162.292    0.005  79.381    0.956  -7.597
   0.300    0.537 -23.508   22.513 154.661    0.007  77.228    0.939 -11.244
   0.400    0.513 -30.740   21.571 147.016    0.008  74.908    0.917 -14.684
   0.500    0.485 -37.775   20.511 139.766    0.010  71.418    0.892 -17.590
   0.600    0.459 -43.880   19.391 133.367    0.012  69.645    0.868 -20.216
   0.700    0.432 -49.468   18.262 127.498    0.013  67.796    0.843 -22.595
   0.800    0.405 -54.905   17.203 121.945    0.015  66.538    0.821 -24.661
   0.900    0.380 -59.521   16.201 116.907    0.016  65.428    0.800 -26.613
   1.000    0.356 -64.090   15.254 112.209    0.017  64.457    0.780 -28.381
   1.100    0.335 -68.236   14.390 107.890    0.019  63.612    0.763 -30.010
   1.200    0.315 -72.293   13.591 103.791    0.020  62.979    0.747 -31.623
   1.300    0.297 -76.064   12.850  99.994    0.021  62.521    0.732 -33.063
   1.400    0.280 -79.718   12.189  96.456    0.023  61.946    0.718 -34.454
   1.500    0.264 -83.415   11.577  93.038    0.024  61.395    0.706 -35.806
   1.600    0.249 -86.900   11.018  89.799    0.025  60.966    0.695 -37.171
   1.700    0.236 -90.431   10.499  86.697    0.026  60.404    0.685 -38.522
   1.800    0.223 -93.830   10.024  83.725    0.028  59.964    0.675 -39.870
   1.900    0.211 -97.072    9.591  80.880    0.029  59.391    0.666 -41.262
   2.000    0.201 -100.539    9.191  78.090    0.031  58.854    0.657 -42.659
   2.200    0.182 -107.668    8.478  72.787    0.033  57.648    0.640 -45.412
   2.400    0.164 -115.213    7.860  67.701    0.036  56.493    0.625 -48.181
   2.600    0.150 -123.472    7.322  62.841    0.039  54.993    0.609 -51.042
   2.800    0.138 -132.153    6.850  58.160    0.043  53.396    0.594 -53.859
   3.000    0.128 -141.936    6.437  53.565    0.046  51.675    0.579 -56.803
   3.500    0.116 -169.477    5.582  42.484    0.055  46.808    0.541 -64.260
   4.000    0.121 162.108    4.918  31.772    0.064  41.177    0.499 -71.938
   4.500    0.146 138.755    4.396  21.347    0.073  34.603    0.456 -80.228
   5.000    0.179 119.450    3.950  10.912    0.083  27.594    0.405 -88.534
   5.500    0.222 102.637    3.548   0.169    0.090  19.475    0.341 -96.672
   6.000    0.261  93.018    3.259  -9.389    0.102  12.825    0.297 -106.634
   6.500    0.303  80.904    2.944 -19.314    0.108   5.478    0.236 -114.699
   7.000    0.283  71.770    2.664 -24.237    0.115   9.413    0.245 -112.173
   7.500    0.376  68.309    2.566 -37.082    0.135  -5.534    0.168 -141.911
   8.000    0.441  59.937    2.388 -48.158    0.146 -16.127    0.116 -176.776
   8.500    0.507  50.333    2.169 -60.043    0.151 -28.531    0.094 118.243
   9.000    0.558  41.592    1.968 -70.444    0.154 -38.455    0.136  76.638
   9.500    0.597  32.498    1.757 -80.696    0.151 -48.413    0.197  50.146
  10.000    0.650  25.980    1.618 -91.767    0.159 -58.679    0.276  38.609
  10.500    0.691  17.961    1.450 -102.522    0.159 -69.254    0.348  25.856
  11.000    0.730   9.421    1.275 -113.711    0.155 -82.369    0.427  13.431
  11.500    0.752   0.830    1.099 -124.267    0.145 -94.118    0.494   2.021
  12.000    0.767  -7.679    0.930 -134.861    0.135 -107.450    0.559  -9.170
!     DEEMBEDDED NOISE DATA
!FREQUENCY    FMIN    GAMMA OPT        Rn
!  (GHz)      (dB)    Mag    Ang   (NORMALIZED)
