! Filename: 4_4100BFG480.001
! Title: BFG480W
! Bias: Vce=4.4V; Ic=100mA
! Company: Philips Semiconductors NL
! User: Quality&Reliability T&D
! Measure time: 10 Nov 1999 / 12:07:04
#  MHz  S  MA  R 50
! Freq       S11             S21             S12             S22    :
  100  0.42254 -154.5 54.18770 147.15 0.006175 68.537  0.76164 -41.39
  200  0.55626 -159.6 41.20467 125.94 0.009615 60.587  0.60858 -72.11
  300  0.61627 -165.4 31.44762 113.52 0.011827 59.212  0.50937 -92.28
  400  0.64629 -169.6 24.95526 105.37 0.013735 60.797  0.45476 -106.3
  500  0.66381 -172.8 20.53768 99.503 0.015649 62.748  0.42396 -116.5
  600  0.67502 -175.5 17.33235 94.955 0.017553 64.699  0.40529 -124.0
  700  0.68274 -177.8 14.97363 91.308 0.019550 66.927  0.39301 -130.0
  800  0.68942 -179.9 13.13364 88.172 0.021752 68.792  0.38515 -134.9
  900  0.69631 178.16 11.66670 85.478 0.023954 70.660  0.38124 -139.2
 1000  0.70456 176.42 10.48893 82.930 0.026305 71.570  0.38053 -143.0
 1200  0.71787 173.37  8.65627 78.178 0.030835 73.332  0.38732 -149.2
 1400  0.72797 171.06  7.32901 73.504 0.035358 74.346  0.39757 -153.8
 1600  0.73294 168.72  6.39153 69.664 0.040634 75.094  0.40398 -157.3
 1800  0.73377 166.11  5.68135 66.280 0.046307 75.721  0.41160 -161.0
 2000  0.74334 163.86  5.02898 63.348 0.051161 76.447  0.42302 -165.4
 2200  0.76253 161.75  4.48940 59.857 0.055578 76.286  0.44272 -169.1
 2400  0.77368 160.03  4.02524 56.195 0.060472 75.754  0.46758 -171.5
 2600  0.77379 158.39  3.67993 52.843 0.066555 75.158  0.48709 -173.0
 2800  0.76913 156.12  3.41231 48.469 0.071308 73.769  0.49695 -174.8
 3000  0.77413 153.46  3.16955 45.062 0.076740 73.011  0.50480 -177.6
