! Filename: 440BFG480.001
! Title: BFG480W
! Bias: Vce=4V; Ic=40mA
! Company: Philips Semiconductors NL
! User: Quality&Reliability T&D
! Measure time: 10 Nov 1999 / 12:02:47
#  MHz  S  MA  R 50
! Freq       S11             S21             S12             S22    :
  100  0.27225 -109.5 44.90364 152.16 0.008201 64.560  0.81055 -34.47
  200  0.44637 -133.8 36.57731 132.28 0.013328 55.130  0.67911 -61.69
  300  0.53580 -147.1 29.21014 119.23 0.016220 50.681  0.57649 -81.04
  400  0.58332 -155.2 23.72326 110.24 0.018098 49.355  0.51198 -95.22
  500  0.61177 -161.2 19.81102 103.61 0.019657 49.865  0.47198 -106.0
  600  0.62935 -165.6 16.87167 98.451 0.021119 51.117  0.44592 -114.2
  700  0.64106 -169.1 14.64785 94.309 0.022576 53.057  0.42842 -120.8
  800  0.65057 -172.2 12.89420 90.759 0.024091 55.131  0.41634 -126.3
  900  0.65943 -174.8 11.47192 87.727 0.025671 57.473  0.40872 -131.1
 1000  0.66861 -177.3 10.33162 84.919 0.027532 59.224  0.40527 -135.4
 1200  0.68627 178.73  8.55008 79.693 0.031057 62.415  0.40784 -142.7
 1400  0.69980 175.75  7.25544 74.664 0.034872 64.940  0.41611 -148.1
 1600  0.70705 173.02  6.32515 70.594 0.039403 67.205  0.42218 -152.2
 1800  0.70891 170.10  5.62301 67.090 0.044450 69.044  0.42853 -156.4
 2000  0.71971 167.52  4.97740 63.923 0.048745 70.726  0.43812 -161.2
 2200  0.74004 165.06  4.44393 60.229 0.052960 71.375  0.45730 -165.5
 2400  0.75319 163.06  3.98610 56.380 0.057626 71.589  0.48218 -168.4
 2600  0.75545 161.28  3.64396 52.954 0.063436 71.575  0.50218 -170.2
 2800  0.75313 158.96  3.38091 48.489 0.068126 70.688  0.51209 -172.3
 3000  0.75844 156.19  3.13865 44.997 0.073331 70.370  0.51985 -175.4
