! Filename: 4_450BFG480.001
! Title: BFG480W
! Bias: Vce=4.4V; Ic=50mA
! Company: Philips Semiconductors NL
! User: Quality&Reliability T&D
! Measure time: 10 Nov 1999 / 12:06:01
#  MHz  S  MA  R 50
! Freq       S11             S21             S12             S22    :
  100  0.28948 -128.2 47.90193 151.32 0.007454 63.955  0.78622 -35.76
  200  0.46238 -142.9 38.42792 131.24 0.012067 55.731  0.65467 -63.76
  300  0.54800 -153.0 30.38981 118.29 0.014686 52.268  0.55516 -83.43
  400  0.59266 -159.7 24.56666 109.43 0.016638 52.075  0.49419 -97.69
  500  0.61912 -164.7 20.44882 102.96 0.018249 53.410  0.45712 -108.4
  600  0.63545 -168.6 17.37959 97.942 0.019845 54.899  0.43332 -116.5
  700  0.64659 -171.7 15.07677 93.892 0.021436 56.976  0.41732 -123.0
  800  0.65546 -174.4 13.26013 90.424 0.023187 59.133  0.40658 -128.4
  900  0.66407 -176.9 11.79321 87.473 0.024944 61.401  0.40005 -133.1
 1000  0.67300 -179.1 10.62019 84.724 0.026971 63.007  0.39735 -137.4
 1200  0.68994 177.21  8.78444 79.618 0.030873 65.843  0.40107 -144.4
 1400  0.70281 174.46  7.44960 74.699 0.034887 67.925  0.40976 -149.6
 1600  0.70949 171.85  6.49857 70.686 0.039689 69.707  0.41584 -153.6
 1800  0.71085 169.04  5.77852 67.197 0.044893 71.123  0.42237 -157.7
 2000  0.72174 166.56  5.11448 64.108 0.049453 72.474  0.43260 -162.4
 2200  0.74182 164.19  4.56842 60.473 0.053668 72.946  0.45162 -166.5
 2400  0.75492 162.30  4.09758 56.707 0.058377 72.954  0.47635 -169.2
 2600  0.75687 160.58  3.74650 53.314 0.064284 72.697  0.49615 -171.0
 2800  0.75369 158.31  3.47722 48.883 0.068992 71.689  0.50587 -172.9
 3000  0.75891 155.57  3.22799 45.429 0.074287 71.227  0.51355 -176.0
