!BFG403W 
! V1=8.245E-001V,V2=1.000E+000V, I1=6.755E-006A, I2=5.000E-004A
# GHz   S   MA   R 50
!                S11              S21              S12              S22
!Freq(GHz)  Mag     Ang      Mag     Ang      Mag     Ang      Mag     Ang 
   0.040    0.975  -0.740    1.680 178.532    0.000  50.774    0.997  -0.633
   0.100    0.978  -2.186    1.656 177.411    0.002  93.334    0.997  -1.873
   0.200    0.978  -4.296    1.657 174.712    0.003  86.944    0.996  -3.834
   0.300    0.977  -6.371    1.658 173.531    0.005  85.731    0.996  -5.719
   0.400    0.977  -8.219    1.667 169.725    0.007  83.439    0.994  -7.691
   0.500    0.976 -10.834    1.672 166.972    0.008  80.616    0.992  -9.529
   0.600    0.975 -12.891    1.663 164.379    0.010  79.386    0.990 -11.396
   0.700    0.974 -14.971    1.656 161.833    0.012  78.028    0.987 -13.368
   0.800    0.972 -17.186    1.654 159.331    0.013  76.174    0.984 -15.203
   0.900    0.970 -19.286    1.657 156.947    0.015  74.539    0.982 -17.158
   1.000    0.969 -21.441    1.657 154.262    0.017  73.004    0.977 -19.040
   1.100    0.967 -23.544    1.656 151.788    0.018  71.392    0.973 -20.869
   1.200    0.964 -25.684    1.656 149.228    0.020  69.894    0.970 -22.775
   1.300    0.962 -27.818    1.659 147.223    0.021  68.321    0.965 -24.650
   1.400    0.959 -29.892    1.656 144.216    0.023  66.597    0.960 -26.497
   1.500    0.956 -32.127    1.660 141.827    0.024  64.936    0.956 -28.346
   1.600    0.954 -34.313    1.658 139.108    0.026  63.386    0.950 -30.176
   1.700    0.950 -36.458    1.658 136.576    0.027  61.810    0.945 -32.006
   1.800    0.945 -38.648    1.652 133.948    0.029  60.139    0.939 -33.868
   1.900    0.942 -40.690    1.647 131.507    0.030  58.678    0.933 -35.714
   2.000    0.939 -42.823    1.642 128.942    0.031  57.246    0.927 -37.541
   2.200    0.931 -47.124    1.636 123.891    0.034  54.279    0.913 -41.168
   2.400    0.919 -51.441    1.632 118.902    0.036  51.435    0.898 -44.777
   2.600    0.910 -55.755    1.624 113.978    0.039  48.655    0.882 -48.352
   2.800    0.899 -60.062    1.613 109.004    0.041  45.904    0.866 -51.889
   3.000    0.887 -64.383    1.607 104.075    0.043  43.271    0.849 -55.480
   3.500    0.851 -75.433    1.585  91.570    0.049  37.232    0.802 -64.273
   4.000    0.813 -86.707    1.558  79.057    0.054  31.607    0.750 -73.160
   4.500    0.771 -98.648    1.546  66.705    0.059  26.478    0.695 -82.141
   5.000    0.723 -111.326    1.526  53.865    0.064  20.764    0.633 -91.310
   5.500    0.668 -124.823    1.487  40.636    0.067  14.629    0.564 -100.510
   6.000    0.621 -139.843    1.458  27.066    0.075   7.753    0.495 -111.541
   6.500    0.569 -153.993    1.394  15.180    0.078   8.686    0.433 -120.522
   7.000    0.487 -169.702    1.255   2.586    0.061   7.351    0.332 -126.052
   7.500    0.505 172.182    1.295  -9.464    0.099   2.869    0.314 -145.695
   8.000    0.497 150.792    1.243 -23.979    0.113 -10.497    0.249 -169.828
   8.500    0.490 129.920    1.147 -37.828    0.116 -21.429    0.190 161.200
   9.000    0.507 110.234    1.071 -51.054    0.127 -30.882    0.187 128.620
   9.500    0.534  91.198    0.977 -63.848    0.133 -44.168    0.221  95.791
  10.000    0.566  74.698    0.899 -77.712    0.135 -56.705    0.286  70.405
  10.500    0.604  59.254    0.799 -91.677    0.135 -71.091    0.358  51.082
  11.000    0.625  45.297    0.686 -104.958    0.126 -85.739    0.429  34.606
  11.500    0.656  32.929    0.593 -117.611    0.118 -100.228    0.497  21.167
  12.000    0.667  20.711    0.491 -130.086    0.098 -118.644    0.553   7.529
!     DEEMBEDDED NOISE DATA
!FREQUENCY    FMIN    GAMMA OPT        Rn
!  (GHz)      (dB)    Mag    Ang   (NORMALIZED)
