! Filename: 28bfg410.001
! BFG410W Field B1
! V1=8.712E-001V,V2=2.000E+000V, I1=1.222E-004A, I2=8.000E-003A
# GHz   S   MA   R 50
!                S11              S21              S12              S22
!Freq(GHz)  Mag     Ang      Mag     Ang      Mag     Ang      Mag     Ang 
   0.040    0.687  -2.522   18.206 176.417    0.001  48.713    0.980  -0.819
   0.100    0.693  -6.748   17.909 172.588    0.003  88.188    0.982  -3.219
   0.200    0.684 -13.410   17.526 165.272    0.005  81.897    0.967  -7.398
   0.300    0.670 -20.104   17.194 158.837    0.008  79.196    0.958 -10.815
   0.400    0.649 -26.366   16.743 151.997    0.010  75.443    0.941 -14.452
   0.500    0.626 -32.596   16.195 145.791    0.013  72.122    0.919 -17.374
   0.600    0.603 -38.364   15.602 139.862    0.015  69.501    0.901 -20.321
   0.700    0.578 -43.967   14.933 134.198    0.017  66.851    0.877 -23.209
   0.800    0.552 -49.278   14.313 128.866    0.018  64.864    0.855 -25.652
   0.900    0.525 -54.122   13.698 123.791    0.020  62.878    0.834 -28.060
   1.000    0.499 -58.795   13.064 119.031    0.021  61.159    0.812 -30.233
   1.100    0.475 -63.190   12.480 114.611    0.023  59.811    0.793 -32.223
   1.200    0.453 -67.493   11.916 110.321    0.024  58.574    0.775 -34.206
   1.300    0.431 -71.533   11.374 106.334    0.026  57.512    0.756 -35.970
   1.400    0.410 -75.422   10.885 102.550    0.027  56.502    0.740 -37.648
   1.500    0.390 -79.326   10.409  98.881    0.028  55.602    0.724 -39.277
   1.600    0.371 -83.094    9.974  95.391    0.030  54.880    0.710 -40.842
   1.700    0.354 -86.696    9.561  92.040    0.031  54.097    0.696 -42.391
   1.800    0.337 -90.244    9.170  88.838    0.032  53.423    0.683 -43.901
   1.900    0.323 -93.627    8.815  85.770    0.034  52.815    0.672 -45.434
   2.000    0.308 -97.179    8.476  82.773    0.035  52.140    0.660 -46.930
   2.200    0.282 -104.205    7.869  77.035    0.038  50.936    0.638 -49.870
   2.400    0.259 -111.389    7.332  71.565    0.040  49.790    0.618 -52.806
   2.600    0.239 -118.776    6.857  66.280    0.043  48.406    0.599 -55.768
   2.800    0.221 -126.619    6.436  61.249    0.046  46.938    0.580 -58.702
   3.000    0.206 -134.714    6.062  56.365    0.050  45.432    0.562 -61.745
   3.500    0.180 -157.562    5.283  44.634    0.058  40.955    0.517 -69.452
   4.000    0.171 177.403    4.666  33.341    0.067  35.691    0.471 -77.412
   4.500    0.183 153.501    4.176  22.419    0.077  29.505    0.424 -86.093
   5.000    0.208 131.879    3.752  11.547    0.086  22.694    0.370 -94.965
   5.500    0.244 112.277    3.369   0.438    0.093  14.723    0.305 -103.977
   6.000    0.283 100.265    3.090  -9.462    0.105   8.230    0.260 -115.089
   6.500    0.322  86.564    2.786 -19.640    0.111   1.005    0.199 -125.089
   7.000    0.303  77.563    2.522 -24.879    0.118   5.313    0.201 -120.883
   7.500    0.396  71.429    2.416 -37.868    0.138  -9.752    0.137 -159.208
   8.000    0.461  62.118    2.242 -49.100    0.148 -20.267    0.110 155.854
   8.500    0.523  51.778    2.030 -61.030    0.153 -32.617    0.127  98.762
   9.000    0.572  42.636    1.838 -71.491    0.156 -42.460    0.178  69.463
   9.500    0.608  33.368    1.636 -81.685    0.152 -52.316    0.238  48.028
  10.000    0.658  26.540    1.504 -92.773    0.159 -62.363    0.315  36.872
  10.500    0.696  18.438    1.346 -103.454    0.159 -72.808    0.382  24.661
  11.000    0.734   9.891    1.184 -114.584    0.155 -85.756    0.457  12.650
  11.500    0.752   1.396    1.018 -125.129    0.144 -97.263    0.520   1.609
  12.000    0.768  -7.030    0.863 -135.667    0.133 -110.531    0.580  -9.336
!     DEEMBEDDED NOISE DATA
!FREQUENCY    FMIN    GAMMA OPT        Rn
!  (GHz)      (dB)    Mag    Ang   (NORMALIZED)
