! Filename: 2130BFG480.001
! Title: BFG480W
! Bias: Vce=2V; Ic=130mA
! Company: Philips Semiconductors NL
! User: Quality&Reliability T&D
! Measure time: 10 Nov 1999 / 11:55:36
#  MHz  S  MA  R 50
! Freq       S11             S21             S12             S22    :
  100  0.65864 -166.5 28.06656 139.23 0.006784 61.655  0.41836 -70.87
  200  0.75272 -170.8 19.59902 118.46 0.009988 56.129  0.41013 -110.8
  300  0.78422 -174.7 14.76269 107.55 0.012145 57.363  0.40859 -130.8
  400  0.79811 -177.6 11.70114 100.46 0.014271 60.333  0.41135 -141.9
  500  0.80463 -179.9  9.73029 95.437 0.016425 63.093  0.41497 -149.0
  600  0.80941 178.03  8.26273 91.534 0.018630 65.161  0.41742 -153.9
  700  0.81181 176.24  7.21348 88.340 0.020957 67.244  0.41942 -157.6
  800  0.81457 174.50  6.35510 85.578 0.023367 69.049  0.42189 -160.6
  900  0.81855 172.89  5.66688 83.216 0.025786 70.652  0.42564 -163.2
 1000  0.82251 171.39  5.12769 80.888 0.028505 71.335  0.43099 -165.5
 1200  0.82940 168.67  4.25226 76.500 0.033454 72.699  0.44408 -169.1
 1400  0.83263 166.38  3.60400 72.031 0.038410 73.296  0.45643 -171.9
 1600  0.83361 163.94  3.15687 68.334 0.044133 73.734  0.46448 -174.4
 1800  0.83049 161.39  2.82548 64.978 0.050172 73.797  0.47407 -177.1
 2000  0.83811 159.36  2.50744 62.307 0.055317 74.242  0.48865 179.84
 2200  0.85206 157.37  2.23656 58.958 0.059762 74.142  0.50770 177.31
 2400  0.85384 155.53  2.00264 55.480 0.064618 73.422  0.52800 175.71
 2600  0.84682 153.54  1.83433 52.278 0.070994 72.507  0.54205 174.53
 2800  0.84026 151.05  1.69953 47.795 0.075558 70.983  0.54900 172.81
 3000  0.84395 148.37  1.58105 44.468 0.080958 70.096  0.55731 170.23
