! Filename: 220bfg425.001
! BFG425W Field C1
! V1=8.621E-001V,V2=2.000E+000V, I1=2.817E-004A, I2=2.003E-002A
# GHz   S   MA   R 50
!                S11              S21              S12              S22
!Freq(GHz)  Mag     Ang      Mag     Ang      Mag     Ang      Mag     Ang 
   0.040    0.403  -7.736   35.568 173.654    0.002  74.185    0.936  -3.120
   0.100    0.409 -19.639   34.633 165.514    0.005  83.845    0.927  -9.088
   0.200    0.387 -38.134   32.477 152.301    0.009  76.166    0.881 -18.043
   0.300    0.363 -54.642   29.674 141.093    0.013  71.451    0.818 -25.405
   0.400    0.336 -69.761   26.761 131.283    0.016  67.914    0.753 -31.200
   0.500    0.313 -83.377   24.037 122.701    0.018  64.704    0.693 -35.665
   0.600    0.295 -95.014   21.592 115.737    0.021  62.886    0.642 -39.170
   0.700    0.281 -105.184   19.488 109.776    0.023  61.391    0.597 -41.979
   0.800    0.268 -114.814   17.689 104.357    0.025  60.524    0.559 -44.274
   0.900    0.258 -123.023   16.150  99.618    0.028  59.718    0.528 -46.323
   1.000    0.251 -130.695   14.821  95.310    0.030  58.969    0.501 -48.134
   1.100    0.245 -137.670   13.675  91.384    0.032  58.226    0.478 -49.806
   1.200    0.242 -143.995   12.682  87.709    0.034  57.666    0.457 -51.433
   1.300    0.239 -149.997   11.803  84.299    0.036  56.955    0.438 -52.931
   1.400    0.238 -155.416   11.042  81.102    0.039  56.254    0.422 -54.374
   1.500    0.238 -160.882   10.366  78.040    0.041  55.532    0.408 -55.782
   1.600    0.237 -165.923    9.759  75.100    0.043  54.740    0.394 -57.257
   1.700    0.238 -170.633    9.212  72.300    0.045  53.934    0.382 -58.723
   1.800    0.239 -175.160    8.728  69.566    0.048  53.059    0.371 -60.210
   1.900    0.241 -179.351    8.287  66.930    0.050  52.126    0.360 -61.813
   2.000    0.243 176.675    7.886  64.355    0.053  51.132    0.349 -63.430
   2.200    0.248 168.976    7.187  59.387    0.057  49.065    0.329 -66.675
   2.400    0.255 161.609    6.598  54.579    0.062  46.895    0.310 -70.020
   2.600    0.264 155.015    6.088  49.870    0.067  44.538    0.292 -73.581
   2.800    0.272 148.630    5.650  45.355    0.072  42.057    0.274 -77.191
   3.000    0.283 142.654    5.268  40.883    0.077  39.521    0.256 -81.062
   3.500    0.313 128.944    4.492  30.061    0.089  32.658    0.211 -91.681
   4.000    0.346 116.336    3.894  19.460    0.101  25.349    0.164 -104.546
   4.500    0.382 105.338    3.425   9.180    0.113  17.695    0.120 -122.351
   5.000    0.425  94.486    3.030  -1.415    0.123   9.160    0.077 -155.896
   5.500    0.457  83.885    2.675 -11.046    0.130   1.946    0.057 153.598
   6.000    0.501  74.252    2.389 -21.402    0.137  -6.950    0.094 103.851
   6.500    0.510  67.648    2.193 -28.438    0.151 -10.479    0.111  95.011
   7.000    0.546  60.555    2.023 -37.682    0.164 -18.231    0.163  84.143
   7.500    0.606  51.518    1.819 -49.163    0.166 -29.997    0.244  67.050
   8.000    0.640  44.151    1.664 -58.478    0.172 -37.929    0.299  57.835
   8.500    0.679  36.409    1.505 -68.408    0.175 -47.309    0.360  47.832
   9.000    0.706  28.470    1.345 -77.300    0.172 -55.530    0.411  37.787
   9.500    0.733  21.329    1.219 -85.843    0.172 -63.828    0.448  29.558
  10.000    0.762  14.598    1.112 -95.636    0.173 -73.135    0.504  22.974
  10.500    0.783   7.712    1.002 -105.039    0.171 -82.170    0.553  15.273
  11.000    0.799   0.596    0.888 -113.866    0.164 -91.687    0.593   6.687
  11.500    0.813  -6.477    0.794 -123.072    0.158 -101.394    0.630  -0.285
  12.000    0.819 -13.617    0.693 -132.039    0.148 -111.592    0.667  -8.354

!BFG425W_noise.xls                                                                 !Philips part #:BFG425W
! Bias condition: Vce=2V,Ic=20mA                                            # MHz dB Ratio deg ohm
! Freq. Fmin Gmag Gangle Rn
900 1.9 0.19 -165.5 0.18                                                      2000 2.2 0.17 -155.5 0.20
