! Filename: 31bfg425.001
! BFG425W Field C1
! V1=7.859E-001V,V2=3.000E+000V, I1=1.141E-005A, I2=1.000E-003A
# GHz   S   MA   R 50
!                S11              S21              S12              S22
!Freq(GHz)  Mag     Ang      Mag     Ang      Mag     Ang      Mag     Ang 
   0.040    0.958  -1.950    3.520 177.632    0.002  71.658    0.996  -1.182
   0.100    0.958  -5.177    3.458 175.264    0.006  86.361    0.995  -2.956
   0.200    0.957 -10.274    3.451 170.680    0.012  82.096    0.993  -5.865
   0.300    0.952 -15.488    3.441 166.898    0.018  78.684    0.990  -8.779
   0.400    0.946 -20.495    3.442 161.756    0.024  75.260    0.984 -11.685
   0.500    0.941 -25.672    3.430 157.085    0.030  71.749    0.978 -14.578
   0.600    0.934 -30.793    3.387 152.622    0.035  68.229    0.970 -17.384
   0.700    0.925 -35.766    3.344 148.357    0.041  64.650    0.961 -20.209
   0.800    0.916 -40.880    3.311 144.068    0.046  61.250    0.951 -22.988
   0.900    0.905 -45.834    3.283 139.805    0.051  57.948    0.939 -25.758
   1.000    0.893 -50.931    3.243 135.406    0.056  54.638    0.927 -28.429
   1.100    0.882 -55.881    3.199 131.265    0.060  51.360    0.915 -30.991
   1.200    0.870 -60.827    3.152 127.070    0.064  48.250    0.902 -33.586
   1.300    0.857 -65.706    3.103 123.063    0.068  45.173    0.888 -36.126
   1.400    0.844 -70.609    3.059 119.008    0.071  42.111    0.874 -38.613
   1.500    0.828 -75.532    3.013 115.033    0.075  39.166    0.860 -41.043
   1.600    0.814 -80.557    2.967 111.004    0.077  36.311    0.845 -43.405
   1.700    0.800 -85.319    2.917 107.176    0.080  33.574    0.831 -45.758
   1.800    0.786 -90.122    2.860 103.277    0.083  30.849    0.815 -48.060
   1.900    0.773 -94.783    2.802  99.623    0.085  28.238    0.801 -50.335
   2.000    0.759 -99.438    2.742  95.939    0.087  25.721    0.786 -52.561
   2.200    0.732 -108.897    2.634  88.689    0.090  20.906    0.756 -56.877
   2.400    0.706 -118.248    2.528  81.684    0.092  16.483    0.727 -61.059
   2.600    0.683 -127.488    2.421  74.945    0.094  12.415    0.698 -65.190
   2.800    0.662 -136.659    2.319  68.338    0.095   8.615    0.670 -69.148
   3.000    0.643 -145.749    2.221  61.892    0.095   5.125    0.642 -73.170
   3.500    0.609 -168.290    1.997  46.481    0.095  -2.119    0.576 -82.904
   4.000    0.590 170.136    1.793  31.729    0.095  -7.864    0.512 -92.729
   4.500    0.588 150.071    1.614  18.073    0.095 -11.819    0.451 -103.134
   5.000    0.599 131.072    1.452   4.588    0.096 -16.551    0.388 -114.947
   5.500    0.609 114.322    1.294  -7.753    0.094 -18.985    0.324 -126.444
   6.000    0.633  98.794    1.163 -20.238    0.097 -23.680    0.264 -142.437
   6.500    0.644  87.434    1.061 -28.897    0.105 -17.498    0.237 -155.189
   7.000    0.671  75.795    0.976 -39.349    0.120 -20.963    0.214 -177.688
   7.500    0.709  63.486    0.884 -51.928    0.125 -32.807    0.200 147.803
   8.000    0.734  53.849    0.808 -62.037    0.134 -38.567    0.220 120.320
   8.500    0.759  44.355    0.732 -72.815    0.140 -47.237    0.263  94.790
   9.000    0.777  35.283    0.651 -82.596    0.140 -54.702    0.307  74.116
   9.500    0.796  26.985    0.585 -91.252    0.142 -62.829    0.343  60.748
  10.000    0.815  19.392    0.539 -101.371    0.146 -72.235    0.419  49.173
  10.500    0.827  11.955    0.485 -111.097    0.146 -81.320    0.486  37.367
  11.000    0.837   4.593    0.428 -120.540    0.141 -91.476    0.538  25.379
  11.500    0.844  -2.596    0.382 -130.387    0.135 -102.233    0.591  16.092
  12.000    0.847  -9.631    0.332 -140.063    0.125 -113.300    0.644   5.706
!     DEEMBEDDED NOISE DATA
!FREQUENCY    FMIN    GAMMA OPT        Rn
!  (GHz)      (dB)    Mag    Ang   (NORMALIZED)
