! Filename: 222bfg425.001
! BFG425W Field C1
! V1=8.645E-001V,V2=2.000E+000V, I1=3.197E-004A, I2=2.246E-002A
# GHz   S   MA   R 50
!                S11              S21              S12              S22
!Freq(GHz)  Mag     Ang      Mag     Ang      Mag     Ang      Mag     Ang 
   0.040    0.369  -8.570   37.127 173.542    0.002  83.645    0.929  -2.969
   0.100    0.368 -21.302   36.143 165.021    0.005  83.457    0.921  -9.306
   0.200    0.350 -41.075   33.715 151.362    0.009  75.888    0.872 -18.524
   0.300    0.327 -58.433   30.606 139.910    0.012  71.304    0.806 -25.951
   0.400    0.305 -74.410   27.433 129.993    0.015  67.964    0.739 -31.659
   0.500    0.287 -88.843   24.512 121.416    0.018  65.370    0.678 -36.032
   0.600    0.272 -100.637   21.926 114.483    0.020  63.721    0.626 -39.397
   0.700    0.261 -111.002   19.730 108.593    0.023  62.411    0.582 -42.051
   0.800    0.252 -120.551   17.861 103.246    0.025  61.629    0.546 -44.218
   0.900    0.244 -128.774   16.280  98.568    0.027  60.814    0.515 -46.158
   1.000    0.240 -136.288   14.914  94.347    0.029  60.127    0.489 -47.884
   1.100    0.236 -143.112   13.747  90.464    0.031  59.448    0.467 -49.497
   1.200    0.234 -149.194   12.736  86.856    0.034  58.746    0.447 -51.065
   1.300    0.233 -154.943   11.846  83.495    0.036  58.179    0.429 -52.511
   1.400    0.233 -160.248   11.074  80.345    0.038  57.447    0.413 -53.914
   1.500    0.234 -165.481   10.391  77.323    0.041  56.714    0.400 -55.299
   1.600    0.234 -170.255    9.778  74.435    0.043  55.896    0.387 -56.756
   1.700    0.236 -174.765    9.226  71.652    0.045  55.017    0.375 -58.216
   1.800    0.238 -178.986    8.737  68.962    0.048  54.107    0.364 -59.686
   1.900    0.239 176.995    8.294  66.356    0.050  53.130    0.354 -61.280
   2.000    0.242 173.103    7.892  63.805    0.052  52.100    0.343 -62.897
   2.200    0.249 165.777    7.189  58.893    0.057  49.963    0.324 -66.142
   2.400    0.256 158.815    6.598  54.118    0.062  47.738    0.306 -69.478
   2.600    0.265 152.481    6.087  49.435    0.067  45.298    0.288 -73.032
   2.800    0.274 146.314    5.647  44.947    0.072  42.788    0.270 -76.657
   3.000    0.285 140.569    5.263  40.520    0.077  40.181    0.252 -80.539
   3.500    0.315 127.287    4.487  29.743    0.090  33.169    0.207 -91.143
   4.000    0.349 115.160    3.889  19.202    0.101  25.812    0.161 -104.026
   4.500    0.385 104.344    3.421   8.944    0.113  18.062    0.117 -121.952
   5.000    0.427  93.679    3.025  -1.593    0.123   9.503    0.074 -156.374
   5.500    0.460  83.288    2.670 -11.200    0.130   2.261    0.056 151.096
   6.000    0.503  73.680    2.384 -21.529    0.138  -6.662    0.095 102.145
   6.500    0.513  67.201    2.189 -28.551    0.151 -10.279    0.111  93.604
   7.000    0.548  60.139    2.019 -37.767    0.164 -18.061    0.163  83.205
   7.500    0.607  51.116    1.816 -49.232    0.166 -29.793    0.245  66.490
   8.000    0.642  43.825    1.661 -58.520    0.172 -37.745    0.299  57.387
   8.500    0.681  36.109    1.503 -68.426    0.175 -47.131    0.361  47.490
   9.000    0.707  28.229    1.343 -77.292    0.173 -55.333    0.411  37.532
   9.500    0.734  21.107    1.217 -85.826    0.172 -63.640    0.449  29.327
  10.000    0.763  14.395    1.110 -95.607    0.173 -72.941    0.505  22.777
  10.500    0.784   7.516    1.001 -104.976    0.171 -81.978    0.554  15.100
  11.000    0.801   0.417    0.887 -113.782    0.164 -91.470    0.593   6.542
  11.500    0.814  -6.612    0.794 -123.016    0.158 -101.178    0.631  -0.418
  12.000    0.821 -13.706    0.692 -131.985    0.149 -111.336    0.667  -8.458
!     DEEMBEDDED NOISE DATA
!FREQUENCY    FMIN    GAMMA OPT        Rn
!  (GHz)      (dB)    Mag    Ang   (NORMALIZED)
