! Filename: 422bfg425.001
! BFG425W Field C1
! V1=8.377E-001V,V2=4.000E+000V, I1=2.768E-004A, I2=2.248E-002A
# GHz   S   MA   R 50
!                S11              S21              S12              S22
!Freq(GHz)  Mag     Ang      Mag     Ang      Mag     Ang      Mag     Ang 
   0.040    0.407  -5.737   36.833 172.997    0.002  52.485    0.922  -2.601
   0.100    0.415 -17.405   35.754 165.450    0.004  76.278    0.917  -7.999
   0.200    0.393 -34.547   33.622 152.803    0.008  73.115    0.877 -15.946
   0.300    0.367 -49.792   30.779 141.926    0.011  70.021    0.821 -22.496
   0.400    0.338 -63.697   27.867 132.286    0.014  67.542    0.763 -27.566
   0.500    0.311 -76.355   25.119 123.754    0.016  64.765    0.709 -31.548
   0.600    0.288 -87.367   22.620 116.839    0.019  63.465    0.662 -34.600
   0.700    0.270 -97.045   20.467 110.941    0.021  62.103    0.622 -37.013
   0.800    0.254 -106.224   18.608 105.529    0.023  61.418    0.588 -38.996
   0.900    0.241 -114.389   17.016 100.814    0.025  60.773    0.560 -40.767
   1.000    0.231 -122.028   15.634  96.521    0.027  60.126    0.535 -42.368
   1.100    0.223 -129.044   14.444  92.586    0.029  59.479    0.514 -43.862
   1.200    0.218 -135.582   13.404  88.947    0.031  58.937    0.496 -45.306
   1.300    0.213 -141.737   12.488  85.536    0.033  58.354    0.479 -46.631
   1.400    0.210 -147.566   11.690  82.378    0.035  57.744    0.464 -47.932
   1.500    0.208 -153.394   10.982  79.323    0.038  57.078    0.451 -49.206
   1.600    0.207 -158.680   10.348  76.403    0.040  56.342    0.439 -50.555
   1.700    0.206 -163.766    9.774  73.617    0.042  55.547    0.428 -51.907
   1.800    0.207 -168.576    9.265  70.906    0.044  54.721    0.417 -53.259
   1.900    0.206 -173.102    8.802  68.306    0.046  53.842    0.407 -54.734
   2.000    0.208 -177.540    8.384  65.729    0.049  52.874    0.398 -56.210
   2.200    0.212 174.046    7.648  60.800    0.053  50.927    0.379 -59.199
   2.400    0.218 166.175    7.026  56.033    0.058  48.894    0.362 -62.224
   2.600    0.225 158.977    6.490  51.377    0.062  46.577    0.344 -65.414
   2.800    0.233 152.139    6.027  46.893    0.067  44.218    0.327 -68.608
   3.000    0.243 145.732    5.625  42.475    0.072  41.733    0.310 -71.996
   3.500    0.273 131.249    4.808  31.737    0.084  35.068    0.265 -80.858
   4.000    0.307 118.279    4.177  21.233    0.095  27.989    0.217 -90.646
   4.500    0.343 107.009    3.682  11.018    0.107  20.472    0.169 -102.288
   5.000    0.387  96.041    3.266   0.467    0.116  12.038    0.113 -119.083
   5.500    0.421  85.249    2.888  -9.155    0.124   4.959    0.062 -138.663
   6.000    0.466  75.569    2.586 -19.453    0.131  -3.969    0.040 136.002
   6.500    0.475  69.076    2.374 -26.441    0.145  -7.164    0.052 116.752
   7.000    0.512  62.217    2.197 -35.642    0.158 -14.784    0.102  94.619
   7.500    0.577  53.051    1.982 -47.324    0.161 -26.822    0.186  70.727
   8.000    0.614  45.832    1.817 -56.699    0.168 -34.731    0.243  60.798
   8.500    0.657  37.977    1.646 -66.725    0.171 -44.220    0.309  50.064
   9.000    0.687  29.934    1.472 -75.790    0.170 -52.557    0.363  39.348
   9.500    0.717  22.715    1.334 -84.488    0.169 -60.985    0.405  30.738
  10.000    0.749  15.852    1.217 -94.406    0.171 -70.422    0.465  24.265
  10.500    0.772   8.866    1.097 -103.951    0.169 -79.670    0.519  16.417
  11.000    0.791   1.595    0.971 -113.014    0.163 -89.426    0.562   7.537
  11.500    0.807  -5.653    0.867 -122.424    0.157 -99.370    0.604   0.415
  12.000    0.814 -12.879    0.754 -131.474    0.148 -109.794    0.644  -7.869
!     DEEMBEDDED NOISE DATA
!FREQUENCY    FMIN    GAMMA OPT        Rn
!  (GHz)      (dB)    Mag    Ang   (NORMALIZED)
