! Filename BFG424F_1V_20mA.prm
! Simulation_Values
! Created	by	janssen	on	nov	2006			
!	Column ranking S11, S21,S12,S22 both magnitude and phase.								
!	VCE	=	1	V,	IC	=	20	mA	
!	Common	Emitter	S-Parameters						
#	GHZ	S	MA	R	50				
	5.00E-01	0.398	-100.05	23.493	125.97	0.022	61.90	0.624	-43.14
	6.00E-01	0.393	-111.41	21.000	119.94	0.024	59.79	0.564	-47.36
	7.00E-01	0.389	-121.20	18.891	114.92	0.026	59.41	0.513	-50.65
	8.00E-01	0.386	-129.52	17.092	110.69	0.028	59.16	0.471	-53.28
	9.00E-01	0.388	-136.59	15.579	107.06	0.030	58.98	0.435	-55.56
	1.00E+00	0.388	-142.57	14.289	103.80	0.032	59.40	0.404	-57.43
	1.10E+00	0.389	-147.99	13.164	100.92	0.034	59.68	0.378	-59.18
	1.20E+00	0.389	-152.75	12.189	98.36	0.036	60.20	0.355	-60.73
	1.30E+00	0.390	-157.23	11.345	96.03	0.038	60.62	0.334	-62.20
	1.40E+00	0.393	-161.23	10.606	93.86	0.040	61.07	0.317	-63.66
	1.50E+00	0.396	-164.77	9.957	91.77	0.042	61.41	0.301	-65.09
	1.60E+00	0.396	-168.20	9.376	89.86	0.044	61.78	0.287	-66.47
	1.70E+00	0.398	-171.37	8.853	88.08	0.046	62.19	0.273	-67.95
	1.80E+00	0.401	-174.50	8.382	86.39	0.048	62.37	0.261	-69.32
	1.90E+00	0.405	-177.13	7.958	84.74	0.050	62.82	0.250	-70.83
	2.00E+00	0.409	-179.72	7.579	83.25	0.052	62.94	0.240	-72.34
	2.10E+00	0.411	177.70	7.223	81.70	0.054	63.02	0.231	-74.08
	2.20E+00	0.413	175.30	6.902	80.22	0.056	62.99	0.222	-75.93
	2.30E+00	0.418	172.75	6.602	78.84	0.059	63.22	0.213	-77.74
	2.40E+00	0.423	170.86	6.333	77.51	0.061	63.23	0.205	-79.61
	2.50E+00	0.426	168.89	6.078	76.19	0.063	63.40	0.198	-81.56
	2.60E+00	0.428	166.68	5.848	74.84	0.065	63.14	0.190	-83.78
	2.70E+00	0.432	164.43	5.634	73.58	0.068	63.19	0.183	-86.18
	2.80E+00	0.438	162.69	5.431	72.36	0.070	62.97	0.176	-88.52
	2.90E+00	0.443	160.89	5.240	71.17	0.072	63.00	0.170	-91.07
	3.00E+00	0.446	159.20	5.061	69.98	0.074	62.79	0.164	-93.63
	3.10E+00	0.450	157.23	4.900	68.81	0.076	62.44	0.159	-96.48
	3.20E+00	0.454	155.46	4.743	67.64	0.079	62.28	0.154	-99.43
	3.30E+00	0.460	153.67	4.594	66.52	0.081	62.33	0.149	-102.51
	3.40E+00	0.466	152.30	4.453	65.38	0.083	61.85	0.144	-105.85
	3.50E+00	0.469	150.74	4.317	64.35	0.086	61.58	0.140	-109.44
	3.60E+00	0.472	149.00	4.193	63.22	0.088	61.43	0.137	-113.24
	3.70E+00	0.477	147.32	4.080	62.14	0.090	61.06	0.133	-117.26
	3.80E+00	0.483	145.87	3.967	61.12	0.092	60.92	0.131	-121.37
	3.90E+00	0.487	144.48	3.864	60.10	0.095	60.66	0.128	-125.29
	4.00E+00	0.492	143.02	3.761	59.05	0.097	60.34	0.126	-129.58
	4.10E+00	0.496	141.39	3.664	58.09	0.099	59.92	0.125	-133.81
	4.20E+00	0.501	139.89	3.571	57.03	0.102	59.57	0.124	-138.38
	4.30E+00	0.507	138.56	3.487	56.15	0.104	59.19	0.124	-142.84
	4.40E+00	0.512	137.42	3.404	55.05	0.106	58.92	0.124	-147.27
	4.50E+00	0.515	136.18	3.323	54.04	0.109	58.57	0.125	-151.35
	4.60E+00	0.518	134.60	3.248	53.18	0.111	58.01	0.126	-155.56
	4.70E+00	0.525	133.14	3.171	52.18	0.113	57.58	0.128	-159.56
	4.80E+00	0.532	132.03	3.106	51.14	0.115	57.25	0.131	-163.92
	4.90E+00	0.537	130.99	3.038	50.31	0.118	56.68	0.134	-168.16
	5.00E+00	0.539	129.90	2.971	49.34	0.120	56.25	0.136	-172.16
	5.10E+00	0.542	128.37	2.911	48.28	0.122	55.94	0.139	-175.60
	5.20E+00	0.548	126.97	2.850	47.49	0.124	55.54	0.143	-178.65
	5.30E+00	0.556	126.18	2.787	46.51	0.127	54.89	0.148	177.99
	5.40E+00	0.559	125.04	2.737	45.53	0.128	54.42	0.153	174.39
	5.50E+00	0.563	123.92	2.680	44.76	0.130	54.11	0.157	171.30
	5.60E+00	0.567	122.58	2.620	43.77	0.132	53.65	0.161	168.41
	5.70E+00	0.573	121.53	2.577	42.89	0.134	53.08	0.166	166.08
	5.80E+00	0.579	120.45	2.525	42.16	0.136	52.69	0.173	163.52
	5.90E+00	0.582	119.52	2.473	41.08	0.138	52.33	0.178	161.00
	6.00E+00	0.585	118.44	2.435	40.36	0.141	51.74	0.184	158.41
	6.10E+00	0.588	117.18	2.389	39.59	0.143	51.19	0.189	156.12
	6.20E+00	0.594	116.01	2.338	38.54	0.144	50.88	0.195	154.18
	6.30E+00	0.601	115.26	2.303	37.73	0.146	50.50	0.201	152.12
	6.40E+00	0.602	114.20	2.257	36.98	0.148	50.06	0.208	150.29
	6.50E+00	0.606	113.12	2.219	36.04	0.150	49.44	0.214	148.17
	6.60E+00	0.610	112.08	2.181	35.37	0.152	49.14	0.218	146.41
	6.70E+00	0.615	111.17	2.141	34.65	0.154	48.69	0.224	144.79
	6.80E+00	0.621	110.21	2.103	33.63	0.156	48.08	0.231	143.11
	6.90E+00	0.624	109.38	2.074	32.94	0.157	47.67	0.237	141.52
	7.00E+00	0.625	108.45	2.033	32.24	0.159	47.45	0.244	139.83
	7.10E+00	0.628	107.38	2.002	31.34	0.162	46.79	0.248	138.37
	7.20E+00	0.634	106.36	1.971	30.73	0.163	46.25	0.253	137.27
	7.30E+00	0.638	105.79	1.935	29.97	0.165	45.77	0.259	136.23
	7.40E+00	0.640	104.91	1.907	29.01	0.167	45.55	0.267	134.98
	7.50E+00	0.643	103.91	1.877	28.43	0.169	44.85	0.275	133.23
	7.60E+00	0.647	103.06	1.845	27.60	0.170	44.32	0.280	131.60
	7.70E+00	0.651	102.29	1.820	26.93	0.171	44.08	0.285	130.46
	7.80E+00	0.654	101.58	1.795	26.36	0.174	43.58	0.289	129.66
	7.90E+00	0.655	100.52	1.760	25.42	0.175	42.80	0.296	128.79
	8.00E+00	0.659	99.73	1.742	24.62	0.176	42.45	0.302	127.52
	8.10E+00	0.662	98.98	1.714	24.18	0.177	42.46	0.308	126.12
	8.20E+00	0.665	98.27	1.688	23.31	0.180	41.94	0.312	125.08
	8.30E+00	0.668	97.46	1.668	22.65	0.181	41.23	0.318	124.29
	8.40E+00	0.670	96.71	1.639	22.14	0.182	40.78	0.325	123.53
	8.50E+00	0.672	95.93	1.609	21.05	0.184	40.58	0.332	122.46
	8.60E+00	0.675	95.19	1.596	20.42	0.186	40.02	0.337	121.32
	8.70E+00	0.679	94.38	1.568	19.99	0.187	39.48	0.341	120.33
	8.80E+00	0.682	93.89	1.548	19.19	0.188	39.26	0.346	119.61
	8.90E+00	0.683	93.11	1.531	18.67	0.191	38.95	0.352	118.81
	9.00E+00	0.684	92.40	1.502	18.12	0.193	38.10	0.359	117.83
	9.10E+00	0.687	91.73	1.489	17.03	0.193	37.56	0.363	116.77
	9.20E+00	0.690	91.05	1.479	16.61	0.194	37.25	0.368	115.94
	9.30E+00	0.695	90.46	1.451	16.03	0.197	36.82	0.373	115.28
	9.40E+00	0.697	89.74	1.429	14.99	0.198	36.01	0.379	114.56
	9.50E+00	0.698	89.21	1.415	14.40	0.198	35.65	0.385	113.43
	9.60E+00	0.702	88.52	1.388	13.72	0.200	35.33	0.389	112.30
	9.70E+00	0.707	87.64	1.379	12.78	0.203	34.82	0.390	111.36
	9.80E+00	0.710	86.58	1.366	12.06	0.204	33.74	0.392	110.76
	9.90E+00	0.705	85.92	1.332	11.41	0.204	33.12	0.397	110.32
	1.00E+01	0.705	85.53	1.308	10.57	0.204	32.76	0.403	109.58
	1.01E+01	0.708	84.80	1.290	10.62	0.204	32.38	0.407	108.74
	1.02E+01	0.711	84.32	1.266	10.21	0.205	32.01	0.409	108.00
	1.03E+01	0.714	83.90	1.261	9.70	0.206	31.91	0.411	107.51
	1.04E+01	0.714	83.06	1.247	9.62	0.207	31.42	0.415	107.15
	1.05E+01	0.720	82.26	1.230	8.86	0.208	30.79	0.421	106.37
	1.06E+01	0.721	81.67	1.224	7.69	0.208	30.47	0.426	105.67
	1.07E+01	0.721	80.96	1.210	7.34	0.209	30.37	0.428	104.91
	1.08E+01	0.721	80.48	1.190	6.50	0.210	29.55	0.430	104.45
	1.09E+01	0.721	80.04	1.178	6.15	0.210	28.90	0.433	104.26
	1.10E+01	0.722	79.39	1.161	5.85	0.210	28.77	0.438	103.95
	1.11E+01	0.727	78.85	1.135	4.90	0.210	28.39	0.444	103.40
	1.12E+01	0.735	78.38	1.126	4.36	0.209	27.96	0.449	102.51
	1.13E+01	0.740	77.81	1.111	4.40	0.208	28.21	0.451	101.64
	1.14E+01	0.742	76.51	1.104	3.90	0.210	28.74	0.453	101.36
	1.15E+01	0.744	75.78	1.101	3.26	0.213	28.69	0.458	100.85
	1.16E+01	0.743	74.41	1.092	2.68	0.216	28.08	0.463	100.47
	1.17E+01	0.738	73.55	1.080	1.39	0.217	27.49	0.465	99.49
	1.18E+01	0.746	72.99	1.072	0.78	0.219	27.21	0.463	98.69
	1.19E+01	0.741	71.49	1.058	0.18	0.223	26.51	0.464	98.64
	1.20E+01	0.731	70.64	1.047	-1.09	0.223	25.19	0.473	98.81
	1.21E+01	0.725	69.99	1.027	-1.87	0.223	24.68	0.479	97.59
	1.22E+01	0.718	69.85	1.009	-2.34	0.225	24.13	0.481	97.01
	1.23E+01	0.709	69.26	1.000	-3.71	0.225	22.54	0.484	95.86
	1.24E+01	0.711	68.81	0.980	-4.08	0.220	21.89	0.483	94.95
	1.25E+01	0.710	68.51	0.959	-4.50	0.218	21.30	0.485	95.07
	1.26E+01	0.707	68.48	0.937	-4.70	0.215	22.69	0.488	93.70
	1.27E+01	0.703	67.89	0.926	-4.87	0.218	22.64	0.485	93.07
	1.28E+01	0.702	67.28	0.908	-5.39	0.218	22.28	0.483	92.54
	1.29E+01	0.705	66.96	0.898	-5.58	0.218	22.53	0.481	92.38
	1.30E+01	0.701	66.60	0.891	-5.42	0.221	22.67	0.481	92.31
	1.31E+01	0.701	65.93	0.878	-5.97	0.222	21.78	0.482	92.61
	1.32E+01	0.698	65.49	0.873	-6.72	0.222	21.42	0.490	92.48
	1.33E+01	0.697	65.21	0.867	-6.83	0.223	21.39	0.493	91.29
	1.34E+01	0.693	64.55	0.856	-7.49	0.224	20.97	0.494	91.24
	1.35E+01	0.695	64.46	0.850	-7.74	0.223	20.68	0.497	90.47
	1.36E+01	0.691	63.92	0.840	-7.85	0.225	20.87	0.497	90.33
	1.37E+01	0.691	63.43	0.828	-8.62	0.227	20.77	0.499	89.79
	1.38E+01	0.693	62.70	0.822	-9.33	0.227	20.07	0.503	88.88
	1.39E+01	0.690	62.58	0.814	-9.66	0.227	19.81	0.500	88.24
	1.40E+01	0.689	61.90	0.805	-10.17	0.229	20.03	0.499	88.04
	1.41E+01	0.686	61.41	0.796	-10.54	0.230	19.53	0.499	87.96
	1.42E+01	0.686	60.96	0.783	-11.06	0.231	18.92	0.501	87.64
	1.43E+01	0.683	60.36	0.771	-11.96	0.231	19.10	0.502	86.98
	1.44E+01	0.684	59.86	0.768	-12.30	0.232	18.86	0.502	86.40
	1.45E+01	0.680	59.42	0.754	-12.45	0.235	18.19	0.501	86.08
	1.46E+01	0.680	59.10	0.747	-12.75	0.236	17.32	0.502	85.98
	1.47E+01	0.676	58.42	0.739	-12.96	0.235	17.34	0.503	85.57
	1.48E+01	0.674	57.83	0.726	-13.59	0.237	17.19	0.503	84.96
	1.49E+01	0.673	57.07	0.715	-14.48	0.240	16.55	0.503	84.46
	1.50E+01	0.672	57.07	0.713	-14.37	0.238	15.86	0.502	84.11
