! Filename: 47bfg425.001
! BFG425W Field C1
! V1=8.277E-001V,V2=4.000E+000V, I1=7.557E-005A, I2=7.010E-003A
# GHz   S   MA   R 50
!                S11              S21              S12              S22
!Freq(GHz)  Mag     Ang      Mag     Ang      Mag     Ang      Mag     Ang 
   0.040    0.734  -3.763   19.163 175.199    0.002  40.549    0.959  -2.092
   0.100    0.741 -10.028   18.664 170.460    0.005  70.596    0.957  -5.480
   0.200    0.725 -20.150   18.257 161.993    0.010  71.834    0.942 -10.924
   0.300    0.702 -29.827   17.657 154.161    0.014  69.355    0.917 -16.037
   0.400    0.673 -39.331   16.969 146.397    0.019  65.436    0.887 -20.720
   0.500    0.641 -48.235   16.202 138.922    0.022  62.158    0.854 -24.972
   0.600    0.610 -56.597   15.317 132.285    0.025  58.900    0.819 -28.767
   0.700    0.578 -64.492   14.469 126.301    0.028  55.934    0.785 -32.175
   0.800    0.546 -72.141   13.656 120.470    0.031  53.494    0.751 -35.198
   0.900    0.516 -79.104   12.883 115.166    0.033  51.409    0.721 -37.968
   1.000    0.489 -85.898   12.139 110.190    0.035  49.571    0.692 -40.458
   1.100    0.465 -92.263   11.452 105.605    0.037  47.863    0.666 -42.751
   1.200    0.443 -98.374   10.816 101.273    0.039  46.465    0.642 -44.895
   1.300    0.422 -104.232   10.230  97.224    0.041  45.264    0.619 -46.866
   1.400    0.405 -110.024    9.697  93.404    0.042  44.179    0.598 -48.681
   1.500    0.389 -115.679    9.205  89.734    0.044  43.237    0.579 -50.399
   1.600    0.374 -121.219    8.756  86.231    0.045  42.310    0.562 -52.105
   1.700    0.361 -126.456    8.338  82.914    0.047  41.523    0.546 -53.755
   1.800    0.350 -131.726    7.951  79.703    0.049  40.771    0.531 -55.355
   1.900    0.340 -136.717    7.600  76.607    0.050  40.032    0.517 -57.007
   2.000    0.333 -141.630    7.272  73.613    0.052  39.316    0.503 -58.609
   2.200    0.320 -151.459    6.690  67.881    0.055  37.892    0.478 -61.799
   2.400    0.310 -160.946    6.184  62.357    0.058  36.524    0.455 -64.952
   2.600    0.306 -170.056    5.743  57.113    0.062  35.051    0.433 -68.185
   2.800    0.303 -178.983    5.356  52.038    0.066  33.446    0.412 -71.422
   3.000    0.304 172.542    5.015  47.096    0.069  31.743    0.391 -74.783
   3.500    0.317 152.941    4.312  35.223    0.079  26.995    0.341 -83.516
   4.000    0.340 135.509    3.760  23.765    0.089  21.432    0.290 -92.996
   4.500    0.372 120.572    3.322  12.758    0.099  15.306    0.239 -103.918
   5.000    0.411 106.570    2.950   1.549    0.109   7.741    0.181 -118.100
   5.500    0.441  93.764    2.611  -8.719    0.115   1.553    0.127 -131.831
   6.000    0.485  82.331    2.337 -19.611    0.123  -6.793    0.077 -166.308
   6.500    0.495  74.759    2.143 -27.052    0.136  -8.622    0.073 172.902
   7.000    0.534  66.601    1.980 -36.683    0.149 -15.690    0.094 130.008
   7.500    0.594  56.503    1.785 -48.641    0.153 -27.894    0.157  88.738
   8.000    0.630  48.569    1.634 -58.373    0.160 -35.563    0.213  73.513
   8.500    0.670  40.238    1.479 -68.749    0.165 -45.027    0.279  59.398
   9.000    0.698  31.886    1.320 -78.160    0.163 -53.321    0.335  46.617
   9.500    0.727  24.325    1.192 -86.979    0.163 -61.784    0.376  37.029
  10.000    0.755  17.286    1.088 -97.176    0.165 -71.356    0.441  29.778
  10.500    0.778  10.097    0.978 -107.017    0.164 -80.652    0.498  21.259
  11.000    0.795   2.712    0.864 -116.208    0.157 -90.566    0.544  11.728
  11.500    0.808  -4.473    0.769 -125.859    0.151 -100.804    0.589   4.210
  12.000    0.814 -11.732    0.668 -135.248    0.142 -111.568    0.633  -4.463
!     DEEMBEDDED NOISE DATA
!FREQUENCY    FMIN    GAMMA OPT        Rn
!  (GHz)      (dB)    Mag    Ang   (NORMALIZED)
