! Filename: 312bfg425.001
! BFG425W Field C1
! V1=8.437E-001V,V2=3.000E+000V, I1=1.606E-004A, I2=1.251E-002A
# GHz   S   MA   R 50
!                S11              S21              S12              S22
!Freq(GHz)  Mag     Ang      Mag     Ang      Mag     Ang      Mag     Ang 
   0.040    0.576  -5.359   28.061 174.264    0.002  65.328    0.957  -2.655
   0.100    0.581 -13.674   27.345 167.908    0.005  81.236    0.952  -7.195
   0.200    0.559 -27.207   26.246 157.094    0.009  75.614    0.922 -14.269
   0.300    0.529 -39.790   24.713 147.449    0.013  71.440    0.880 -20.518
   0.400    0.496 -51.626   23.015 138.441    0.017  66.491    0.831 -25.845
   0.500    0.460 -62.462   21.286 130.091    0.020  63.219    0.782 -30.356
   0.600    0.429 -72.355   19.573 123.121    0.022  60.783    0.736 -34.091
   0.700    0.401 -81.291   18.019 116.988    0.025  58.472    0.694 -37.209
   0.800    0.375 -89.874   16.613 111.270    0.027  56.860    0.656 -39.856
   0.900    0.352 -97.525   15.366 106.193    0.029  55.527    0.623 -42.220
   1.000    0.333 -104.829   14.241 101.557    0.031  54.427    0.594 -44.310
   1.100    0.317 -111.681   13.253  97.295    0.033  53.422    0.569 -46.208
   1.200    0.304 -118.203   12.367  93.337    0.035  52.635    0.546 -48.000
   1.300    0.292 -124.406   11.578  89.639    0.037  51.947    0.525 -49.637
   1.400    0.283 -130.307   10.883  86.181    0.039  51.292    0.506 -51.179
   1.500    0.275 -136.243   10.255  82.884    0.041  50.597    0.490 -52.651
   1.600    0.268 -141.855    9.689  79.723    0.042  49.953    0.475 -54.163
   1.700    0.263 -147.204    9.177  76.706    0.044  49.291    0.461 -55.651
   1.800    0.259 -152.454    8.713  73.799    0.046  48.555    0.448 -57.125
   1.900    0.256 -157.383    8.292  70.983    0.049  47.839    0.436 -58.683
   2.000    0.254 -162.191    7.907  68.249    0.051  47.070    0.424 -60.218
   2.200    0.252 -171.479    7.229  63.014    0.055  45.391    0.402 -63.321
   2.400    0.253 179.653    6.654  57.952    0.059  43.674    0.382 -66.448
   2.600    0.257 171.372    6.154  53.045    0.063  41.769    0.362 -69.730
   2.800    0.262 163.548    5.722  48.327    0.068  39.710    0.343 -73.055
   3.000    0.269 156.093    5.344  43.705    0.072  37.498    0.324 -76.553
   3.500    0.294 139.340    4.572  32.529    0.084  31.498    0.277 -85.810
   4.000    0.325 124.610    3.975  21.644    0.095  24.854    0.228 -96.259
   4.500    0.360 111.914    3.504  11.096    0.106  17.749    0.179 -108.934
   5.000    0.403  99.773    3.106   0.309    0.116   9.556    0.124 -127.634
   5.500    0.435  88.240    2.746  -9.557    0.123   2.729    0.076 -150.570
   6.000    0.480  77.902    2.456 -20.115    0.130  -6.033    0.058 144.182
   6.500    0.489  71.031    2.254 -27.265    0.144  -8.876    0.069 125.690
   7.000    0.528  63.574    2.083 -36.641    0.157 -16.349    0.116 101.087
   7.500    0.589  54.085    1.877 -48.371    0.160 -28.420    0.195  75.311
   8.000    0.625  46.535    1.718 -57.886    0.167 -36.257    0.252  64.176
   8.500    0.666  38.496    1.555 -68.019    0.170 -45.728    0.316  52.657
   9.000    0.694  30.315    1.388 -77.166    0.168 -54.033    0.370  41.472
   9.500    0.724  22.981    1.256 -85.895    0.168 -62.450    0.410  32.665
  10.000    0.753  16.080    1.146 -95.869    0.169 -71.962    0.471  25.839
  10.500    0.776   8.986    1.031 -105.514    0.168 -81.119    0.524  17.795
  11.000    0.794   1.753    0.913 -114.544    0.161 -90.882    0.567   8.779
  11.500    0.807  -5.375    0.814 -123.970    0.155 -100.879    0.608   1.538
  12.000    0.815 -12.630    0.708 -133.140    0.145 -111.356    0.648  -6.811
!     DEEMBEDDED NOISE DATA
!FREQUENCY    FMIN    GAMMA OPT        Rn
!  (GHz)      (dB)    Mag    Ang   (NORMALIZED)
