! Filename: 415bfg425.001
! BFG425W Field C1
! V1=8.370E-001V,V2=4.000E+000V, I1=1.767E-004A, I2=1.500E-002A
# GHz   S   MA   R 50
!                S11              S21              S12              S22
!Freq(GHz)  Mag     Ang      Mag     Ang      Mag     Ang      Mag     Ang 
   0.040    0.534  -5.276   30.483 173.771    0.002  61.550    0.933  -2.418
   0.100    0.532 -14.157   29.645 167.264    0.005  71.281    0.928  -7.096
   0.200    0.511 -28.280   28.349 156.127    0.009  70.978    0.898 -14.167
   0.300    0.482 -41.246   26.509 146.271    0.012  68.482    0.854 -20.320
   0.400    0.449 -53.231   24.544 137.138    0.015  65.174    0.805 -25.431
   0.500    0.415 -64.492   22.570 128.753    0.018  62.441    0.757 -29.679
   0.600    0.385 -74.324   20.653 121.779    0.021  60.559    0.712 -33.132
   0.700    0.359 -83.482   18.942 115.725    0.023  58.738    0.672 -35.969
   0.800    0.334 -92.079   17.406 110.072    0.025  57.532    0.637 -38.373
   0.900    0.314 -99.708   16.050 105.103    0.027  56.551    0.606 -40.496
   1.000    0.297 -107.061   14.849 100.552    0.029  55.705    0.580 -42.389
   1.100    0.283 -113.926   13.791  96.387    0.031  54.970    0.556 -44.123
   1.200    0.271 -120.385   12.856  92.505    0.033  54.374    0.535 -45.766
   1.300    0.261 -126.610   12.021  88.897    0.035  53.757    0.516 -47.269
   1.400    0.253 -132.484   11.286  85.524    0.037  53.176    0.499 -48.706
   1.500    0.247 -138.532   10.630  82.297    0.039  52.564    0.484 -50.090
   1.600    0.241 -144.186   10.037  79.209    0.041  51.964    0.471 -51.512
   1.700    0.237 -149.510    9.501  76.261    0.043  51.285    0.458 -52.929
   1.800    0.234 -154.655    9.018  73.419    0.045  50.638    0.446 -54.334
   1.900    0.231 -159.725    8.579  70.659    0.047  49.859    0.435 -55.846
   2.000    0.230 -164.416    8.180  67.976    0.049  49.055    0.425 -57.331
   2.200    0.229 -173.719    7.476  62.827    0.053  47.377    0.404 -60.348
   2.400    0.232 177.477    6.880  57.872    0.057  45.585    0.385 -63.387
   2.600    0.236 169.247    6.363  53.034    0.062  43.608    0.367 -66.577
   2.800    0.242 161.458    5.916  48.399    0.066  41.448    0.349 -69.794
   3.000    0.250 154.285    5.525  43.846    0.071  39.225    0.331 -73.172
   3.500    0.276 137.885    4.729  32.822    0.082  33.070    0.285 -82.052
   4.000    0.307 123.401    4.114  22.056    0.093  26.335    0.236 -91.871
   4.500    0.344 111.053    3.629  11.615    0.105  19.151    0.188 -103.489
   5.000    0.387  99.133    3.218   0.908    0.114  10.933    0.131 -119.698
   5.500    0.420  87.756    2.847  -8.899    0.122   4.028    0.079 -137.352
   6.000    0.466  77.576    2.549 -19.418    0.129  -4.764    0.046 157.609
   6.500    0.475  70.845    2.341 -26.476    0.143  -7.618    0.054 134.597
   7.000    0.513  63.617    2.165 -35.782    0.156 -15.122    0.099 103.708
   7.500    0.577  54.231    1.953 -47.567    0.159 -27.229    0.179  75.288
   8.000    0.614  46.758    1.789 -57.052    0.166 -35.127    0.236  64.104
   8.500    0.657  38.836    1.620 -67.200    0.170 -44.623    0.303  52.539
   9.000    0.687  30.602    1.448 -76.391    0.168 -52.970    0.357  41.283
   9.500    0.716  23.267    1.311 -85.115    0.168 -61.455    0.399  32.397
  10.000    0.748  16.385    1.196 -95.128    0.169 -70.986    0.460  25.708
  10.500    0.771   9.361    1.077 -104.737    0.168 -80.196    0.515  17.675
  11.000    0.791   2.011    0.953 -113.872    0.161 -90.012    0.559   8.612
  11.500    0.805  -5.237    0.849 -123.364    0.155 -100.037    0.601   1.380
  12.000    0.812 -12.479    0.738 -132.523    0.146 -110.595    0.642  -7.021
!     DEEMBEDDED NOISE DATA
!FREQUENCY    FMIN    GAMMA OPT        Rn
!  (GHz)      (dB)    Mag    Ang   (NORMALIZED)
