! Filename: 2150BFG480.001
! Title: BFG480W
! Bias: Vce=2V; Ic=150mA
! Company: Philips Semiconductors NL
! User: Quality&Reliability T&D
! Measure time: 10 Nov 1999 / 11:55:59
#  MHz  S  MA  R 50
! Freq       S11             S21             S12             S22    :
  100  0.70834 -168.8 20.88736 137.17 0.007285 56.468  0.28119 -118.3
  200  0.80044 -172.9 12.74771 115.63 0.010319 52.453  0.36643 -144.0
  300  0.83327 -176.5  8.74104 104.85 0.012414 55.109  0.39710 -155.0
  400  0.84683 -179.3  6.61825 98.069 0.014505 58.518  0.41245 -160.9
  500  0.85504 178.47  5.28394 93.067 0.016655 61.571  0.42110 -164.5
  600  0.85899 176.51  4.39689 89.217 0.018944 63.826  0.42685 -167.0
  700  0.86228 174.73  3.76249 86.075 0.021340 66.185  0.43128 -169.0
  800  0.86531 173.08  3.28225 83.345 0.023796 67.944  0.43565 -170.8
  900  0.86814 171.51  2.91268 81.016 0.026346 69.643  0.44123 -172.3
 1000  0.87151 170.02  2.61271 78.667 0.029015 70.536  0.44741 -173.8
 1200  0.87677 167.31  2.14664 74.261 0.034100 71.928  0.46168 -176.1
 1400  0.87776 164.93  1.80925 69.758 0.039066 72.538  0.47416 -177.9
 1600  0.87735 162.43  1.58371 66.053 0.044891 72.988  0.48285 -179.8
 1800  0.87354 159.84  1.41652 62.629 0.051079 73.075  0.49363 177.85
 2000  0.88013 157.85  1.25523 60.025 0.056235 73.739  0.50901 175.38
 2200  0.89181 155.88  1.12077 56.724 0.060700 73.475  0.52827 173.35
 2400  0.89005 153.91  1.00514 53.312 0.065692 72.770  0.54701 172.02
 2600  0.87961 151.77  0.92272 50.195 0.072068 71.789  0.56012 170.92
 2800  0.87237 149.17  0.85651 45.780 0.076516 70.238  0.56704 169.27
 3000  0.87564 146.48  0.79807 42.561 0.081976 69.283  0.57600 166.83
