! Filename: 19bfg425.001
! BFG425W Field C1
! V1=8.506E-001V,V2=1.000E+000V, I1=1.302E-004A, I2=9.000E-003A
# GHz   S   MA   R 50
!                S11              S21              S12              S22
!Freq(GHz)  Mag     Ang      Mag     Ang      Mag     Ang      Mag     Ang 
   0.040    0.634  -6.257   22.687 175.110    0.003  80.222    0.946  -3.296
   0.100    0.635 -14.290   22.178 168.660    0.007  82.851    0.939  -8.643
   0.200    0.615 -28.265   21.318 157.809    0.014  75.615    0.906 -17.336
   0.300    0.587 -41.239   20.245 148.251    0.020  69.584    0.863 -25.126
   0.400    0.554 -53.603   18.949 139.207    0.025  64.502    0.810 -32.052
   0.500    0.522 -65.225   17.616 130.910    0.029  60.067    0.756 -37.955
   0.600    0.491 -75.704   16.270 123.816    0.033  56.462    0.704 -43.173
   0.700    0.465 -85.202   15.025 117.481    0.036  53.275    0.655 -47.759
   0.800    0.440 -94.346   13.903 111.593    0.039  50.944    0.611 -51.692
   0.900    0.418 -102.497   12.887 106.335    0.041  49.018    0.571 -55.254
   1.000    0.400 -110.196   11.959 101.532    0.044  47.352    0.536 -58.438
   1.100    0.385 -117.355   11.141  97.134    0.046  45.900    0.505 -61.369
   1.200    0.373 -124.114   10.408  92.999    0.048  44.678    0.476 -64.108
   1.300    0.362 -130.471    9.752  89.164    0.050  43.622    0.450 -66.651
   1.400    0.354 -136.560    9.169  85.541    0.052  42.648    0.427 -69.012
   1.500    0.347 -142.414    8.641  82.103    0.055  41.761    0.406 -71.282
   1.600    0.341 -148.112    8.164  78.794    0.057  40.920    0.386 -73.511
   1.700    0.337 -153.360    7.731  75.665    0.059  40.073    0.369 -75.707
   1.800    0.334 -158.400    7.337  72.651    0.061  39.257    0.352 -77.835
   1.900    0.331 -163.220    6.983  69.722    0.063  38.415    0.337 -80.047
   2.000    0.330 -167.876    6.655  66.868    0.065  37.552    0.323 -82.257
   2.200    0.329 -176.812    6.082  61.392    0.070  35.756    0.296 -86.707
   2.400    0.331 174.726    5.591  56.120    0.074  33.925    0.272 -91.267
   2.600    0.336 166.907    5.167  51.070    0.079  31.940    0.250 -96.142
   2.800    0.342 159.467    4.799  46.188    0.084  29.812    0.230 -101.264
   3.000    0.350 152.439    4.475  41.401    0.088  27.610    0.210 -106.865
   3.500    0.375 136.381    3.817  29.880    0.100  21.548    0.166 -123.540
   4.000    0.405 122.022    3.305  18.700    0.111  14.910    0.130 -146.408
   4.500    0.438 109.409    2.902   7.945    0.123   7.819    0.112 -177.578
   5.000    0.477  97.283    2.560  -2.981    0.132  -0.272    0.119 144.617
   5.500    0.506  85.962    2.257 -12.898    0.138  -6.988    0.138 115.487
   6.000    0.546  75.553    2.010 -23.428    0.145 -15.451    0.186  93.850
   6.500    0.557  68.336    1.843 -30.791    0.158 -18.684    0.203  86.134
   7.000    0.590  60.406    1.693 -40.210    0.170 -26.177    0.253  77.154
   7.500    0.642  51.029    1.518 -51.581    0.171 -37.580    0.327  63.553
   8.000    0.672  43.437    1.385 -60.887    0.176 -45.171    0.377  54.706
   8.500    0.706  35.520    1.251 -70.673    0.178 -54.185    0.431  45.315
   9.000    0.729  27.603    1.118 -79.416    0.175 -62.029    0.474  35.926
   9.500    0.751  20.466    1.013 -87.785    0.173 -69.964    0.506  28.172
  10.000    0.776  13.739    0.925 -97.399    0.174 -78.895    0.556  21.506
  10.500    0.793   6.974    0.835 -106.570    0.171 -87.597    0.599  14.000
  11.000    0.807   0.039    0.742 -115.203    0.164 -96.715    0.632   5.808
  11.500    0.817  -6.842    0.666 -124.262    0.158 -106.037    0.665  -0.965
  12.000    0.822 -13.823    0.583 -133.164    0.148 -115.915    0.697  -8.696
!     DEEMBEDDED NOISE DATA
!FREQUENCY    FMIN    GAMMA OPT        Rn
!  (GHz)      (dB)    Mag    Ang   (NORMALIZED)
