! Filename: 110bfg410.001
! BFG410W Field B1
! V1=8.855E-001V,V2=1.000E+000V, I1=1.679E-004A, I2=1.000E-002A
# GHz   S   MA   R 50
!                S11              S21              S12              S22
!Freq(GHz)  Mag     Ang      Mag     Ang      Mag     Ang      Mag     Ang 
   0.040    0.607  -3.376   20.292 176.516    0.001  67.106    0.953  -1.088
   0.100    0.613  -8.687   20.028 171.781    0.004  85.834    0.953  -4.029
   0.200    0.599 -17.149   19.454 163.051    0.007  80.341    0.935  -9.287
   0.300    0.582 -25.119   18.977 155.533    0.010  76.566    0.919 -13.598
   0.400    0.559 -32.826   18.272 147.858    0.012  72.977    0.893 -17.888
   0.500    0.531 -40.656   17.445 140.903    0.015  69.639    0.863 -21.391
   0.600    0.504 -47.443   16.591 134.489    0.017  66.728    0.837 -24.748
   0.700    0.477 -53.889   15.671 128.473    0.019  64.150    0.806 -27.886
   0.800    0.450 -60.141   14.834 122.888    0.021  62.207    0.778 -30.491
   0.900    0.424 -65.743   14.034 117.676    0.023  60.443    0.752 -33.010
   1.000    0.399 -71.105   13.247 112.853    0.025  58.950    0.726 -35.234
   1.100    0.377 -76.255   12.535 108.418    0.027  57.605    0.703 -37.254
   1.200    0.356 -81.156   11.867 104.146    0.028  56.529    0.682 -39.234
   1.300    0.338 -85.968   11.240 100.201    0.030  55.599    0.662 -40.991
   1.400    0.320 -90.392   10.685  96.511    0.031  54.715    0.644 -42.618
   1.500    0.303 -95.178   10.159  92.903    0.033  53.928    0.627 -44.215
   1.600    0.288 -99.686    9.677  89.548    0.034  53.191    0.611 -45.760
   1.700    0.274 -104.115    9.234  86.280    0.036  52.460    0.598 -47.308
   1.800    0.262 -108.458    8.823  83.153    0.037  51.705    0.584 -48.796
   1.900    0.251 -112.621    8.443  80.186    0.039  51.017    0.571 -50.320
   2.000    0.240 -117.099    8.092  77.243    0.041  50.374    0.560 -51.824
   2.200    0.222 -126.013    7.465  71.674    0.044  48.967    0.537 -54.797
   2.400    0.207 -135.118    6.921  66.346    0.047  47.468    0.516 -57.764
   2.600    0.196 -144.516    6.441  61.183    0.051  45.834    0.496 -60.805
   2.800    0.188 -154.099    6.022  56.266    0.054  44.070    0.477 -63.817
   3.000    0.183 -163.778    5.653  51.467    0.058  42.233    0.458 -66.953
   3.500    0.182 171.739    4.888  39.943    0.068  36.954    0.411 -75.001
   4.000    0.196 149.397    4.291  28.794    0.078  31.025    0.364 -83.459
   4.500    0.225 130.998    3.816  17.987    0.088  24.256    0.315 -92.922
   5.000    0.261 114.566    3.410   7.238    0.098  17.034    0.261 -102.910
   5.500    0.302  99.467    3.045  -3.663    0.105   8.872    0.197 -113.628
   6.000    0.342  89.424    2.780 -13.484    0.117   1.954    0.154 -128.873
   6.500    0.381  77.977    2.498 -23.543    0.122  -5.332    0.098 -146.727
   7.000    0.366  69.733    2.266 -28.801    0.129  -2.654    0.093 -135.178
   7.500    0.452  63.651    2.149 -41.607    0.147 -17.049    0.077 142.264
   8.000    0.510  55.194    1.982 -52.540    0.156 -27.200    0.123  97.154
   8.500    0.565  45.735    1.787 -63.992    0.160 -38.934    0.191  67.307
   9.000    0.607  37.295    1.614 -74.027    0.161 -48.385    0.251  51.377
   9.500    0.639  28.793    1.439 -83.833    0.157 -57.726    0.311  37.148
  10.000    0.682  22.299    1.320 -94.477    0.163 -67.404    0.380  28.303
  10.500    0.716  14.661    1.182 -104.725    0.162 -77.341    0.440  18.170
  11.000    0.747   6.715    1.043 -115.368    0.158 -89.459    0.506   7.937
  11.500    0.764  -1.151    0.904 -125.432    0.147 -100.169    0.561  -1.928
  12.000    0.778  -9.107    0.771 -135.673    0.137 -112.605    0.614 -11.789
!     DEEMBEDDED NOISE DATA
!FREQUENCY    FMIN    GAMMA OPT        Rn
!  (GHz)      (dB)    Mag    Ang   (NORMALIZED)
