! Filename: 3_220BFG480.001
! Title: BFG480W
! Bias: Vce=3.2V; Ic=20mA
! Company: Philips Semiconductors NL
! User: Quality&Reliability T&D
! Measure time: 10 Nov 1999 / 11:56:24
#  MHz  S  MA  R 50
! Freq       S11             S21             S12             S22    :
  100  0.39793 -53.01 31.82703 155.90 0.011227 67.371  0.87681 -29.28
  200  0.46284 -93.68 27.82643 137.45 0.018778 54.629  0.75600 -53.50
  300  0.52358 -119.1 23.63020 123.92 0.023039 46.869  0.64936 -71.45
  400  0.56676 -133.4 19.71643 114.26 0.025561 42.490  0.57661 -85.12
  500  0.59541 -144.0 16.83162 106.86 0.027118 40.301  0.52701 -95.88
  600  0.61314 -151.3 14.51326 101.02 0.028227 39.599  0.49295 -104.3
  700  0.62557 -156.9 12.69111 96.348 0.029101 39.857  0.46936 -111.2
  800  0.63528 -161.4 11.22167 92.329 0.030018 40.888  0.45236 -117.0
  900  0.64444 -165.2  9.99683 88.939 0.030733 42.462  0.44111 -122.1
 1000  0.65416 -168.6  9.02689 85.825 0.031739 44.050  0.43441 -126.7
 1200  0.67347 -174.1  7.49288 80.037 0.033759 47.507  0.43273 -134.7
 1400  0.68950 -178.2  6.37348 74.547 0.035965 51.010  0.43887 -140.9
 1600  0.69917 178.44  5.55489 70.158 0.039094 54.827  0.44503 -145.7
 1800  0.70235 175.02  4.93486 66.438 0.042920 58.298  0.45095 -150.4
 2000  0.71313 171.96  4.36421 62.933 0.046426 61.544  0.45964 -155.4
 2200  0.73365 168.99  3.89507 58.920 0.049743 63.502  0.47807 -160.3
 2400  0.74847 166.60  3.49131 54.845 0.053858 64.887  0.50349 -163.8
 2600  0.75280 164.47  3.18605 51.218 0.059215 66.019  0.52487 -166.2
 2800  0.75216 161.94  2.95836 46.598 0.063673 66.004  0.53598 -168.6
 3000  0.75790 159.01  2.74275 42.946 0.068706 66.475  0.54469 -172.0
