! Filename: 22bfg425.001
! BFG425W Field C1
! V1=8.063E-001V,V2=2.000E+000V, I1=2.573E-005A, I2=2.000E-003A
# GHz   S   MA   R 50
!                S11              S21              S12              S22
!Freq(GHz)  Mag     Ang      Mag     Ang      Mag     Ang      Mag     Ang 
   0.040    0.906  -2.883    6.789 177.255    0.003  76.626    0.992  -1.493
   0.100    0.910  -6.447    6.658 174.218    0.007  85.928    0.991  -3.777
   0.200    0.905 -12.832    6.610 168.473    0.013  81.146    0.984  -7.710
   0.300    0.896 -19.287    6.563 163.521    0.020  76.997    0.977 -11.450
   0.400    0.886 -25.517    6.508 157.651    0.026  72.710    0.966 -15.215
   0.500    0.874 -31.808    6.429 152.122    0.032  68.818    0.952 -18.804
   0.600    0.860 -37.994    6.296 146.925    0.037  64.842    0.937 -22.336
   0.700    0.844 -44.010    6.152 141.921    0.043  60.871    0.920 -25.848
   0.800    0.827 -50.135    6.027 136.964    0.048  57.204    0.901 -29.154
   0.900    0.808 -55.943    5.902 132.121    0.052  53.696    0.881 -32.415
   1.000    0.789 -61.859    5.755 127.275    0.056  50.293    0.860 -35.498
   1.100    0.770 -67.513    5.601 122.739    0.060  47.062    0.839 -38.454
   1.200    0.751 -73.086    5.447 118.227    0.063  43.979    0.819 -41.362
   1.300    0.732 -78.516    5.295 113.940    0.067  41.023    0.797 -44.086
   1.400    0.713 -83.978    5.150 109.699    0.069  38.211    0.776 -46.746
   1.500    0.693 -89.349    5.002 105.579    0.072  35.582    0.755 -49.286
   1.600    0.675 -94.805    4.860 101.520    0.074  33.052    0.735 -51.747
   1.700    0.658 -99.899    4.720  97.640    0.076  30.709    0.715 -54.158
   1.800    0.641 -104.979    4.574  93.812    0.077  28.486    0.696 -56.467
   1.900    0.626 -109.865    4.434  90.209    0.079  26.370    0.677 -58.747
   2.000    0.611 -114.772    4.296  86.632    0.080  24.382    0.659 -60.954
   2.200    0.584 -124.594    4.044  79.697    0.083  20.698    0.624 -65.205
   2.400    0.560 -134.233    3.812  73.072    0.084  17.438    0.591 -69.307
   2.600    0.541 -143.604    3.593  66.753    0.086  14.554    0.559 -73.386
   2.800    0.524 -152.801    3.393  60.632    0.087  11.897    0.530 -77.269
   3.000    0.512 -161.902    3.210  54.709    0.089   9.543    0.502 -81.192
   3.500    0.495 176.108    2.813  40.584    0.092   4.483    0.436 -90.995
   4.000    0.494 155.695    2.481  27.159    0.095  -0.032    0.374 -101.237
   4.500    0.507 137.304    2.206  14.579    0.100  -4.097    0.316 -112.662
   5.000    0.531 120.075    1.964   2.019    0.105  -9.620    0.256 -126.822
   5.500    0.550 104.999    1.741  -9.415    0.107 -13.550    0.199 -141.266
   6.000    0.582  91.070    1.558 -21.172    0.112 -19.911    0.152 -165.639
   6.500    0.595  81.295    1.424 -29.437    0.123 -18.022    0.141 177.545
   7.000    0.626  71.080    1.309 -39.595    0.136 -23.307    0.148 147.267
   7.500    0.672  59.659    1.179 -51.855    0.140 -35.020    0.183 109.887
   8.000    0.700  50.748    1.077 -61.876    0.148 -41.550    0.231  89.741
   8.500    0.730  41.764    0.973 -72.420    0.152 -50.393    0.290  72.070
   9.000    0.751  33.116    0.866 -81.998    0.151 -58.020    0.341  57.013
   9.500    0.772  25.165    0.779 -90.725    0.152 -66.054    0.380  46.572
  10.000    0.794  17.893    0.714 -100.880    0.154 -75.227    0.449  37.756
  10.500    0.810  10.582    0.642 -110.639    0.154 -84.175    0.509  28.142
  11.000    0.822   3.370    0.567 -119.890    0.148 -93.964    0.556  17.847
  11.500    0.831  -3.800    0.506 -129.585    0.142 -104.175    0.603   9.725
  12.000    0.834 -10.804    0.440 -139.136    0.132 -114.891    0.650   0.516
!BFG425W_noise.xls                                                                 !Philips part #:BFG425W
! Bias condition: Vce=2V,Ic=2mA                                            # MHz dB Ratio deg ohm
! Freq. Fmin Gmag Gangle Rn
900 0.8 0.48 17.8 0.27                                                      2000 1.2 0.43 57.2 0.25
