! Filename: 27bfg425.001
! BFG425W Field C1
! V1=8.380E-001V,V2=2.000E+000V, I1=9.357E-005A, I2=6.990E-003A
# GHz   S   MA   R 50
!                S11              S21              S12              S22
!Freq(GHz)  Mag     Ang      Mag     Ang      Mag     Ang      Mag     Ang 
   0.040    0.716  -4.522   19.276 175.542    0.003  83.451    0.973  -2.405
   0.100    0.719 -10.867   18.849 170.347    0.006  83.251    0.968  -6.306
   0.200    0.704 -21.655   18.375 161.337    0.012  77.682    0.948 -12.673
   0.300    0.680 -32.107   17.731 153.113    0.017  72.696    0.920 -18.576
   0.400    0.649 -42.036   16.955 145.056    0.021  67.785    0.883 -23.995
   0.500    0.619 -51.547   16.114 137.426    0.025  63.473    0.844 -28.843
   0.600    0.588 -60.455   15.176 130.633    0.029  59.566    0.804 -33.189
   0.700    0.557 -68.714   14.273 124.514    0.032  56.217    0.763 -37.094
   0.800    0.527 -76.751   13.421 118.637    0.035  53.449    0.725 -40.539
   0.900    0.498 -84.078   12.619 113.288    0.038  51.065    0.690 -43.685
   1.000    0.473 -91.141   11.851 108.304    0.040  48.984    0.658 -46.520
   1.100    0.451 -97.845   11.152 103.712    0.042  47.245    0.628 -49.106
   1.200    0.431 -104.166   10.506  99.381    0.044  45.649    0.601 -51.523
   1.300    0.413 -110.271    9.915  95.343    0.046  44.366    0.575 -53.748
   1.400    0.398 -116.226    9.383  91.532    0.047  43.121    0.552 -55.806
   1.500    0.384 -122.043    8.891  87.891    0.049  42.078    0.531 -57.737
   1.600    0.371 -127.734    8.446  84.375    0.051  41.060    0.511 -59.642
   1.700    0.361 -133.117    8.029  81.080    0.053  40.193    0.493 -61.479
   1.800    0.352 -138.353    7.650  77.878    0.054  39.344    0.476 -63.260
   1.900    0.345 -143.479    7.302  74.810    0.056  38.508    0.461 -65.079
   2.000    0.338 -148.459    6.979  71.826    0.058  37.691    0.446 -66.859
   2.200    0.329 -158.130    6.407  66.112    0.062  36.112    0.418 -70.381
   2.400    0.323 -167.539    5.913  60.596    0.065  34.524    0.392 -73.858
   2.600    0.321 -176.429    5.483  55.364    0.069  32.811    0.368 -77.471
   2.800    0.322 174.975    5.107  50.311    0.073  31.064    0.346 -81.086
   3.000    0.325 166.873    4.775  45.370    0.077  29.162    0.324 -84.888
   3.500    0.342 148.243    4.094  33.523    0.087  23.972    0.272 -95.077
   4.000    0.368 131.622    3.561  22.066    0.098  18.039    0.221 -106.914
   4.500    0.400 117.389    3.138  11.094    0.108  11.603    0.173 -121.894
   5.000    0.439 103.844    2.780  -0.074    0.117   3.887    0.124 -145.197
   5.500    0.469  91.490    2.455 -10.237    0.124  -2.484    0.086 -175.479
   6.000    0.510  80.326    2.193 -21.034    0.131 -10.835    0.088 132.368
   6.500    0.522  72.850    2.009 -28.443    0.144 -13.117    0.101 117.546
   7.000    0.558  64.662    1.852 -38.010    0.157 -20.334    0.149  98.410
   7.500    0.614  54.674    1.666 -49.767    0.159 -32.205    0.224  75.886
   8.000    0.649  46.844    1.522 -59.354    0.166 -39.802    0.279  64.679
   8.500    0.686  38.565    1.376 -69.525    0.169 -49.043    0.341  53.220
   9.000    0.711  30.416    1.228 -78.651    0.167 -57.161    0.392  42.216
   9.500    0.738  22.967    1.111 -87.284    0.167 -65.388    0.430  33.499
  10.000    0.764  16.005    1.014 -97.285    0.168 -74.707    0.489  26.479
  10.500    0.785   8.903    0.912 -106.868    0.166 -83.739    0.540  18.414
  11.000    0.800   1.727    0.807 -115.852    0.159 -93.340    0.581   9.463
  11.500    0.812  -5.381    0.721 -125.270    0.153 -103.182    0.621   2.254
  12.000    0.818 -12.488    0.628 -134.457    0.144 -113.621    0.660  -6.038
!     DEEMBEDDED NOISE DATA
!FREQUENCY    FMIN    GAMMA OPT        Rn
!  (GHz)      (dB)    Mag    Ang   (NORMALIZED)
