! Filename: 3_2130BFG480.001
! Title: BFG480W
! Bias: Vce=3.2V; Ic=130mA
! Company: Philips Semiconductors NL
! User: Quality&Reliability T&D
! Measure time: 10 Nov 1999 / 11:58:35
#  MHz  S  MA  R 50
! Freq       S11             S21             S12             S22    :
  100  0.55567 -163.0 42.95248 143.50 0.005819 67.786  0.67098 -46.62
  200  0.65323 -167.2 32.97425 122.77 0.008943 60.958  0.54020 -80.33
  300  0.68988 -171.4 25.74555 111.11 0.011128 61.421  0.46340 -101.4
  400  0.70963 -174.5 20.58121 103.36 0.013154 63.808  0.42571 -115.4
  500  0.71957 -177.1 17.05927 97.778 0.015215 66.115  0.40625 -125.2
  600  0.72800 -179.3 14.43249 93.423 0.017338 67.978  0.39502 -132.3
  700  0.73306 178.85 12.50294 89.924 0.019538 70.086  0.38799 -137.7
  800  0.73778 177.03 10.97440 86.868 0.021837 71.573  0.38414 -142.2
  900  0.74373 175.34  9.75025 84.278 0.024196 73.179  0.38327 -146.0
 1000  0.74988 173.79  8.77380 81.777 0.026681 73.931  0.38525 -149.4
 1200  0.76042 171.02  7.23789 77.081 0.031409 75.238  0.39522 -154.8
 1400  0.76895 168.83  6.12193 72.448 0.036228 75.829  0.40728 -158.8
 1600  0.77223 166.53  5.34055 68.602 0.041736 76.277  0.41501 -161.9
 1800  0.77165 163.98  4.74863 65.189 0.047595 76.581  0.42398 -165.4
 2000  0.78039 161.88  4.20218 62.303 0.052496 77.003  0.43732 -169.3
 2200  0.79854 159.86  3.74595 58.827 0.057106 76.758  0.45776 -172.7
 2400  0.80580 158.08  3.35344 55.170 0.062077 76.137  0.48173 -174.8
 2600  0.80361 156.34  3.06277 51.817 0.068367 75.296  0.50052 -176.2
 2800  0.79905 154.01  2.83760 47.374 0.073020 73.792  0.51028 -177.9
 3000  0.80354 151.37  2.63404 43.965 0.078492 72.912  0.51848 179.25
