! Filename: 4130BFG480.001
! Title: BFG480W
! Bias: Vce=4V; Ic=130mA
! Company: Philips Semiconductors NL
! User: Quality&Reliability T&D
! Measure time: 10 Nov 1999 / 12:04:37
#  MHz  S  MA  R 50
! Freq       S11             S21             S12             S22    :
  100  0.50760 -160.3 48.74657 144.71 0.005832 67.959  0.70178 -43.99
  200  0.61706 -164.9 37.02896 123.63 0.008926 60.943  0.55742 -76.12
  300  0.66222 -169.5 28.38570 111.68 0.011076 60.914  0.46956 -96.57
  400  0.68503 -173.0 22.51714 103.81 0.013044 63.397  0.42438 -110.4
  500  0.69844 -175.8 18.54360 98.126 0.014993 65.675  0.39996 -120.3
  600  0.70801 -178.1 15.64544 93.702 0.017118 67.593  0.38576 -127.5
  700  0.71344 179.89 13.51958 90.153 0.019258 69.627  0.37682 -133.0
  800  0.71979 178.01 11.85488 87.068 0.021422 71.284  0.37168 -137.6
  900  0.72601 176.25 10.52502 84.417 0.023704 73.017  0.36981 -141.6
 1000  0.73262 174.66  9.46349 81.903 0.026191 73.943  0.37108 -145.2
 1200  0.74516 171.81  7.80483 77.183 0.030879 75.220  0.38052 -150.9
 1400  0.75384 169.57  6.60156 72.525 0.035610 76.110  0.39246 -155.1
 1600  0.75763 167.25  5.75596 68.640 0.041049 76.626  0.40053 -158.4
 1800  0.75731 164.73  5.11459 65.237 0.046764 76.943  0.40958 -161.9
 2000  0.76645 162.57  4.52609 62.299 0.051622 77.274  0.42322 -166.2
 2200  0.78564 160.55  4.03796 58.791 0.056240 77.225  0.44336 -169.7
 2400  0.79384 158.78  3.61551 55.095 0.061208 76.638  0.46861 -172.0
 2600  0.79238 157.08  3.30211 51.731 0.067421 75.906  0.48903 -173.4
 2800  0.78829 154.76  3.06015 47.302 0.072171 74.396  0.49961 -175.2
 3000  0.79306 152.09  2.84142 43.862 0.077609 73.521  0.50827 -178.0
