! Filename BFG424F_2V_5mA.prm
! Simulation_Values
! Created	by	janssen	on	nov	2006			
!	Column ranking S11, S21,S12,S22 both magnitude and phase.								
!	VCE	=	2	V,	IC	=	5	mA	
!	Common	Emitter	S-Parameters						
#	GHZ	S	MA	R	50				
	5.00E-01	0.74	-43.27	13.392	148.86	0.028	68.28	0.898	-22.64
	6.00E-01	0.717	-51.11	12.867	143.55	0.032	64.84	0.865	-26.37
	7.00E-01	0.691	-58.62	12.349	138.56	0.035	62.21	0.834	-29.75
	8.00E-01	0.664	-65.87	11.805	133.91	0.039	59.34	0.801	-32.88
	9.00E-01	0.643	-72.73	11.245	129.68	0.042	57.03	0.769	-35.78
	1.00E+00	0.62	-79.16	10.722	125.66	0.044	54.97	0.739	-38.34
	1.10E+00	0.6	-85.46	10.22	122	0.046	53.38	0.71	-40.71
	1.20E+00	0.579	-91.29	9.735	118.57	0.048	52.01	0.682	-42.88
	1.30E+00	0.561	-97.06	9.291	115.34	0.05	50.6	0.655	-44.91
	1.40E+00	0.545	-102.53	8.866	112.31	0.052	49.73	0.632	-46.79
	1.50E+00	0.532	-107.83	8.481	109.43	0.053	48.8	0.609	-48.57
	1.60E+00	0.518	-112.79	8.114	106.75	0.055	48.06	0.588	-50.22
	1.70E+00	0.506	-117.52	7.762	104.24	0.056	47.65	0.568	-51.84
	1.80E+00	0.495	-122.29	7.43	101.84	0.057	47.24	0.549	-53.31
	1.90E+00	0.487	-126.7	7.127	99.55	0.058	47.04	0.532	-54.75
	2.00E+00	0.481	-131.01	6.852	97.44	0.059	46.87	0.516	-56.19
	2.10E+00	0.474	-135.14	6.586	95.28	0.06	46.67	0.501	-57.62
	2.20E+00	0.467	-139.1	6.338	93.27	0.061	46.46	0.487	-59.06
	2.30E+00	0.462	-143.2	6.097	91.36	0.063	46.63	0.473	-60.41
	2.40E+00	0.461	-146.78	5.886	89.53	0.064	46.76	0.461	-61.76
	2.50E+00	0.459	-150.2	5.679	87.78	0.065	47.25	0.448	-63.14
	2.60E+00	0.455	-153.71	5.492	85.96	0.066	47.02	0.437	-64.56
	2.70E+00	0.452	-157.34	5.312	84.32	0.067	47.27	0.425	-66.08
	2.80E+00	0.452	-160.57	5.139	82.68	0.068	47.55	0.415	-67.48
	2.90E+00	0.453	-163.74	4.977	81.14	0.069	47.86	0.404	-68.94
	3.00E+00	0.453	-166.64	4.825	79.6	0.07	48.04	0.394	-70.4
	3.10E+00	0.453	-169.75	4.687	78.05	0.072	47.97	0.385	-71.87
	3.20E+00	0.452	-172.6	4.551	76.58	0.073	48.51	0.376	-73.46
	3.30E+00	0.455	-175.56	4.417	75.19	0.074	48.87	0.367	-75.03
	3.40E+00	0.459	-178.16	4.293	73.71	0.076	48.99	0.359	-76.72
	3.50E+00	0.46	179.38	4.174	72.35	0.077	49.2	0.35	-78.43
	3.60E+00	0.46	176.64	4.062	70.94	0.078	49.61	0.343	-80.21
	3.70E+00	0.463	174.07	3.964	69.59	0.08	49.69	0.335	-82.06
	3.80E+00	0.467	171.7	3.86	68.33	0.081	50.14	0.327	-83.95
	3.90E+00	0.47	169.48	3.768	67.08	0.083	50.36	0.32	-85.81
	4.00E+00	0.473	167.14	3.674	65.73	0.084	50.48	0.313	-87.77
	4.10E+00	0.476	164.83	3.583	64.55	0.086	50.67	0.306	-89.7
	4.20E+00	0.479	162.58	3.498	63.22	0.088	50.85	0.299	-91.92
	4.30E+00	0.484	160.42	3.421	62.13	0.089	50.83	0.293	-93.95
	4.40E+00	0.489	158.62	3.343	60.87	0.091	51.09	0.287	-96.14
	4.50E+00	0.491	156.77	3.268	59.66	0.093	51.39	0.282	-98.35
	4.60E+00	0.494	154.59	3.196	58.56	0.095	51.26	0.276	-100.77
	4.70E+00	0.498	152.47	3.125	57.35	0.096	51.29	0.272	-103.16
	4.80E+00	0.506	150.78	3.064	56.13	0.098	51.33	0.267	-105.77
	4.90E+00	0.51	149.22	3.001	55.14	0.1	51.23	0.261	-108.39
	5.00E+00	0.513	147.64	2.938	54	0.102	51.23	0.256	-110.89
	5.10E+00	0.515	145.62	2.883	52.76	0.103	51.3	0.252	-113.38
	5.20E+00	0.52	143.75	2.824	51.79	0.105	51.38	0.249	-116.08
	5.30E+00	0.529	142.38	2.767	50.72	0.108	51.08	0.246	-118.99
	5.40E+00	0.532	140.84	2.72	49.55	0.109	50.94	0.242	-121.92
	5.50E+00	0.535	139.35	2.665	48.59	0.111	50.99	0.239	-124.75
	5.60E+00	0.539	137.63	2.608	47.39	0.113	50.87	0.237	-127.65
	5.70E+00	0.545	136.17	2.567	46.34	0.115	50.66	0.235	-130.51
	5.80E+00	0.551	134.75	2.517	45.45	0.117	50.58	0.234	-133.63
	5.90E+00	0.554	133.46	2.47	44.23	0.119	50.51	0.233	-136.77
	6.00E+00	0.557	132.07	2.433	43.38	0.121	50.17	0.231	-139.82
	6.10E+00	0.561	130.42	2.387	42.46	0.123	49.89	0.23	-142.84
	6.20E+00	0.567	128.94	2.339	41.19	0.124	49.84	0.231	-145.87
	6.30E+00	0.574	127.9	2.305	40.22	0.126	49.74	0.232	-149.14
	6.40E+00	0.576	126.61	2.262	39.36	0.129	49.51	0.233	-152.17
	6.50E+00	0.579	125.23	2.223	38.29	0.13	49.19	0.233	-155.18
	6.60E+00	0.584	123.91	2.186	37.44	0.132	49.07	0.234	-158
	6.70E+00	0.589	122.74	2.146	36.57	0.134	48.78	0.236	-160.81
	6.80E+00	0.595	121.53	2.111	35.4	0.136	48.41	0.238	-163.91
	6.90E+00	0.599	120.5	2.082	34.57	0.138	48.17	0.241	-166.85
	7.00E+00	0.6	119.36	2.042	33.74	0.14	48.16	0.243	-169.65
	7.10E+00	0.603	118.03	2.012	32.76	0.143	47.65	0.245	-172.16
	7.20E+00	0.609	116.8	1.981	32.01	0.144	47.25	0.248	-174.36
	7.30E+00	0.615	116.03	1.944	31.09	0.146	46.95	0.253	-176.79
	7.40E+00	0.617	114.96	1.919	29.95	0.148	46.87	0.258	-179.48
	7.50E+00	0.62	113.77	1.89	29.27	0.15	46.31	0.262	177.49
	7.60E+00	0.625	112.73	1.86	28.38	0.152	45.92	0.265	174.88
	7.70E+00	0.629	111.81	1.833	27.56	0.153	45.77	0.268	172.77
	7.80E+00	0.632	110.93	1.808	26.85	0.156	45.42	0.272	171
	7.90E+00	0.634	109.66	1.775	25.72	0.158	44.69	0.278	168.95
	8.00E+00	0.639	108.74	1.757	24.83	0.158	44.48	0.283	166.71
	8.10E+00	0.641	107.89	1.729	24.32	0.16	44.61	0.287	164.42
	8.20E+00	0.645	106.96	1.702	23.34	0.163	44.19	0.291	162.58
	8.30E+00	0.649	105.99	1.681	22.47	0.165	43.51	0.297	160.84
	8.40E+00	0.651	105.14	1.654	21.82	0.166	43.17	0.304	159.06
	8.50E+00	0.654	104.23	1.625	20.59	0.168	43.02	0.31	156.98
	8.60E+00	0.658	103.31	1.612	19.87	0.171	42.51	0.314	155.07
	8.70E+00	0.662	102.41	1.584	19.32	0.172	42.06	0.319	153.42
	8.80E+00	0.666	101.83	1.562	18.38	0.173	41.84	0.324	151.97
	8.90E+00	0.667	100.91	1.545	17.67	0.176	41.57	0.33	150.39
	9.00E+00	0.668	100.08	1.517	16.99	0.179	40.77	0.337	148.62
	9.10E+00	0.672	99.31	1.504	15.83	0.179	40.29	0.341	146.95
	9.20E+00	0.675	98.51	1.494	15.31	0.181	40.01	0.346	145.57
	9.30E+00	0.681	97.82	1.463	14.53	0.183	39.55	0.352	144.27
	9.40E+00	0.683	96.94	1.439	13.29	0.185	38.8	0.359	142.85
	9.50E+00	0.685	96.34	1.426	12.58	0.186	38.48	0.365	140.99
	9.60E+00	0.689	95.53	1.398	11.81	0.188	38.18	0.369	139.37
	9.70E+00	0.695	94.55	1.388	10.84	0.191	37.7	0.37	138.14
	9.80E+00	0.698	93.38	1.372	10.04	0.192	36.63	0.374	137.15
	9.90E+00	0.693	92.61	1.336	9.27	0.192	36.04	0.38	136.1
	1.00E+01	0.694	92.18	1.311	8.42	0.193	35.76	0.386	134.71
	1.01E+01	0.697	91.32	1.294	8.35	0.194	35.43	0.391	133.39
	1.02E+01	0.7	90.77	1.269	7.86	0.195	35.04	0.394	132.31
	1.03E+01	0.703	90.26	1.263	7.29	0.196	34.97	0.396	131.56
	1.04E+01	0.704	89.34	1.248	7.04	0.198	34.47	0.402	130.76
	1.05E+01	0.709	88.47	1.23	6.16	0.199	33.76	0.409	129.5
	1.06E+01	0.711	87.85	1.225	4.92	0.2	33.48	0.414	128.25
	1.07E+01	0.713	87.08	1.209	4.53	0.201	33.39	0.417	127.2
	1.08E+01	0.714	86.52	1.188	3.71	0.202	32.6	0.42	126.48
	1.09E+01	0.713	86.03	1.176	3.26	0.203	31.98	0.425	126.02
	1.10E+01	0.715	85.27	1.157	2.82	0.203	31.86	0.432	125.26
	1.11E+01	0.72	84.64	1.132	1.76	0.204	31.42	0.438	124.17
	1.12E+01	0.728	84.04	1.124	1.11	0.204	30.88	0.443	122.88
	1.13E+01	0.734	83.43	1.108	1.08	0.203	31.02	0.444	121.88
	1.14E+01	0.734	82.11	1.1	0.47	0.205	31.41	0.447	121.5
	1.15E+01	0.737	81.32	1.096	-0.3	0.208	31.24	0.453	120.7
	1.16E+01	0.736	79.86	1.085	-1.05	0.212	30.5	0.46	120.02
	1.17E+01	0.731	79.04	1.071	-2.35	0.212	29.91	0.462	118.81
	1.18E+01	0.74	78.37	1.062	-2.93	0.215	29.58	0.461	117.93
	1.19E+01	0.734	76.94	1.048	-3.57	0.218	28.84	0.463	117.8
	1.20E+01	0.725	76.04	1.035	-4.91	0.219	27.58	0.476	117.72
	1.21E+01	0.72	75.28	1.016	-5.79	0.219	27.06	0.483	116.08
	1.22E+01	0.714	75.14	0.999	-6.29	0.222	26.39	0.486	115.29
	1.23E+01	0.705	74.52	0.991	-7.85	0.221	24.43	0.492	114.15
	1.24E+01	0.707	74	0.967	-8.32	0.216	24.06	0.492	112.89
	1.25E+01	0.707	73.62	0.943	-8.73	0.214	23.6	0.497	112.63
	1.26E+01	0.703	73.56	0.92	-9.09	0.212	24.95	0.499	110.8
	1.27E+01	0.7	72.93	0.909	-9.28	0.215	24.91	0.496	109.92
	1.28E+01	0.699	72.31	0.889	-9.81	0.215	24.57	0.494	109.19
	1.29E+01	0.702	71.97	0.879	-10	0.215	24.77	0.492	108.97
	1.30E+01	0.698	71.57	0.871	-9.89	0.219	24.82	0.494	108.78
	1.31E+01	0.699	70.87	0.857	-10.53	0.22	23.97	0.497	108.89
	1.32E+01	0.697	70.38	0.852	-11.24	0.22	23.64	0.506	108.48
	1.33E+01	0.696	70.04	0.845	-11.31	0.221	23.63	0.509	107.02
	1.34E+01	0.692	69.4	0.834	-12.02	0.223	23.17	0.51	106.9
	1.35E+01	0.695	69.22	0.827	-12.42	0.222	22.82	0.514	106.02
	1.36E+01	0.691	68.66	0.816	-12.47	0.223	22.93	0.517	105.78
	1.37E+01	0.69	68.16	0.802	-13.33	0.226	22.84	0.52	104.95
	1.38E+01	0.693	67.33	0.796	-14.09	0.227	22.11	0.524	103.83
	1.39E+01	0.69	67.25	0.788	-14.33	0.227	21.9	0.521	103.01
	1.40E+01	0.69	66.56	0.778	-14.83	0.228	22.1	0.522	102.75
	1.41E+01	0.686	66.02	0.768	-15.33	0.23	21.6	0.523	102.51
	1.42E+01	0.686	65.43	0.754	-15.84	0.232	20.87	0.525	101.92
	1.43E+01	0.684	64.85	0.742	-16.77	0.231	21.05	0.527	101.13
	1.44E+01	0.685	64.33	0.739	-17.04	0.233	20.85	0.527	100.42
	1.45E+01	0.681	63.91	0.725	-17.23	0.236	20.13	0.527	100.07
	1.46E+01	0.681	63.43	0.716	-17.53	0.237	19.22	0.529	99.76
	1.47E+01	0.678	62.73	0.707	-17.78	0.236	19.22	0.531	99.14
	1.48E+01	0.677	62.23	0.694	-18.4	0.239	19.13	0.531	98.34
	1.49E+01	0.675	61.42	0.683	-19.31	0.242	18.45	0.531	97.81
	1.50E+01	0.674	61.33	0.681	-19.17	0.24	17.64	0.532	97.52
!	Noise	data:							
!	Freq.	Fmin	Gamma-opt	rn					
	0.9	1	0.28	11.7	0.24				
	2	1.2	0.22	60.8	0.18
