! Filename: 17bfg410.001
! BFG410W Field B1
! V1=8.733E-001V,V2=1.000E+000V, I1=1.124E-004A, I2=6.990E-003A
# GHz   S   MA   R 50
!                S11              S21              S12              S22
!Freq(GHz)  Mag     Ang      Mag     Ang      Mag     Ang      Mag     Ang 
   0.040    0.702  -2.547   16.689 176.920    0.001  75.339    0.967  -1.026
   0.100    0.708  -6.957   16.464 172.935    0.003  86.148    0.968  -3.695
   0.200    0.697 -13.903   16.118 165.556    0.007  81.249    0.952  -8.407
   0.300    0.683 -20.689   15.855 159.095    0.010  77.830    0.942 -12.310
   0.400    0.664 -27.017   15.461 152.239    0.013  74.735    0.923 -16.395
   0.500    0.641 -33.709   14.967 146.001    0.016  70.521    0.899 -19.817
   0.600    0.617 -39.740   14.438 140.047    0.019  67.881    0.878 -23.221
   0.700    0.593 -45.437   13.831 134.418    0.021  64.753    0.851 -26.496
   0.800    0.567 -51.092   13.278 129.061    0.023  62.402    0.826 -29.315
   0.900    0.540 -56.240   12.724 123.942    0.025  60.293    0.802 -32.093
   1.000    0.514 -61.236   12.147 119.131    0.027  58.292    0.776 -34.602
   1.100    0.491 -66.003   11.617 114.655    0.029  56.566    0.754 -36.906
   1.200    0.467 -70.570   11.101 110.307    0.031  55.042    0.732 -39.165
   1.300    0.446 -74.973   10.602 106.248    0.032  53.700    0.710 -41.191
   1.400    0.426 -79.152   10.156 102.407    0.034  52.400    0.691 -43.086
   1.500    0.405 -83.478    9.716  98.645    0.036  51.254    0.672 -44.905
   1.600    0.386 -87.572    9.314  95.116    0.037  50.262    0.655 -46.669
   1.700    0.368 -91.585    8.933  91.702    0.039  49.282    0.639 -48.386
   1.800    0.352 -95.495    8.569  88.425    0.040  48.396    0.623 -50.033
   1.900    0.338 -99.297    8.235  85.310    0.042  47.540    0.609 -51.692
   2.000    0.324 -103.165    7.921  82.227    0.043  46.747    0.595 -53.313
   2.200    0.299 -110.965    7.354  76.370    0.046  45.161    0.569 -56.477
   2.400    0.275 -118.790    6.854  70.773    0.049  43.655    0.545 -59.577
   2.600    0.256 -126.964    6.404  65.384    0.052  42.075    0.522 -62.722
   2.800    0.240 -135.536    6.008  60.247    0.056  40.336    0.500 -65.782
   3.000    0.227 -144.148    5.657  55.244    0.059  38.613    0.480 -68.975
   3.500    0.206 -167.562    4.921  43.282    0.068  33.762    0.429 -77.076
   4.000    0.204 168.554    4.336  31.762    0.077  28.211    0.378 -85.546
   4.500    0.221 146.705    3.870  20.664    0.088  21.845    0.328 -95.035
   5.000    0.248 126.946    3.465   9.668    0.097  14.957    0.273 -105.098
   5.500    0.286 108.921    3.101  -1.504    0.104   6.958    0.208 -116.198
   6.000    0.324  97.045    2.834 -11.497    0.115   0.415    0.165 -131.282
   6.500    0.362  84.047    2.548 -21.762    0.121  -6.742    0.108 -149.155
   7.000    0.345  75.250    2.310 -27.065    0.127  -3.304    0.102 -137.970
   7.500    0.435  68.256    2.195 -40.043    0.145 -17.808    0.085 146.869
   8.000    0.496  59.070    2.026 -51.156    0.155 -27.944    0.127 101.813
   8.500    0.552  49.006    1.828 -62.793    0.158 -39.762    0.192  70.262
   9.000    0.596  40.019    1.651 -72.985    0.160 -49.272    0.250  53.444
   9.500    0.629  31.129    1.470 -82.902    0.156 -58.658    0.310  38.640
  10.000    0.673  24.410    1.349 -93.704    0.162 -68.299    0.380  29.424
  10.500    0.708  16.470    1.207 -104.049    0.161 -78.294    0.440  19.029
  11.000    0.742   8.242    1.064 -114.852    0.156 -90.536    0.506   8.553
  11.500    0.758   0.242    0.920 -125.026    0.146 -101.332    0.561  -1.466
  12.000    0.772  -7.961    0.783 -135.313    0.135 -113.992    0.614 -11.480
!     DEEMBEDDED NOISE DATA
!FREQUENCY    FMIN    GAMMA OPT        Rn
!  (GHz)      (dB)    Mag    Ang   (NORMALIZED)
