! Filename: 3_690BFG480.001
! Title: BFG480W
! Bias: Vce=3.6V; Ic=90mA
! Company: Philips Semiconductors NL
! User: Quality&Reliability T&D
! Measure time: 10 Nov 1999 / 12:00:46
#  MHz  S  MA  R 50
! Freq       S11             S21             S12             S22    :
  100  0.42728 -154.5 52.78885 147.06 0.006280 69.315  0.77099 -41.86
  200  0.56087 -159.8 40.23649 126.02 0.009808 60.307  0.62004 -72.92
  300  0.62003 -165.5 30.80240 113.70 0.012105 59.093  0.52181 -93.37
  400  0.64989 -169.7 24.47379 105.57 0.014079 60.511  0.46773 -107.6
  500  0.66752 -173.0 20.16632 99.685 0.015981 62.560  0.43715 -117.9
  600  0.67857 -175.6 17.02656 95.143 0.017903 64.431  0.41874 -125.6
  700  0.68617 -177.9 14.71792 91.498 0.019971 66.417  0.40645 -131.6
  800  0.69287 179.98 12.91211 88.347 0.022050 68.236  0.39855 -136.6
  900  0.70080 178.08 11.47029 85.667 0.024287 70.048  0.39451 -140.9
 1000  0.70716 176.30 10.31498 83.143 0.026656 71.104  0.39380 -144.7
 1200  0.72117 173.26  8.51452 78.374 0.031222 72.714  0.40008 -150.9
 1400  0.73120 170.96  7.20793 73.721 0.035795 73.780  0.40984 -155.5
 1600  0.73668 168.60  6.28801 69.893 0.041074 74.605  0.41582 -159.0
 1800  0.73711 166.01  5.59120 66.524 0.046756 75.115  0.42298 -162.7
 2000  0.74661 163.75  4.94863 63.614 0.051447 75.880  0.43408 -167.1
 2200  0.76639 161.64  4.41675 60.144 0.055997 75.691  0.45343 -170.7
 2400  0.77624 159.89  3.95985 56.505 0.060890 75.209  0.47748 -173.1
 2600  0.77543 158.25  3.62061 53.188 0.066945 74.523  0.49602 -174.5
 2800  0.77148 155.98  3.35685 48.810 0.071718 73.158  0.50496 -176.3
 3000  0.77637 153.32  3.11698 45.416 0.077059 72.391  0.51241 -179.2
