! Filename: 230bfg425.001
! BFG425W Field C1
! V1=8.711E-001V,V2=2.000E+000V, I1=4.441E-004A, I2=3.004E-002A
# GHz   S   MA   R 50
!                S11              S21              S12              S22
!Freq(GHz)  Mag     Ang      Mag     Ang      Mag     Ang      Mag     Ang 
   0.040    0.261 -10.618   39.774 173.102    0.002  85.629    0.897  -3.036
   0.100    0.262 -28.160   38.927 163.697    0.005  82.699    0.889 -10.036
   0.200    0.253 -53.202   35.867 148.883    0.008  75.432    0.832 -19.933
   0.300    0.246 -73.864   31.746 136.821    0.012  71.846    0.759 -27.603
   0.400    0.243 -92.447   27.911 126.799    0.014  68.856    0.688 -33.117
   0.500    0.239 -107.758   24.564 118.291    0.017  66.328    0.628 -37.146
   0.600    0.237 -119.793   21.756 111.526    0.019  65.160    0.578 -40.227
   0.700    0.237 -129.614   19.436 105.824    0.022  64.297    0.536 -42.550
   0.800    0.237 -138.744   17.491 100.653    0.024  63.651    0.503 -44.477
   0.900    0.237 -146.125   15.867  96.143    0.026  63.044    0.475 -46.252
   1.000    0.238 -152.830   14.485  92.072    0.029  62.334    0.451 -47.770
   1.100    0.239 -158.803   13.314  88.335    0.031  61.629    0.431 -49.311
   1.200    0.241 -164.038   12.307  84.844    0.033  60.925    0.413 -50.788
   1.300    0.243 -169.026   11.428  81.580    0.036  60.243    0.397 -52.158
   1.400    0.245 -173.505   10.666  78.515    0.038  59.473    0.383 -53.584
   1.500    0.248 -177.931    9.992  75.574    0.041  58.607    0.370 -54.916
   1.600    0.252 177.924    9.396  72.723    0.043  57.693    0.358 -56.366
   1.700    0.254 174.093    8.859  70.015    0.046  56.739    0.348 -57.861
   1.800    0.258 170.528    8.382  67.369    0.048  55.736    0.337 -59.291
   1.900    0.260 167.058    7.953  64.798    0.051  54.690    0.328 -60.922
   2.000    0.264 163.714    7.561  62.312    0.053  53.533    0.318 -62.569
   2.200    0.272 157.348    6.881  57.468    0.058  51.199    0.300 -65.880
   2.400    0.281 151.225    6.306  52.783    0.063  48.823    0.283 -69.262
   2.600    0.291 145.676    5.814  48.132    0.068  46.206    0.265 -72.888
   2.800    0.301 140.167    5.391  43.692    0.073  43.590    0.248 -76.606
   3.000    0.312 134.983    5.023  39.316    0.078  40.862    0.231 -80.544
   3.500    0.342 122.768    4.276  28.625    0.091  33.624    0.187 -91.438
   4.000    0.375 111.464    3.704  18.137    0.103  26.079    0.142 -104.999
   4.500    0.410 101.284    3.255   7.931    0.115  18.189    0.099 -125.080
   5.000    0.452  91.030    2.876  -2.562    0.125   9.558    0.062 -167.274
   5.500    0.483  80.975    2.538 -12.108    0.132   2.254    0.057 134.261
   6.000    0.524  71.733    2.266 -22.362    0.139  -6.677    0.104  95.157
   6.500    0.534  65.226    2.079 -29.378    0.153 -10.525    0.122  87.669
   7.000    0.568  58.208    1.917 -38.569    0.165 -18.360    0.174  79.033
   7.500    0.624  49.496    1.724 -49.913    0.167 -29.940    0.255  64.126
   8.000    0.657  42.337    1.576 -59.147    0.173 -37.900    0.308  55.487
   8.500    0.694  34.731    1.426 -68.974    0.176 -47.246    0.369  46.034
   9.000    0.720  26.989    1.276 -77.750    0.174 -55.397    0.418  36.426
   9.500    0.744  19.979    1.157 -86.216    0.173 -63.611    0.455  28.448
  10.000    0.772  13.357    1.056 -95.898    0.174 -72.827    0.510  22.030
  10.500    0.791   6.600    0.953 -105.216    0.172 -81.826    0.558  14.509
  11.000    0.808  -0.390    0.847 -113.933    0.165 -91.260    0.597   6.100
  11.500    0.820  -7.314    0.758 -123.098    0.159 -100.824    0.634  -0.763
  12.000    0.826 -14.287    0.662 -131.991    0.150 -110.856    0.670  -8.690

!BFG425W_noise.xls                                                                 !Philips part #:BFG425W
! Bias condition: Vce=2V,Ic=30mA                                            # MHz dB Ratio deg ohm
! Freq. Fmin Gmag Gangle Rn
900 2.3 0.29 -166.5 0.19                                                     2000 2.8 0.27 -150.8 0.25
