! Filename: 3_2120BFG480.001
! Title: BFG480W
! Bias: Vce=3.2V; Ic=120mA
! Company: Philips Semiconductors NL
! User: Quality&Reliability T&D
! Measure time: 10 Nov 1999 / 11:58:23
#  MHz  S  MA  R 50
! Freq       S11             S21             S12             S22    :
  100  0.52828 -161.7 46.10210 144.32 0.005898 68.322  0.70337 -45.35
  200  0.63051 -165.9 35.57564 123.57 0.009073 61.366  0.56540 -78.42
  300  0.67147 -170.3 27.57540 111.77 0.011270 61.355  0.48212 -99.42
  400  0.69301 -173.7 21.94312 103.93 0.013331 63.369  0.43967 -113.6
  500  0.70550 -176.3 18.10999 98.266 0.015347 65.693  0.41704 -123.6
  600  0.71464 -178.6 15.29285 93.879 0.017461 67.620  0.40381 -130.8
  700  0.71976 179.47 13.22486 90.351 0.019638 69.499  0.39545 -136.4
  800  0.72527 177.62 11.60079 87.298 0.021898 71.104  0.39025 -141.0
  900  0.73221 175.87 10.30523 84.674 0.024195 72.668  0.38866 -145.0
 1000  0.73848 174.28  9.26889 82.176 0.026730 73.484  0.38990 -148.5
 1200  0.74980 171.48  7.64563 77.482 0.031510 74.820  0.39869 -154.2
 1400  0.75804 169.28  6.46702 72.857 0.036270 75.522  0.40994 -158.3
 1600  0.76257 166.98  5.63978 69.033 0.041694 75.974  0.41698 -161.6
 1800  0.76222 164.43  5.01629 65.637 0.047499 76.321  0.42534 -165.1
 2000  0.77234 162.30  4.43794 62.761 0.052434 76.816  0.43797 -169.1
 2200  0.78986 160.26  3.95820 59.289 0.056974 76.605  0.45779 -172.5
 2400  0.79756 158.51  3.54418 55.627 0.061901 75.886  0.48158 -174.7
 2600  0.79609 156.81  3.23895 52.322 0.068159 75.128  0.50021 -176.1
 2800  0.79166 154.49  3.00075 47.895 0.072820 73.602  0.50936 -177.9
 3000  0.79636 151.84  2.78684 44.498 0.078240 72.753  0.51734 179.35
