! Filename: 110bfg425.001
! BFG425W Field C1
! V1=8.540E-001V,V2=1.000E+000V, I1=1.458E-004A, I2=1.002E-002A
# GHz   S   MA   R 50
!                S11              S21              S12              S22
!Freq(GHz)  Mag     Ang      Mag     Ang      Mag     Ang      Mag     Ang 
   0.040    0.600  -6.248   24.287 174.899    0.003  75.807    0.940  -3.473
   0.100    0.604 -15.253   23.739 168.121    0.007  82.548    0.933  -9.078
   0.200    0.583 -30.112   22.724 156.786    0.013  75.162    0.897 -18.168
   0.300    0.554 -43.823   21.463 146.888    0.019  69.445    0.849 -26.253
   0.400    0.521 -56.760   19.955 137.673    0.024  64.175    0.792 -33.282
   0.500    0.490 -68.832   18.432 129.229    0.028  59.952    0.735 -39.255
   0.600    0.460 -79.578   16.933 122.103    0.032  56.482    0.682 -44.444
   0.700    0.435 -89.371   15.563 115.823    0.035  53.588    0.632 -48.962
   0.800    0.412 -98.721   14.338 109.993    0.037  51.503    0.588 -52.825
   0.900    0.393 -106.886   13.248 104.809    0.040  49.799    0.549 -56.304
   1.000    0.377 -114.608   12.262 100.076    0.042  48.284    0.514 -59.400
   1.100    0.364 -121.827   11.400  95.738    0.045  47.014    0.483 -62.255
   1.200    0.353 -128.566   10.627  91.701    0.047  45.938    0.456 -64.934
   1.300    0.345 -134.935    9.942  87.924    0.049  44.962    0.430 -67.417
   1.400    0.338 -140.888    9.336  84.390    0.051  44.069    0.408 -69.735
   1.500    0.333 -146.699    8.790  81.007    0.053  43.221    0.387 -71.955
   1.600    0.328 -152.179    8.298  77.780    0.055  42.415    0.369 -74.170
   1.700    0.325 -157.357    7.852  74.694    0.058  41.576    0.352 -76.338
   1.800    0.323 -162.387    7.448  71.725    0.060  40.780    0.336 -78.452
   1.900    0.322 -167.088    7.082  68.846    0.062  39.938    0.322 -80.666
   2.000    0.321 -171.607    6.746  66.052    0.065  39.085    0.308 -82.889
   2.200    0.322 179.669    6.159  60.671    0.069  37.275    0.283 -87.385
   2.400    0.326 171.509    5.659  55.446    0.074  35.354    0.259 -92.012
   2.600    0.331 163.922    5.227  50.466    0.079  33.297    0.238 -96.995
   2.800    0.338 156.761    4.852  45.645    0.084  31.130    0.218 -102.260
   3.000    0.346 149.927    4.524  40.915    0.088  28.821    0.199 -108.075
   3.500    0.372 134.432    3.855  29.488    0.101  22.567    0.157 -125.530
   4.000    0.403 120.488    3.337  18.423    0.112  15.720    0.124 -149.776
   4.500    0.437 108.159    2.931   7.731    0.124   8.508    0.109 177.698
   5.000    0.476  96.267    2.584  -3.122    0.133   0.295    0.121 140.358
   5.500    0.506  85.171    2.278 -12.968    0.139  -6.538    0.143 112.519
   6.000    0.545  74.869    2.029 -23.466    0.146 -15.065    0.192  92.053
   6.500    0.556  67.725    1.860 -30.787    0.159 -18.452    0.209  84.602
   7.000    0.590  59.932    1.709 -40.174    0.171 -26.033    0.259  75.970
   7.500    0.642  50.656    1.532 -51.509    0.172 -37.432    0.333  62.661
   8.000    0.672  43.105    1.397 -60.759    0.177 -45.065    0.382  53.954
   8.500    0.706  35.193    1.262 -70.524    0.179 -54.066    0.436  44.688
   9.000    0.728  27.386    1.129 -79.230    0.175 -61.941    0.479  35.385
   9.500    0.751  20.272    1.023 -87.588    0.174 -69.903    0.511  27.672
  10.000    0.776  13.579    0.934 -97.148    0.174 -78.825    0.560  21.044
  10.500    0.793   6.797    0.843 -106.335    0.172 -87.515    0.603  13.577
  11.000    0.806  -0.153    0.750 -114.944    0.165 -96.642    0.636   5.429
  11.500    0.817  -7.033    0.672 -123.986    0.158 -105.914    0.668  -1.318
  12.000    0.823 -13.987    0.589 -132.796    0.149 -115.781    0.699  -9.016
!     DEEMBEDDED NOISE DATA
!FREQUENCY    FMIN    GAMMA OPT        Rn
!  (GHz)      (dB)    Mag    Ang   (NORMALIZED)
