! Filename: 23bfg425.001
! BFG425W Field C1
! V1=8.180E-001V,V2=2.000E+000V, I1=3.890E-005A, I2=3.000E-003A
# GHz   S   MA   R 50
!                S11              S21              S12              S22
!Freq(GHz)  Mag     Ang      Mag     Ang      Mag     Ang      Mag     Ang 
   0.040    0.861  -3.185    9.781 176.833    0.002  79.282    0.987  -1.718
   0.100    0.868  -7.515    9.587 173.252    0.007  86.334    0.986  -4.415
   0.200    0.859 -14.917    9.487 166.716    0.013  80.234    0.976  -8.962
   0.300    0.847 -22.355    9.367 160.838    0.019  75.735    0.966 -13.300
   0.400    0.832 -29.592    9.218 154.404    0.025  71.093    0.949 -17.565
   0.500    0.813 -36.713    9.034 148.252    0.030  67.039    0.929 -21.601
   0.600    0.793 -43.661    8.766 142.537    0.035  62.876    0.907 -25.489
   0.700    0.772 -50.403    8.489 137.096    0.040  58.822    0.883 -29.263
   0.800    0.749 -57.138    8.237 131.733    0.044  55.229    0.857 -32.764
   0.900    0.725 -63.470    7.980 126.576    0.048  51.812    0.832 -36.167
   1.000    0.701 -69.839    7.695 121.550    0.051  48.647    0.806 -39.316
   1.100    0.679 -75.850    7.415 116.864    0.054  45.622    0.781 -42.309
   1.200    0.656 -81.743    7.140 112.288    0.057  42.864    0.756 -45.187
   1.300    0.635 -87.458    6.874 107.945    0.060  40.305    0.731 -47.908
   1.400    0.613 -93.154    6.622 103.726    0.062  37.882    0.707 -50.462
   1.500    0.594 -98.694    6.376  99.658    0.064  35.736    0.685 -52.899
   1.600    0.574 -104.226    6.144  95.707    0.065  33.675    0.663 -55.229
   1.700    0.557 -109.509    5.918  91.934    0.067  31.800    0.642 -57.499
   1.800    0.542 -114.663    5.697  88.264    0.069  30.047    0.622 -59.678
   1.900    0.527 -119.632    5.490  84.791    0.070  28.436    0.604 -61.824
   2.000    0.514 -124.627    5.291  81.373    0.071  26.909    0.586 -63.907
   2.200    0.490 -134.498    4.931  74.790    0.073  24.188    0.551 -67.925
   2.400    0.471 -144.086    4.606  68.532    0.076  21.803    0.520 -71.791
   2.600    0.457 -153.466    4.311  62.558    0.078  19.647    0.490 -75.635
   2.800    0.445 -162.693    4.047  56.795    0.080  17.700    0.462 -79.401
   3.000    0.437 -171.562    3.809  51.209    0.082  15.802    0.436 -83.225
   3.500    0.432 167.179    3.305  37.922    0.088  11.487    0.374 -92.973
   4.000    0.441 147.616    2.896  25.235    0.094   6.975    0.315 -103.486
   4.500    0.462 130.474    2.563  13.259    0.102   2.293    0.261 -115.642
   5.000    0.492 114.366    2.276   1.264    0.109  -3.991    0.204 -131.625
   5.500    0.516 100.229    2.013  -9.741    0.113  -8.813    0.151 -148.764
   6.000    0.552  87.234    1.800 -21.120    0.119 -16.059    0.114 178.801
   6.500    0.565  78.354    1.647 -29.095    0.131 -15.980    0.112 159.947
   7.000    0.599  68.800    1.514 -39.074    0.144 -22.126    0.135 128.939
   7.500    0.649  57.930    1.363 -51.135    0.148 -33.947    0.189  95.262
   8.000    0.679  49.322    1.245 -61.032    0.155 -40.942    0.242  79.004
   8.500    0.712  40.644    1.125 -71.475    0.159 -49.978    0.304  64.082
   9.000    0.735  32.199    1.002 -80.917    0.157 -57.812    0.356  50.796
   9.500    0.758  24.368    0.903 -89.627    0.157 -65.963    0.395  41.158
  10.000    0.782  17.243    0.826 -99.785    0.159 -75.209    0.460  33.212
  10.500    0.799  10.054    0.743 -109.525    0.158 -84.122    0.517  24.293
  11.000    0.812   2.828    0.657 -118.721    0.152 -93.850    0.562  14.579
  11.500    0.823  -4.322    0.586 -128.318    0.146 -103.987    0.607   6.871
  12.000    0.827 -11.404    0.509 -137.779    0.136 -114.600    0.650  -1.950
!     DEEMBEDDED NOISE DATA
!FREQUENCY    FMIN    GAMMA OPT        Rn
!  (GHz)      (dB)    Mag    Ang   (NORMALIZED)
