! Filename: 430BFG480.001
! Title: BFG480W
! Bias: Vce=4V; Ic=30mA
! Company: Philips Semiconductors NL
! User: Quality&Reliability T&D
! Measure time: 10 Nov 1999 / 12:02:36
#  MHz  S  MA  R 50
! Freq       S11             S21             S12             S22    :
  100  0.29060 -80.36 39.92847 153.94 0.009196 63.666  0.82670 -31.83
  200  0.43063 -117.6 33.56091 134.57 0.015122 53.961  0.70273 -57.55
  300  0.51759 -136.3 27.40624 121.30 0.018452 48.216  0.59953 -76.26
  400  0.56721 -146.9 22.48831 112.00 0.020494 45.939  0.53205 -90.19
  500  0.59806 -154.6 18.93102 105.07 0.022036 45.379  0.48824 -100.9
  600  0.61679 -160.1 16.19016 99.632 0.023256 45.907  0.45931 -109.3
  700  0.62967 -164.4 14.09273 95.268 0.024444 47.429  0.43946 -116.0
  800  0.63969 -168.0 12.42576 91.520 0.025683 49.237  0.42550 -121.6
  900  0.64923 -171.1 11.06089 88.323 0.026986 51.457  0.41654 -126.6
 1000  0.65876 -173.9  9.96979 85.387 0.028469 53.396  0.41193 -131.0
 1200  0.67758 -178.5  8.26064 79.927 0.031477 56.997  0.41291 -138.6
 1400  0.69249 178.18  7.01415 74.702 0.034723 60.089  0.42050 -144.4
 1600  0.70084 175.21  6.11710 70.490 0.038786 63.063  0.42671 -148.8
 1800  0.70331 172.09  5.43380 66.878 0.043464 65.605  0.43317 -153.2
 2000  0.71446 169.32  4.80865 63.560 0.047570 67.595  0.44276 -158.2
 2200  0.73483 166.67  4.29306 59.737 0.051427 68.978  0.46156 -162.7
 2400  0.74920 164.54  3.84994 55.803 0.055962 69.623  0.48692 -165.9
 2600  0.75232 162.64  3.51664 52.288 0.061610 70.034  0.50789 -167.9
 2800  0.75073 160.24  3.26465 47.755 0.066236 69.379  0.51854 -170.2
 3000  0.75623 157.42  3.02932 44.210 0.071443 69.349  0.52683 -173.4
