! Filename: 4_490BFG480.001
! Title: BFG480W
! Bias: Vce=4.4V; Ic=90mA
! Company: Philips Semiconductors NL
! User: Quality&Reliability T&D
! Measure time: 10 Nov 1999 / 12:06:50
#  MHz  S  MA  R 50
! Freq       S11             S21             S12             S22    :
  100  0.40125 -152.4 53.90854 147.84 0.006334 68.646  0.77158 -40.67
  200  0.54107 -157.8 41.32238 126.74 0.009876 59.922  0.61986 -71.05
  300  0.60513 -164.0 31.68264 114.20 0.012088 58.180  0.51909 -91.16
  400  0.63720 -168.4 25.19346 105.95 0.014104 59.523  0.46310 -105.3
  500  0.65580 -171.9 20.76362 99.983 0.015963 61.775  0.43082 -115.5
  600  0.66775 -174.7 17.53858 95.393 0.017867 63.516  0.41127 -123.2
  700  0.67617 -177.1 15.16095 91.698 0.019824 65.810  0.39841 -129.2
  800  0.68301 -179.2 13.29983 88.523 0.021858 67.738  0.38992 -134.3
  900  0.69016 178.78 11.81639 85.801 0.024006 69.474  0.38541 -138.6
 1000  0.69776 176.96 10.62651 83.245 0.026394 70.646  0.38450 -142.5
 1200  0.71239 173.87  8.77263 78.457 0.030780 72.466  0.39061 -148.8
 1400  0.72287 171.49  7.42910 73.764 0.035384 73.593  0.40040 -153.5
 1600  0.72804 169.13  6.47995 69.917 0.040608 74.541  0.40658 -157.1
 1800  0.72820 166.52  5.76033 66.540 0.046139 75.166  0.41381 -160.8
 2000  0.73876 164.24  5.10018 63.602 0.051008 75.783  0.42534 -165.2
 2200  0.75883 162.10  4.55303 60.094 0.055333 75.899  0.44444 -169.0
 2400  0.76966 160.36  4.08293 56.440 0.060261 75.400  0.46911 -171.5
 2600  0.77004 158.70  3.73345 53.113 0.066313 74.769  0.48860 -172.9
 2800  0.76556 156.46  3.46312 48.733 0.071057 73.434  0.49799 -174.8
 3000  0.77053 153.79  3.21553 45.332 0.076446 72.698  0.50564 -177.7
