! Filename: 4_480BFG480.001
! Title: BFG480W
! Bias: Vce=4.4V; Ic=80mA
! Company: Philips Semiconductors NL
! User: Quality&Reliability T&D
! Measure time: 10 Nov 1999 / 12:06:37
#  MHz  S  MA  R 50
! Freq       S11             S21             S12             S22    :
  100  0.37799 -149.6 53.13041 148.58 0.006539 67.969  0.77829 -39.80
  200  0.52480 -155.7 41.11241 127.65 0.010202 59.055  0.62933 -69.75
  300  0.59319 -162.2 31.70597 115.00 0.012564 57.404  0.52829 -89.82
  400  0.62776 -167.1 25.29057 106.62 0.014500 58.288  0.47088 -104.0
  500  0.64789 -170.7 20.87705 100.56 0.016266 60.071  0.43744 -114.3
  600  0.66074 -173.7 17.65538 95.880 0.018143 62.158  0.41683 -122.2
  700  0.66939 -176.2 15.26937 92.133 0.020075 64.387  0.40320 -128.3
  800  0.67670 -178.4 13.40082 88.921 0.022045 66.206  0.39422 -133.4
  900  0.68508 179.50 11.90661 86.160 0.024180 68.263  0.38949 -137.8
 1000  0.69200 177.62 10.71057 83.587 0.026483 69.485  0.38807 -141.8
 1200  0.70709 174.42  8.84582 78.732 0.030854 71.384  0.39361 -148.2
 1400  0.71809 172.01  7.49326 74.031 0.035310 72.665  0.40295 -153.0
 1600  0.72410 169.62  6.53623 70.152 0.040419 73.705  0.40904 -156.7
 1800  0.72395 166.95  5.81172 66.770 0.046014 74.525  0.41598 -160.5
 2000  0.73445 164.65  5.14525 63.814 0.050635 75.453  0.42661 -165.0
 2200  0.75507 162.48  4.59383 60.310 0.055123 75.344  0.44609 -168.8
 2400  0.76564 160.69  4.12105 56.637 0.059943 74.955  0.47065 -171.3
 2600  0.76661 159.08  3.76828 53.292 0.066050 74.452  0.49016 -172.8
 2800  0.76235 156.81  3.49558 48.928 0.070749 73.137  0.49937 -174.6
 3000  0.76735 154.14  3.24667 45.512 0.076087 72.457  0.50697 -177.5
