! Filename: 31bfg410.001
! BFG410W Field B1
! V1=8.131E-001V,V2=3.000E+000V, I1=1.296E-005A, I2=1.000E-003A
# GHz   S   MA   R 50
!                S11              S21              S12              S22
!Freq(GHz)  Mag     Ang      Mag     Ang      Mag     Ang      Mag     Ang 
   0.040    0.950  -1.538    3.492 178.140    0.001  51.471    1.002  -0.709
   0.100    0.955  -3.307    3.423 176.552    0.003  88.179    1.001  -1.991
   0.200    0.954  -6.574    3.399 172.885    0.006  83.936    0.994  -4.524
   0.300    0.952  -9.997    3.407 170.631    0.009  82.157    0.995  -6.568
   0.400    0.949 -12.976    3.421 166.177    0.012  80.013    0.992  -8.997
   0.500    0.946 -16.533    3.419 162.887    0.015  77.125    0.987 -10.996
   0.600    0.942 -19.816    3.398 159.488    0.017  74.828    0.985 -13.153
   0.700    0.937 -23.037    3.370 156.064    0.020  72.333    0.980 -15.505
   0.800    0.933 -26.417    3.358 152.863    0.023  70.045    0.975 -17.577
   0.900    0.926 -29.616    3.352 149.564    0.026  67.698    0.970 -19.811
   1.000    0.919 -33.002    3.338 146.107    0.028  65.466    0.963 -21.977
   1.100    0.912 -36.237    3.322 142.927    0.031  63.215    0.957 -24.031
   1.200    0.904 -39.518    3.305 139.582    0.033  61.007    0.950 -26.205
   1.300    0.896 -42.751    3.283 136.508    0.036  58.771    0.942 -28.282
   1.400    0.887 -46.014    3.271 133.160    0.038  56.526    0.934 -30.329
   1.500    0.878 -49.353    3.254 129.953    0.040  54.306    0.926 -32.409
   1.600    0.867 -52.786    3.237 126.646    0.042  52.212    0.917 -34.408
   1.700    0.857 -55.987    3.218 123.464    0.044  50.149    0.909 -36.447
   1.800    0.846 -59.234    3.186 120.160    0.046  47.988    0.899 -38.476
   1.900    0.837 -62.424    3.156 117.132    0.048  46.064    0.889 -40.468
   2.000    0.825 -65.673    3.120 114.002    0.049  44.114    0.880 -42.461
   2.200    0.801 -72.223    3.064 107.722    0.053  40.350    0.859 -46.347
   2.400    0.776 -78.861    3.009 101.565    0.055  36.659    0.838 -50.186
   2.600    0.751 -85.342    2.944  95.587    0.058  33.308    0.817 -54.001
   2.800    0.726 -92.001    2.877  89.574    0.060  30.077    0.794 -57.716
   3.000    0.701 -98.626    2.812  83.699    0.062  27.045    0.772 -61.441
   3.500    0.635 -115.997    2.654  69.068    0.066  20.349    0.714 -70.506
   4.000    0.575 -134.104    2.490  54.687    0.070  14.567    0.655 -79.530
   4.500    0.526 -153.270    2.334  40.960    0.074   9.798    0.597 -88.708
   5.000    0.487 -173.681    2.179  27.268    0.078   4.833    0.535 -98.114
   5.500    0.460 164.670    2.007  13.443    0.080  -1.803    0.465 -108.011
   6.000    0.460 145.475    1.867   1.074    0.088  -3.648    0.413 -118.260
   6.500    0.460 125.749    1.699 -11.365    0.090  -8.401    0.346 -129.009
   7.000    0.437 113.304    1.531 -18.622    0.092   6.195    0.316 -130.261
   7.500    0.512  96.835    1.475 -32.767    0.117 -10.854    0.265 -154.952
   8.000    0.558  82.004    1.369 -45.176    0.129 -21.243    0.224 -179.579
   8.500    0.601  67.986    1.245 -58.225    0.135 -34.140    0.186 145.140
   9.000    0.638  55.959    1.127 -69.843    0.138 -43.700    0.187 111.705
   9.500    0.665  44.655    0.994 -80.824    0.134 -53.703    0.216  81.196
  10.000    0.707  35.764    0.921 -92.434    0.144 -63.540    0.287  60.501
  10.500    0.736  26.280    0.821 -103.942    0.144 -74.163    0.353  43.285
  11.000    0.763  16.969    0.721 -116.209    0.140 -88.187    0.430  27.532
  11.500    0.777   7.975    0.617 -127.598    0.128 -100.733    0.500  13.943
  12.000    0.788  -0.754    0.523 -139.221    0.116 -115.473    0.569   0.943
!     DEEMBEDDED NOISE DATA
!FREQUENCY    FMIN    GAMMA OPT        Rn
!  (GHz)      (dB)    Mag    Ang   (NORMALIZED)
