! Filename: 412bfg410.001
! BFG410W Field B1
! V1=8.628E-001V,V2=4.000E+000V, I1=1.700E-004A, I2=1.202E-002A
# GHz   S   MA   R 50
!                S11              S21              S12              S22
!Freq(GHz)  Mag     Ang      Mag     Ang      Mag     Ang      Mag     Ang 
   0.040    0.612  -2.246   22.204 174.908    0.001  42.358    0.968  -0.701
   0.100    0.622  -7.116   21.727 171.084    0.002  80.559    0.971  -3.250
   0.200    0.609 -14.479   21.245 163.488    0.005  78.836    0.960  -7.277
   0.300    0.593 -21.440   20.651 156.457    0.007  76.388    0.946 -10.771
   0.400    0.570 -28.163   19.933 149.252    0.009  73.934    0.927 -14.139
   0.500    0.545 -34.754   19.108 142.319    0.011  70.789    0.905 -17.059
   0.600    0.519 -40.647   18.200 136.146    0.012  69.342    0.883 -19.754
   0.700    0.492 -46.097   17.266 130.434    0.014  67.165    0.860 -22.238
   0.800    0.465 -51.268   16.382 124.943    0.015  65.841    0.838 -24.419
   0.900    0.439 -55.928   15.529 119.898    0.017  64.440    0.818 -26.485
   1.000    0.414 -60.326   14.703 115.179    0.018  63.314    0.798 -28.369
   1.100    0.392 -64.499   13.938 110.809    0.019  62.240    0.780 -30.109
   1.200    0.370 -68.471   13.221 106.637    0.021  61.502    0.764 -31.820
   1.300    0.350 -72.239   12.547 102.771    0.022  60.815    0.747 -33.347
   1.400    0.332 -75.772   11.939  99.140    0.023  60.107    0.733 -34.813
   1.500    0.314 -79.352   11.369  95.635    0.025  59.562    0.720 -36.233
   1.600    0.297 -82.739   10.850  92.308    0.026  58.999    0.708 -37.646
   1.700    0.282 -86.063   10.364  89.133    0.027  58.493    0.697 -39.041
   1.800    0.268 -89.406    9.917  86.071    0.028  57.927    0.687 -40.412
   1.900    0.255 -92.447    9.502  83.148    0.030  57.459    0.677 -41.845
   2.000    0.243 -95.740    9.119  80.275    0.031  56.960    0.668 -43.260
   2.200    0.220 -102.366    8.432  74.850    0.034  55.779    0.650 -46.039
   2.400    0.200 -109.123    7.835  69.631    0.037  54.635    0.633 -48.824
   2.600    0.183 -116.350    7.311  64.673    0.040  53.270    0.617 -51.671
   2.800    0.167 -124.238    6.849  59.872    0.043  51.774    0.601 -54.502
   3.000    0.154 -132.734    6.444  55.186    0.046  50.177    0.585 -57.444
   3.500    0.132 -157.308    5.601  43.915    0.054  45.531    0.546 -64.899
   4.000    0.128 174.858    4.944  33.038    0.063  40.086    0.504 -72.580
   4.500    0.145 149.218    4.426  22.480    0.073  33.753    0.460 -80.900
   5.000    0.173 127.140    3.980  11.921    0.082  26.846    0.409 -89.251
   5.500    0.213 108.158    3.578   1.042    0.089  18.815    0.345 -97.523
   6.000    0.252  97.347    3.290  -8.609    0.101  12.324    0.301 -107.537
   6.500    0.294  84.189    2.971 -18.628    0.107   4.973    0.240 -115.853
   7.000    0.272  74.866    2.690 -23.572    0.113   9.325    0.248 -113.123
   7.500    0.367  70.903    2.593 -36.543    0.134  -5.713    0.172 -143.200
   8.000    0.433  62.072    2.414 -47.708    0.145 -16.332    0.122 -177.701
   8.500    0.501  52.071    2.192 -59.703    0.151 -28.845    0.099 119.995
   9.000    0.552  43.058    1.989 -70.206    0.154 -38.773    0.139  78.664
   9.500    0.593  33.724    1.774 -80.522    0.150 -48.829    0.198  51.564
  10.000    0.645  27.144    1.633 -91.678    0.159 -59.088    0.278  39.555
  10.500    0.687  18.878    1.463 -102.481    0.159 -69.695    0.349  26.509
  11.000    0.726  10.178    1.285 -113.752    0.155 -82.903    0.429  13.881
  11.500    0.748   1.497    1.106 -124.363    0.144 -94.772    0.495   2.355
  12.000    0.765  -7.100    0.935 -135.029    0.134 -108.205    0.560  -8.947
!     DEEMBEDDED NOISE DATA
!FREQUENCY    FMIN    GAMMA OPT        Rn
!  (GHz)      (dB)    Mag    Ang   (NORMALIZED)
