! Filename: 35bfg403.001
! BFG403W Field A1
! V1=8.898E-001V,V2=3.000E+000V, I1=7.423E-005A, I2=4.990E-003A
# GHz   S   MA   R 50
!                S11              S21              S12              S22
!Freq(GHz)  Mag     Ang      Mag     Ang      Mag     Ang      Mag     Ang 
   0.040    0.821  -1.507    9.620 176.231    0.000  60.846    0.987  -0.376
   0.100    0.827  -3.646    9.463 174.406    0.001  91.322    0.990  -1.899
   0.200    0.822  -7.405    9.420 169.790    0.003  84.216    0.989  -4.250
   0.300    0.816 -11.007    9.349 165.220    0.004  83.257    0.986  -6.446
   0.400    0.806 -14.381    9.274 160.343    0.005  81.101    0.981  -8.650
   0.500    0.793 -18.358    9.167 155.425    0.006  77.069    0.975 -10.698
   0.600    0.781 -21.681    9.001 150.871    0.007  75.243    0.969 -12.740
   0.700    0.766 -24.937    8.813 146.450    0.008  73.715    0.962 -14.805
   0.800    0.750 -28.267    8.640 141.996    0.009  71.790    0.954 -16.759
   0.900    0.733 -31.323    8.452 137.728    0.010  70.450    0.946 -18.697
   1.000    0.715 -34.364    8.252 133.509    0.011  69.044    0.937 -20.569
   1.100    0.696 -37.234    8.047 129.520    0.012  67.456    0.929 -22.315
   1.200    0.678 -39.978    7.842 125.564    0.013  66.404    0.920 -24.116
   1.300    0.660 -42.701    7.624 121.766    0.014  65.417    0.911 -25.833
   1.400    0.642 -45.208    7.426 118.161    0.015  64.444    0.902 -27.504
   1.500    0.623 -47.780    7.222 114.564    0.015  63.467    0.893 -29.114
   1.600    0.605 -50.202    7.029 111.112    0.016  62.922    0.885 -30.715
   1.700    0.587 -52.528    6.834 107.779    0.017  62.242    0.877 -32.283
   1.800    0.570 -54.823    6.643 104.519    0.017  61.611    0.868 -33.858
   1.900    0.554 -56.931    6.461 101.425    0.018  61.143    0.861 -35.413
   2.000    0.538 -59.088    6.283  98.358    0.019  60.842    0.853 -36.940
   2.200    0.507 -63.185    5.952  92.470    0.020  60.375    0.837 -39.955
   2.400    0.477 -67.098    5.645  86.830    0.022  59.874    0.822 -42.896
   2.600    0.449 -71.087    5.361  81.449    0.023  59.489    0.807 -45.845
   2.800    0.423 -74.866    5.102  76.270    0.025  59.060    0.793 -48.733
   3.000    0.399 -78.740    4.868  71.266    0.027  58.599    0.778 -51.678
   3.500    0.342 -88.805    4.361  59.317    0.032  56.821    0.742 -58.964
   4.000    0.293 -99.797    3.953  47.918    0.038  54.172    0.704 -66.388
   4.500    0.252 -113.098    3.621  36.927    0.046  49.992    0.664 -74.140
   5.000    0.215 -128.964    3.337  25.963    0.053  44.668    0.618 -82.101
   5.500    0.183 -148.499    3.072  14.928    0.060  38.715    0.565 -89.895
   6.000    0.175 -173.277    2.887   3.538    0.070  29.923    0.507 -100.042
   6.500    0.171 169.091    2.679  -6.000    0.079  27.812    0.467 -107.984
   7.000    0.141 142.863    2.345 -16.266    0.072  26.032    0.385 -109.590
   7.500    0.217 130.630    2.374 -27.088    0.105  14.992    0.366 -130.855
   8.000    0.270 110.271    2.237 -40.081    0.117   1.232    0.288 -151.908
   8.500    0.310  92.506    2.040 -52.400    0.122 -10.301    0.207 -175.100
   9.000    0.360  78.956    1.890 -64.222    0.133 -20.959    0.178 151.922
   9.500    0.410  64.782    1.716 -76.680    0.137 -34.433    0.185 110.162
  10.000    0.453  52.411    1.549 -89.483    0.141 -47.042    0.243  76.731
  10.500    0.494  39.887    1.366 -102.304    0.140 -61.350    0.316  52.646
  11.000    0.518  27.897    1.176 -114.043    0.132 -75.510    0.386  33.810
  11.500    0.542  17.265    1.010 -126.066    0.124 -89.348    0.456  19.061
  12.000    0.552   5.758    0.832 -136.914    0.107 -105.847    0.511   4.691
!     DEEMBEDDED NOISE DATA
!FREQUENCY    FMIN    GAMMA OPT        Rn
!  (GHz)      (dB)    Mag    Ang   (NORMALIZED)
