! Filename BFG424F_1V_25mA.prm
! Simulation_Values
! Created	by	janssen	on	nov	2006			
!	Column ranking S11, S21,S12,S22 both magnitude and phase.								
!	VCE	=	1	V,	IC	=	25	mA	
!	Common	Emitter	S-Parameters						
#	GHZ	S	MA	R	50				
	5.00E-01	0.376	-114.92	23.610	122.55	0.020	62.18	0.574	-44.77
	6.00E-01	0.380	-125.45	20.923	116.70	0.023	60.84	0.515	-48.57
	7.00E-01	0.383	-134.28	18.690	111.88	0.025	60.94	0.467	-51.43
	8.00E-01	0.385	-141.67	16.829	107.85	0.027	60.98	0.427	-53.71
	9.00E-01	0.391	-147.77	15.277	104.41	0.029	61.28	0.394	-55.66
	1.00E+00	0.394	-153.01	13.969	101.30	0.030	61.63	0.366	-57.22
	1.10E+00	0.397	-157.65	12.836	98.57	0.032	62.15	0.343	-58.72
	1.20E+00	0.398	-161.83	11.864	96.14	0.034	62.82	0.322	-60.06
	1.30E+00	0.402	-165.64	11.025	93.93	0.036	63.11	0.304	-61.36
	1.40E+00	0.405	-169.12	10.291	91.85	0.038	63.81	0.288	-62.67
	1.50E+00	0.409	-172.18	9.652	89.86	0.040	64.21	0.274	-63.97
	1.60E+00	0.411	-175.17	9.080	88.04	0.043	64.36	0.262	-65.27
	1.70E+00	0.413	-178.00	8.566	86.32	0.045	64.75	0.250	-66.70
	1.80E+00	0.417	179.31	8.104	84.70	0.047	64.93	0.239	-68.02
	1.90E+00	0.421	176.94	7.689	83.11	0.049	65.30	0.229	-69.49
	2.00E+00	0.425	174.75	7.320	81.67	0.051	65.45	0.220	-70.99
	2.10E+00	0.427	172.39	6.973	80.16	0.054	65.47	0.212	-72.73
	2.20E+00	0.430	170.16	6.660	78.73	0.056	65.35	0.204	-74.60
	2.30E+00	0.436	167.91	6.369	77.38	0.058	65.34	0.196	-76.46
	2.40E+00	0.440	166.29	6.107	76.08	0.060	65.47	0.188	-78.31
	2.50E+00	0.444	164.49	5.857	74.79	0.062	65.53	0.182	-80.37
	2.60E+00	0.446	162.45	5.635	73.48	0.065	65.26	0.175	-82.66
	2.70E+00	0.450	160.33	5.427	72.26	0.067	65.20	0.168	-85.21
	2.80E+00	0.456	158.71	5.230	71.05	0.069	64.78	0.162	-87.58
	2.90E+00	0.461	157.10	5.045	69.89	0.072	64.82	0.155	-90.21
	3.00E+00	0.464	155.56	4.872	68.72	0.074	64.64	0.150	-92.94
	3.10E+00	0.468	153.72	4.715	67.56	0.076	64.17	0.145	-95.92
	3.20E+00	0.472	152.06	4.564	66.41	0.078	64.05	0.140	-99.08
	3.30E+00	0.478	150.46	4.419	65.32	0.081	63.97	0.136	-102.33
	3.40E+00	0.483	149.16	4.283	64.18	0.083	63.42	0.131	-105.95
	3.50E+00	0.487	147.74	4.152	63.16	0.086	63.13	0.128	-109.70
	3.60E+00	0.490	145.94	4.031	62.05	0.088	62.84	0.125	-113.74
	3.70E+00	0.495	144.46	3.922	60.98	0.090	62.55	0.122	-118.10
	3.80E+00	0.501	143.10	3.813	59.99	0.093	62.32	0.119	-122.49
	3.90E+00	0.505	141.74	3.713	58.97	0.095	62.06	0.117	-126.68
	4.00E+00	0.509	140.35	3.614	57.93	0.097	61.68	0.116	-131.27
	4.10E+00	0.513	138.89	3.520	56.99	0.100	61.20	0.115	-135.78
	4.20E+00	0.518	137.40	3.431	55.93	0.102	60.78	0.115	-140.57
	4.30E+00	0.525	136.11	3.349	55.06	0.104	60.39	0.115	-145.29
	4.40E+00	0.530	135.05	3.270	53.98	0.106	60.06	0.115	-149.86
	4.50E+00	0.532	133.87	3.192	52.98	0.109	59.64	0.117	-154.11
	4.60E+00	0.535	132.34	3.119	52.14	0.111	59.10	0.119	-158.40
	4.70E+00	0.541	130.93	3.045	51.13	0.113	58.65	0.122	-162.48
	4.80E+00	0.549	129.88	2.982	50.10	0.115	58.30	0.125	-166.92
	4.90E+00	0.553	128.89	2.917	49.29	0.118	57.67	0.128	-171.19
	5.00E+00	0.556	127.87	2.852	48.32	0.120	57.23	0.131	-175.19
	5.10E+00	0.558	126.29	2.795	47.23	0.122	56.92	0.134	-178.63
	5.20E+00	0.564	125.02	2.736	46.43	0.125	56.52	0.139	178.36
	5.30E+00	0.572	124.23	2.675	45.50	0.127	55.80	0.144	175.06
	5.40E+00	0.575	123.15	2.626	44.55	0.129	55.30	0.149	171.56
	5.50E+00	0.578	122.02	2.572	43.78	0.131	54.93	0.153	168.55
	5.60E+00	0.582	120.77	2.514	42.79	0.133	54.47	0.158	165.75
	5.70E+00	0.588	119.75	2.472	41.92	0.135	53.91	0.163	163.48
	5.80E+00	0.594	118.72	2.422	41.20	0.137	53.50	0.170	161.02
	5.90E+00	0.597	117.79	2.372	40.13	0.139	53.08	0.176	158.58
	6.00E+00	0.600	116.74	2.336	39.40	0.141	52.48	0.181	156.07
	6.10E+00	0.603	115.51	2.292	38.64	0.143	51.90	0.186	153.88
	6.20E+00	0.609	114.37	2.243	37.60	0.145	51.58	0.193	152.00
	6.30E+00	0.615	113.64	2.209	36.80	0.147	51.27	0.199	150.06
	6.40E+00	0.617	112.64	2.165	36.06	0.149	50.74	0.206	148.30
	6.50E+00	0.620	111.57	2.127	35.12	0.151	50.15	0.212	146.25
	6.60E+00	0.624	110.61	2.092	34.46	0.153	49.80	0.217	144.55
	6.70E+00	0.628	109.72	2.053	33.75	0.154	49.34	0.223	143.00
	6.80E+00	0.634	108.74	2.016	32.73	0.157	48.72	0.229	141.36
	6.90E+00	0.637	107.95	1.988	32.05	0.158	48.31	0.236	139.85
	7.00E+00	0.638	107.05	1.949	31.34	0.160	48.07	0.242	138.21
	7.10E+00	0.641	105.96	1.920	30.47	0.162	47.39	0.247	136.83
	7.20E+00	0.647	104.96	1.890	29.85	0.164	46.76	0.252	135.75
	7.30E+00	0.651	104.41	1.855	29.10	0.165	46.33	0.258	134.77
	7.40E+00	0.653	103.53	1.828	28.13	0.167	46.10	0.266	133.55
	7.50E+00	0.656	102.54	1.799	27.58	0.169	45.40	0.274	131.87
	7.60E+00	0.660	101.73	1.769	26.75	0.171	44.86	0.279	130.30
	7.70E+00	0.663	100.96	1.745	26.08	0.172	44.57	0.284	129.18
	7.80E+00	0.666	100.26	1.720	25.52	0.174	44.10	0.288	128.38
	7.90E+00	0.667	99.21	1.686	24.59	0.176	43.29	0.295	127.54
	8.00E+00	0.672	98.44	1.669	23.80	0.176	42.96	0.302	126.32
	8.10E+00	0.673	97.75	1.643	23.36	0.178	42.96	0.307	124.99
	8.20E+00	0.676	97.00	1.618	22.49	0.180	42.46	0.311	123.96
	8.30E+00	0.680	96.21	1.599	21.84	0.182	41.71	0.317	123.24
	8.40E+00	0.682	95.46	1.571	21.34	0.183	41.25	0.324	122.48
	8.50E+00	0.683	94.70	1.543	20.25	0.185	41.05	0.331	121.42
	8.60E+00	0.687	93.96	1.529	19.65	0.187	40.49	0.336	120.26
	8.70E+00	0.690	93.18	1.503	19.20	0.188	39.98	0.341	119.34
	8.80E+00	0.693	92.70	1.484	18.41	0.189	39.69	0.345	118.64
	8.90E+00	0.694	91.96	1.468	17.91	0.191	39.38	0.351	117.87
	9.00E+00	0.695	91.23	1.440	17.38	0.193	38.52	0.358	116.91
	9.10E+00	0.698	90.59	1.427	16.29	0.194	37.95	0.362	115.88
	9.20E+00	0.701	89.88	1.418	15.86	0.195	37.67	0.367	115.05
	9.30E+00	0.705	89.33	1.391	15.29	0.197	37.21	0.372	114.43
	9.40E+00	0.707	88.59	1.370	14.25	0.199	36.43	0.378	113.71
	9.50E+00	0.709	88.07	1.357	13.68	0.199	36.04	0.385	112.60
	9.60E+00	0.712	87.37	1.330	12.99	0.201	35.70	0.388	111.46
	9.70E+00	0.718	86.49	1.322	12.08	0.203	35.17	0.389	110.55
	9.80E+00	0.720	85.46	1.310	11.36	0.205	34.09	0.391	109.98
	9.90E+00	0.714	84.75	1.277	10.71	0.204	33.51	0.396	109.54
	1.00E+01	0.715	84.41	1.254	9.88	0.204	33.15	0.402	108.80
	1.01E+01	0.718	83.70	1.237	9.91	0.205	32.75	0.406	107.98
	1.02E+01	0.720	83.23	1.214	9.51	0.205	32.38	0.409	107.27
	1.03E+01	0.723	82.79	1.209	9.01	0.206	32.25	0.410	106.81
	1.04E+01	0.724	81.97	1.195	8.94	0.208	31.77	0.414	106.46
	1.05E+01	0.729	81.20	1.179	8.19	0.208	31.15	0.420	105.68
	1.06E+01	0.730	80.60	1.173	7.01	0.209	30.82	0.425	104.94
	1.07E+01	0.731	79.90	1.160	6.66	0.210	30.72	0.428	104.21
	1.08E+01	0.731	79.37	1.140	5.84	0.211	29.88	0.429	103.80
	1.09E+01	0.730	78.96	1.130	5.48	0.210	29.23	0.432	103.61
	1.10E+01	0.731	78.31	1.113	5.21	0.210	29.11	0.438	103.30
	1.11E+01	0.736	77.79	1.088	4.27	0.210	28.71	0.443	102.73
	1.12E+01	0.743	77.31	1.079	3.74	0.210	28.31	0.448	101.85
	1.13E+01	0.749	76.74	1.065	3.76	0.208	28.56	0.450	101.02
	1.14E+01	0.750	75.46	1.058	3.29	0.210	29.08	0.452	100.77
	1.15E+01	0.752	74.76	1.055	2.67	0.213	29.07	0.457	100.28
	1.16E+01	0.752	73.41	1.046	2.09	0.217	28.41	0.462	99.88
	1.17E+01	0.746	72.51	1.034	0.80	0.218	27.83	0.464	98.88
	1.18E+01	0.754	71.98	1.028	0.20	0.220	27.54	0.463	98.10
	1.19E+01	0.748	70.51	1.014	-0.38	0.223	26.81	0.463	98.04
	1.20E+01	0.739	69.64	1.003	-1.62	0.224	25.55	0.473	98.21
	1.21E+01	0.733	68.96	0.984	-2.40	0.223	24.97	0.479	96.98
	1.22E+01	0.725	68.85	0.967	-2.86	0.225	24.41	0.480	96.40
	1.23E+01	0.717	68.30	0.958	-4.20	0.226	22.80	0.484	95.29
	1.24E+01	0.719	67.83	0.939	-4.55	0.221	22.23	0.482	94.34
	1.25E+01	0.717	67.51	0.920	-4.99	0.218	21.56	0.484	94.46
	1.26E+01	0.714	67.48	0.898	-5.20	0.216	23.00	0.487	93.14
	1.27E+01	0.711	66.87	0.888	-5.34	0.219	22.92	0.485	92.48
	1.28E+01	0.710	66.29	0.870	-5.84	0.218	22.56	0.482	91.97
	1.29E+01	0.712	65.96	0.861	-6.03	0.218	22.80	0.480	91.79
	1.30E+01	0.709	65.60	0.855	-5.85	0.222	22.94	0.481	91.75
	1.31E+01	0.708	64.92	0.842	-6.40	0.223	22.04	0.481	92.05
	1.32E+01	0.706	64.49	0.837	-7.11	0.222	21.70	0.489	91.92
	1.33E+01	0.704	64.17	0.832	-7.21	0.223	21.64	0.493	90.71
	1.34E+01	0.701	63.52	0.821	-7.90	0.225	21.18	0.493	90.66
	1.35E+01	0.703	63.41	0.816	-8.16	0.224	20.89	0.496	89.91
	1.36E+01	0.698	62.87	0.806	-8.23	0.225	21.10	0.496	89.77
	1.37E+01	0.698	62.39	0.794	-8.96	0.227	20.99	0.499	89.25
	1.38E+01	0.700	61.63	0.789	-9.71	0.228	20.28	0.502	88.32
	1.39E+01	0.698	61.51	0.782	-10.03	0.228	20.02	0.499	87.67
	1.40E+01	0.696	60.86	0.773	-10.57	0.229	20.26	0.499	87.47
	1.41E+01	0.693	60.32	0.764	-10.87	0.230	19.75	0.498	87.39
	1.42E+01	0.693	59.84	0.751	-11.37	0.232	19.10	0.500	87.06
	1.43E+01	0.690	59.26	0.740	-12.26	0.232	19.26	0.502	86.44
	1.44E+01	0.691	58.81	0.738	-12.54	0.233	19.09	0.501	85.81
	1.45E+01	0.686	58.31	0.724	-12.74	0.236	18.39	0.500	85.52
	1.46E+01	0.686	57.97	0.717	-13.04	0.237	17.45	0.501	85.39
	1.47E+01	0.683	57.28	0.710	-13.26	0.236	17.49	0.502	84.95
	1.48E+01	0.681	56.78	0.697	-13.82	0.238	17.38	0.502	84.28
	1.49E+01	0.680	55.94	0.686	-14.68	0.241	16.70	0.502	83.83
	1.50E+01	0.678	55.92	0.685	-14.60	0.238	16.02	0.501	83.56
