! Filename: 13bfg425.001
! BFG425W Field C1
! V1=8.203E-001V,V2=1.000E+000V, I1=4.157E-005A, I2=3.000E-003A
# GHz   S   MA   R 50
!                S11              S21              S12              S22
!Freq(GHz)  Mag     Ang      Mag     Ang      Mag     Ang      Mag     Ang 
   0.040    0.856  -3.497    9.716 176.930    0.003  79.672    0.983  -1.879
   0.100    0.859  -8.200    9.528 172.982    0.008  85.055    0.981  -5.106
   0.200    0.851 -16.187    9.396 165.903    0.016  79.429    0.968 -10.530
   0.300    0.838 -24.206    9.271 159.599    0.024  74.450    0.955 -15.563
   0.400    0.820 -32.154    9.086 152.788    0.031  69.534    0.934 -20.571
   0.500    0.800 -39.691    8.871 146.411    0.037  64.916    0.909 -25.135
   0.600    0.779 -47.252    8.579 140.421    0.043  60.435    0.883 -29.637
   0.700    0.757 -54.463    8.272 134.702    0.049  56.187    0.853 -33.990
   0.800    0.733 -61.637    7.994 129.144    0.054  52.344    0.824 -37.962
   0.900    0.708 -68.386    7.711 123.822    0.058  48.746    0.794 -41.817
   1.000    0.683 -75.040    7.403 118.685    0.062  45.399    0.763 -45.378
   1.100    0.661 -81.437    7.104 113.918    0.065  42.267    0.735 -48.743
   1.200    0.639 -87.554    6.813 109.270    0.068  39.354    0.707 -51.974
   1.300    0.619 -93.535    6.537 104.881    0.071  36.740    0.679 -55.011
   1.400    0.600 -99.454    6.280 100.634    0.073  34.247    0.652 -57.878
   1.500    0.580 -105.236    6.024  96.539    0.076  31.991    0.627 -60.606
   1.600    0.562 -111.017    5.787  92.587    0.077  29.852    0.603 -63.211
   1.700    0.547 -116.410    5.560  88.813    0.079  27.908    0.581 -65.766
   1.800    0.534 -121.724    5.339  85.158    0.081  26.110    0.559 -68.192
   1.900    0.521 -126.854    5.135  81.689    0.082  24.411    0.539 -70.590
   2.000    0.510 -131.971    4.939  78.273    0.083  22.831    0.519 -72.906
   2.200    0.490 -142.001    4.586  71.722    0.086  19.900    0.483 -77.410
   2.400    0.475 -151.694    4.270  65.495    0.088  17.358    0.449 -81.779
   2.600    0.464 -161.030    3.988  59.544    0.090  15.033    0.418 -86.154
   2.800    0.456 -170.106    3.734  53.828    0.092  12.838    0.389 -90.473
   3.000    0.452 -178.858    3.507  48.263    0.095  10.807    0.362 -94.901
   3.500    0.454 160.552    3.030  35.022    0.101   5.944    0.300 -106.597
   4.000    0.467 141.881    2.647  22.415    0.107   1.027    0.245 -120.022
   4.500    0.491 125.469    2.336  10.508    0.114  -3.997    0.196 -136.749
   5.000    0.521 110.164    2.069  -1.475    0.120 -10.392    0.155 -160.771
   5.500    0.545  96.680    1.828 -12.298    0.123 -15.389    0.124 171.068
   6.000    0.579  84.125    1.632 -23.549    0.128 -22.472    0.130 133.998
   6.500    0.592  75.408    1.493 -31.529    0.140 -22.848    0.144 119.184
   7.000    0.624  66.001    1.371 -41.430    0.152 -28.925    0.188 101.123
   7.500    0.670  55.452    1.232 -53.272    0.154 -40.189    0.254  80.288
   8.000    0.698  47.145    1.124 -62.959    0.160 -47.005    0.307  68.306
   8.500    0.727  38.614    1.015 -73.188    0.163 -55.662    0.366  56.401
   9.000    0.748  30.322    0.905 -82.309    0.161 -63.183    0.414  45.190
   9.500    0.769  22.762    0.818 -90.900    0.160 -70.918    0.449  36.607
  10.000    0.791  15.755    0.748 -100.755    0.162 -79.807    0.508  29.148
  10.500    0.806   8.707    0.674 -110.218    0.160 -88.400    0.560  20.877
  11.000    0.818   1.700    0.598 -119.138    0.154 -97.672    0.599  11.844
  11.500    0.827  -5.248    0.535 -128.530    0.148 -107.295    0.639   4.553
  12.000    0.830 -12.182    0.467 -137.717    0.138 -117.483    0.677  -3.790
!     DEEMBEDDED NOISE DATA
!FREQUENCY    FMIN    GAMMA OPT        Rn
!  (GHz)      (dB)    Mag    Ang   (NORMALIZED)
