! Filename: 425bfg425.001
! BFG425W Field C1
! V1=8.370E-001V,V2=4.000E+000V, I1=3.089E-004A, I2=2.505E-002A
# GHz   S   MA   R 50
!                S11              S21              S12              S22
!Freq(GHz)  Mag     Ang      Mag     Ang      Mag     Ang      Mag     Ang 
   0.040    0.379  -6.336   38.408 172.867    0.002  55.878    0.921  -2.513
   0.100    0.386 -18.575   37.261 164.992    0.004  77.252    0.915  -8.184
   0.200    0.364 -36.555   34.873 151.945    0.008  73.410    0.873 -16.399
   0.300    0.339 -52.411   31.752 140.797    0.011  70.136    0.813 -23.010
   0.400    0.311 -67.055   28.574 131.073    0.014  67.732    0.752 -28.071
   0.500    0.288 -80.203   25.630 122.531    0.016  65.561    0.698 -31.943
   0.600    0.268 -91.422   22.990 115.652    0.018  64.158    0.650 -34.874
   0.700    0.252 -101.368   20.741 109.792    0.020  63.193    0.610 -37.156
   0.800    0.239 -110.775   18.808 104.464    0.023  62.429    0.577 -39.035
   0.900    0.228 -118.866   17.168  99.795    0.025  61.845    0.549 -40.725
   1.000    0.220 -126.604   15.753  95.570    0.027  61.236    0.526 -42.259
   1.100    0.213 -133.507   14.534  91.698    0.029  60.574    0.505 -43.695
   1.200    0.209 -140.015   13.476  88.108    0.031  59.977    0.487 -45.098
   1.300    0.206 -146.035   12.546  84.753    0.033  59.396    0.471 -46.386
   1.400    0.204 -151.776   11.735  81.630    0.035  58.802    0.456 -47.665
   1.500    0.203 -157.515   11.018  78.637    0.037  58.098    0.444 -48.911
   1.600    0.202 -162.673   10.378  75.742    0.040  57.297    0.432 -50.252
   1.700    0.203 -167.554    9.800  72.991    0.042  56.505    0.421 -51.594
   1.800    0.204 -172.272    9.286  70.312    0.044  55.608    0.411 -52.941
   1.900    0.204 -176.714    8.819  67.728    0.046  54.718    0.401 -54.411
   2.000    0.206 179.168    8.395  65.200    0.049  53.723    0.392 -55.868
   2.200    0.211 171.114    7.656  60.321    0.053  51.666    0.374 -58.852
   2.400    0.217 163.489    7.033  55.588    0.058  49.568    0.357 -61.881
   2.600    0.226 156.542    6.495  50.961    0.062  47.212    0.339 -65.067
   2.800    0.234 149.889    6.030  46.522    0.067  44.811    0.322 -68.264
   3.000    0.245 143.789    5.625  42.129    0.072  42.286    0.305 -71.639
   3.500    0.274 129.768    4.806  31.455    0.084  35.536    0.261 -80.458
   4.000    0.308 117.141    4.175  21.008    0.095  28.309    0.213 -90.197
   4.500    0.345 106.093    3.680  10.834    0.107  20.776    0.165 -101.769
   5.000    0.389  95.260    3.263   0.326    0.117  12.287    0.109 -118.528
   5.500    0.423  84.590    2.885  -9.257    0.124   5.167    0.058 -138.284
   6.000    0.468  75.109    2.583 -19.528    0.132  -3.760    0.039 130.838
   6.500    0.477  68.643    2.372 -26.488    0.145  -7.006    0.052 112.644
   7.000    0.513  61.702    2.195 -35.642    0.158 -14.682    0.102  92.476
   7.500    0.578  52.705    1.980 -47.267    0.161 -26.669    0.187  69.703
   8.000    0.615  45.494    1.815 -56.657    0.168 -34.619    0.244  60.003
   8.500    0.657  37.721    1.646 -66.666    0.172 -44.057    0.310  49.474
   9.000    0.688  29.687    1.472 -75.710    0.170 -52.421    0.364  38.858
   9.500    0.718  22.486    1.335 -84.396    0.170 -60.845    0.406  30.341
  10.000    0.749  15.683    1.218 -94.280    0.171 -70.274    0.465  23.928
  10.500    0.773   8.708    1.098 -103.803    0.170 -79.469    0.519  16.138
  11.000    0.792   1.448    0.972 -112.838    0.163 -89.200    0.562   7.303
  11.500    0.807  -5.738    0.868 -122.267    0.157 -99.115    0.604   0.211
  12.000    0.815 -12.986    0.755 -131.297    0.148 -109.530    0.644  -8.047
!     DEEMBEDDED NOISE DATA
!FREQUENCY    FMIN    GAMMA OPT        Rn
!  (GHz)      (dB)    Mag    Ang   (NORMALIZED)
