! Filename: 212bfg425.001
! BFG425W Field C1
! V1=8.516E-001V,V2=2.000E+000V, I1=1.713E-004A, I2=1.249E-002A
# GHz   S   MA   R 50
!                S11              S21              S12              S22
!Freq(GHz)  Mag     Ang      Mag     Ang      Mag     Ang      Mag     Ang 
   0.040    0.562  -5.747   28.116 174.463    0.002  78.858    0.955  -2.942
   0.100    0.565 -14.693   27.440 167.736    0.005  83.901    0.948  -7.915
   0.200    0.543 -29.062   26.260 156.487    0.010  76.434    0.915 -15.741
   0.300    0.513 -42.270   24.658 146.557    0.014  71.363    0.868 -22.596
   0.400    0.480 -54.759   22.871 137.349    0.018  66.517    0.815 -28.451
   0.500    0.447 -66.277   21.065 128.913    0.021  62.973    0.761 -33.340
   0.600    0.417 -76.556   19.309 121.882    0.024  60.197    0.712 -37.410
   0.700    0.390 -85.881   17.725 115.719    0.027  57.882    0.666 -40.818
   0.800    0.366 -94.822   16.299 109.994    0.029  56.156    0.626 -43.698
   0.900    0.346 -102.666   15.043 104.933    0.031  54.850    0.591 -46.257
   1.000    0.329 -110.285   13.915 100.307    0.033  53.677    0.561 -48.525
   1.100    0.315 -117.267   12.929  96.065    0.035  52.717    0.534 -50.583
   1.200    0.304 -123.873   12.051  92.128    0.037  51.873    0.510 -52.521
   1.300    0.294 -130.149   11.269  88.447    0.039  51.154    0.487 -54.297
   1.400    0.287 -136.114   10.582  85.007    0.041  50.420    0.468 -55.954
   1.500    0.280 -142.017    9.962  81.721    0.043  49.716    0.451 -57.543
   1.600    0.275 -147.572    9.404  78.570    0.045  49.019    0.434 -59.168
   1.700    0.272 -152.882    8.903  75.561    0.048  48.271    0.420 -60.754
   1.800    0.269 -157.974    8.447  72.668    0.050  47.556    0.406 -62.318
   1.900    0.267 -162.786    8.033  69.869    0.052  46.777    0.394 -63.978
   2.000    0.266 -167.399    7.657  67.143    0.054  45.926    0.381 -65.636
   2.200    0.266 -176.372    6.994  61.900    0.058  44.126    0.358 -68.959
   2.400    0.269 175.098    6.430  56.864    0.063  42.301    0.337 -72.320
   2.600    0.274 167.207    5.944  51.940    0.068  40.315    0.317 -75.878
   2.800    0.281 159.695    5.521  47.233    0.072  38.134    0.297 -79.494
   3.000    0.288 152.686    5.152  42.604    0.077  35.841    0.278 -83.351
   3.500    0.314 136.738    4.401  31.422    0.089  29.586    0.231 -93.882
   4.000    0.346 122.496    3.821  20.543    0.100  22.767    0.183 -106.545
   4.500    0.381 110.148    3.362  10.013    0.112  15.499    0.137 -123.510
   5.000    0.423  98.207    2.975  -0.768    0.121   7.232    0.093 -153.065
   5.500    0.455  86.944    2.627 -10.599    0.128   0.283    0.067 164.826
   6.000    0.499  76.680    2.347 -21.109    0.135  -8.438    0.093 112.624
   6.500    0.509  69.799    2.153 -28.276    0.149 -11.548    0.109 102.001
   7.000    0.545  62.301    1.986 -37.611    0.162 -19.154    0.160  88.645
   7.500    0.605  52.876    1.786 -49.229    0.164 -31.009    0.240  69.888
   8.000    0.639  45.400    1.633 -58.650    0.170 -38.805    0.294  60.039
   8.500    0.677  37.390    1.477 -68.668    0.173 -48.160    0.356  49.561
   9.000    0.705  29.345    1.319 -77.643    0.171 -56.339    0.406  39.223
   9.500    0.732  22.084    1.194 -86.230    0.170 -64.613    0.444  30.810
  10.000    0.760  15.207    1.089 -96.085    0.171 -73.916    0.501  24.072
  10.500    0.781   8.296    0.981 -105.584    0.169 -83.006    0.551  16.255
  11.000    0.798   1.123    0.869 -114.464    0.162 -92.540    0.590   7.532
  11.500    0.811  -5.946    0.776 -123.782    0.156 -102.325    0.628   0.465
  12.000    0.817 -13.074    0.677 -132.836    0.147 -112.576    0.665  -7.663
!     DEEMBEDDED NOISE DATA
!FREQUENCY    FMIN    GAMMA OPT        Rn
!  (GHz)      (dB)    Mag    Ang   (NORMALIZED)
