! Filename: 34bfg403.001
! BFG403W Field A1
! V1=8.831E-001V,V2=3.000E+000V, I1=5.742E-005A, I2=4.010E-003A
# GHz   S   MA   R 50
!                S11              S21              S12              S22
!Freq(GHz)  Mag     Ang      Mag     Ang      Mag     Ang      Mag     Ang 
   0.040    0.853  -1.434    8.615 176.351    0.000 -29.897    0.989  -0.465
   0.100    0.856  -3.369    8.456 174.666    0.001  95.134    0.992  -1.918
   0.200    0.853  -6.782    8.415 170.416    0.003  85.087    0.990  -4.167
   0.300    0.846 -10.104    8.361 166.338    0.004  83.910    0.988  -6.313
   0.400    0.840 -13.263    8.313 161.736    0.005  80.561    0.984  -8.464
   0.500    0.828 -16.924    8.241 157.152    0.006  77.793    0.979 -10.492
   0.600    0.818 -20.099    8.116 152.897    0.007  75.710    0.974 -12.506
   0.700    0.806 -23.154    7.976 148.767    0.009  74.523    0.967 -14.557
   0.800    0.792 -26.320    7.850 144.566    0.010  72.683    0.960 -16.522
   0.900    0.777 -29.230    7.713 140.514    0.011  70.686    0.953 -18.475
   1.000    0.760 -32.199    7.565 136.461    0.012  69.340    0.944 -20.365
   1.100    0.744 -34.997    7.410 132.616    0.013  67.786    0.937 -22.127
   1.200    0.727 -37.715    7.252 128.791    0.013  66.557    0.929 -23.969
   1.300    0.711 -40.382    7.082 125.097    0.014  65.405    0.920 -25.725
   1.400    0.694 -42.877    6.928 121.553    0.015  64.165    0.911 -27.426
   1.500    0.676 -45.462    6.765 118.015    0.016  63.148    0.903 -29.079
   1.600    0.659 -47.902    6.611 114.597    0.017  62.370    0.895 -30.721
   1.700    0.642 -50.263    6.452 111.284    0.017  61.572    0.886 -32.331
   1.800    0.624 -52.645    6.293 108.024    0.018  60.622    0.878 -33.945
   1.900    0.609 -54.769    6.141 104.943    0.019  60.173    0.870 -35.538
   2.000    0.593 -56.919    5.990 101.859    0.019  59.644    0.862 -37.103
   2.200    0.562 -61.182    5.708  95.926    0.021  58.841    0.846 -40.179
   2.400    0.531 -65.254    5.441  90.224    0.022  58.174    0.830 -43.177
   2.600    0.503 -69.227    5.189  84.791    0.024  57.471    0.815 -46.168
   2.800    0.476 -73.174    4.958  79.534    0.025  57.049    0.799 -49.093
   3.000    0.451 -77.060    4.747  74.450    0.027  56.405    0.784 -52.065
   3.500    0.391 -87.084    4.284  62.293    0.032  54.859    0.746 -59.385
   4.000    0.339 -97.929    3.903  50.692    0.038  52.422    0.707 -66.815
   4.500    0.295 -110.520    3.592  39.530    0.045  48.621    0.666 -74.547
   5.000    0.255 -125.251    3.322  28.402    0.052  43.529    0.619 -82.489
   5.500    0.218 -142.660    3.069  17.177    0.059  37.802    0.566 -90.266
   6.000    0.204 -165.126    2.892   5.646    0.069  29.222    0.508 -100.401
   6.500    0.195 178.435    2.687  -4.028    0.078  27.504    0.468 -108.265
   7.000    0.154 155.643    2.355 -14.467    0.070  25.946    0.384 -109.839
   7.500    0.228 139.795    2.391 -25.348    0.103  15.149    0.368 -130.994
   8.000    0.275 117.862    2.259 -38.490    0.116   1.313    0.290 -152.089
   8.500    0.311  99.090    2.062 -50.980    0.121 -10.272    0.209 -175.270
   9.000    0.360  84.320    1.914 -62.983    0.132 -20.965    0.181 151.997
   9.500    0.408  69.214    1.737 -75.599    0.137 -34.562    0.188 110.561
  10.000    0.451  56.052    1.569 -88.596    0.140 -47.283    0.245  77.126
  10.500    0.490  42.922    1.383 -101.560    0.139 -61.729    0.317  52.939
  11.000    0.513  30.314    1.188 -113.494    0.131 -76.066    0.387  33.988
  11.500    0.537  19.334    1.020 -125.617    0.123 -90.101    0.458  19.164
  12.000    0.546   7.467    0.839 -136.551    0.106 -106.818    0.512   4.758
!     DEEMBEDDED NOISE DATA
!FREQUENCY    FMIN    GAMMA OPT        Rn
!  (GHz)      (dB)    Mag    Ang   (NORMALIZED)
