! Filename: 22bfg410.001
! BFG410W Field B1
! V1=8.334E-001V,V2=2.000E+000V, I1=2.838E-005A, I2=2.000E-003A
# GHz   S   MA   R 50
!                S11              S21              S12              S22
!Freq(GHz)  Mag     Ang      Mag     Ang      Mag     Ang      Mag     Ang 
   0.040    0.903  -1.911    6.490 178.006    0.001  75.193    0.999  -0.625
   0.100    0.907  -3.937    6.371 175.864    0.003  88.473    0.999  -2.251
   0.200    0.905  -7.940    6.297 171.284    0.006  83.838    0.987  -5.369
   0.300    0.901 -12.092    6.302 168.037    0.009  81.455    0.988  -7.744
   0.400    0.896 -15.847    6.296 163.127    0.012  78.519    0.983 -10.637
   0.500    0.888 -19.881    6.257 159.203    0.015  75.572    0.974 -12.892
   0.600    0.880 -23.812    6.201 155.194    0.018  73.339    0.971 -15.415
   0.700    0.871 -27.733    6.110 151.090    0.021  70.123    0.961 -18.169
   0.800    0.861 -31.681    6.053 147.296    0.024  67.761    0.952 -20.547
   0.900    0.850 -35.453    6.002 143.385    0.026  65.206    0.943 -23.071
   1.000    0.836 -39.312    5.926 139.429    0.029  62.826    0.930 -25.466
   1.100    0.823 -43.046    5.850 135.759    0.031  60.417    0.921 -27.706
   1.200    0.809 -46.796    5.770 131.952    0.034  58.139    0.909 -30.087
   1.300    0.795 -50.463    5.682 128.374    0.036  55.906    0.896 -32.314
   1.400    0.780 -54.128    5.609 124.738    0.038  53.720    0.884 -34.509
   1.500    0.764 -57.827    5.522 121.114    0.040  51.567    0.871 -36.683
   1.600    0.746 -61.599    5.441 117.552    0.041  49.589    0.858 -38.766
   1.700    0.731 -65.109    5.358 114.075    0.043  47.662    0.846 -40.880
   1.800    0.715 -68.609    5.256 110.596    0.045  45.750    0.832 -42.930
   1.900    0.701 -72.039    5.159 107.359    0.046  44.025    0.819 -44.944
   2.000    0.685 -75.468    5.058 104.056    0.048  42.319    0.806 -46.928
   2.200    0.652 -82.364    4.876  97.586    0.050  39.192    0.779 -50.760
   2.400    0.620 -89.324    4.697  91.290    0.053  36.315    0.753 -54.510
   2.600    0.589 -96.057    4.515  85.238    0.055  33.665    0.728 -58.200
   2.800    0.560 -102.946    4.344  79.302    0.057  31.277    0.702 -61.736
   3.000    0.532 -109.806    4.180  73.546    0.059  29.033    0.678 -65.301
   3.500    0.467 -127.745    3.806  59.523    0.064  24.104    0.617 -74.008
   4.000    0.413 -146.770    3.465  46.027    0.069  19.606    0.558 -82.603
   4.500    0.379 -167.103    3.169  33.245    0.076  15.066    0.501 -91.633
   5.000    0.357 171.323    2.896  20.619    0.082   9.907    0.440 -100.953
   5.500    0.353 148.651    2.630   7.891    0.087   3.050    0.370 -110.841
   6.000    0.369 130.564    2.423  -3.488    0.097  -0.899    0.322 -121.686
   6.500    0.387 111.932    2.191 -14.963    0.101  -6.732    0.257 -132.815
   7.000    0.365 100.946    1.976 -21.358    0.105   2.508    0.240 -131.103
   7.500    0.453  87.573    1.895 -35.036    0.127 -13.291    0.190 -163.150
   8.000    0.510  74.543    1.756 -46.953    0.139 -23.622    0.161 163.879
   8.500    0.562  61.661    1.590 -59.496    0.144 -36.169    0.154 118.813
   9.000    0.604  50.706    1.438 -70.604    0.146 -45.772    0.185  86.642
   9.500    0.635  40.216    1.273 -81.196    0.142 -55.627    0.233  61.696
  10.000    0.681  32.154    1.174 -92.633    0.151 -65.405    0.309  46.723
  10.500    0.715  23.163    1.046 -103.766    0.150 -75.842    0.376  32.674
  11.000    0.746  14.151    0.919 -115.472    0.146 -89.206    0.450  19.291
  11.500    0.762   5.447    0.788 -126.470    0.135 -101.133    0.516   7.309
  12.000    0.774  -3.263    0.668 -137.560    0.124 -115.118    0.579  -4.440
!     DEEMBEDDED NOISE DATA
!FREQUENCY    FMIN    GAMMA OPT        Rn
!  (GHz)      (dB)    Mag    Ang   (NORMALIZED)
