! Filename: 230BFG480.001
! Title: BFG480W
! Bias: Vce=2V; Ic=30mA
! Company: Philips Semiconductors NL
! User: Quality&Reliability T&D
! Measure time: 10 Nov 1999 / 11:53:39
#  MHz  S  MA  R 50
! Freq       S11             S21             S12             S22    :
  100  0.31583 -94.71 38.22010 150.96 0.011101 67.114  0.83069 -39.50
  200  0.48349 -127.7 31.14125 130.73 0.017607 53.326  0.69676 -69.86
  300  0.56941 -143.9 24.84853 117.77 0.020970 46.918  0.60072 -90.91
  400  0.61383 -153.2 20.09331 109.04 0.023030 44.527  0.54448 -106.0
  500  0.64040 -159.9 16.76711 102.62 0.024641 44.053  0.51104 -117.1
  600  0.65612 -164.7 14.26075 97.666 0.026030 44.421  0.48953 -125.5
  700  0.66657 -168.6 12.37932 93.700 0.027337 46.001  0.47522 -132.1
  800  0.67489 -171.8 10.88885 90.329 0.028778 47.600  0.46552 -137.6
  900  0.68383 -174.6  9.68510 87.486 0.030161 49.609  0.45994 -142.2
 1000  0.69107 -177.2  8.72821 84.807 0.031880 51.276  0.45763 -146.3
 1200  0.70683 178.56  7.22220 79.793 0.035145 54.420  0.46083 -153.1
 1400  0.71901 175.38  6.12213 74.896 0.038498 56.908  0.46806 -158.2
 1600  0.72598 172.49  5.34617 71.009 0.042798 59.365  0.47296 -162.2
 1800  0.72617 169.49  4.76482 67.607 0.047594 61.533  0.47826 -166.1
 2000  0.73606 166.84  4.21688 64.610 0.051630 63.590  0.48718 -170.4
 2200  0.75546 164.34  3.76070 61.042 0.055415 64.578  0.50470 -174.1
 2400  0.76619 162.27  3.37245 57.367 0.059715 65.075  0.52580 -176.7
 2600  0.76740 160.34  3.08696 54.090 0.065333 65.343  0.54115 -178.4
 2800  0.76333 157.94  2.86242 49.622 0.069601 64.646  0.54760 179.53
 3000  0.76785 155.16  2.65784 46.200 0.074583 64.630  0.55423 176.55
