! Filename: 38bfg425.001
! BFG425W Field C1
! V1=8.355E-001V,V2=3.000E+000V, I1=1.001E-004A, I2=8.000E-003A
# GHz   S   MA   R 50
!                S11              S21              S12              S22
!Freq(GHz)  Mag     Ang      Mag     Ang      Mag     Ang      Mag     Ang 
   0.040    0.693  -4.645   21.097 175.118    0.002  69.505    0.970  -2.312
   0.100    0.700 -11.013   20.586 169.883    0.005  81.761    0.966  -6.086
   0.200    0.684 -21.986   20.046 160.759    0.010  76.450    0.946 -12.093
   0.300    0.657 -32.445   19.266 152.394    0.015  72.330    0.917 -17.671
   0.400    0.626 -42.668   18.363 144.257    0.019  67.360    0.881 -22.699
   0.500    0.594 -52.119   17.396 136.444    0.022  63.446    0.842 -27.222
   0.600    0.562 -60.952   16.324 129.684    0.026  59.949    0.803 -31.161
   0.700    0.531 -69.234   15.312 123.610    0.028  56.873    0.764 -34.656
   0.800    0.499 -77.177   14.357 117.747    0.031  54.523    0.728 -37.708
   0.900    0.471 -84.335   13.462 112.466    0.033  52.535    0.695 -40.490
   1.000    0.445 -91.383   12.620 107.549    0.035  50.683    0.665 -42.974
   1.100    0.423 -97.937   11.856 103.030    0.037  49.191    0.637 -45.245
   1.200    0.404 -104.224   11.154  98.781    0.039  47.951    0.612 -47.369
   1.300    0.386 -110.185   10.513  94.793    0.041  46.770    0.589 -49.307
   1.400    0.371 -116.100    9.939  91.057    0.042  45.796    0.568 -51.105
   1.500    0.357 -121.881    9.410  87.497    0.044  44.933    0.549 -52.810
   1.600    0.344 -127.530    8.931  84.074    0.046  44.056    0.531 -54.504
   1.700    0.335 -132.789    8.487  80.822    0.047  43.322    0.515 -56.136
   1.800    0.326 -138.062    8.086  77.668    0.049  42.570    0.500 -57.744
   1.900    0.318 -143.094    7.715  74.678    0.051  41.829    0.486 -59.399
   2.000    0.312 -148.067    7.372  71.741    0.053  41.077    0.472 -61.018
   2.200    0.303 -157.897    6.764  66.150    0.056  39.642    0.447 -64.235
   2.400    0.297 -167.223    6.243  60.727    0.060  38.160    0.424 -67.425
   2.600    0.295 -176.184    5.788  55.579    0.064  36.526    0.402 -70.748
   2.800    0.296 175.236    5.391  50.602    0.068  34.804    0.380 -74.053
   3.000    0.299 166.996    5.043  45.746    0.071  32.975    0.360 -77.525
   3.500    0.317 148.297    4.326  34.064    0.082  27.752    0.310 -86.641
   4.000    0.343 131.726    3.768  22.748    0.092  21.828    0.259 -96.786
   4.500    0.376 117.556    3.324  11.878    0.103  15.322    0.209 -108.773
   5.000    0.416 104.162    2.948   0.782    0.112   7.557    0.153 -125.412
   5.500    0.447  91.744    2.607  -9.357    0.119   1.125    0.101 -143.654
   6.000    0.490  80.663    2.331 -20.140    0.126  -7.358    0.067 167.779
   6.500    0.501  73.309    2.138 -27.479    0.140  -9.579    0.072 146.497
   7.000    0.538  65.324    1.974 -37.027    0.153 -16.826    0.109 113.428
   7.500    0.598  55.429    1.779 -48.899    0.156 -28.901    0.181  81.886
   8.000    0.634  47.570    1.628 -58.535    0.163 -36.654    0.238  68.926
   8.500    0.673  39.372    1.472 -68.802    0.167 -46.049    0.303  56.222
   9.000    0.701  31.118    1.315 -78.084    0.165 -54.310    0.356  44.293
   9.500    0.729  23.591    1.187 -86.823    0.165 -62.720    0.397  35.141
  10.000    0.757  16.635    1.084 -96.929    0.167 -72.256    0.459  28.037
  10.500    0.779   9.533    0.975 -106.659    0.165 -81.432    0.514  19.741
  11.000    0.796   2.189    0.862 -115.772    0.159 -91.242    0.558  10.490
  11.500    0.809  -4.980    0.769 -125.313    0.153 -101.341    0.601   3.112
  12.000    0.816 -12.188    0.668 -134.633    0.143 -111.968    0.643  -5.386
!     DEEMBEDDED NOISE DATA
!FREQUENCY    FMIN    GAMMA OPT        Rn
!  (GHz)      (dB)    Mag    Ang   (NORMALIZED)
