! Filename BFG424F_3V_15mA.prm
! Simulation_Values
! Created	by	janssen	on		nov	2006		
!	Column ranking S11, S21,S12,S22 both magnitude and phase.								
!	VCE	=	3	V,	IC	=	15	mA	
!	Common	Emitter	S-Parameters						
#	GHZ	S	MA	R	50				
	5.00E-01	0.468	-70.56	23.723	134.47	0.019	65.31	0.769	-29.68
	6.00E-01	0.446	-81.18	21.772	128.39	0.021	62.64	0.720	-33.01
	7.00E-01	0.424	-90.83	19.989	123.12	0.023	61.86	0.674	-35.63
	8.00E-01	0.405	-99.52	18.376	118.59	0.025	60.88	0.635	-37.69
	9.00E-01	0.395	-107.45	16.985	114.63	0.027	60.08	0.600	-39.53
	1.00E+00	0.383	-114.48	15.738	111.00	0.028	59.69	0.570	-40.98
	1.10E+00	0.374	-121.03	14.625	107.83	0.030	59.99	0.544	-42.29
	1.20E+00	0.365	-126.86	13.629	105.01	0.031	60.24	0.520	-43.37
	1.30E+00	0.360	-132.42	12.778	102.42	0.033	60.44	0.500	-44.44
	1.40E+00	0.356	-137.65	12.002	99.98	0.035	60.88	0.481	-45.42
	1.50E+00	0.353	-142.27	11.318	97.76	0.036	61.08	0.466	-46.19
	1.60E+00	0.349	-146.52	10.705	95.65	0.038	61.43	0.451	-47.28
	1.70E+00	0.348	-150.80	10.145	93.64	0.039	61.89	0.437	-48.12
	1.80E+00	0.347	-154.99	9.624	91.78	0.041	62.47	0.425	-49.02
	1.90E+00	0.348	-158.52	9.160	90.01	0.042	62.89	0.413	-49.96
	2.00E+00	0.348	-161.89	8.746	88.43	0.044	63.19	0.404	-50.83
	2.10E+00	0.348	-165.22	8.364	86.74	0.046	63.46	0.394	-51.99
	2.20E+00	0.350	-168.39	8.006	85.14	0.047	63.62	0.384	-52.93
	2.30E+00	0.352	-171.66	7.665	83.68	0.049	63.97	0.376	-54.01
	2.40E+00	0.356	-174.17	7.372	82.29	0.051	64.31	0.367	-55.08
	2.50E+00	0.359	-176.68	7.089	80.88	0.053	64.74	0.359	-56.25
	2.60E+00	0.360	-179.43	6.836	79.40	0.055	64.73	0.351	-57.56
	2.70E+00	0.362	177.82	6.589	78.11	0.056	64.97	0.343	-58.82
	2.80E+00	0.367	175.51	6.362	76.83	0.058	65.15	0.336	-59.89
	2.90E+00	0.371	173.35	6.146	75.61	0.060	65.14	0.329	-61.30
	3.00E+00	0.375	171.35	5.951	74.38	0.062	65.21	0.322	-62.55
	3.10E+00	0.378	168.94	5.771	73.10	0.064	65.09	0.314	-64.09
	3.20E+00	0.380	166.86	5.594	71.90	0.066	65.08	0.307	-65.39
	3.30E+00	0.386	164.65	5.419	70.76	0.068	65.36	0.302	-66.88
	3.40E+00	0.391	162.90	5.262	69.58	0.070	65.18	0.295	-68.61
	3.50E+00	0.395	161.12	5.111	68.49	0.072	65.17	0.289	-70.38
	3.60E+00	0.398	158.94	4.972	67.30	0.074	65.05	0.282	-72.27
	3.70E+00	0.403	157.03	4.846	66.17	0.076	64.89	0.275	-74.05
	3.80E+00	0.410	155.37	4.716	65.12	0.078	64.89	0.268	-75.80
	3.90E+00	0.414	153.95	4.599	64.08	0.080	64.75	0.262	-77.56
	4.00E+00	0.418	152.02	4.483	62.95	0.082	64.61	0.257	-79.57
	4.10E+00	0.423	150.41	4.372	61.99	0.084	64.42	0.252	-81.75
	4.20E+00	0.428	148.53	4.268	60.85	0.086	64.20	0.245	-84.17
	4.30E+00	0.434	147.01	4.172	59.90	0.088	63.98	0.239	-86.06
	4.40E+00	0.441	145.79	4.075	58.79	0.090	63.88	0.234	-88.04
	4.50E+00	0.442	144.58	3.983	57.75	0.093	63.67	0.230	-90.27
	4.60E+00	0.445	142.60	3.895	56.81	0.095	63.21	0.226	-93.18
	4.70E+00	0.452	140.88	3.809	55.77	0.097	62.88	0.221	-96.01
	4.80E+00	0.461	139.84	3.735	54.67	0.099	62.71	0.216	-98.71
	4.90E+00	0.464	138.54	3.658	53.80	0.102	62.26	0.212	-101.38
	5.00E+00	0.469	137.34	3.578	52.82	0.104	61.95	0.207	-103.91
	5.10E+00	0.472	135.78	3.512	51.71	0.105	61.75	0.202	-106.62
	5.20E+00	0.478	134.36	3.443	50.87	0.108	61.46	0.200	-109.62
	5.30E+00	0.487	133.12	3.373	49.88	0.111	60.88	0.195	-112.89
	5.40E+00	0.491	132.02	3.315	48.83	0.112	60.46	0.191	-116.11
	5.50E+00	0.495	130.82	3.246	48.03	0.114	60.25	0.189	-119.17
	5.60E+00	0.499	129.43	3.178	46.97	0.116	59.90	0.188	-122.49
	5.70E+00	0.507	128.22	3.130	46.05	0.119	59.40	0.187	-125.91
	5.80E+00	0.513	127.20	3.070	45.27	0.121	59.09	0.185	-129.54
	5.90E+00	0.518	126.07	3.013	44.11	0.123	58.76	0.183	-133.18
	6.00E+00	0.521	124.88	2.967	43.33	0.125	58.19	0.182	-136.76
	6.10E+00	0.526	123.60	2.912	42.54	0.127	57.73	0.182	-140.24
	6.20E+00	0.532	122.28	2.854	41.40	0.129	57.43	0.183	-144.11
	6.30E+00	0.541	121.51	2.816	40.49	0.131	57.16	0.183	-147.82
	6.40E+00	0.543	120.52	2.764	39.72	0.134	56.69	0.184	-151.01
	6.50E+00	0.546	119.34	2.717	38.71	0.136	56.16	0.185	-154.14
	6.60E+00	0.551	117.99	2.672	37.94	0.137	55.83	0.187	-157.39
	6.70E+00	0.557	117.14	2.624	37.16	0.140	55.40	0.190	-160.79
	6.80E+00	0.564	116.06	2.582	36.06	0.142	54.83	0.193	-164.66
	6.90E+00	0.568	115.27	2.548	35.29	0.143	54.43	0.195	-167.95
	7.00E+00	0.570	114.35	2.500	34.53	0.146	54.24	0.196	-170.59
	7.10E+00	0.572	113.07	2.464	33.55	0.148	53.58	0.200	-172.98
	7.20E+00	0.579	111.96	2.426	32.86	0.150	53.02	0.204	-175.42
	7.30E+00	0.585	111.29	2.383	32.01	0.152	52.59	0.209	-178.36
	7.40E+00	0.589	110.38	2.351	30.94	0.154	52.32	0.214	178.34
	7.50E+00	0.593	109.32	2.316	30.33	0.156	51.63	0.219	175.15
	7.60E+00	0.598	108.59	2.279	29.49	0.158	51.14	0.221	172.72
	7.70E+00	0.601	107.67	2.249	28.72	0.159	50.88	0.226	170.73
	7.80E+00	0.605	106.78	2.219	28.02	0.162	50.35	0.230	168.72
	7.90E+00	0.609	105.60	2.178	26.93	0.164	49.52	0.237	166.04
	8.00E+00	0.614	104.95	2.156	26.11	0.164	49.21	0.241	163.51
	8.10E+00	0.616	104.15	2.123	25.64	0.166	49.23	0.244	161.60
	8.20E+00	0.620	103.38	2.091	24.72	0.169	48.71	0.249	160.20
	8.30E+00	0.625	102.50	2.067	23.88	0.171	47.94	0.258	158.57
	8.40E+00	0.626	101.64	2.033	23.23	0.172	47.45	0.265	156.43
	8.50E+00	0.631	100.78	1.998	22.03	0.174	47.21	0.271	153.87
	8.60E+00	0.635	100.03	1.983	21.36	0.177	46.55	0.274	151.91
	8.70E+00	0.639	99.31	1.948	20.88	0.178	46.08	0.279	150.48
	8.80E+00	0.642	98.59	1.923	19.95	0.179	45.77	0.286	149.35
	8.90E+00	0.645	97.93	1.903	19.28	0.182	45.42	0.293	147.57
	9.00E+00	0.646	97.11	1.869	18.63	0.185	44.51	0.299	145.78
	9.10E+00	0.649	96.29	1.853	17.48	0.185	43.91	0.301	144.19
	9.20E+00	0.654	95.60	1.840	17.00	0.187	43.57	0.306	143.11
	9.30E+00	0.660	95.11	1.803	16.26	0.190	43.06	0.314	142.01
	9.40E+00	0.662	94.28	1.775	15.03	0.191	42.29	0.323	140.51
	9.50E+00	0.664	93.71	1.758	14.34	0.192	41.79	0.329	138.16
	9.60E+00	0.669	93.01	1.724	13.63	0.194	41.44	0.331	136.69
	9.70E+00	0.675	92.13	1.714	12.66	0.197	40.91	0.331	135.78
	9.80E+00	0.679	90.93	1.695	11.86	0.198	39.79	0.337	134.96
	9.90E+00	0.676	90.14	1.649	11.12	0.198	39.21	0.345	133.63
	1.00E+01	0.677	89.89	1.620	10.29	0.198	38.84	0.350	132.08
	1.01E+01	0.680	89.11	1.600	10.29	0.200	38.46	0.353	130.94
	1.02E+01	0.682	88.55	1.573	9.81	0.201	38.03	0.357	130.38
	1.03E+01	0.687	88.01	1.565	9.19	0.202	37.87	0.360	129.94
	1.04E+01	0.687	87.11	1.548	8.94	0.204	37.30	0.369	129.11
	1.05E+01	0.693	86.27	1.525	8.04	0.205	36.57	0.376	127.37
	1.06E+01	0.697	85.63	1.519	6.77	0.205	36.15	0.381	125.62
	1.07E+01	0.698	85.06	1.501	6.38	0.206	36.05	0.382	124.62
	1.08E+01	0.697	84.53	1.475	5.60	0.208	35.30	0.383	124.53
	1.09E+01	0.698	83.93	1.461	5.14	0.208	34.65	0.388	124.43
	1.10E+01	0.700	83.28	1.438	4.64	0.208	34.47	0.398	123.70
	1.11E+01	0.707	82.67	1.406	3.58	0.209	33.99	0.405	122.27
	1.12E+01	0.716	82.07	1.396	2.99	0.209	33.47	0.409	120.79
	1.13E+01	0.723	81.57	1.380	2.99	0.208	33.64	0.409	119.96
	1.14E+01	0.722	80.21	1.372	2.34	0.211	34.00	0.412	120.03
	1.15E+01	0.725	79.30	1.368	1.52	0.214	33.82	0.419	119.13
	1.16E+01	0.726	77.81	1.354	0.70	0.217	32.97	0.426	118.38
	1.17E+01	0.720	77.05	1.336	-0.64	0.218	32.29	0.428	117.00
	1.18E+01	0.728	76.41	1.326	-1.22	0.221	31.98	0.426	116.25
	1.19E+01	0.723	74.93	1.310	-1.88	0.224	31.18	0.427	116.34
	1.20E+01	0.713	74.09	1.295	-3.33	0.224	29.84	0.439	116.26
	1.21E+01	0.706	73.22	1.268	-4.26	0.224	29.29	0.446	114.57
	1.22E+01	0.704	72.96	1.247	-4.74	0.227	28.57	0.447	114.04
	1.23E+01	0.695	72.53	1.242	-6.38	0.227	26.60	0.456	113.42
	1.24E+01	0.692	72.21	1.212	-7.01	0.221	26.18	0.457	112.10
	1.25E+01	0.692	71.61	1.180	-7.42	0.219	25.72	0.463	112.08
	1.26E+01	0.693	71.62	1.151	-7.80	0.217	27.07	0.468	109.90
	1.27E+01	0.689	71.27	1.137	-8.06	0.220	26.94	0.465	108.80
	1.28E+01	0.685	70.35	1.112	-8.65	0.220	26.51	0.461	107.84
	1.29E+01	0.690	69.75	1.098	-8.86	0.220	26.72	0.458	107.88
	1.30E+01	0.689	69.82	1.088	-8.76	0.224	26.76	0.461	108.06
	1.31E+01	0.687	69.16	1.071	-9.47	0.225	25.81	0.466	108.19
	1.32E+01	0.683	68.65	1.064	-10.19	0.225	25.46	0.474	107.68
	1.33E+01	0.684	68.24	1.056	-10.28	0.226	25.45	0.476	106.04
	1.34E+01	0.680	67.73	1.044	-10.97	0.228	25.02	0.475	106.31
	1.35E+01	0.683	67.62	1.036	-11.39	0.227	24.66	0.480	105.72
	1.36E+01	0.679	67.09	1.022	-11.58	0.229	24.70	0.486	105.65
	1.37E+01	0.678	66.57	1.004	-12.45	0.231	24.53	0.489	104.80
	1.38E+01	0.682	65.79	0.998	-13.22	0.232	23.85	0.490	103.62
	1.39E+01	0.680	65.79	0.988	-13.51	0.232	23.60	0.486	102.81
	1.40E+01	0.677	65.16	0.976	-14.19	0.234	23.78	0.487	102.72
	1.41E+01	0.673	64.45	0.962	-14.76	0.235	23.08	0.491	102.63
	1.42E+01	0.675	63.84	0.944	-15.36	0.237	22.37	0.495	101.98
	1.43E+01	0.674	63.38	0.929	-16.42	0.237	22.45	0.499	101.24
	1.44E+01	0.676	63.10	0.927	-16.65	0.239	22.27	0.496	100.66
	1.45E+01	0.668	62.69	0.909	-16.95	0.242	21.49	0.497	100.50
	1.46E+01	0.667	61.87	0.896	-17.30	0.243	20.56	0.500	100.01
	1.47E+01	0.669	61.04	0.883	-17.60	0.241	20.63	0.500	99.02
	1.48E+01	0.669	61.17	0.867	-18.13	0.244	20.61	0.496	98.06
	1.49E+01	0.660	60.33	0.855	-19.14	0.248	19.84	0.496	98.16
	1.50E+01	0.661	59.69	0.853	-19.25	0.246	18.86	0.500	98.59
