! Filename BFG424F_3V_20mA.prm
! Simulation_Values
! Created	by	janssen	on	nov	2006			
!	Column ranking S11, S21,S12,S22 both magnitude and phase.								
!	VCE	=	3	V,	IC	=	20	mA	
!	Common	Emitter	S-Parameters						
#	GHZ	S	MA	R	50				
	5.00E-01	0.394	-82.23	25.893	130.46	0.017	65.59	0.726	-31.49
	6.00E-01	0.379	-93.5	23.45	124.41	0.019	63.49	0.674	-34.53
	7.00E-01	0.365	-103.47	21.297	119.27	0.021	63.45	0.628	-36.78
	8.00E-01	0.353	-112.3	19.413	114.91	0.023	62.9	0.59	-38.45
	9.00E-01	0.349	-120.02	17.817	111.14	0.024	62.75	0.557	-39.97
	1.00E+00	0.343	-126.89	16.419	107.71	0.026	62.81	0.529	-41.11
	1.10E+00	0.339	-133.08	15.188	104.73	0.028	63.21	0.504	-42.16
	1.20E+00	0.334	-138.62	14.104	102.1	0.029	63.82	0.483	-43.02
	1.30E+00	0.333	-143.73	13.182	99.67	0.031	64.05	0.464	-43.91
	1.40E+00	0.332	-148.5	12.35	97.38	0.033	64.69	0.448	-44.72
	1.50E+00	0.332	-152.65	11.622	95.31	0.034	65.09	0.435	-45.38
	1.60E+00	0.33	-156.42	10.97	93.34	0.036	65.32	0.421	-46.35
	1.70E+00	0.331	-160.28	10.381	91.45	0.038	65.94	0.409	-47.11
	1.80E+00	0.334	-164.1	9.837	89.7	0.039	66.27	0.398	-47.95
	1.90E+00	0.336	-167.21	9.352	88.04	0.041	66.74	0.387	-48.84
	2.00E+00	0.338	-170.19	8.923	86.56	0.043	67	0.379	-49.68
	2.10E+00	0.339	-173.2	8.522	84.97	0.045	67.15	0.37	-50.82
	2.20E+00	0.342	-176.05	8.152	83.45	0.047	67.19	0.362	-51.72
	2.30E+00	0.345	-178.83	7.801	82.06	0.048	67.63	0.354	-52.78
	2.40E+00	0.349	178.97	7.499	80.75	0.05	67.86	0.346	-53.88
	2.50E+00	0.354	176.74	7.206	79.41	0.052	68.09	0.339	-55.05
	2.60E+00	0.355	174.37	6.944	77.99	0.054	68	0.332	-56.38
	2.70E+00	0.358	171.71	6.693	76.76	0.056	68.1	0.324	-57.64
	2.80E+00	0.363	169.84	6.459	75.55	0.058	67.96	0.318	-58.69
	2.90E+00	0.368	167.91	6.238	74.37	0.06	68.07	0.31	-60.16
	3.00E+00	0.372	166.09	6.039	73.2	0.062	68.1	0.304	-61.38
	3.10E+00	0.376	163.89	5.852	71.97	0.064	67.81	0.297	-62.95
	3.20E+00	0.378	162.06	5.671	70.81	0.066	67.82	0.29	-64.24
	3.30E+00	0.384	160.02	5.494	69.72	0.068	67.85	0.284	-65.8
	3.40E+00	0.39	158.46	5.333	68.59	0.07	67.59	0.278	-67.57
	3.50E+00	0.395	156.88	5.18	67.54	0.072	67.45	0.273	-69.39
	3.60E+00	0.397	154.82	5.039	66.39	0.074	67.36	0.266	-71.31
	3.70E+00	0.403	153.08	4.909	65.29	0.076	67.05	0.259	-73.14
	3.80E+00	0.41	151.67	4.777	64.3	0.079	67.06	0.252	-74.93
	3.90E+00	0.414	150.32	4.657	63.29	0.081	66.88	0.246	-76.73
	4.00E+00	0.418	148.59	4.539	62.19	0.083	66.63	0.241	-78.81
	4.10E+00	0.423	147.03	4.427	61.25	0.085	66.31	0.236	-81.06
	4.20E+00	0.428	145.28	4.321	60.15	0.087	66.05	0.229	-83.52
	4.30E+00	0.435	143.94	4.224	59.23	0.089	65.74	0.224	-85.43
	4.40E+00	0.441	142.84	4.125	58.15	0.091	65.56	0.219	-87.5
	4.50E+00	0.443	141.68	4.031	57.14	0.094	65.26	0.215	-89.8
	4.60E+00	0.447	139.84	3.943	56.23	0.096	64.81	0.211	-92.85
	4.70E+00	0.453	138.23	3.855	55.21	0.098	64.41	0.206	-95.82
	4.80E+00	0.462	137.28	3.78	54.15	0.1	64.21	0.201	-98.66
	4.90E+00	0.465	136.06	3.7	53.29	0.103	63.68	0.197	-101.4
	5.00E+00	0.471	134.95	3.62	52.34	0.105	63.29	0.192	-104.05
	5.10E+00	0.474	133.48	3.553	51.25	0.107	63.1	0.188	-106.87
	5.20E+00	0.479	132.13	3.483	50.43	0.109	62.73	0.185	-110.02
	5.30E+00	0.488	130.94	3.412	49.47	0.112	62.11	0.181	-113.48
	5.40E+00	0.493	129.91	3.353	48.44	0.114	61.67	0.178	-116.89
	5.50E+00	0.496	128.74	3.284	47.65	0.115	61.4	0.175	-120.05
	5.60E+00	0.501	127.45	3.215	46.62	0.118	60.99	0.174	-123.54
	5.70E+00	0.509	126.32	3.166	45.72	0.12	60.47	0.173	-127.1
	5.80E+00	0.515	125.31	3.106	44.96	0.122	60.08	0.172	-130.95
	5.90E+00	0.52	124.29	3.047	43.82	0.124	59.75	0.17	-134.84
	6.00E+00	0.522	123.13	3.001	43.08	0.127	59.17	0.169	-138.52
	6.10E+00	0.528	121.87	2.945	42.29	0.128	58.67	0.17	-142.19
	6.20E+00	0.534	120.62	2.887	41.17	0.13	58.37	0.171	-146.19
	6.30E+00	0.543	119.93	2.848	40.29	0.132	58	0.172	-150.05
	6.40E+00	0.544	118.98	2.795	39.53	0.135	57.61	0.173	-153.34
	6.50E+00	0.547	117.81	2.747	38.53	0.137	57.01	0.174	-156.59
	6.60E+00	0.553	116.54	2.703	37.78	0.139	56.67	0.176	-159.88
	6.70E+00	0.558	115.74	2.654	37.02	0.141	56.19	0.18	-163.35
	6.80E+00	0.566	114.68	2.611	35.94	0.143	55.62	0.184	-167.26
	6.90E+00	0.569	113.93	2.577	35.19	0.145	55.18	0.186	-170.63
	7.00E+00	0.572	113.02	2.528	34.45	0.147	54.99	0.188	-173.28
	7.10E+00	0.574	111.77	2.492	33.48	0.15	54.28	0.191	-175.67
	7.20E+00	0.581	110.68	2.453	32.79	0.151	53.71	0.195	-178.1
	7.30E+00	0.587	110.08	2.41	31.97	0.153	53.26	0.201	179.02
	7.40E+00	0.591	109.22	2.377	30.91	0.155	52.98	0.207	175.69
	7.50E+00	0.595	108.14	2.342	30.32	0.157	52.3	0.211	172.53
	7.60E+00	0.6	107.45	2.305	29.49	0.159	51.78	0.214	170.12
	7.70E+00	0.603	106.55	2.275	28.72	0.161	51.48	0.219	168.17
	7.80E+00	0.606	105.68	2.245	28.04	0.163	50.98	0.224	166.22
	7.90E+00	0.61	104.54	2.203	26.97	0.165	50.1	0.23	163.55
	8.00E+00	0.615	103.95	2.181	26.16	0.166	49.82	0.234	161.08
	8.10E+00	0.618	103.14	2.147	25.71	0.168	49.74	0.238	159.21
	8.20E+00	0.622	102.41	2.115	24.79	0.171	49.27	0.243	157.86
	8.30E+00	0.626	101.53	2.091	23.96	0.173	48.49	0.252	156.32
	8.40E+00	0.628	100.67	2.057	23.34	0.174	47.98	0.259	154.24
	8.50E+00	0.633	99.83	2.021	22.16	0.176	47.71	0.265	151.71
	8.60E+00	0.636	99.12	2.006	21.5	0.178	47.14	0.269	149.79
	8.70E+00	0.64	98.4	1.971	21.02	0.179	46.59	0.273	148.39
	8.80E+00	0.644	97.72	1.945	20.1	0.181	46.27	0.281	147.32
	8.90E+00	0.646	97.04	1.925	19.45	0.184	45.93	0.288	145.63
	9.00E+00	0.647	96.26	1.891	18.81	0.186	45.02	0.294	143.89
	9.10E+00	0.651	95.47	1.875	17.68	0.187	44.42	0.296	142.31
	9.20E+00	0.656	94.76	1.862	17.19	0.188	44.06	0.301	141.26
	9.30E+00	0.661	94.31	1.825	16.48	0.191	43.56	0.309	140.23
	9.40E+00	0.664	93.5	1.796	15.26	0.192	42.72	0.318	138.8
	9.50E+00	0.666	92.94	1.779	14.58	0.193	42.26	0.325	136.52
	9.60E+00	0.671	92.28	1.745	13.87	0.195	41.9	0.326	135.04
	9.70E+00	0.677	91.37	1.735	12.91	0.198	41.38	0.327	134.15
	9.80E+00	0.681	90.21	1.715	12.12	0.199	40.21	0.332	133.38
	9.90E+00	0.677	89.45	1.67	11.38	0.199	39.62	0.34	132.09
	1.00E+01	0.678	89.17	1.64	10.57	0.2	39.29	0.346	130.57
	1.01E+01	0.682	88.42	1.62	10.57	0.201	38.9	0.349	129.44
	1.02E+01	0.684	87.86	1.593	10.09	0.202	38.46	0.352	128.9
	1.03E+01	0.689	87.35	1.585	9.48	0.203	38.27	0.356	128.52
	1.04E+01	0.689	86.43	1.567	9.23	0.205	37.72	0.365	127.75
	1.05E+01	0.695	85.61	1.545	8.36	0.206	36.98	0.372	126.03
	1.06E+01	0.699	84.93	1.539	7.09	0.206	36.59	0.377	124.33
	1.07E+01	0.7	84.43	1.521	6.72	0.207	36.46	0.378	123.32
	1.08E+01	0.699	83.9	1.495	5.93	0.209	35.71	0.379	123.25
	1.09E+01	0.699	83.3	1.481	5.48	0.209	35.06	0.384	123.21
	1.10E+01	0.702	82.63	1.458	5	0.209	34.9	0.394	122.53
	1.11E+01	0.709	82.08	1.425	3.96	0.21	34.47	0.401	121.12
	1.12E+01	0.718	81.46	1.415	3.34	0.21	33.89	0.405	119.62
	1.13E+01	0.725	80.98	1.399	3.36	0.209	34.06	0.404	118.8
	1.14E+01	0.724	79.61	1.391	2.72	0.212	34.41	0.408	118.9
	1.15E+01	0.728	78.69	1.387	1.91	0.215	34.22	0.415	118.03
	1.16E+01	0.729	77.22	1.373	1.08	0.218	33.4	0.422	117.32
	1.17E+01	0.722	76.46	1.356	-0.25	0.219	32.72	0.423	115.95
	1.18E+01	0.73	75.82	1.345	-0.81	0.222	32.36	0.421	115.19
	1.19E+01	0.726	74.35	1.328	-1.47	0.225	31.6	0.422	115.31
	1.20E+01	0.715	73.51	1.314	-2.93	0.225	30.25	0.435	115.27
	1.21E+01	0.708	72.62	1.287	-3.86	0.225	29.7	0.442	113.62
	1.22E+01	0.706	72.39	1.265	-4.35	0.228	28.99	0.443	113.08
	1.23E+01	0.697	71.94	1.261	-5.95	0.228	27.01	0.45	112.52
	1.24E+01	0.693	71.59	1.23	-6.6	0.222	26.61	0.452	111.2
	1.25E+01	0.694	70.99	1.197	-7.03	0.22	26.12	0.458	111.19
	1.26E+01	0.695	71.06	1.168	-7.37	0.218	27.51	0.463	109.06
	1.27E+01	0.69	70.66	1.154	-7.61	0.221	27.38	0.46	107.95
	1.28E+01	0.687	69.79	1.128	-8.24	0.221	26.94	0.457	107.03
	1.29E+01	0.691	69.3	1.115	-8.45	0.221	27.14	0.453	107.08
	1.30E+01	0.69	69.25	1.106	-8.35	0.225	27.15	0.456	107.26
	1.31E+01	0.689	68.61	1.088	-9.04	0.226	26.2	0.461	107.44
	1.32E+01	0.685	68.12	1.08	-9.77	0.226	25.83	0.469	106.91
	1.33E+01	0.686	67.74	1.073	-9.83	0.227	25.87	0.471	105.3
	1.34E+01	0.682	67.18	1.06	-10.55	0.229	25.36	0.47	105.55
	1.35E+01	0.685	67.12	1.052	-10.96	0.229	25.01	0.475	104.95
	1.36E+01	0.68	66.6	1.038	-11.16	0.23	25.04	0.481	104.95
	1.37E+01	0.68	66.04	1.021	-12.03	0.232	24.91	0.484	104.1
	1.38E+01	0.683	65.24	1.014	-12.78	0.233	24.22	0.485	102.97
	1.39E+01	0.682	65.31	1.004	-13.07	0.233	23.93	0.481	102.13
	1.40E+01	0.679	64.64	0.991	-13.72	0.235	24.09	0.482	102.02
	1.41E+01	0.675	63.94	0.979	-14.37	0.236	23.46	0.486	101.98
	1.42E+01	0.676	63.32	0.96	-14.95	0.238	22.74	0.49	101.35
	1.43E+01	0.675	62.87	0.945	-15.97	0.238	22.8	0.494	100.64
	1.44E+01	0.676	62.61	0.943	-16.26	0.24	22.6	0.491	100.09
	1.45E+01	0.67	62.13	0.924	-16.54	0.244	21.83	0.492	99.93
	1.46E+01	0.668	61.36	0.911	-16.91	0.244	20.86	0.495	99.42
	1.47E+01	0.67	60.52	0.898	-17.17	0.242	20.93	0.495	98.46
	1.48E+01	0.67	60.7	0.882	-17.72	0.245	20.86	0.491	97.48
	1.49E+01	0.662	59.77	0.87	-18.79	0.249	20.09	0.491	97.61
	1.50E+01	0.663	59.22	0.868	-18.86	0.247	19.16	0.495	98.06
