! Filename: 15bfg410.001
! BFG410W Field B1
! V1=8.630E-001V,V2=1.000E+000V, I1=7.879E-005A, I2=5.010E-003A
# GHz   S   MA   R 50
!                S11              S21              S12              S22
!Freq(GHz)  Mag     Ang      Mag     Ang      Mag     Ang      Mag     Ang 
   0.040    0.775  -4.700   13.489 177.202    0.002  42.588    0.975  -1.160
   0.100    0.778  -5.525   13.224 173.814    0.003  88.079    0.976  -3.417
   0.200    0.770 -11.620   13.015 167.398    0.007  82.644    0.964  -7.624
   0.300    0.766 -17.916   12.895 161.842    0.010  77.948    0.959 -11.131
   0.400    0.741 -23.948   12.673 155.684    0.014  77.250    0.943 -14.949
   0.500    0.721 -29.425   12.406 150.035    0.017  71.296    0.925 -18.192
   0.600    0.699 -34.553   12.073 144.648    0.020  69.487    0.909 -21.560
   0.700    0.684 -40.307   11.698 139.314    0.022  66.843    0.887 -24.787
   0.800    0.661 -45.026   11.349 134.350    0.025  63.639    0.865 -27.710
   0.900    0.643 -49.819   10.989 129.462    0.028  60.888    0.844 -30.564
   1.000    0.614 -55.005   10.606 124.775    0.030  58.164    0.821 -33.242
   1.100    0.589 -59.565   10.241 120.344    0.031  55.837    0.800 -35.723
   1.200    0.568 -63.650    9.872 116.013    0.034  53.838    0.779 -38.187
   1.300    0.545 -67.907    9.511 111.942    0.035  52.569    0.758 -40.443
   1.400    0.527 -72.381    9.174 107.979    0.037  50.737    0.739 -42.535
   1.500    0.503 -76.405    8.844 104.145    0.038  49.217    0.720 -44.581
   1.600    0.482 -80.329    8.532 100.541    0.040  48.212    0.701 -46.515
   1.700    0.469 -84.505    8.236  96.964    0.041  46.994    0.684 -48.434
   1.800    0.443 -87.986    7.937  93.555    0.043  45.564    0.667 -50.254
   1.900    0.429 -91.516    7.661  90.330    0.045  44.224    0.651 -52.082
   2.000    0.415 -95.526    7.404  87.131    0.046  44.200    0.637 -53.846
   2.200    0.381 -102.790    6.923  81.019    0.048  41.158    0.607 -57.237
   2.400    0.355 -109.961    6.486  75.099    0.051  39.959    0.581 -60.515
   2.600    0.328 -118.020    6.093  69.520    0.055  38.130    0.555 -63.852
   2.800    0.310 -126.218    5.742  64.136    0.058  36.683    0.531 -67.036
   3.000    0.291 -133.405    5.423  58.931    0.061  34.793    0.508 -70.343
   3.500    0.255 -155.778    4.749  46.477    0.069  30.371    0.453 -78.562
   4.000    0.235 -177.151    4.202  34.481    0.077  25.029    0.399 -87.142
   4.500    0.236 159.358    3.763  23.073    0.087  19.017    0.347 -96.602
   5.000    0.258 138.889    3.381  11.704    0.096  12.433    0.290 -106.701
   5.500    0.289 117.650    3.028   0.249    0.102   4.795    0.224 -117.961
   6.000    0.325 103.425    2.770 -10.007    0.113  -1.553    0.181 -132.565
   6.500    0.357  89.134    2.491 -20.490    0.119  -8.237    0.124 -149.684
   7.000    0.343  81.033    2.261 -25.968    0.124  -3.894    0.114 -140.274
   7.500    0.433  72.531    2.146 -39.084    0.143 -18.536    0.096 153.026
   8.000    0.491  62.551    1.985 -50.338    0.153 -28.631    0.129 107.968
   8.500    0.554  52.098    1.792 -62.112    0.156 -40.354    0.189  74.263
   9.000    0.596  42.461    1.616 -72.535    0.158 -49.953    0.246  56.321
   9.500    0.629  32.784    1.437 -82.614    0.154 -59.663    0.305  40.846
  10.000    0.675  25.844    1.322 -93.467    0.161 -68.879    0.376  31.102
  10.500    0.708  17.805    1.181 -103.929    0.159 -78.949    0.436  20.455
  11.000    0.742   9.848    1.040 -114.643    0.155 -91.433    0.502   9.715
  11.500    0.764   0.865    0.895 -125.372    0.144 -102.185    0.558  -0.468
  12.000    0.765  -6.660    0.765 -135.515    0.133 -115.132    0.612 -10.646
!     DEEMBEDDED NOISE DATA
!FREQUENCY    FMIN    GAMMA OPT        Rn
!  (GHz)      (dB)    Mag    Ang   (NORMALIZED)
