! Filename: 32bfg403.001
! BFG403W Field A1
! V1=8.628E-001V,V2=3.000E+000V, I1=2.637E-005A, I2=2.000E-003A
# GHz   S   MA   R 50
!                S11              S21              S12              S22
!Freq(GHz)  Mag     Ang      Mag     Ang      Mag     Ang      Mag     Ang 
   0.040    0.920  -0.621    5.477 176.930    0.001  25.853    0.995  -0.667
   0.100    0.922  -2.722    5.363 175.565    0.001  93.555    0.995  -1.893
   0.200    0.920  -5.545    5.340 172.108    0.003  85.775    0.994  -3.933
   0.300    0.916  -8.262    5.323 169.201    0.004  84.557    0.993  -5.914
   0.400    0.913 -10.701    5.319 165.208    0.005  81.494    0.990  -7.940
   0.500    0.906 -13.875    5.306 161.437    0.007  78.733    0.987  -9.854
   0.600    0.900 -16.505    5.255 157.940    0.008  77.197    0.984 -11.776
   0.700    0.893 -19.096    5.200 154.534    0.009  75.657    0.979 -13.775
   0.800    0.884 -21.865    5.161 151.047    0.010  73.877    0.975 -15.642
   0.900    0.875 -24.413    5.119 147.632    0.011  72.008    0.970 -17.588
   1.000    0.864 -27.059    5.074 144.115    0.012  70.443    0.964 -19.464
   1.100    0.853 -29.573    5.020 140.780    0.014  68.615    0.958 -21.295
   1.200    0.842 -32.149    4.966 137.405    0.015  67.127    0.952 -23.164
   1.300    0.830 -34.646    4.901 134.154    0.016  65.716    0.945 -24.977
   1.400    0.818 -37.030    4.848 130.888    0.017  64.282    0.938 -26.752
   1.500    0.803 -39.506    4.788 127.678    0.017  62.746    0.931 -28.507
   1.600    0.790 -41.948    4.730 124.454    0.018  61.693    0.924 -30.230
   1.700    0.775 -44.339    4.667 121.336    0.019  60.241    0.917 -31.958
   1.800    0.762 -46.679    4.594 118.202    0.020  58.938    0.909 -33.682
   1.900    0.749 -48.912    4.525 115.265    0.021  58.035    0.902 -35.369
   2.000    0.735 -51.175    4.451 112.288    0.022  57.064    0.894 -37.048
   2.200    0.706 -55.622    4.319 106.435    0.023  55.231    0.878 -40.342
   2.400    0.677 -59.988    4.188 100.742    0.024  53.694    0.862 -43.572
   2.600    0.649 -64.275    4.054  95.289    0.026  52.442    0.845 -46.737
   2.800    0.622 -68.547    3.927  89.919    0.027  51.273    0.829 -49.862
   3.000    0.595 -72.682    3.809  84.717    0.029  50.325    0.812 -52.994
   3.500    0.529 -83.365    3.535  72.057    0.033  48.234    0.770 -60.663
   4.000    0.471 -94.373    3.291  59.872    0.037  46.250    0.726 -68.343
   4.500    0.420 -106.527    3.087  48.170    0.044  43.440    0.681 -76.212
   5.000    0.372 -120.093    2.904  36.416    0.050  39.306    0.630 -84.275
   5.500    0.328 -135.210    2.719  24.544    0.055  34.342    0.573 -92.195
   6.000    0.304 -153.540    2.590  12.429    0.065  26.577    0.515 -102.342
   6.500    0.284 -167.994    2.423   2.084    0.073  26.422    0.471 -110.113
   7.000    0.230 173.988    2.140  -9.134    0.064  25.942    0.382 -112.325
   7.500    0.292 156.103    2.184 -20.271    0.099  15.529    0.370 -132.660
   8.000    0.323 133.891    2.077 -33.956    0.112   1.354    0.296 -153.835
   8.500    0.346 113.987    1.903 -47.040    0.117 -10.400    0.217 -177.200
   9.000    0.385  97.220    1.771 -59.675    0.129 -21.185    0.191 151.111
   9.500    0.422  80.271    1.607 -72.667    0.134 -35.143    0.199 111.485
  10.000    0.458  65.498    1.455 -86.208    0.137 -48.241    0.254  78.729
  10.500    0.490  50.901    1.280 -99.726    0.136 -63.099    0.325  54.546
  11.000    0.506  37.214    1.096 -112.139    0.128 -77.860    0.394  35.412
  11.500    0.527  25.110    0.937 -124.601    0.119 -92.266    0.464  20.403
  12.000    0.532  12.496    0.769 -135.951    0.101 -109.715    0.518   5.844
!     DEEMBEDDED NOISE DATA
!FREQUENCY    FMIN    GAMMA OPT        Rn
!  (GHz)      (dB)    Mag    Ang   (NORMALIZED)
