! Filename: 18bfg410.001
! BFG410W Field B1
! V1=8.777E-001V,V2=1.000E+000V, I1=1.299E-004A, I2=7.990E-003A
# GHz   S   MA   R 50
!                S11              S21              S12              S22
!Freq(GHz)  Mag     Ang      Mag     Ang      Mag     Ang      Mag     Ang 
   0.040    0.671  -3.180   18.036 176.791    0.001  62.444    0.963  -1.052
   0.100    0.675  -7.560   17.795 172.551    0.004  86.704    0.963  -3.818
   0.200    0.664 -14.878   17.379 164.680    0.007  80.618    0.947  -8.721
   0.300    0.648 -22.074   17.044 157.874    0.010  77.676    0.934 -12.765
   0.400    0.626 -28.883   16.547 150.727    0.013  74.017    0.913 -16.950
   0.500    0.603 -35.903   15.944 144.249    0.016  70.328    0.887 -20.418
   0.600    0.578 -42.167   15.313 138.091    0.018  67.446    0.864 -23.830
   0.700    0.552 -48.125   14.598 132.314    0.020  64.572    0.835 -27.060
   0.800    0.526 -53.980   13.943 126.859    0.023  62.315    0.809 -29.824
   0.900    0.499 -59.229   13.301 121.680    0.025  60.347    0.784 -32.516
   1.000    0.473 -64.349   12.643 116.850    0.026  58.400    0.758 -34.937
   1.100    0.449 -69.192   12.044 112.389    0.028  56.854    0.736 -37.144
   1.200    0.427 -73.872   11.469 108.053    0.030  55.521    0.714 -39.311
   1.300    0.405 -78.353   10.919 104.028    0.031  54.281    0.692 -41.240
   1.400    0.386 -82.613   10.428 100.227    0.033  53.240    0.673 -43.032
   1.500    0.367 -86.981    9.952  96.532    0.035  52.218    0.655 -44.770
   1.600    0.349 -91.265    9.517  93.050    0.036  51.288    0.638 -46.447
   1.700    0.332 -95.297    9.109  89.695    0.037  50.449    0.623 -48.095
   1.800    0.318 -99.313    8.726  86.461    0.039  49.626    0.608 -49.685
   1.900    0.304 -103.254    8.373  83.387    0.041  48.825    0.594 -51.283
   2.000    0.291 -107.237    8.039  80.383    0.042  48.102    0.581 -52.854
   2.200    0.268 -115.290    7.446  74.630    0.045  46.590    0.556 -55.938
   2.400    0.248 -123.504    6.926  69.132    0.048  45.108    0.533 -58.974
   2.600    0.231 -132.065    6.461  63.832    0.052  43.474    0.511 -62.073
   2.800    0.218 -140.870    6.053  58.784    0.055  41.827    0.491 -65.106
   3.000    0.207 -150.008    5.692  53.856    0.059  40.030    0.471 -68.271
   3.500    0.193 -174.089    4.939  42.075    0.068  35.001    0.422 -76.332
   4.000    0.197 161.969    4.347  30.699    0.078  29.341    0.372 -84.806
   4.500    0.219 141.141    3.874  19.721    0.088  22.802    0.323 -94.259
   5.000    0.249 122.402    3.466   8.831    0.097  15.790    0.268 -104.335
   5.500    0.289 105.493    3.100  -2.237    0.104   7.723    0.203 -115.286
   6.000    0.328  94.339    2.833 -12.161    0.116   0.987    0.160 -130.480
   6.500    0.367  81.823    2.545 -22.342    0.121  -6.196    0.104 -148.387
   7.000    0.350  73.251    2.308 -27.608    0.128  -3.067    0.098 -136.893
   7.500    0.439  66.708    2.191 -40.521    0.146 -17.495    0.082 145.074
   8.000    0.499  57.771    2.024 -51.578    0.156 -27.667    0.125  99.936
   8.500    0.555  47.927    1.825 -63.152    0.159 -39.457    0.192  69.068
   9.000    0.599  39.109    1.649 -73.268    0.161 -48.957    0.251  52.619
   9.500    0.631  30.319    1.468 -83.166    0.156 -58.318    0.310  38.011
  10.000    0.676  23.729    1.347 -93.912    0.163 -67.980    0.380  28.937
  10.500    0.711  15.857    1.205 -104.213    0.161 -77.956    0.440  18.647
  11.000    0.743   7.760    1.063 -114.956    0.157 -90.162    0.506   8.260
  11.500    0.760  -0.210    0.920 -125.102    0.146 -100.936    0.562  -1.713
  12.000    0.773  -8.351    0.784 -135.367    0.136 -113.508    0.615 -11.661
!     DEEMBEDDED NOISE DATA
!FREQUENCY    FMIN    GAMMA OPT        Rn
!  (GHz)      (dB)    Mag    Ang   (NORMALIZED)
