! Filename: 3_660BFG480.001
! Title: BFG480W
! Bias: Vce=3.6V; Ic=60mA
! Company: Philips Semiconductors NL
! User: Quality&Reliability T&D
! Measure time: 10 Nov 1999 / 12:00:10
#  MHz  S  MA  R 50
! Freq       S11             S21             S12             S22    :
  100  0.33933 -140.3 50.25668 149.38 0.007203 67.812  0.80305 -38.78
  200  0.50338 -150.2 39.35737 128.76 0.011354 57.670  0.65635 -68.22
  300  0.57944 -158.4 30.63274 116.05 0.013865 54.716  0.55310 -88.31
  400  0.61807 -164.1 24.54833 107.54 0.015737 55.126  0.49286 -102.6
  500  0.64067 -168.3 20.32867 101.34 0.017429 56.593  0.45734 -113.2
  600  0.65474 -171.6 17.21828 96.562 0.019163 58.583  0.43523 -121.2
  700  0.66439 -174.4 14.90842 92.722 0.020968 60.627  0.42029 -127.5
  800  0.67226 -176.9 13.09441 89.423 0.022873 62.582  0.41038 -132.8
  900  0.68001 -179.1 11.64038 86.619 0.024797 64.608  0.40459 -137.3
 1000  0.68824 178.89 10.47446 83.995 0.026952 66.149  0.40261 -141.4
 1200  0.70383 175.46  8.65353 79.071 0.031216 68.478  0.40698 -148.0
 1400  0.71550 172.90  7.33369 74.285 0.035496 70.128  0.41573 -153.0
 1600  0.72210 170.41  6.39709 70.385 0.040527 71.528  0.42145 -156.8
 1800  0.72208 167.69  5.68807 66.980 0.045928 72.587  0.42785 -160.7
 2000  0.73270 165.31  5.03598 64.001 0.050566 73.535  0.43842 -165.2
 2200  0.75224 163.05  4.49592 60.450 0.054916 73.826  0.45706 -169.1
 2400  0.76427 161.24  4.03186 56.757 0.059708 73.582  0.48132 -171.7
 2600  0.76470 159.53  3.68682 53.422 0.065691 73.149  0.50003 -173.3
 2800  0.76138 157.27  3.41935 49.030 0.070363 72.006  0.50890 -175.2
 3000  0.76634 154.57  3.17457 45.617 0.075695 71.376  0.51635 -178.2
