! Filename: 210bfg410.001
! BFG410W Field B1
! V1=8.768E-001V,V2=2.000E+000V, I1=1.561E-004A, I2=1.001E-002A
# GHz   S   MA   R 50
!                S11              S21              S12              S22
!Freq(GHz)  Mag     Ang      Mag     Ang      Mag     Ang      Mag     Ang 
   0.040    0.633  -2.753   20.546 176.174    0.001  58.954    0.975  -0.774
   0.100    0.639  -7.392   20.231 171.938    0.003  88.426    0.977  -3.386
   0.200    0.626 -14.846   19.747 163.998    0.005  81.492    0.962  -7.771
   0.300    0.610 -21.997   19.267 156.944    0.008  79.065    0.949 -11.380
   0.400    0.589 -28.912   18.633 149.651    0.010  75.176    0.929 -15.095
   0.500    0.562 -35.502   17.891 143.020    0.012  71.670    0.905 -18.060
   0.600    0.537 -41.679   17.099 136.848    0.014  69.469    0.884 -20.973
   0.700    0.511 -47.446   16.243 130.994    0.016  66.820    0.858 -23.770
   0.800    0.484 -53.026   15.448 125.516    0.017  65.012    0.835 -26.108
   0.900    0.457 -57.967   14.677 120.396    0.019  63.481    0.813 -28.388
   1.000    0.432 -62.742   13.909 115.629    0.020  62.011    0.791 -30.433
   1.100    0.409 -67.226   13.208 111.224    0.022  60.787    0.772 -32.295
   1.200    0.387 -71.526   12.545 106.970    0.023  59.821    0.753 -34.147
   1.300    0.367 -75.601   11.919 103.035    0.024  58.966    0.735 -35.788
   1.400    0.348 -79.578   11.355  99.344    0.026  58.182    0.719 -37.353
   1.500    0.329 -83.558   10.820  95.765    0.027  57.508    0.705 -38.876
   1.600    0.313 -87.337   10.334  92.369    0.028  56.916    0.691 -40.358
   1.700    0.297 -91.101    9.876  89.108    0.030  56.246    0.679 -41.830
   1.800    0.283 -94.707    9.452  85.987    0.031  55.724    0.667 -43.279
   1.900    0.269 -98.235    9.062  83.008    0.032  55.074    0.656 -44.750
   2.000    0.257 -101.880    8.698  80.082    0.034  54.551    0.645 -46.205
   2.200    0.234 -109.215    8.045  74.541    0.037  53.336    0.625 -49.086
   2.400    0.214 -116.987    7.477  69.192    0.040  52.164    0.606 -51.967
   2.600    0.198 -124.872    6.976  64.122    0.043  50.758    0.588 -54.906
   2.800    0.184 -133.438    6.533  59.187    0.046  49.256    0.571 -57.817
   3.000    0.172 -142.471    6.143  54.411    0.049  47.572    0.554 -60.842
   3.500    0.155 -167.271    5.336  42.953    0.058  42.862    0.511 -68.541
   4.000    0.156 166.844    4.703  31.875    0.067  37.319    0.466 -76.508
   4.500    0.176 144.199    4.203  21.140    0.077  30.823    0.419 -85.191
   5.000    0.207 124.256    3.771  10.440    0.087  23.840    0.366 -94.022
   5.500    0.247 106.496    3.383  -0.509    0.094  15.766    0.301 -102.915
   6.000    0.286  95.738    3.102 -10.284    0.106   9.083    0.257 -114.006
   6.500    0.327  83.008    2.796 -20.357    0.112   1.741    0.195 -123.781
   7.000    0.308  74.063    2.531 -25.494    0.119   5.602    0.199 -119.753
   7.500    0.400  68.932    2.425 -38.423    0.138  -9.353    0.132 -158.158
   8.000    0.464  60.107    2.249 -49.566    0.149 -19.879    0.105 155.537
   8.500    0.527  50.134    2.037 -61.422    0.154 -32.151    0.124  97.062
   9.000    0.575  41.310    1.844 -71.791    0.156 -42.011    0.177  68.101
   9.500    0.612  32.243    1.643 -81.937    0.153 -51.808    0.237  47.007
  10.000    0.661  25.598    1.510 -92.957    0.160 -61.878    0.314  36.162
  10.500    0.700  17.599    1.352 -103.566    0.159 -72.312    0.382  24.110
  11.000    0.737   9.160    1.189 -114.636    0.155 -85.188    0.456  12.228
  11.500    0.755   0.728    1.024 -125.123    0.145 -96.627    0.519   1.266
  12.000    0.770  -7.636    0.868 -135.587    0.134 -109.822    0.580  -9.604
!     DEEMBEDDED NOISE DATA
!FREQUENCY    FMIN    GAMMA OPT        Rn
!  (GHz)      (dB)    Mag    Ang   (NORMALIZED)
