! Filename: 312bfg410.001
! BFG410W Field B1
! V1=8.725E-001V,V2=3.000E+000V, I1=1.809E-004A, I2=1.202E-002A
# GHz   S   MA   R 50
!                S11              S21              S12              S22
!Freq(GHz)  Mag     Ang      Mag     Ang      Mag     Ang      Mag     Ang 
   0.040    0.605  -2.700   22.408 175.436    0.001  87.444    0.973  -0.706
   0.100    0.608  -7.489   21.998 171.240    0.002  86.886    0.975  -3.372
   0.200    0.596 -15.185   21.472 163.242    0.005  80.925    0.962  -7.602
   0.300    0.579 -22.499   20.859 155.996    0.007  78.056    0.948 -11.188
   0.400    0.556 -29.542   20.096 148.580    0.009  75.149    0.927 -14.709
   0.500    0.530 -36.225   19.219 141.604    0.011  71.750    0.903 -17.671
   0.600    0.504 -42.298   18.275 135.344    0.013  69.894    0.880 -20.425
   0.700    0.477 -48.025   17.299 129.523    0.014  67.595    0.855 -22.976
   0.800    0.449 -53.446   16.380 123.995    0.016  66.052    0.833 -25.171
   0.900    0.423 -58.208   15.504 118.914    0.017  64.718    0.811 -27.271
   1.000    0.399 -62.835   14.651 114.184    0.019  63.432    0.791 -29.166
   1.100    0.376 -67.125   13.871 109.809    0.020  62.493    0.772 -30.907
   1.200    0.355 -71.236   13.140 105.645    0.021  61.724    0.755 -32.625
   1.300    0.336 -75.088   12.459 101.779    0.022  60.992    0.739 -34.159
   1.400    0.318 -78.911   11.845  98.150    0.024  60.386    0.724 -35.629
   1.500    0.300 -82.735   11.270  94.642    0.025  59.700    0.711 -37.052
   1.600    0.284 -86.269   10.743  91.344    0.026  59.169    0.699 -38.470
   1.700    0.269 -89.813   10.255  88.152    0.028  58.622    0.688 -39.877
   1.800    0.255 -93.332    9.806  85.100    0.029  58.057    0.677 -41.264
   1.900    0.243 -96.606    9.392  82.187    0.030  57.590    0.667 -42.700
   2.000    0.231 -100.158    9.007  79.330    0.032  57.046    0.657 -44.116
   2.200    0.210 -107.196    8.321  73.910    0.035  55.817    0.639 -46.920
   2.400    0.191 -114.716    7.726  68.706    0.037  54.681    0.622 -49.725
   2.600    0.175 -122.589    7.204  63.729    0.041  53.257    0.605 -52.623
   2.800    0.162 -131.023    6.747  58.939    0.044  51.745    0.589 -55.485
   3.000    0.150 -140.034    6.341  54.208    0.047  50.089    0.573 -58.455
   3.500    0.134 -165.808    5.506  42.971    0.056  45.312    0.533 -66.022
   4.000    0.136 166.897    4.854  32.083    0.065  39.722    0.490 -73.823
   4.500    0.157 143.213    4.340  21.497    0.075  33.261    0.445 -82.292
   5.000    0.188 123.121    3.898  10.939    0.084  26.273    0.393 -90.834
   5.500    0.229 105.466    3.500   0.070    0.091  18.173    0.329 -99.326
   6.000    0.269  95.119    3.214  -9.599    0.103  11.523    0.285 -109.712
   6.500    0.310  82.528    2.901 -19.603    0.109   4.125    0.223 -118.493
   7.000    0.290  73.595    2.626 -24.625    0.116   8.203    0.230 -115.488
   7.500    0.384  69.228    2.524 -37.521    0.136  -6.859    0.157 -148.117
   8.000    0.448  60.590    2.346 -48.665    0.147 -17.438    0.114 173.052
   8.500    0.514  50.748    2.128 -60.579    0.152 -29.851    0.107 110.338
   9.000    0.563  41.930    1.929 -70.992    0.155 -39.772    0.153  74.270
   9.500    0.602  32.690    1.720 -81.222    0.152 -49.706    0.213  49.833
  10.000    0.654  26.127    1.582 -92.314    0.159 -59.927    0.292  38.288
  10.500    0.693  18.038    1.416 -103.011    0.159 -70.451    0.362  25.665
  11.000    0.732   9.503    1.245 -114.181    0.155 -83.516    0.439  13.325
  11.500    0.752   1.016    1.072 -124.776    0.145 -95.190    0.505   2.006
  12.000    0.769  -7.470    0.908 -135.283    0.134 -108.509    0.567  -9.131
!     DEEMBEDDED NOISE DATA
!FREQUENCY    FMIN    GAMMA OPT        Rn
!  (GHz)      (dB)    Mag    Ang   (NORMALIZED)
