! Filename: 217bfg425.001
! BFG425W Field C1
! V1=8.592E-001V,V2=2.000E+000V, I1=2.449E-004A, I2=1.748E-002A
# GHz   S   MA   R 50
!                S11              S21              S12              S22
!Freq(GHz)  Mag     Ang      Mag     Ang      Mag     Ang      Mag     Ang 
   0.040    0.455  -7.199   33.519 173.889    0.002  78.106    0.942  -3.074
   0.100    0.454 -17.886   32.655 166.149    0.005  83.562    0.934  -8.739
   0.200    0.433 -35.030   30.803 153.489    0.009  75.941    0.891 -17.413
   0.300    0.405 -50.457   28.377 142.618    0.013  71.484    0.833 -24.662
   0.400    0.375 -64.738   25.795 132.959    0.016  66.990    0.771 -30.485
   0.500    0.349 -77.761   23.329 124.388    0.019  64.032    0.713 -35.142
   0.600    0.326 -88.893   21.068 117.378    0.022  62.054    0.661 -38.828
   0.700    0.307 -98.994   19.101 111.343    0.024  60.277    0.616 -41.792
   0.800    0.291 -108.292   17.390 105.830    0.026  59.190    0.577 -44.249
   0.900    0.279 -116.558   15.922 101.000    0.028  58.175    0.544 -46.442
   1.000    0.268 -124.308   14.638  96.615    0.031  57.441    0.516 -48.368
   1.100    0.261 -131.279   13.531  92.590    0.033  56.657    0.492 -50.148
   1.200    0.255 -137.777   12.565  88.845    0.035  56.091    0.471 -51.848
   1.300    0.251 -143.942   11.709  85.365    0.037  55.367    0.451 -53.412
   1.400    0.248 -149.691   10.961  82.118    0.039  54.717    0.434 -54.906
   1.500    0.246 -155.319   10.293  78.995    0.041  53.975    0.418 -56.352
   1.600    0.244 -160.548    9.701  76.003    0.044  53.254    0.404 -57.856
   1.700    0.244 -165.471    9.165  73.147    0.046  52.486    0.392 -59.356
   1.800    0.244 -170.205    8.686  70.382    0.048  51.660    0.379 -60.851
   1.900    0.245 -174.619    8.249  67.699    0.051  50.764    0.368 -62.461
   2.000    0.246 -178.864    7.855  65.083    0.053  49.795    0.357 -64.086
   2.200    0.250 173.123    7.161  60.052    0.058  47.834    0.337 -67.359
   2.400    0.256 165.415    6.577  55.174    0.062  45.769    0.317 -70.698
   2.600    0.264 158.364    6.072  50.417    0.067  43.524    0.298 -74.234
   2.800    0.272 151.594    5.636  45.857    0.072  41.098    0.280 -77.860
   3.000    0.282 145.336    5.255  41.356    0.077  38.614    0.262 -81.742
   3.500    0.311 130.955    4.483  30.438    0.089  31.912    0.216 -92.330
   4.000    0.345 118.052    3.888  19.765    0.101  24.712    0.169 -105.184
   4.500    0.381 106.697    3.421   9.430    0.113  17.157    0.124 -122.795
   5.000    0.423  95.566    3.026  -1.217    0.122   8.690    0.082 -155.268
   5.500    0.455  84.761    2.672 -10.895    0.130   1.541    0.060 156.609
   6.000    0.499  74.957    2.386 -21.289    0.137  -7.322    0.094 106.078
   6.500    0.509  68.327    2.190 -28.352    0.150 -10.750    0.110  96.808
   7.000    0.545  61.050    2.021 -37.630    0.163 -18.456    0.162  85.317
   7.500    0.604  51.927    1.817 -49.140    0.166 -30.251    0.244  67.782
   8.000    0.639  44.537    1.661 -58.496    0.172 -38.129    0.298  58.403
   8.500    0.678  36.725    1.503 -68.449    0.175 -47.548    0.360  48.275
   9.000    0.705  28.746    1.343 -77.353    0.172 -55.774    0.410  38.176
   9.500    0.732  21.564    1.217 -85.917    0.171 -64.040    0.448  29.877
  10.000    0.761  14.777    1.110 -95.746    0.172 -73.374    0.504  23.250
  10.500    0.782   7.894    1.000 -105.144    0.170 -82.434    0.553  15.511
  11.000    0.799   0.719    0.886 -113.980    0.164 -91.965    0.592   6.883
  11.500    0.812  -6.336    0.792 -123.233    0.157 -101.658    0.630  -0.132
  12.000    0.818 -13.401    0.690 -132.235    0.148 -111.897    0.667  -8.207
!     DEEMBEDDED NOISE DATA
!FREQUENCY    FMIN    GAMMA OPT        Rn
!  (GHz)      (dB)    Mag    Ang   (NORMALIZED)
