! Filename: 212bfg410.001
! BFG410W Field B1
! V1=8.820E-001V,V2=2.000E+000V, I1=1.910E-004A, I2=1.201E-002A
# GHz   S   MA   R 50
!                S11              S21              S12              S22
!Freq(GHz)  Mag     Ang      Mag     Ang      Mag     Ang      Mag     Ang 
   0.040    0.585  -3.163   22.361 176.016    0.001  73.329    0.970  -0.676
   0.100    0.588  -8.168   22.038 171.415    0.003  88.972    0.972  -3.481
   0.200    0.576 -16.158   21.462 162.927    0.005  81.180    0.956  -8.069
   0.300    0.558 -23.900   20.845 155.431    0.007  78.009    0.941 -11.823
   0.400    0.535 -31.242   20.041 147.758    0.010  75.019    0.919 -15.568
   0.500    0.507 -38.392   19.102 140.770    0.012  71.255    0.892 -18.567
   0.600    0.481 -44.849   18.134 134.383    0.013  69.189    0.868 -21.426
   0.700    0.454 -50.792   17.120 128.400    0.015  67.013    0.842 -24.123
   0.800    0.428 -56.547   16.176 122.852    0.017  65.444    0.817 -26.357
   0.900    0.402 -61.627   15.283 117.715    0.018  64.132    0.795 -28.516
   1.000    0.378 -66.534   14.409 112.980    0.020  62.878    0.773 -30.453
   1.100    0.356 -71.118   13.623 108.609    0.021  61.820    0.754 -32.211
   1.200    0.335 -75.561   12.891 104.401    0.022  61.054    0.736 -33.961
   1.300    0.317 -79.671   12.204 100.539    0.024  60.333    0.719 -35.505
   1.400    0.300 -83.728   11.592  96.919    0.025  59.692    0.704 -36.993
   1.500    0.283 -87.944   11.016  93.412    0.026  59.052    0.690 -38.443
   1.600    0.268 -91.875   10.495  90.100    0.028  58.519    0.678 -39.872
   1.700    0.254 -95.728   10.011  86.914    0.029  58.033    0.666 -41.299
   1.800    0.241 -99.638    9.565  83.861    0.030  57.489    0.655 -42.715
   1.900    0.229 -103.334    9.154  80.942    0.032  56.915    0.644 -44.152
   2.000    0.219 -107.229    8.775  78.092    0.033  56.349    0.635 -45.587
   2.200    0.200 -115.167    8.098  72.650    0.036  55.124    0.616 -48.430
   2.400    0.183 -123.366    7.512  67.442    0.039  53.919    0.598 -51.291
   2.600    0.169 -132.360    6.997  62.472    0.042  52.401    0.581 -54.232
   2.800    0.158 -141.646    6.547  57.657    0.046  50.774    0.564 -57.140
   3.000    0.150 -151.350    6.147  52.932    0.049  49.102    0.548 -60.166
   3.500    0.143 -177.623    5.327  41.664    0.058  44.100    0.506 -67.888
   4.000    0.152 156.949    4.689  30.726    0.068  38.389    0.462 -75.864
   4.500    0.178 136.212    4.184  20.105    0.078  31.735    0.416 -84.545
   5.000    0.212 118.248    3.752   9.519    0.087  24.640    0.363 -93.360
   5.500    0.254 102.053    3.363  -1.330    0.094  16.484    0.299 -102.170
   6.000    0.294  92.163    3.082 -11.031    0.106   9.663    0.254 -113.240
   6.500    0.336  80.290    2.778 -21.023    0.112   2.241    0.193 -122.874
   7.000    0.318  71.722    2.518 -26.146    0.120   5.856    0.197 -118.961
   7.500    0.408  66.851    2.408 -38.968    0.139  -9.120    0.129 -157.533
   8.000    0.470  58.356    2.231 -50.048    0.150 -19.608    0.101 155.075
   8.500    0.533  48.726    2.020 -61.813    0.154 -31.851    0.122  95.658
   9.000    0.580  40.075    1.829 -72.107    0.157 -41.685    0.176  67.081
   9.500    0.616  31.217    1.631 -82.227    0.153 -51.443    0.237  46.319
  10.000    0.665  24.714    1.499 -93.172    0.160 -61.510    0.314  35.678
  10.500    0.703  16.819    1.342 -103.724    0.160 -71.937    0.382  23.766
  11.000    0.739   8.534    1.182 -114.747    0.156 -84.713    0.456  12.000
  11.500    0.759   0.247    1.019 -125.178    0.145 -96.132    0.519   1.100
  12.000    0.773  -8.097    0.865 -135.634    0.135 -109.169    0.579  -9.711
!     DEEMBEDDED NOISE DATA
!FREQUENCY    FMIN    GAMMA OPT        Rn
!  (GHz)      (dB)    Mag    Ang   (NORMALIZED)
