! Filename: 23bfg410.001
! BFG410W Field B1
! V1=8.442E-001V,V2=2.000E+000V, I1=4.328E-005A, I2=3.000E-003A
# GHz   S   MA   R 50
!                S11              S21              S12              S22
!Freq(GHz)  Mag     Ang      Mag     Ang      Mag     Ang      Mag     Ang 
   0.040    0.854  -1.824    9.123 177.591    0.001  50.157    0.996  -0.724
   0.100    0.865  -4.535    8.958 175.125    0.003  90.314    0.995  -2.498
   0.200    0.861  -9.085    8.837 169.941    0.006  83.506    0.984  -5.860
   0.300    0.855 -13.864    8.813 165.875    0.009  80.633    0.982  -8.506
   0.400    0.846 -18.117    8.765 160.599    0.012  78.418    0.975 -11.616
   0.500    0.835 -22.636    8.671 156.139    0.015  74.645    0.964 -14.076
   0.600    0.824 -27.013    8.549 151.638    0.017  71.993    0.957 -16.795
   0.700    0.811 -31.450    8.378 147.076    0.020  68.827    0.944 -19.671
   0.800    0.796 -35.790    8.252 142.823    0.023  66.455    0.932 -22.168
   0.900    0.780 -39.933    8.123 138.503    0.025  63.891    0.919 -24.769
   1.000    0.761 -44.136    7.959 134.225    0.027  61.450    0.904 -27.216
   1.100    0.744 -48.130    7.799 130.251    0.029  59.260    0.891 -29.492
   1.200    0.725 -52.121    7.634 126.173    0.031  57.081    0.876 -31.863
   1.300    0.707 -56.022    7.460 122.335    0.033  55.087    0.860 -34.056
   1.400    0.689 -59.850    7.304 118.542    0.035  53.035    0.846 -36.203
   1.500    0.669 -63.694    7.134 114.765    0.036  51.137    0.831 -38.308
   1.600    0.648 -67.554    6.972 111.110    0.038  49.466    0.816 -40.293
   1.700    0.630 -71.131    6.811 107.549    0.039  47.864    0.802 -42.301
   1.800    0.611 -74.705    6.635 104.043    0.041  46.271    0.787 -44.243
   1.900    0.595 -78.200    6.471 100.764    0.042  44.851    0.773 -46.128
   2.000    0.577 -81.653    6.305  97.475    0.043  43.532    0.759 -47.993
   2.200    0.542 -88.615    6.001  91.070    0.046  41.016    0.732 -51.594
   2.400    0.510 -95.456    5.711  84.888    0.048  38.889    0.706 -55.045
   2.600    0.479 -102.205    5.437  78.993    0.050  36.871    0.681 -58.493
   2.800    0.450 -109.164    5.181  73.273    0.052  35.067    0.656 -61.797
   3.000    0.424 -116.125    4.944  67.729    0.055  33.328    0.632 -65.178
   3.500    0.366 -134.434    4.421  54.391    0.061  29.306    0.576 -73.399
   4.000    0.322 -154.333    3.974  41.595    0.067  25.085    0.521 -81.670
   4.500    0.299 -175.741    3.599  29.443    0.076  20.301    0.467 -90.497
   5.000    0.292 161.721    3.264  17.451    0.083  14.692    0.409 -99.643
   5.500    0.300 138.765    2.949   5.334    0.089   7.454    0.341 -109.290
   6.000    0.325 121.736    2.711  -5.482    0.100   2.547    0.294 -120.278
   6.500    0.352 104.174    2.447 -16.530    0.105  -3.878    0.231 -131.202
   7.000    0.330  93.967    2.210 -22.444    0.110   3.391    0.221 -128.097
   7.500    0.424  82.722    2.119 -35.877    0.131 -12.145    0.167 -163.065
   8.000    0.484  70.783    1.964 -47.562    0.143 -22.573    0.141 159.947
   8.500    0.541  58.691    1.778 -59.907    0.147 -35.058    0.144 110.770
   9.000    0.586  48.248    1.608 -70.792    0.150 -44.809    0.183  79.500
   9.500    0.620  38.124    1.426 -81.260    0.146 -54.698    0.236  56.018
  10.000    0.668  30.524    1.314 -92.584    0.154 -64.579    0.313  42.608
  10.500    0.705  21.713    1.172 -103.555    0.154 -75.054    0.380  29.341
  11.000    0.738  12.791    1.029 -115.088    0.150 -88.285    0.454  16.519
  11.500    0.754   4.193    0.884 -125.921    0.139 -100.013    0.518   4.944
  12.000    0.768  -4.474    0.749 -136.824    0.128 -113.774    0.580  -6.460
!     DEEMBEDDED NOISE DATA
!FREQUENCY    FMIN    GAMMA OPT        Rn
!  (GHz)      (dB)    Mag    Ang   (NORMALIZED)
