! Filename BFG424F_2V_15mA.prm
! Simulation_Values
! Created	by	janssen	on	nov	2006			
!	Column ranking S11, S21,S12,S22 both magnitude and phase.								
!	VCE	=	2	V,	IC	=	15	mA	
!	Common	Emitter	S-Parameters						
#	GHZ	S	MA	R	50				
	5.00E-01	0.456	-74.94	23.562	133.1	0.02	64.88	0.748	-32.24
	6.00E-01	0.436	-85.87	21.521	126.98	0.022	62.06	0.695	-35.78
	7.00E-01	0.417	-95.75	19.699	121.73	0.024	61.18	0.648	-38.6
	8.00E-01	0.402	-104.57	18.058	117.19	0.026	60.13	0.607	-40.84
	9.00E-01	0.393	-112.57	16.635	113.28	0.028	59.63	0.571	-42.76
	1.00E+00	0.383	-119.49	15.388	109.72	0.03	59.47	0.539	-44.32
	1.10E+00	0.377	-125.9	14.279	106.6	0.031	59.58	0.512	-45.7
	1.20E+00	0.37	-131.68	13.29	103.79	0.033	59.83	0.488	-46.91
	1.30E+00	0.366	-137.14	12.437	101.23	0.034	60.05	0.467	-48.02
	1.40E+00	0.364	-142.14	11.672	98.84	0.036	60.41	0.448	-49.08
	1.50E+00	0.363	-146.64	10.999	96.61	0.038	60.73	0.432	-50.06
	1.60E+00	0.36	-150.82	10.39	94.52	0.039	61.17	0.417	-51.1
	1.70E+00	0.359	-154.82	9.837	92.58	0.041	61.64	0.402	-52.09
	1.80E+00	0.359	-158.75	9.331	90.75	0.043	62.12	0.39	-53.04
	1.90E+00	0.361	-162.18	8.878	88.98	0.044	62.46	0.378	-54.03
	2.00E+00	0.363	-165.39	8.472	87.39	0.046	62.7	0.368	-55.03
	2.10E+00	0.363	-168.51	8.09	85.74	0.048	63.04	0.358	-56.2
	2.20E+00	0.365	-171.61	7.743	84.17	0.05	63.3	0.348	-57.33
	2.30E+00	0.368	-174.68	7.415	82.71	0.052	63.52	0.339	-58.47
	2.40E+00	0.372	-177.06	7.125	81.3	0.053	63.67	0.33	-59.63
	2.50E+00	0.375	-179.46	6.847	79.92	0.055	64.27	0.322	-60.89
	2.60E+00	0.376	177.94	6.597	78.49	0.057	64.04	0.314	-62.25
	2.70E+00	0.379	175.19	6.362	77.2	0.059	64.16	0.305	-63.7
	2.80E+00	0.384	173.06	6.139	75.92	0.061	64.26	0.298	-64.96
	2.90E+00	0.388	170.94	5.929	74.69	0.063	64.4	0.29	-66.47
	3.00E+00	0.392	168.92	5.735	73.46	0.065	64.49	0.283	-67.9
	3.10E+00	0.395	166.63	5.558	72.21	0.067	64.25	0.276	-69.57
	3.20E+00	0.398	164.62	5.386	71.03	0.069	64.27	0.269	-71.14
	3.30E+00	0.404	162.57	5.22	69.89	0.071	64.47	0.263	-72.81
	3.40E+00	0.41	160.85	5.065	68.68	0.073	64.16	0.256	-74.67
	3.50E+00	0.413	159.16	4.917	67.62	0.075	64.03	0.25	-76.6
	3.60E+00	0.416	157.06	4.78	66.47	0.077	64.1	0.244	-78.68
	3.70E+00	0.422	155.23	4.658	65.35	0.079	63.73	0.237	-80.78
	3.80E+00	0.428	153.63	4.532	64.31	0.082	63.83	0.231	-82.86
	3.90E+00	0.432	152.03	4.418	63.24	0.084	63.71	0.225	-84.94
	4.00E+00	0.437	150.38	4.305	62.13	0.086	63.42	0.219	-87.28
	4.10E+00	0.44	148.65	4.197	61.15	0.088	63.18	0.214	-89.69
	4.20E+00	0.446	146.89	4.095	60.05	0.09	62.94	0.209	-92.33
	4.30E+00	0.453	145.44	4.002	59.11	0.092	62.7	0.203	-94.75
	4.40E+00	0.459	144.19	3.909	58	0.094	62.56	0.198	-97.28
	4.50E+00	0.461	142.85	3.819	56.98	0.097	62.29	0.194	-99.99
	4.60E+00	0.465	141.14	3.733	56.07	0.099	61.84	0.19	-103.06
	4.70E+00	0.471	139.44	3.649	55.04	0.101	61.5	0.187	-106.18
	4.80E+00	0.479	138.31	3.578	53.94	0.103	61.29	0.183	-109.49
	4.90E+00	0.483	137.12	3.502	53.08	0.106	60.82	0.179	-112.74
	5.00E+00	0.487	135.99	3.426	52.1	0.108	60.45	0.175	-115.92
	5.10E+00	0.491	134.37	3.361	51	0.11	60.22	0.172	-119.12
	5.20E+00	0.497	132.88	3.292	50.16	0.112	59.92	0.171	-122.49
	5.30E+00	0.505	131.89	3.223	49.2	0.115	59.31	0.169	-126.28
	5.40E+00	0.509	130.73	3.168	48.18	0.116	58.9	0.166	-130.03
	5.50E+00	0.513	129.51	3.103	47.36	0.118	58.65	0.165	-133.62
	5.60E+00	0.518	128.15	3.036	46.32	0.121	58.24	0.164	-137.27
	5.70E+00	0.524	127.02	2.988	45.41	0.123	57.76	0.165	-140.85
	5.80E+00	0.531	125.9	2.931	44.65	0.125	57.41	0.166	-144.74
	5.90E+00	0.535	124.87	2.874	43.53	0.127	57.05	0.166	-148.58
	6.00E+00	0.538	123.73	2.831	42.75	0.129	56.51	0.166	-152.35
	6.10E+00	0.542	122.39	2.777	41.96	0.131	56.02	0.168	-155.89
	6.20E+00	0.548	121.14	2.721	40.84	0.133	55.73	0.17	-159.46
	6.30E+00	0.557	120.34	2.683	39.93	0.135	55.43	0.173	-163.18
	6.40E+00	0.558	119.32	2.632	39.17	0.137	54.97	0.176	-166.47
	6.50E+00	0.562	118.14	2.587	38.18	0.139	54.43	0.178	-169.71
	6.60E+00	0.567	116.97	2.545	37.44	0.141	54.13	0.181	-172.73
	6.70E+00	0.572	116.04	2.498	36.67	0.143	53.68	0.185	-175.72
	6.80E+00	0.579	115.01	2.457	35.6	0.146	53.13	0.19	-178.96
	6.90E+00	0.583	114.17	2.424	34.86	0.147	52.73	0.194	178.02
	7.00E+00	0.585	113.2	2.378	34.12	0.149	52.53	0.198	175.25
	7.10E+00	0.588	112.02	2.343	33.19	0.152	51.88	0.201	172.94
	7.20E+00	0.594	110.96	2.307	32.52	0.153	51.26	0.206	170.9
	7.30E+00	0.6	110.32	2.265	31.69	0.155	50.88	0.212	168.66
	7.40E+00	0.603	109.43	2.234	30.64	0.157	50.62	0.218	166.07
	7.50E+00	0.606	108.35	2.201	30.04	0.159	49.92	0.224	163.16
	7.60E+00	0.611	107.53	2.165	29.21	0.161	49.41	0.228	160.73
	7.70E+00	0.615	106.7	2.136	28.45	0.162	49.18	0.233	158.92
	7.80E+00	0.618	105.92	2.106	27.8	0.165	48.68	0.238	157.34
	7.90E+00	0.621	104.75	2.068	26.79	0.166	47.84	0.244	155.45
	8.00E+00	0.626	104	2.047	25.95	0.167	47.49	0.25	153.42
	8.10E+00	0.629	103.25	2.015	25.49	0.169	47.51	0.255	151.46
	8.20E+00	0.632	102.48	1.984	24.56	0.172	47.01	0.26	149.95
	8.30E+00	0.636	101.61	1.961	23.78	0.174	46.26	0.266	148.61
	8.40E+00	0.639	100.82	1.928	23.18	0.175	45.81	0.274	147
	8.50E+00	0.642	99.98	1.895	22.03	0.177	45.56	0.281	145.13
	8.60E+00	0.646	99.23	1.879	21.36	0.179	44.99	0.285	143.4
	8.70E+00	0.65	98.39	1.847	20.88	0.18	44.45	0.29	142.07
	8.80E+00	0.653	97.87	1.823	19.99	0.182	44.18	0.296	140.99
	8.90E+00	0.655	97.05	1.804	19.37	0.184	43.82	0.303	139.64
	9.00E+00	0.656	96.32	1.771	18.75	0.187	42.98	0.309	138.09
	9.10E+00	0.66	95.6	1.755	17.64	0.187	42.38	0.313	136.6
	9.20E+00	0.664	94.9	1.744	17.15	0.189	42.04	0.319	135.53
	9.30E+00	0.669	94.33	1.709	16.44	0.191	41.54	0.325	134.54
	9.40E+00	0.671	93.53	1.683	15.28	0.193	40.74	0.333	133.38
	9.50E+00	0.674	92.98	1.667	14.63	0.193	40.32	0.34	131.59
	9.60E+00	0.678	92.28	1.635	13.92	0.195	39.98	0.343	130.15
	9.70E+00	0.684	91.4	1.624	12.97	0.198	39.47	0.344	129.12
	9.80E+00	0.688	90.28	1.607	12.19	0.2	38.32	0.348	128.36
	9.90E+00	0.683	89.52	1.565	11.45	0.199	37.77	0.354	127.47
	1.00E+01	0.684	89.16	1.537	10.63	0.2	37.35	0.361	126.22
	1.01E+01	0.688	88.36	1.517	10.64	0.201	36.99	0.365	125.08
	1.02E+01	0.69	87.84	1.49	10.17	0.202	36.59	0.368	124.3
	1.03E+01	0.694	87.4	1.483	9.61	0.203	36.46	0.37	123.77
	1.04E+01	0.695	86.53	1.466	9.41	0.204	35.96	0.377	123.13
	1.05E+01	0.701	85.73	1.446	8.57	0.205	35.21	0.384	121.88
	1.06E+01	0.703	85.08	1.44	7.34	0.206	34.86	0.389	120.67
	1.07E+01	0.704	84.41	1.423	6.95	0.207	34.76	0.391	119.75
	1.08E+01	0.704	83.86	1.399	6.11	0.209	33.95	0.393	119.33
	1.09E+01	0.704	83.41	1.385	5.69	0.208	33.3	0.397	119.07
	1.10E+01	0.706	82.73	1.364	5.29	0.209	33.16	0.405	118.51
	1.11E+01	0.713	82.16	1.334	4.27	0.209	32.74	0.412	117.51
	1.12E+01	0.721	81.62	1.325	3.68	0.209	32.25	0.417	116.31
	1.13E+01	0.727	81	1.309	3.65	0.208	32.39	0.418	115.37
	1.14E+01	0.728	79.67	1.3	3.05	0.21	32.81	0.42	115.18
	1.15E+01	0.731	78.89	1.296	2.3	0.214	32.64	0.426	114.43
	1.16E+01	0.73	77.43	1.284	1.52	0.217	31.87	0.433	113.86
	1.17E+01	0.725	76.63	1.268	0.2	0.218	31.26	0.435	112.69
	1.18E+01	0.733	75.95	1.258	-0.39	0.22	30.91	0.433	111.87
	1.19E+01	0.728	74.51	1.242	-1.03	0.224	30.13	0.434	111.89
	1.20E+01	0.718	73.65	1.229	-2.45	0.224	28.86	0.446	112.01
	1.21E+01	0.712	72.89	1.205	-3.34	0.224	28.31	0.453	110.52
	1.22E+01	0.707	72.74	1.184	-3.79	0.226	27.6	0.454	109.94
	1.23E+01	0.698	72.09	1.177	-5.34	0.226	25.74	0.461	109.09
	1.24E+01	0.698	71.73	1.149	-5.89	0.221	25.28	0.461	107.86
	1.25E+01	0.698	71.35	1.121	-6.3	0.219	24.78	0.466	107.81
	1.26E+01	0.696	71.33	1.094	-6.65	0.216	26.15	0.47	106.01
	1.27E+01	0.693	70.79	1.081	-6.88	0.22	26.08	0.467	105.14
	1.28E+01	0.691	70.1	1.058	-7.43	0.219	25.67	0.465	104.39
	1.29E+01	0.694	69.7	1.046	-7.65	0.22	25.86	0.462	104.25
	1.30E+01	0.691	69.44	1.037	-7.57	0.224	25.93	0.464	104.26
	1.31E+01	0.691	68.79	1.021	-8.18	0.224	25.04	0.467	104.51
	1.32E+01	0.687	68.35	1.014	-8.9	0.224	24.66	0.475	104.19
	1.33E+01	0.687	68.01	1.007	-9.02	0.225	24.67	0.478	102.75
	1.34E+01	0.683	67.4	0.994	-9.73	0.227	24.17	0.479	102.79
	1.35E+01	0.687	67.3	0.987	-10.08	0.226	23.82	0.483	102.04
	1.36E+01	0.683	66.78	0.974	-10.23	0.228	23.94	0.486	101.97
	1.37E+01	0.681	66.25	0.958	-11.09	0.23	23.8	0.489	101.22
	1.38E+01	0.685	65.49	0.952	-11.86	0.231	23.09	0.492	100.15
	1.39E+01	0.683	65.48	0.942	-12.19	0.231	22.85	0.489	99.41
	1.40E+01	0.681	64.81	0.931	-12.78	0.232	23.04	0.49	99.26
	1.41E+01	0.678	64.22	0.919	-13.31	0.234	22.48	0.491	99.17
	1.42E+01	0.678	63.69	0.903	-13.86	0.235	21.78	0.494	98.64
	1.43E+01	0.676	63.17	0.888	-14.85	0.235	21.92	0.496	97.94
	1.44E+01	0.677	62.71	0.885	-15.16	0.237	21.67	0.496	97.33
	1.45E+01	0.672	62.27	0.868	-15.37	0.24	20.96	0.496	97.14
	1.46E+01	0.672	61.86	0.858	-15.75	0.241	20.01	0.498	96.88
	1.47E+01	0.67	61.11	0.847	-16.05	0.24	20.05	0.499	96.21
	1.48E+01	0.669	60.8	0.831	-16.67	0.242	19.94	0.498	95.41
	1.49E+01	0.665	59.95	0.819	-17.63	0.246	19.21	0.498	95.12
	1.50E+01	0.666	59.79	0.816	-17.61	0.244	18.39	0.5	95.09
!	Noise	data:							
!	Freq.	Fmin	Gamma-opt	rn					
	0.9	1.65	0.11	-162.4	0.18				
	2	1.9	0.13	-162.1	0.2
