! Filename: 480BFG480.001
! Title: BFG480W
! Bias: Vce=4V; Ic=80mA
! Company: Philips Semiconductors NL
! User: Quality&Reliability T&D
! Measure time: 10 Nov 1999 / 12:03:35
#  MHz  S  MA  R 50
! Freq       S11             S21             S12             S22    :
  100  0.38826 -150.3 52.99539 148.17 0.006509 68.450  0.78318 -40.39
  200  0.53344 -156.5 40.81911 127.22 0.010232 59.282  0.63233 -70.61
  300  0.59995 -162.9 31.41020 114.65 0.012546 57.621  0.53088 -90.81
  400  0.63349 -167.6 25.03026 106.34 0.014467 58.673  0.47373 -105.0
  500  0.65306 -171.2 20.65184 100.34 0.016318 60.567  0.44073 -115.4
  600  0.66550 -174.1 17.45620 95.692 0.018171 62.459  0.42048 -123.2
  700  0.67393 -176.6 15.09498 91.983 0.020121 64.708  0.40714 -129.3
  800  0.68109 -178.8 13.24617 88.779 0.022169 66.544  0.39835 -134.4
  900  0.68888 179.19 11.77159 86.052 0.024201 68.419  0.39338 -138.8
 1000  0.69613 177.33 10.58789 83.486 0.026609 69.648  0.39228 -142.7
 1200  0.71081 174.16  8.74211 78.671 0.031014 71.591  0.39786 -149.1
 1400  0.72164 171.75  7.40420 73.967 0.035526 72.729  0.40710 -153.9
 1600  0.72693 169.37  6.45850 70.110 0.040671 73.783  0.41308 -157.5
 1800  0.72731 166.73  5.74274 66.737 0.046305 74.526  0.41992 -161.3
 2000  0.73770 164.43  5.08432 63.802 0.051013 75.351  0.43071 -165.7
 2200  0.75791 162.27  4.53853 60.302 0.055418 75.269  0.45004 -169.5
 2400  0.76860 160.51  4.07053 56.642 0.060248 74.909  0.47441 -172.0
 2600  0.76912 158.85  3.72234 53.323 0.066313 74.286  0.49329 -173.5
 2800  0.76493 156.61  3.45204 48.943 0.071046 73.036  0.50245 -175.3
 3000  0.77001 153.92  3.20612 45.540 0.076378 72.298  0.50983 -178.2
