! Filename: 322bfg425.001
! BFG425W Field C1
! V1=8.513E-001V,V2=3.000E+000V, I1=2.993E-004A, I2=2.254E-002A
# GHz   S   MA   R 50
!                S11              S21              S12              S22
!Freq(GHz)  Mag     Ang      Mag     Ang      Mag     Ang      Mag     Ang 
   0.040    0.399  -6.802   37.391 173.291    0.002  76.225    0.936  -2.700
   0.100    0.399 -19.029   36.343 165.231    0.004  82.152    0.931  -8.556
   0.200    0.378 -37.029   34.040 152.109    0.008  76.021    0.886 -17.015
   0.300    0.352 -52.855   31.034 140.928    0.011  72.046    0.824 -23.883
   0.400    0.325 -67.858   27.952 131.166    0.014  68.109    0.762 -29.184
   0.500    0.301 -81.171   25.087 122.616    0.017  65.768    0.704 -33.269
   0.600    0.281 -92.464   22.514 115.690    0.019  64.120    0.655 -36.396
   0.700    0.265 -102.389   20.318 109.798    0.021  62.875    0.612 -38.868
   0.800    0.251 -111.924   18.436 104.426    0.023  62.013    0.577 -40.884
   0.900    0.240 -120.124   16.829  99.728    0.026  61.298    0.548 -42.693
   1.000    0.233 -127.775   15.442  95.476    0.028  60.596    0.523 -44.298
   1.100    0.226 -134.786   14.246  91.585    0.030  59.948    0.501 -45.817
   1.200    0.223 -141.165   13.212  87.955    0.032  59.327    0.482 -47.280
   1.300    0.219 -147.207   12.298  84.596    0.034  58.727    0.464 -48.634
   1.400    0.217 -152.918   11.503  81.432    0.036  58.051    0.449 -49.960
   1.500    0.217 -158.472   10.798  78.419    0.038  57.349    0.436 -51.258
   1.600    0.216 -163.621   10.172  75.495    0.041  56.529    0.423 -52.633
   1.700    0.217 -168.458    9.607  72.719    0.043  55.682    0.412 -54.028
   1.800    0.217 -172.958    9.101  70.045    0.045  54.846    0.401 -55.412
   1.900    0.218 -177.419    8.642  67.427    0.047  53.934    0.391 -56.917
   2.000    0.220 178.476    8.226  64.875    0.050  52.952    0.382 -58.428
   2.200    0.225 170.536    7.500  59.954    0.054  50.948    0.363 -61.500
   2.400    0.232 163.058    6.887  55.201    0.059  48.780    0.345 -64.604
   2.600    0.240 156.206    6.358  50.545    0.064  46.397    0.327 -67.901
   2.800    0.249 149.620    5.902  46.078    0.069  43.996    0.309 -71.239
   3.000    0.259 143.584    5.505  41.655    0.073  41.454    0.292 -74.749
   3.500    0.289 129.684    4.700  30.924    0.086  34.669    0.247 -84.101
   4.000    0.322 117.068    4.080  20.404    0.097  27.449    0.199 -94.702
   4.500    0.359 106.014    3.594  10.173    0.109  19.887    0.152 -107.880
   5.000    0.402  95.111    3.184  -0.368    0.119  11.343    0.098 -128.802
   5.500    0.436  84.442    2.813  -9.967    0.126   4.186    0.053 -159.400
   6.000    0.480  74.864    2.516 -20.324    0.133  -4.742    0.057 119.683
   6.500    0.489  68.392    2.310 -27.284    0.147  -8.108    0.072 106.604
   7.000    0.527  61.391    2.135 -36.528    0.160 -15.782    0.123  90.589
   7.500    0.589  52.357    1.924 -48.081    0.163 -27.755    0.206  69.667
   8.000    0.625  45.116    1.762 -57.443    0.169 -35.713    0.262  59.950
   8.500    0.666  37.315    1.596 -67.452    0.173 -45.161    0.327  49.455
   9.000    0.695  29.282    1.427 -76.438    0.171 -53.451    0.380  38.984
   9.500    0.723  22.098    1.293 -85.102    0.170 -61.831    0.420  30.456
  10.000    0.754  15.307    1.179 -94.956    0.172 -71.254    0.479  23.914
  10.500    0.777   8.306    1.063 -104.450    0.170 -80.434    0.531  16.106
  11.000    0.795   1.083    0.941 -113.408    0.163 -90.104    0.573   7.312
  11.500    0.810  -6.014    0.840 -122.733    0.157 -99.976    0.613   0.217
  12.000    0.816 -13.227    0.732 -131.774    0.148 -110.314    0.652  -7.990
!     DEEMBEDDED NOISE DATA
!FREQUENCY    FMIN    GAMMA OPT        Rn
!  (GHz)      (dB)    Mag    Ang   (NORMALIZED)
