! Filename BFG424F_2V_20mA.prm
! Simulation_Values
! Created	by	janssen	on	nov	2006			
!	Column ranking S11, S21,S12,S22 both magnitude and phase.								
!	VCE	=	2	V,	IC	=	20	mA	
!	Common	Emitter	S-Parameters						
#	GHZ	S	MA	R	50				
	5.00E-01	0.388	-87.49	25.448	129.17	0.018	65.09	0.704	-33.94
	6.00E-01	0.376	-98.91	22.949	123.12	0.02	62.87	0.649	-37.14
	7.00E-01	0.365	-108.94	20.787	118.01	0.022	62.78	0.602	-39.54
	8.00E-01	0.357	-117.75	18.9	113.65	0.024	62.35	0.562	-41.39
	9.00E-01	0.354	-125.42	17.307	109.93	0.026	62.24	0.529	-42.96
	1.00E+00	0.35	-131.96	15.925	106.56	0.027	62.26	0.5	-44.21
	1.10E+00	0.349	-137.94	14.713	103.61	0.029	62.76	0.475	-45.34
	1.20E+00	0.346	-143.24	13.65	101	0.031	63.38	0.453	-46.3
	1.30E+00	0.346	-148.18	12.742	98.59	0.032	63.74	0.434	-47.24
	1.40E+00	0.346	-152.64	11.93	96.32	0.034	64.27	0.417	-48.12
	1.50E+00	0.348	-156.63	11.218	94.25	0.036	64.65	0.403	-48.93
	1.60E+00	0.347	-160.3	10.58	92.3	0.038	64.87	0.39	-49.89
	1.70E+00	0.348	-163.96	10.003	90.45	0.039	65.47	0.377	-50.78
	1.80E+00	0.351	-167.44	9.479	88.72	0.041	65.84	0.366	-51.69
	1.90E+00	0.353	-170.41	9.008	87.05	0.043	66.24	0.355	-52.62
	2.00E+00	0.357	-173.25	8.587	85.57	0.045	66.53	0.346	-53.56
	2.10E+00	0.358	-176.03	8.195	83.99	0.047	66.63	0.337	-54.76
	2.20E+00	0.361	-178.76	7.838	82.49	0.049	66.71	0.329	-55.8
	2.30E+00	0.364	178.53	7.501	81.1	0.051	67.01	0.32	-56.97
	2.40E+00	0.369	176.48	7.204	79.78	0.052	67.2	0.312	-58.13
	2.50E+00	0.373	174.34	6.921	78.44	0.055	67.33	0.305	-59.36
	2.60E+00	0.375	171.98	6.665	77.04	0.057	67.12	0.297	-60.85
	2.70E+00	0.378	169.55	6.423	75.83	0.059	67.39	0.289	-62.23
	2.80E+00	0.384	167.65	6.198	74.61	0.061	67.23	0.283	-63.5
	2.90E+00	0.389	165.76	5.984	73.41	0.063	67.44	0.275	-65.03
	3.00E+00	0.392	163.98	5.788	72.23	0.065	67.17	0.269	-66.44
	3.10E+00	0.397	161.96	5.608	71.03	0.067	66.89	0.262	-68.14
	3.20E+00	0.4	160.04	5.431	69.88	0.069	66.97	0.255	-69.72
	3.30E+00	0.405	158.2	5.262	68.77	0.071	66.89	0.249	-71.41
	3.40E+00	0.411	156.68	5.107	67.62	0.073	66.67	0.243	-73.35
	3.50E+00	0.416	155.14	4.957	66.59	0.075	66.45	0.237	-75.33
	3.60E+00	0.419	153.18	4.818	65.46	0.078	66.28	0.231	-77.53
	3.70E+00	0.424	151.48	4.693	64.36	0.079	65.99	0.224	-79.67
	3.80E+00	0.43	150	4.566	63.36	0.082	65.85	0.218	-81.78
	3.90E+00	0.434	148.61	4.45	62.35	0.084	65.7	0.212	-83.88
	4.00E+00	0.439	146.99	4.337	61.27	0.086	65.41	0.207	-86.27
	4.10E+00	0.443	145.47	4.226	60.3	0.088	65.03	0.202	-88.83
	4.20E+00	0.449	143.84	4.124	59.22	0.091	64.74	0.196	-91.57
	4.30E+00	0.456	142.47	4.03	58.31	0.093	64.39	0.191	-94.04
	4.40E+00	0.462	141.33	3.935	57.22	0.095	64.22	0.186	-96.57
	4.50E+00	0.464	140.17	3.844	56.24	0.098	63.95	0.183	-99.31
	4.60E+00	0.468	138.4	3.759	55.32	0.1	63.42	0.179	-102.63
	4.70E+00	0.474	136.88	3.673	54.3	0.102	63.05	0.176	-105.95
	4.80E+00	0.482	135.81	3.601	53.26	0.104	62.71	0.172	-109.34
	4.90E+00	0.486	134.66	3.524	52.42	0.106	62.21	0.168	-112.72
	5.00E+00	0.491	133.59	3.448	51.44	0.108	61.82	0.164	-116.02
	5.10E+00	0.494	132.07	3.383	50.36	0.11	61.54	0.161	-119.35
	5.20E+00	0.5	130.69	3.314	49.54	0.113	61.19	0.16	-122.91
	5.30E+00	0.509	129.69	3.244	48.6	0.115	60.55	0.158	-126.91
	5.40E+00	0.512	128.58	3.187	47.57	0.117	60.08	0.156	-130.87
	5.50E+00	0.516	127.46	3.122	46.79	0.119	59.83	0.155	-134.51
	5.60E+00	0.521	126.15	3.055	45.77	0.122	59.4	0.155	-138.31
	5.70E+00	0.528	125.05	3.007	44.87	0.124	58.85	0.155	-142.09
	5.80E+00	0.534	124.05	2.949	44.12	0.126	58.48	0.156	-146.19
	5.90E+00	0.538	123	2.892	43.01	0.128	58.1	0.157	-150.24
	6.00E+00	0.542	121.9	2.848	42.26	0.13	57.52	0.157	-154.07
	6.10E+00	0.546	120.63	2.794	41.47	0.132	56.99	0.159	-157.76
	6.20E+00	0.552	119.42	2.738	40.38	0.134	56.66	0.162	-161.53
	6.30E+00	0.56	118.66	2.699	39.51	0.136	56.33	0.165	-165.28
	6.40E+00	0.562	117.68	2.648	38.76	0.138	55.86	0.168	-168.57
	6.50E+00	0.565	116.55	2.603	37.78	0.14	55.29	0.171	-171.79
	6.60E+00	0.57	115.36	2.56	37.05	0.142	54.95	0.174	-174.8
	6.70E+00	0.576	114.49	2.513	36.29	0.144	54.47	0.179	-177.82
	6.80E+00	0.582	113.5	2.472	35.24	0.147	53.87	0.184	178.8
	6.90E+00	0.586	112.73	2.439	34.5	0.148	53.46	0.188	175.78
	7.00E+00	0.588	111.81	2.392	33.77	0.15	53.25	0.191	173.1
	7.10E+00	0.591	110.61	2.357	32.82	0.153	52.54	0.195	170.92
	7.20E+00	0.597	109.58	2.32	32.16	0.155	51.97	0.2	168.89
	7.30E+00	0.603	108.97	2.279	31.35	0.156	51.52	0.207	166.61
	7.40E+00	0.606	108.1	2.247	30.31	0.158	51.25	0.213	163.95
	7.50E+00	0.61	107.06	2.213	29.73	0.16	50.56	0.219	161.12
	7.60E+00	0.614	106.28	2.178	28.91	0.162	49.99	0.223	158.78
	7.70E+00	0.618	105.45	2.148	28.16	0.163	49.75	0.228	157.08
	7.80E+00	0.621	104.62	2.119	27.51	0.166	49.23	0.233	155.5
	7.90E+00	0.624	103.5	2.079	26.48	0.168	48.4	0.24	153.54
	8.00E+00	0.629	102.82	2.059	25.67	0.168	48.06	0.246	151.44
	8.10E+00	0.632	102.04	2.026	25.22	0.17	48.02	0.25	149.57
	8.20E+00	0.635	101.29	1.996	24.31	0.173	47.55	0.255	148.27
	8.30E+00	0.64	100.42	1.972	23.53	0.175	46.79	0.262	147.03
	8.40E+00	0.642	99.67	1.94	22.94	0.176	46.3	0.27	145.38
	8.50E+00	0.645	98.83	1.906	21.78	0.178	46.05	0.277	143.38
	8.60E+00	0.649	98.1	1.891	21.12	0.18	45.41	0.281	141.67
	8.70E+00	0.652	97.32	1.858	20.67	0.181	44.91	0.286	140.42
	8.80E+00	0.656	96.76	1.834	19.77	0.183	44.6	0.293	139.48
	8.90E+00	0.658	95.98	1.814	19.16	0.185	44.25	0.299	138.1
	9.00E+00	0.659	95.27	1.781	18.54	0.188	43.38	0.306	136.57
	9.10E+00	0.663	94.52	1.765	17.44	0.188	42.77	0.309	135.09
	9.20E+00	0.667	93.81	1.754	16.96	0.19	42.43	0.314	134.09
	9.30E+00	0.672	93.31	1.719	16.26	0.192	41.92	0.321	133.22
	9.40E+00	0.674	92.51	1.693	15.09	0.194	41.11	0.329	132.07
	9.50E+00	0.676	92	1.677	14.45	0.194	40.69	0.336	130.16
	9.60E+00	0.681	91.3	1.644	13.74	0.196	40.34	0.339	128.73
	9.70E+00	0.687	90.39	1.634	12.83	0.199	39.79	0.34	127.82
	9.80E+00	0.691	89.29	1.616	12.02	0.201	38.66	0.344	127.1
	9.90E+00	0.686	88.56	1.575	11.3	0.2	38.09	0.351	126.15
	1.00E+01	0.687	88.19	1.546	10.51	0.201	37.71	0.357	124.89
	1.01E+01	0.69	87.46	1.526	10.52	0.202	37.33	0.361	123.82
	1.02E+01	0.693	86.95	1.5	10.04	0.202	36.9	0.364	123.17
	1.03E+01	0.697	86.45	1.493	9.47	0.204	36.77	0.367	122.72
	1.04E+01	0.698	85.58	1.476	9.27	0.205	36.19	0.374	122.09
	1.05E+01	0.703	84.77	1.455	8.43	0.206	35.52	0.381	120.74
	1.06E+01	0.706	84.12	1.449	7.21	0.207	35.13	0.386	119.39
	1.07E+01	0.707	83.54	1.432	6.81	0.208	35.03	0.388	118.45
	1.08E+01	0.707	83	1.408	6	0.209	34.25	0.389	118.2
	1.09E+01	0.707	82.44	1.395	5.58	0.209	33.56	0.393	118.05
	1.10E+01	0.709	81.85	1.373	5.17	0.209	33.44	0.402	117.52
	1.11E+01	0.716	81.27	1.342	4.15	0.21	32.97	0.409	116.45
	1.12E+01	0.724	80.72	1.332	3.58	0.209	32.49	0.414	115.18
	1.13E+01	0.731	80.17	1.316	3.57	0.209	32.66	0.414	114.3
	1.14E+01	0.73	78.8	1.309	2.97	0.211	33.06	0.417	114.2
	1.15E+01	0.734	78.01	1.305	2.2	0.214	32.93	0.423	113.46
	1.16E+01	0.734	76.53	1.293	1.44	0.218	32.13	0.43	112.86
	1.17E+01	0.728	75.74	1.276	0.14	0.218	31.47	0.432	111.63
	1.18E+01	0.736	75.13	1.266	-0.46	0.221	31.14	0.43	110.86
	1.19E+01	0.731	73.63	1.251	-1.12	0.225	30.37	0.43	110.91
	1.20E+01	0.721	72.76	1.237	-2.5	0.225	29.07	0.442	110.98
	1.21E+01	0.714	71.97	1.212	-3.42	0.224	28.52	0.449	109.46
	1.22E+01	0.71	71.78	1.191	-3.84	0.227	27.82	0.45	108.93
	1.23E+01	0.701	71.28	1.186	-5.42	0.227	25.95	0.456	108.2
	1.24E+01	0.7	70.88	1.158	-5.98	0.222	25.5	0.457	106.96
	1.25E+01	0.7	70.44	1.129	-6.38	0.219	24.96	0.462	107.02
	1.26E+01	0.7	70.44	1.101	-6.72	0.217	26.35	0.466	105.16
	1.27E+01	0.695	69.97	1.088	-6.93	0.221	26.25	0.463	104.2
	1.28E+01	0.693	69.23	1.065	-7.5	0.22	25.85	0.461	103.38
	1.29E+01	0.696	68.73	1.053	-7.74	0.22	26.05	0.458	103.33
	1.30E+01	0.694	68.61	1.044	-7.61	0.224	26.09	0.46	103.43
	1.31E+01	0.693	67.94	1.028	-8.25	0.225	25.18	0.464	103.68
	1.32E+01	0.69	67.48	1.021	-8.98	0.225	24.83	0.472	103.32
	1.33E+01	0.69	67.12	1.014	-9.07	0.226	24.81	0.474	101.83
	1.34E+01	0.686	66.54	1.002	-9.8	0.228	24.33	0.474	101.95
	1.35E+01	0.689	66.43	0.994	-10.16	0.227	24.01	0.478	101.3
	1.36E+01	0.685	65.92	0.981	-10.31	0.228	24.07	0.482	101.29
	1.37E+01	0.684	65.39	0.966	-11.17	0.231	23.95	0.486	100.51
	1.38E+01	0.687	64.65	0.959	-11.92	0.232	23.22	0.487	99.4
	1.39E+01	0.685	64.6	0.95	-12.21	0.231	23	0.485	98.64
	1.40E+01	0.683	63.93	0.938	-12.83	0.233	23.15	0.485	98.53
	1.41E+01	0.68	63.33	0.926	-13.38	0.234	22.56	0.487	98.5
	1.42E+01	0.68	62.76	0.91	-13.94	0.236	21.83	0.49	97.93
	1.43E+01	0.678	62.24	0.895	-14.95	0.236	21.97	0.493	97.26
	1.44E+01	0.68	61.87	0.892	-15.21	0.238	21.75	0.492	96.64
	1.45E+01	0.674	61.51	0.875	-15.46	0.241	21.02	0.492	96.49
	1.46E+01	0.673	60.91	0.864	-15.84	0.241	20.06	0.494	96.18
	1.47E+01	0.673	60.11	0.853	-16.13	0.24	20.11	0.495	95.4
	1.48E+01	0.672	59.95	0.837	-16.68	0.243	20.02	0.493	94.5
	1.49E+01	0.666	59.12	0.826	-17.64	0.246	19.3	0.492	94.39
	1.50E+01	0.667	58.8	0.823	-17.7	0.245	18.43	0.495	94.57
!	Noise	data:							
!	Freq.	Fmin	Gamma-opt	rn					
	0.9	1.9	0.19	-165.5	0.18				
	2	2.2	0.17	-155.5	0.2
