! Filename: 49bfg410.001
! BFG410W Field B1
! V1=8.589E-001V,V2=4.000E+000V, I1=1.232E-004A, I2=9.010E-003A
# GHz   S   MA   R 50
!                S11              S21              S12              S22
!Freq(GHz)  Mag     Ang      Mag     Ang      Mag     Ang      Mag     Ang 
   0.040    0.678  -2.266   19.191 175.284    0.001  49.829    0.972  -0.761
   0.100    0.685  -6.394   18.764 171.871    0.002  80.218    0.974  -3.107
   0.200    0.675 -12.981   18.404 164.997    0.005  77.215    0.965  -6.840
   0.300    0.661 -19.292   17.995 158.649    0.007  76.154    0.954 -10.116
   0.400    0.642 -25.552   17.517 151.998    0.009  73.603    0.939 -13.385
   0.500    0.618 -31.518   16.951 145.630    0.011  70.503    0.920 -16.250
   0.600    0.595 -37.155   16.305 139.737    0.013  68.782    0.901 -18.976
   0.700    0.570 -42.386   15.609 134.271    0.015  66.446    0.880 -21.545
   0.800    0.543 -47.477   14.945 128.925    0.016  64.867    0.860 -23.853
   0.900    0.517 -52.068   14.292 123.941    0.018  63.286    0.841 -26.063
   1.000    0.491 -56.505   13.634 119.220    0.019  61.870    0.822 -28.088
   1.100    0.468 -60.631   13.015 114.828    0.021  60.598    0.804 -29.964
   1.200    0.445 -64.647   12.426 110.578    0.022  59.625    0.787 -31.807
   1.300    0.423 -68.401   11.855 106.651    0.023  58.661    0.771 -33.469
   1.400    0.403 -71.995   11.337 102.907    0.024  57.930    0.756 -35.054
   1.500    0.383 -75.596   10.844  99.288    0.026  57.159    0.742 -36.573
   1.600    0.364 -79.062   10.390  95.852    0.027  56.531    0.729 -38.068
   1.700    0.347 -82.346    9.958  92.564    0.028  55.786    0.717 -39.543
   1.800    0.331 -85.603    9.553  89.389    0.029  55.184    0.706 -40.994
   1.900    0.316 -88.682    9.179  86.373    0.031  54.698    0.695 -42.461
   2.000    0.302 -91.882    8.832  83.398    0.032  54.120    0.685 -43.920
   2.200    0.276 -98.321    8.201  77.759    0.034  52.964    0.665 -46.766
   2.400    0.252 -104.721    7.643  72.367    0.037  51.894    0.647 -49.601
   2.600    0.231 -111.466    7.150  67.221    0.040  50.645    0.630 -52.486
   2.800    0.213 -118.480    6.715  62.252    0.043  49.278    0.613 -55.334
   3.000    0.196 -125.936    6.328  57.388    0.046  47.825    0.596 -58.280
   3.500    0.164 -147.469    5.522  45.839    0.054  43.558    0.555 -65.750
   4.000    0.149 -173.069    4.888  34.686    0.063  38.490    0.512 -73.441
   4.500    0.156 161.107    4.383  23.905    0.072  32.442    0.468 -81.772
   5.000    0.177 136.838    3.947  13.139    0.081  25.795    0.416 -90.198
   5.500    0.212 115.312    3.553   2.077    0.088  17.850    0.352 -98.639
   6.000    0.249 102.933    3.268  -7.727    0.100  11.615    0.308 -108.712
   6.500    0.289  88.446    2.954 -17.910    0.106   4.397    0.246 -117.309
   7.000    0.267  79.129    2.672 -22.971    0.112   9.254    0.252 -114.574
   7.500    0.363  73.909    2.577 -36.024    0.133  -5.929    0.180 -144.669
   8.000    0.430  64.564    2.399 -47.314    0.144 -16.578    0.131 -178.314
   8.500    0.498  53.999    2.178 -59.429    0.150 -29.161    0.106 122.947
   9.000    0.549  44.655    1.976 -70.031    0.153 -39.151    0.142  81.729
   9.500    0.589  35.099    1.762 -80.433    0.150 -49.254    0.199  53.827
  10.000    0.643  28.240    1.622 -91.689    0.158 -59.554    0.279  41.063
  10.500    0.685  19.833    1.452 -102.618    0.158 -70.189    0.350  27.630
  11.000    0.724  11.019    1.274 -113.939    0.154 -83.491    0.429  14.714
  11.500    0.744   2.219    1.096 -124.664    0.143 -95.453    0.496   3.019
  12.000    0.761  -6.408    0.925 -135.366    0.133 -109.023    0.560  -8.429
!     DEEMBEDDED NOISE DATA
!FREQUENCY    FMIN    GAMMA OPT        Rn
!  (GHz)      (dB)    Mag    Ang   (NORMALIZED)
