! Filename: 4150BFG480.001
! Title: BFG480W
! Bias: Vce=4V; Ic=150mA
! Company: Philips Semiconductors NL
! User: Quality&Reliability T&D
! Measure time: 10 Nov 1999 / 12:05:01
#  MHz  S  MA  R 50
! Freq       S11             S21             S12             S22    :
  100  0.55970 -162.8 41.66172 143.13 0.005854 64.957  0.60235 -46.99
  200  0.66306 -167.2 31.04138 122.04 0.008791 59.337  0.48038 -80.34
  300  0.70264 -171.6 23.74840 110.36 0.010809 60.029  0.41190 -100.9
  400  0.72286 -174.8 18.84792 102.69 0.012784 62.863  0.37959 -114.3
  500  0.73394 -177.3 15.56588 97.165 0.014758 65.813  0.36402 -123.6
  600  0.74075 -179.5 13.15561 92.866 0.016845 67.894  0.35582 -130.2
  700  0.74573 178.53 11.38936 89.371 0.018965 70.182  0.35133 -135.3
  800  0.75059 176.72  9.99598 86.340 0.021143 71.799  0.34971 -139.4
  900  0.75574 175.03  8.88225 83.729 0.023510 73.509  0.35080 -143.0
 1000  0.76190 173.47  7.99369 81.237 0.026018 74.550  0.35453 -146.3
 1200  0.77226 170.66  6.59545 76.532 0.030714 75.903  0.36788 -151.5
 1400  0.77907 168.45  5.58364 71.893 0.035506 76.701  0.38293 -155.2
 1600  0.78198 166.09  4.87168 67.982 0.040952 77.188  0.39374 -158.3
 1800  0.78083 163.55  4.33080 64.553 0.046844 77.559  0.40512 -161.7
 2000  0.78934 161.46  3.83583 61.595 0.051750 77.968  0.42076 -165.8
 2200  0.80713 159.44  3.42194 58.051 0.056377 77.832  0.44295 -169.3
 2400  0.81359 157.64  3.06371 54.333 0.061410 77.147  0.46938 -171.6
 2600  0.81008 155.87  2.79709 50.923 0.067731 76.354  0.49107 -173.1
 2800  0.80525 153.47  2.59410 46.422 0.072601 74.822  0.50324 -174.9
 3000  0.80976 150.82  2.40856 42.959 0.078081 73.933  0.51300 -177.7
