! Filename: 14bfg410.001
! BFG410W Field B1
! V1=8.563E-001V,V2=1.000E+000V, I1=6.198E-005A, I2=4.000E-003A
# GHz   S   MA   R 50
!                S11              S21              S12              S22
!Freq(GHz)  Mag     Ang      Mag     Ang      Mag     Ang      Mag     Ang 
   0.040    0.826  -3.147   11.451 177.492    0.002  66.004    0.985  -0.916
   0.100    0.827  -5.299   11.201 174.401    0.002  86.151    0.982  -3.201
   0.200    0.808 -10.583   11.066 168.499    0.008  79.719    0.970  -7.116
   0.300    0.800 -17.355   10.987 163.557    0.011  80.673    0.966 -10.412
   0.400    0.798 -20.414   10.867 157.723    0.013  77.101    0.954 -14.007
   0.500    0.776 -26.950   10.686 152.433    0.018  72.141    0.939 -17.128
   0.600    0.760 -31.776   10.458 147.414    0.021  69.288    0.926 -20.376
   0.700    0.736 -37.006   10.197 142.416    0.023  65.767    0.907 -23.541
   0.800    0.721 -41.690    9.947 137.665    0.026  64.357    0.888 -26.392
   0.900    0.698 -46.369    9.702 132.939    0.029  60.143    0.870 -29.330
   1.000    0.679 -50.742    9.419 128.375    0.031  57.915    0.849 -32.041
   1.100    0.655 -55.452    9.147 124.163    0.034  55.765    0.830 -34.602
   1.200    0.635 -59.432    8.879 119.849    0.035  54.692    0.811 -37.112
   1.300    0.617 -63.674    8.601 115.816    0.037  52.062    0.790 -39.408
   1.400    0.593 -67.668    8.350 111.900    0.039  49.853    0.771 -41.627
   1.500    0.570 -71.727    8.086 108.055    0.041  48.570    0.752 -43.767
   1.600    0.550 -76.476    7.836 104.341    0.043  47.354    0.734 -45.872
   1.700    0.527 -80.071    7.594 100.748    0.045  46.046    0.717 -47.905
   1.800    0.513 -83.274    7.349  97.238    0.046  43.949    0.700 -49.833
   1.900    0.495 -87.251    7.122  93.938    0.047  42.747    0.684 -51.770
   2.000    0.476 -91.153    6.900  90.617    0.049  41.900    0.668 -53.604
   2.200    0.443 -98.618    6.493  84.362    0.051  39.273    0.638 -57.261
   2.400    0.411 -105.696    6.117  78.351    0.053  37.437    0.609 -60.694
   2.600    0.390 -112.430    5.772  72.587    0.057  35.703    0.583 -64.210
   2.800    0.358 -120.768    5.454  67.069    0.059  33.808    0.557 -67.504
   3.000    0.342 -127.611    5.171  61.661    0.062  31.980    0.533 -70.864
   3.500    0.302 -148.909    4.554  48.786    0.070  27.750    0.474 -79.298
   4.000    0.268 -170.765    4.048  36.487    0.078  22.327    0.418 -87.904
   4.500    0.267 167.316    3.635  24.718    0.087  16.931    0.364 -97.443
   5.000    0.278 145.199    3.274  13.167    0.095  10.842    0.306 -107.500
   5.500    0.304 124.091    2.938   1.434    0.101   2.894    0.239 -118.728
   6.000    0.332 108.746    2.690  -9.040    0.112  -2.603    0.195 -132.935
   6.500    0.366  94.602    2.419 -19.732    0.117  -9.946    0.137 -149.304
   7.000    0.348  83.704    2.191 -25.408    0.121  -4.314    0.125 -141.288
   7.500    0.436  73.897    2.085 -38.593    0.141 -19.063    0.104 157.979
   8.000    0.501  64.044    1.923 -49.937    0.151 -29.047    0.131 113.423
   8.500    0.555  52.597    1.734 -61.856    0.155 -40.994    0.186  77.959
   9.000    0.596  43.758    1.566 -72.195    0.157 -50.576    0.241  58.871
   9.500    0.630  34.438    1.395 -82.420    0.152 -59.892    0.299  42.832
  10.000    0.675  26.564    1.280 -93.473    0.158 -69.541    0.371  32.728
  10.500    0.707  18.853    1.145 -103.910    0.158 -79.147    0.431  21.766
  11.000    0.745   9.913    1.008 -114.973    0.153 -91.946    0.498  10.849
  11.500    0.758   1.786    0.870 -125.007    0.143 -102.600    0.555   0.469
  12.000    0.761  -6.520    0.746 -135.647    0.132 -115.906    0.610  -9.859
!     DEEMBEDDED NOISE DATA
!FREQUENCY    FMIN    GAMMA OPT        Rn
!  (GHz)      (dB)    Mag    Ang   (NORMALIZED)
