! Filename: 25bfg403.001
! BFG403W Field A1
! V1=8.967E-001V,V2=2.000E+000V, I1=7.791E-005A, I2=4.990E-003A
# GHz   S   MA   R 50
!                S11              S21              S12              S22
!Freq(GHz)  Mag     Ang      Mag     Ang      Mag     Ang      Mag     Ang 
   0.040    0.816  -1.701    9.469 176.818    0.000  57.989    0.984  -0.441
   0.100    0.818  -3.931    9.347 174.468    0.001  93.372    0.987  -2.029
   0.200    0.812  -7.757    9.312 169.371    0.003  83.620    0.986  -4.403
   0.300    0.804 -11.478    9.233 164.375    0.004  82.421    0.982  -6.677
   0.400    0.794 -15.010    9.146 159.320    0.005  78.506    0.977  -8.921
   0.500    0.777 -19.096    9.021 154.104    0.007  76.039    0.971 -11.071
   0.600    0.763 -22.528    8.833 149.346    0.008  73.916    0.964 -13.161
   0.700    0.745 -25.831    8.623 144.756    0.009  72.354    0.956 -15.242
   0.800    0.727 -29.197    8.428 140.119    0.010  70.402    0.947 -17.230
   0.900    0.706 -32.270    8.220 135.718    0.011  68.814    0.938 -19.198
   1.000    0.685 -35.341    8.004 131.402    0.012  67.303    0.928 -21.083
   1.100    0.665 -38.161    7.782 127.310    0.012  65.887    0.920 -22.837
   1.200    0.644 -40.896    7.562 123.286    0.013  64.820    0.910 -24.644
   1.300    0.623 -43.580    7.330 119.396    0.014  63.704    0.900 -26.364
   1.400    0.604 -46.011    7.122 115.784    0.015  62.846    0.891 -28.038
   1.500    0.582 -48.532    6.909 112.154    0.016  61.821    0.882 -29.645
   1.600    0.563 -50.853    6.710 108.706    0.016  61.359    0.874 -31.259
   1.700    0.543 -53.184    6.509 105.355    0.017  60.663    0.865 -32.821
   1.800    0.524 -55.366    6.314 102.107    0.018  60.087    0.857 -34.393
   1.900    0.506 -57.405    6.127  99.003    0.018  59.799    0.849 -35.958
   2.000    0.489 -59.549    5.948  95.937    0.019  59.476    0.841 -37.487
   2.200    0.455 -63.523    5.617  90.085    0.020  59.021    0.825 -40.507
   2.400    0.423 -67.359    5.312  84.495    0.022  58.778    0.810 -43.463
   2.600    0.394 -71.313    5.031  79.155    0.023  58.502    0.794 -46.423
   2.800    0.366 -75.203    4.779  74.020    0.025  58.157    0.780 -49.319
   3.000    0.341 -79.171    4.550  69.064    0.027  57.790    0.765 -52.286
   3.500    0.281 -89.942    4.063  57.239    0.032  56.210    0.728 -59.619
   4.000    0.232 -102.669    3.673  45.933    0.039  53.490    0.690 -67.116
   4.500    0.193 -119.326    3.360  35.031    0.046  49.207    0.650 -74.945
   5.000    0.164 -140.557    3.093  24.109    0.054  43.821    0.603 -82.987
   5.500    0.147 -166.257    2.846  13.085    0.061  37.762    0.550 -90.919
   6.000    0.161 166.639    2.673   1.705    0.071  28.843    0.491 -101.259
   6.500    0.173 149.837    2.478  -7.959    0.081  26.303    0.450 -109.523
   7.000    0.166 126.179    2.173 -18.278    0.074  24.259    0.368 -111.468
   7.500    0.238 119.473    2.191 -29.159    0.106  12.928    0.348 -133.443
   8.000    0.294 103.274    2.058 -42.243    0.118  -0.869    0.271 -155.878
   8.500    0.331  88.401    1.871 -54.601    0.122 -12.509    0.195 178.482
   9.000    0.372  76.263    1.727 -66.420    0.132 -23.259    0.175 143.414
   9.500    0.410  63.162    1.561 -78.841    0.136 -36.661    0.194 102.789
  10.000    0.441  51.393    1.402 -91.479    0.138 -49.074    0.256  72.149
  10.500    0.468  39.365    1.232 -104.024    0.137 -63.085    0.330  49.827
  11.000    0.482  27.473    1.058 -115.557    0.129 -76.931    0.399  31.998
  11.500    0.497  16.787    0.909 -127.227    0.121 -90.358    0.468  17.859
  12.000    0.501   5.232    0.750 -137.820    0.104 -106.231    0.521   4.039
!     DEEMBEDDED NOISE DATA
!FREQUENCY    FMIN    GAMMA OPT        Rn
!  (GHz)      (dB)    Mag    Ang   (NORMALIZED)
