! Filename: 29bfg425.001
! BFG425W Field C1
! V1=8.439E-001V,V2=2.000E+000V, I1=1.211E-004A, I2=8.990E-003A
# GHz   S   MA   R 50
!                S11              S21              S12              S22
!Freq(GHz)  Mag     Ang      Mag     Ang      Mag     Ang      Mag     Ang 
   0.040    0.654  -4.830   22.890 175.108    0.002  78.616    0.965  -2.557
   0.100    0.659 -12.422   22.375 169.280    0.006  84.177    0.960  -7.002
   0.200    0.639 -24.489   21.661 159.323    0.011  77.176    0.935 -13.989
   0.300    0.612 -35.981   20.688 150.429    0.016  71.895    0.899 -20.330
   0.400    0.580 -47.024   19.546 141.825    0.020  66.714    0.856 -25.994
   0.500    0.546 -57.323   18.339 133.725    0.024  62.841    0.809 -30.953
   0.600    0.515 -66.812   17.069 126.802    0.027  59.483    0.764 -35.255
   0.700    0.484 -75.478   15.882 120.622    0.030  56.540    0.721 -38.999
   0.800    0.455 -83.958   14.790 114.754    0.032  54.156    0.681 -42.235
   0.900    0.430 -91.460   13.783 109.507    0.035  52.305    0.646 -45.167
   1.000    0.407 -98.785   12.853 104.656    0.037  50.613    0.613 -47.766
   1.100    0.387 -105.554   12.021 100.207    0.039  49.202    0.584 -50.135
   1.200    0.371 -112.085   11.268  96.037    0.041  48.047    0.558 -52.345
   1.300    0.356 -118.246   10.586  92.144    0.043  47.010    0.534 -54.375
   1.400    0.344 -124.218    9.979  88.498    0.044  46.064    0.512 -56.248
   1.500    0.333 -130.127    9.426  85.005    0.046  45.255    0.492 -58.029
   1.600    0.324 -135.857    8.927  81.657    0.048  44.450    0.474 -59.798
   1.700    0.317 -141.203    8.468  78.501    0.050  43.699    0.458 -61.518
   1.800    0.310 -146.428    8.051  75.443    0.052  42.944    0.442 -63.183
   1.900    0.305 -151.481    7.670  72.502    0.054  42.151    0.428 -64.930
   2.000    0.301 -156.371    7.320  69.632    0.056  41.371    0.414 -66.638
   2.200    0.297 -165.921    6.703  64.139    0.060  39.773    0.388 -70.057
   2.400    0.295 -175.026    6.176  58.818    0.064  38.113    0.365 -73.486
   2.600    0.296 176.484    5.717  53.754    0.068  36.313    0.343 -77.054
   2.800    0.299 168.326    5.317  48.861    0.072  34.369    0.322 -80.682
   3.000    0.305 160.626    4.967  44.075    0.077  32.316    0.301 -84.498
   3.500    0.327 143.010    4.250  32.549    0.088  26.652    0.251 -94.855
   4.000    0.355 127.444    3.693  21.375    0.099  20.309    0.201 -107.137
   4.500    0.390 114.042    3.252  10.608    0.110  13.445    0.155 -123.070
   5.000    0.430 101.347    2.879  -0.373    0.119   5.487    0.109 -149.164
   5.500    0.461  89.427    2.543 -10.377    0.126  -1.184    0.076 175.255
   6.000    0.504  78.663    2.270 -21.027    0.133  -9.718    0.090 122.104
   6.500    0.514  71.443    2.083 -28.336    0.146 -12.431    0.105 109.437
   7.000    0.551  63.542    1.920 -37.805    0.159 -19.840    0.154  93.353
   7.500    0.609  53.900    1.727 -49.476    0.162 -31.712    0.232  72.804
   8.000    0.643  46.216    1.578 -58.981    0.168 -39.409    0.287  62.315
   8.500    0.681  38.106    1.427 -69.068    0.171 -48.706    0.349  51.350
   9.000    0.707  29.921    1.274 -78.136    0.169 -56.843    0.400  40.675
   9.500    0.734  22.560    1.153 -86.776    0.168 -65.094    0.437  32.143
  10.000    0.762  15.696    1.052 -96.667    0.170 -74.419    0.495  25.268
  10.500    0.782   8.628    0.947 -106.218    0.167 -83.455    0.546  17.299
  11.000    0.799   1.491    0.838 -115.165    0.161 -93.035    0.586   8.488
  11.500    0.811  -5.608    0.749 -124.541    0.155 -102.837    0.625   1.345
  12.000    0.817 -12.732    0.652 -133.639    0.145 -113.213    0.662  -6.850
!     DEEMBEDDED NOISE DATA
!FREQUENCY    FMIN    GAMMA OPT        Rn
!  (GHz)      (dB)    Mag    Ang   (NORMALIZED)
