! Filename: 115bfg425.001
! BFG425W Field C1
! V1=8.654E-001V,V2=1.000E+000V, I1=2.240E-004A, I2=1.501E-002A
# GHz   S   MA   R 50
!                S11              S21              S12              S22
!Freq(GHz)  Mag     Ang      Mag     Ang      Mag     Ang      Mag     Ang 
   0.040    0.469  -7.914   30.362 174.129    0.003  76.296    0.912  -3.865
   0.100    0.474 -19.838   29.608 166.022    0.007  81.580    0.902 -10.708
   0.200    0.452 -39.047   27.786 152.839    0.012  74.034    0.854 -21.301
   0.300    0.426 -55.697   25.612 141.785    0.017  68.639    0.790 -30.288
   0.400    0.399 -71.128   23.207 131.916    0.021  63.936    0.722 -37.659
   0.500    0.377 -85.177   20.932 123.285    0.025  60.326    0.657 -43.631
   0.600    0.358 -97.019   18.866 116.188    0.028  57.935    0.600 -48.592
   0.700    0.342 -107.606   17.070 110.066    0.031  55.944    0.549 -52.732
   0.800    0.330 -117.227   15.520 104.519    0.033  54.572    0.506 -56.216
   0.900    0.320 -125.504   14.188  99.638    0.036  53.421    0.470 -59.337
   1.000    0.312 -133.204   13.025  95.224    0.038  52.525    0.438 -62.113
   1.100    0.307 -140.114   12.029  91.159    0.041  51.596    0.411 -64.691
   1.200    0.304 -146.388   11.156  87.394    0.043  50.848    0.387 -67.130
   1.300    0.301 -152.314   10.390  83.861    0.045  50.087    0.365 -69.416
   1.400    0.300 -157.697    9.719  80.567    0.048  49.316    0.345 -71.573
   1.500    0.299 -163.035    9.122  77.413    0.050  48.581    0.328 -73.671
   1.600    0.299 -168.004    8.590  74.380    0.053  47.777    0.312 -75.810
   1.700    0.300 -172.543    8.109  71.490    0.055  46.910    0.297 -77.916
   1.800    0.301 -176.928    7.677  68.700    0.058  46.038    0.284 -80.015
   1.900    0.302 178.908    7.289  65.973    0.061  45.123    0.272 -82.274
   2.000    0.305 174.945    6.934  63.307    0.063  44.122    0.260 -84.554
   2.200    0.310 167.427    6.316  58.202    0.068  42.049    0.238 -89.260
   2.400    0.317 160.257    5.793  53.189    0.074  39.901    0.218 -94.196
   2.600    0.325 153.753    5.343  48.404    0.079  37.527    0.199 -99.647
   2.800    0.334 147.496    4.954  43.767    0.084  35.052    0.182 -105.527
   3.000    0.344 141.553    4.613  39.191    0.089  32.427    0.165 -112.142
   3.500    0.373 127.789    3.924  28.121    0.102  25.543    0.129 -132.851
   4.000    0.405 115.203    3.392  17.320    0.114  18.191    0.105 -162.301
   4.500    0.440 103.950    2.976   6.847    0.126  10.513    0.104 162.025
   5.000    0.480  92.939    2.623  -3.822    0.136   2.040    0.130 128.054
   5.500    0.509  82.429    2.311 -13.486    0.143  -5.160    0.159 104.352
   6.000    0.549  72.655    2.057 -23.819    0.149 -13.897    0.210  87.009
   6.500    0.559  65.845    1.886 -31.025    0.163 -17.775    0.228  80.210
   7.000    0.592  58.306    1.733 -40.289    0.174 -25.553    0.277  72.433
   7.500    0.644  49.273    1.553 -51.513    0.175 -36.912    0.351  60.066
   8.000    0.675  41.908    1.417 -60.672    0.180 -44.676    0.399  51.730
   8.500    0.707  34.212    1.280 -70.288    0.181 -53.724    0.452  42.808
   9.000    0.730  26.437    1.144 -78.881    0.178 -61.589    0.494  33.794
   9.500    0.752  19.419    1.038 -87.165    0.177 -69.599    0.524  26.234
  10.000    0.777  12.856    0.947 -96.650    0.177 -78.485    0.572  19.692
  10.500    0.794   6.101    0.855 -105.730    0.174 -87.171    0.613  12.361
  11.000    0.808  -0.809    0.762 -114.213    0.167 -96.224    0.644   4.360
  11.500    0.819  -7.577    0.684 -123.155    0.160 -105.426    0.675  -2.299
  12.000    0.825 -14.512    0.600 -131.895    0.151 -115.153    0.705  -9.886
!     DEEMBEDDED NOISE DATA
!FREQUENCY    FMIN    GAMMA OPT        Rn
!  (GHz)      (dB)    Mag    Ang   (NORMALIZED)
