! Filename: 25bfg425.001
! BFG425W Field C1
! V1=8.298E-001V,V2=2.000E+000V, I1=6.614E-005A, I2=5.000E-003A
# GHz   S   MA   R 50
!                S11              S21              S12              S22
!Freq(GHz)  Mag     Ang      Mag     Ang      Mag     Ang      Mag     Ang 
   0.040    0.783  -3.864   14.940 176.083    0.002  76.632    0.979  -2.143
   0.100    0.789  -9.347   14.625 171.642    0.006  84.956    0.976  -5.464
   0.200    0.777 -18.554   14.360 163.780    0.012  78.747    0.962 -11.031
   0.300    0.759 -27.580   14.018 156.521    0.018  73.832    0.942 -16.281
   0.400    0.734 -36.329   13.588 149.172    0.023  68.958    0.915 -21.273
   0.500    0.707 -44.813   13.106 142.122    0.028  64.579    0.884 -25.830
   0.600    0.680 -52.892   12.513 135.745    0.032  60.529    0.852 -30.106
   0.700    0.652 -60.561   11.933 129.811    0.036  56.664    0.817 -34.060
   0.800    0.623 -68.139   11.374 124.039    0.039  53.488    0.783 -37.641
   0.900    0.594 -75.107   10.827 118.671    0.042  50.624    0.751 -40.979
   1.000    0.567 -81.910   10.277 113.589    0.044  47.988    0.720 -44.028
   1.100    0.543 -88.354    9.760 108.883    0.047  45.593    0.691 -46.856
   1.200    0.521 -94.563    9.272 104.380    0.049  43.540    0.663 -49.519
   1.300    0.500 -100.541    8.816 100.164    0.051  41.682    0.637 -51.993
   1.400    0.480 -106.351    8.397  96.144    0.053  40.039    0.612 -54.269
   1.500    0.463 -112.066    7.999  92.308    0.054  38.567    0.590 -56.428
   1.600    0.447 -117.771    7.635  88.594    0.056  37.199    0.569 -58.521
   1.700    0.433 -123.099    7.289  85.040    0.057  35.994    0.549 -60.543
   1.800    0.421 -128.336    6.969  81.649    0.059  34.871    0.530 -62.480
   1.900    0.410 -133.384    6.672  78.413    0.061  33.798    0.513 -64.422
   2.000    0.400 -138.388    6.395  75.248    0.062  32.820    0.497 -66.309
   2.200    0.385 -148.267    5.899  69.193    0.065  30.962    0.466 -70.014
   2.400    0.374 -157.816    5.466  63.422    0.068  29.274    0.438 -73.615
   2.600    0.366 -166.997    5.083  57.911    0.071  27.603    0.411 -77.305
   2.800    0.362 -175.889    4.745  52.600    0.074  25.902    0.386 -80.931
   3.000    0.361 175.513    4.445  47.423    0.078  24.217    0.363 -84.718
   3.500    0.371 155.576    3.825  35.070    0.087  19.589    0.307 -94.664
   4.000    0.391 137.735    3.334  23.177    0.096  14.283    0.253 -105.912
   4.500    0.420 122.245    2.941  11.865    0.106   8.539    0.203 -119.589
   5.000    0.456 107.772    2.607   0.417    0.114   1.283    0.151 -139.373
   5.500    0.484  94.694    2.304 -10.041    0.120  -4.575    0.106 -163.135
   6.000    0.524  82.808    2.058 -21.056    0.126 -12.575    0.090 150.514
   6.500    0.535  74.870    1.884 -28.672    0.140 -14.118    0.099 132.609
   7.000    0.571  66.186    1.735 -38.364    0.152 -20.990    0.140 108.049
   7.500    0.626  55.884    1.561 -50.262    0.155 -32.876    0.209  81.748
   8.000    0.659  47.786    1.426 -59.957    0.162 -40.258    0.264  69.089
   8.500    0.694  39.369    1.289 -70.236    0.166 -49.432    0.327  56.624
   9.000    0.719  31.038    1.150 -79.489    0.164 -57.460    0.378  44.944
   9.500    0.744  23.499    1.039 -88.155    0.164 -65.653    0.417  35.955
  10.000    0.770  16.447    0.949 -98.192    0.165 -74.972    0.478  28.672
  10.500    0.790   9.347    0.853 -107.854    0.163 -83.968    0.531  20.362
  11.000    0.805   2.094    0.755 -116.937    0.157 -93.622    0.573  11.174
  11.500    0.816  -4.958    0.674 -126.427    0.151 -103.545    0.615   3.821
  12.000    0.821 -12.060    0.586 -135.767    0.141 -114.059    0.655  -4.636
!     DEEMBEDDED NOISE DATA
!FREQUENCY    FMIN    GAMMA OPT        Rn
!  (GHz)      (dB)    Mag    Ang   (NORMALIZED)
