! Filename: 33bfg410.001
! BFG410W Field B1
! V1=8.408E-001V,V2=3.000E+000V, I1=4.058E-005A, I2=3.000E-003A
# GHz   S   MA   R 50
!                S11              S21              S12              S22
!Freq(GHz)  Mag     Ang      Mag     Ang      Mag     Ang      Mag     Ang 
   0.040    0.863  -2.194    9.097 177.222    0.001  56.642    0.995  -0.814
   0.100    0.871  -4.506    8.900 174.866    0.003  84.955    0.994  -2.482
   0.200    0.867  -8.981    8.803 169.969    0.006  82.027    0.986  -5.508
   0.300    0.860 -13.603    8.767 165.947    0.008  80.254    0.984  -8.068
   0.400    0.852 -17.778    8.723 160.832    0.011  77.425    0.977 -10.929
   0.500    0.841 -22.339    8.639 156.301    0.014  74.332    0.968 -13.373
   0.600    0.829 -26.732    8.512 151.854    0.016  71.856    0.961 -15.931
   0.700    0.816 -30.976    8.351 147.424    0.018  68.964    0.949 -18.576
   0.800    0.802 -35.283    8.226 143.169    0.021  66.664    0.938 -20.978
   0.900    0.785 -39.324    8.099 138.921    0.023  64.217    0.926 -23.435
   1.000    0.767 -43.542    7.944 134.677    0.025  61.906    0.912 -25.769
   1.100    0.750 -47.470    7.787 130.711    0.027  59.664    0.900 -27.945
   1.200    0.731 -51.391    7.626 126.672    0.029  57.713    0.887 -30.198
   1.300    0.713 -55.240    7.457 122.853    0.030  55.665    0.873 -32.309
   1.400    0.694 -59.040    7.302 119.068    0.032  53.783    0.859 -34.339
   1.500    0.674 -62.842    7.136 115.327    0.033  51.989    0.845 -36.343
   1.600    0.654 -66.594    6.979 111.676    0.035  50.362    0.832 -38.269
   1.700    0.636 -70.140    6.819 108.143    0.036  48.782    0.819 -40.179
   1.800    0.617 -73.706    6.647 104.649    0.037  47.353    0.805 -42.035
   1.900    0.600 -77.082    6.484 101.379    0.039  45.958    0.792 -43.874
   2.000    0.582 -80.527    6.321  98.093    0.040  44.724    0.779 -45.663
   2.200    0.547 -87.349    6.020  91.716    0.042  42.390    0.754 -49.145
   2.400    0.514 -94.092    5.734  85.548    0.044  40.361    0.730 -52.508
   2.600    0.482 -100.757    5.462  79.683    0.046  38.535    0.707 -55.840
   2.800    0.454 -107.534    5.209  73.973    0.048  36.898    0.684 -59.061
   3.000    0.427 -114.344    4.974  68.429    0.050  35.363    0.662 -62.298
   3.500    0.367 -132.247    4.455  55.116    0.056  31.739    0.609 -70.367
   4.000    0.322 -151.816    4.011  42.364    0.063  27.899    0.556 -78.437
   4.500    0.296 -172.900    3.638  30.219    0.071  23.383    0.505 -87.023
   5.000    0.285 164.525    3.304  18.235    0.078  17.973    0.449 -95.848
   5.500    0.291 141.290    2.991   6.078    0.084  10.848    0.382 -105.074
   6.000    0.315 124.008    2.755  -4.742    0.095   6.107    0.335 -115.341
   6.500    0.341 105.931    2.489 -15.830    0.100  -0.265    0.272 -125.280
   7.000    0.318  95.688    2.246 -21.776    0.106   7.581    0.263 -123.408
   7.500    0.412  84.303    2.160 -35.241    0.128  -8.361    0.203 -152.968
   8.000    0.473  72.184    2.006 -47.005    0.140 -18.994    0.162 176.201
   8.500    0.533  59.903    1.820 -59.480    0.145 -31.742    0.138 129.117
   9.000    0.578  49.346    1.648 -70.514    0.148 -41.627    0.162  91.864
   9.500    0.614  39.008    1.461 -81.128    0.145 -51.702    0.209  63.263
  10.000    0.663  31.343    1.347 -92.607    0.153 -61.846    0.287  47.642
  10.500    0.701  22.469    1.202 -103.748    0.153 -72.521    0.356  33.001
  11.000    0.735  13.469    1.054 -115.432    0.149 -86.083    0.433  19.195
  11.500    0.753   4.634    0.904 -126.439    0.138 -98.213    0.500   6.916
  12.000    0.766  -4.118    0.765 -137.493    0.127 -112.248    0.564  -4.974
!     DEEMBEDDED NOISE DATA
!FREQUENCY    FMIN    GAMMA OPT        Rn
!  (GHz)      (dB)    Mag    Ang   (NORMALIZED)
