! Filename: 3_260BFG480.001
! Title: BFG480W
! Bias: Vce=3.2V; Ic=60mA
! Company: Philips Semiconductors NL
! User: Quality&Reliability T&D
! Measure time: 10 Nov 1999 / 11:57:10
#  MHz  S  MA  R 50
! Freq       S11             S21             S12             S22    :
  100  0.35159 -141.5 49.81484 148.88 0.007262 68.855  0.80449 -39.66
  200  0.51440 -151.3 38.81883 128.20 0.011431 58.229  0.65634 -69.58
  300  0.58825 -159.3 30.15106 115.59 0.013883 55.156  0.55377 -89.85
  400  0.62556 -164.8 24.13739 107.17 0.015768 55.423  0.49507 -104.2
  500  0.64733 -168.9 19.97954 101.05 0.017565 56.835  0.46039 -114.8
  600  0.66098 -172.2 16.91511 96.314 0.019315 58.631  0.43891 -122.8
  700  0.67013 -174.9 14.64293 92.507 0.021112 60.681  0.42459 -129.1
  800  0.67784 -177.3 12.85998 89.252 0.023074 62.772  0.41519 -134.3
  900  0.68643 -179.5 11.43177 86.476 0.024990 64.706  0.40976 -138.8
 1000  0.69353 178.51 10.28541 83.868 0.027181 66.151  0.40788 -142.9
 1200  0.70871 175.12  8.49659 78.977 0.031457 68.397  0.41238 -149.4
 1400  0.71990 172.58  7.19791 74.223 0.035778 70.083  0.42117 -154.4
 1600  0.72576 170.09  6.27997 70.345 0.040854 71.428  0.42672 -158.1
 1800  0.72638 167.37  5.58532 66.956 0.046288 72.415  0.43328 -162.0
 2000  0.73679 165.03  4.94426 63.999 0.050910 73.376  0.44357 -166.4
 2200  0.75708 162.78  4.41362 60.471 0.055270 73.554  0.46225 -170.2
 2400  0.76772 160.96  3.95624 56.796 0.060080 73.360  0.48603 -172.7
 2600  0.76834 159.24  3.61823 53.478 0.066067 72.895  0.50428 -174.3
 2800  0.76449 156.97  3.35588 49.083 0.070761 71.685  0.51272 -176.2
 3000  0.76952 154.27  3.11592 45.692 0.076067 71.070  0.52011 -179.2
