! Filename: 33bfg425.001
! BFG425W Field C1
! V1=8.136E-001V,V2=3.000E+000V, I1=3.574E-005A, I2=3.000E-003A
# GHz   S   MA   R 50
!                S11              S21              S12              S22
!Freq(GHz)  Mag     Ang      Mag     Ang      Mag     Ang      Mag     Ang 
   0.040    0.870  -3.173    9.707 176.709    0.002  71.469    0.986  -1.570
   0.100    0.876  -7.244    9.497 173.270    0.006  84.272    0.986  -4.129
   0.200    0.868 -14.428    9.419 167.035    0.012  79.575    0.980  -8.190
   0.300    0.857 -21.568    9.303 161.313    0.017  75.692    0.969 -12.180
   0.400    0.841 -28.553    9.170 155.080    0.022  71.328    0.955 -16.056
   0.500    0.824 -35.542    9.004 148.974    0.027  67.260    0.937 -19.854
   0.600    0.804 -42.288    8.745 143.374    0.032  63.428    0.917 -23.430
   0.700    0.783 -48.838    8.485 138.103    0.036  59.629    0.896 -26.864
   0.800    0.761 -55.420    8.247 132.794    0.040  56.099    0.873 -30.125
   0.900    0.737 -61.616    8.004 127.730    0.043  52.812    0.849 -33.260
   1.000    0.713 -67.818    7.735 122.749    0.047  49.795    0.826 -36.202
   1.100    0.690 -73.722    7.465 118.093    0.049  46.857    0.803 -38.994
   1.200    0.667 -79.486    7.201 113.545    0.052  44.152    0.781 -41.675
   1.300    0.646 -85.099    6.944 109.226    0.054  41.684    0.758 -44.222
   1.400    0.624 -90.695    6.700 105.023    0.056  39.342    0.736 -46.606
   1.500    0.603 -96.108    6.461 100.968    0.058  37.231    0.715 -48.872
   1.600    0.583 -101.614    6.235  97.006    0.060  35.219    0.695 -51.062
   1.700    0.565 -106.740    6.013  93.247    0.061  33.426    0.676 -53.202
   1.800    0.549 -111.854    5.795  89.574    0.063  31.671    0.657 -55.244
   1.900    0.534 -116.803    5.589  86.102    0.064  30.141    0.640 -57.271
   2.000    0.520 -121.703    5.391  82.675    0.065  28.685    0.623 -59.240
   2.200    0.494 -131.499    5.033  76.073    0.067  26.043    0.590 -63.031
   2.400    0.473 -141.062    4.709  69.800    0.069  23.831    0.560 -66.691
   2.600    0.457 -150.338    4.414  63.810    0.071  21.760    0.532 -70.314
   2.800    0.443 -159.515    4.147  58.040    0.073  19.960    0.506 -73.844
   3.000    0.434 -168.451    3.908  52.431    0.075  18.219    0.480 -77.442
   3.500    0.425 170.032    3.398  39.097    0.081  14.303    0.420 -86.521
   4.000    0.431 150.204    2.983  26.360    0.087  10.123    0.362 -96.107
   4.500    0.451 132.644    2.644  14.330    0.095   5.721    0.307 -106.757
   5.000    0.481 116.244    2.353   2.282    0.102  -0.445    0.247 -119.970
   5.500    0.504 101.756    2.083  -8.814    0.107  -5.146    0.190 -132.710
   6.000    0.541  88.602    1.865 -20.283    0.113 -12.342    0.136 -155.928
   6.500    0.554  79.541    1.705 -28.298    0.126 -12.023    0.124 -171.923
   7.000    0.588  69.994    1.570 -38.337    0.140 -18.162    0.125 154.251
   7.500    0.640  58.994    1.416 -50.509    0.144 -30.256    0.156 109.926
   8.000    0.672  50.337    1.294 -60.512    0.151 -37.416    0.205  88.618
   8.500    0.706  41.602    1.170 -71.112    0.156 -46.641    0.267  70.458
   9.000    0.730  32.950    1.042 -80.750    0.155 -54.661    0.320  55.265
   9.500    0.754  25.144    0.938 -89.529    0.156 -62.973    0.360  44.615
  10.000    0.779  17.889    0.857 -99.889    0.158 -72.478    0.429  36.241
  10.500    0.797  10.606    0.770 -109.767    0.157 -81.638    0.490  26.816
  11.000    0.811   3.255    0.680 -119.118    0.151 -91.624    0.538  16.592
  11.500    0.821  -3.866    0.605 -128.922    0.145 -102.008    0.586   8.572
  12.000    0.826 -11.024    0.526 -138.467    0.136 -112.908    0.633  -0.578
!     DEEMBEDDED NOISE DATA
!FREQUENCY    FMIN    GAMMA OPT        Rn
!  (GHz)      (dB)    Mag    Ang   (NORMALIZED)
