! Filename: 127bfg425.001
! BFG425W Field C1
! V1=8.847E-001V,V2=1.000E+000V, I1=4.360E-004A, I2=2.749E-002A
# GHz   S   MA   R 50
!                S11              S21              S12              S22
!Freq(GHz)  Mag     Ang      Mag     Ang      Mag     Ang      Mag     Ang 
   0.040    0.236 -14.837   36.961 172.956    0.002  66.710    0.837  -4.588
   0.100    0.250 -38.170   35.632 162.407    0.006  79.140    0.823 -13.261
   0.200    0.265 -72.250   31.583 145.947    0.011  72.426    0.755 -26.111
   0.300    0.270 -93.001   28.450 133.797    0.015  67.635    0.673 -36.017
   0.400    0.279 -111.159   24.833 123.553    0.018  64.462    0.594 -43.244
   0.500    0.290 -125.574   21.713 115.102    0.021  62.629    0.527 -48.745
   0.600    0.295 -136.474   19.123 108.368    0.024  61.423    0.474 -52.986
   0.700    0.299 -145.186   16.993 102.691    0.027  60.503    0.429 -56.419
   0.800    0.303 -152.818   15.243  97.629    0.029  59.872    0.393 -59.267
   0.900    0.306 -159.169   13.798  93.173    0.032  59.237    0.363 -61.806
   1.000    0.309 -164.941   12.571  89.168    0.035  58.556    0.338 -64.158
   1.100    0.312 -169.941   11.533  85.452    0.038  57.728    0.317 -66.386
   1.200    0.315 -174.447   10.641  81.997    0.040  56.997    0.298 -68.575
   1.300    0.318 -178.655    9.869  78.756    0.043  56.266    0.281 -70.656
   1.400    0.321 177.465    9.201  75.720    0.046  55.405    0.266 -72.659
   1.500    0.325 173.647    8.614  72.780    0.049  54.470    0.253 -74.679
   1.600    0.328 170.052    8.091  69.939    0.051  53.481    0.240 -76.801
   1.700    0.332 166.758    7.623  67.237    0.054  52.454    0.229 -78.973
   1.800    0.335 163.514    7.205  64.609    0.057  51.387    0.219 -81.130
   1.900    0.338 160.386    6.830  62.018    0.060  50.203    0.209 -83.538
   2.000    0.342 157.365    6.487  59.492    0.063  49.073    0.200 -86.043
   2.200    0.350 151.603    5.891  54.558    0.068  46.546    0.182 -91.234
   2.400    0.359 146.001    5.394  49.804    0.074  43.978    0.166 -96.892
   2.600    0.369 140.827    4.966  45.181    0.080  41.263    0.150 -103.357
   2.800    0.379 135.712    4.598  40.691    0.086  38.402    0.136 -110.518
   3.000    0.389 130.777    4.277  36.234    0.091  35.557    0.122 -118.891
   3.500    0.418 119.173    3.629  25.405    0.105  27.975    0.096 -146.068
   4.000    0.450 108.103    3.131  14.811    0.117  20.141    0.088 176.681
   4.500    0.482  98.013    2.742   4.500    0.129  12.015    0.105 141.729
   5.000    0.520  87.919    2.411  -5.995    0.139   3.293    0.143 114.661
   5.500    0.548  78.104    2.123 -15.558    0.146  -4.115    0.178  95.573
   6.000    0.585  68.968    1.888 -25.663    0.152 -12.963    0.231  81.326
   6.500    0.594  62.294    1.731 -32.864    0.166 -17.355    0.249  75.006
   7.000    0.625  54.950    1.588 -42.023    0.177 -25.370    0.297  68.001
   7.500    0.672  46.389    1.423 -52.967    0.177 -36.486    0.368  56.927
   8.000    0.699  39.259    1.297 -61.967    0.182 -44.300    0.415  49.043
   8.500    0.730  31.812    1.173 -71.422    0.183 -53.311    0.466  40.564
   9.000    0.751  24.318    1.050 -79.792    0.180 -61.158    0.506  31.956
   9.500    0.771  17.531    0.955 -87.987    0.179 -69.046    0.535  24.670
  10.000    0.792  11.101    0.871 -97.255    0.178 -77.887    0.581  18.350
  10.500    0.808   4.532    0.789 -106.149    0.175 -86.476    0.620  11.247
  11.000    0.820  -2.157    0.704 -114.482    0.168 -95.391    0.651   3.474
  11.500    0.829  -8.811    0.634 -123.277    0.162 -104.441    0.680  -3.043
  12.000    0.834 -15.518    0.558 -131.901    0.153 -113.974    0.709 -10.437
!     DEEMBEDDED NOISE DATA
!FREQUENCY    FMIN    GAMMA OPT        Rn
!  (GHz)      (dB)    Mag    Ang   (NORMALIZED)
