! Filename: 43bfg403.001
! BFG403W Field A1
! V1=8.700E-001V,V2=4.000E+000V, I1=3.935E-005A, I2=3.000E-003A
# GHz   S   MA   R 50
!                S11              S21              S12              S22
!Freq(GHz)  Mag     Ang      Mag     Ang      Mag     Ang      Mag     Ang 
   0.040    0.886  -1.467    7.231 176.035    0.001  53.989    0.993  -0.563
   0.100    0.890  -2.974    7.054 174.804    0.001  90.937    0.994  -1.843
   0.200    0.888  -6.030    7.001 171.077    0.003  83.598    0.991  -4.038
   0.300    0.884  -9.066    6.966 167.705    0.004  82.802    0.990  -6.011
   0.400    0.878 -11.828    6.946 163.446    0.005  80.982    0.987  -8.119
   0.500    0.870 -15.175    6.907 159.323    0.006  77.785    0.983 -10.051
   0.600    0.861 -18.013    6.828 155.465    0.007  76.443    0.979 -12.006
   0.700    0.851 -20.817    6.734 151.681    0.009  74.638    0.973 -14.025
   0.800    0.840 -23.758    6.658 147.854    0.010  72.718    0.968 -15.895
   0.900    0.828 -26.488    6.576 144.110    0.011  71.107    0.962 -17.827
   1.000    0.815 -29.245    6.484 140.313    0.012  69.743    0.955 -19.718
   1.100    0.801 -31.908    6.384 136.730    0.013  68.072    0.948 -21.494
   1.200    0.787 -34.523    6.283 133.101    0.014  66.865    0.941 -23.351
   1.300    0.772 -37.087    6.169 129.614    0.015  65.477    0.933 -25.122
   1.400    0.758 -39.503    6.068 126.202    0.015  64.234    0.925 -26.840
   1.500    0.741 -42.053    5.958 122.793    0.016  62.751    0.918 -28.551
   1.600    0.725 -44.438    5.853 119.463    0.017  61.946    0.910 -30.212
   1.700    0.710 -46.829    5.741 116.227    0.018  60.891    0.902 -31.868
   1.800    0.694 -49.130    5.625 113.012    0.019  59.769    0.894 -33.506
   1.900    0.679 -51.270    5.512 109.993    0.019  59.078    0.886 -35.128
   2.000    0.664 -53.493    5.400 106.949    0.020  58.233    0.878 -36.739
   2.200    0.633 -57.772    5.189 101.039    0.021  56.971    0.862 -39.879
   2.400    0.603 -61.929    4.985  95.323    0.023  56.100    0.847 -42.951
   2.600    0.575 -66.018    4.787  89.860    0.024  55.139    0.831 -45.995
   2.800    0.547 -70.051    4.601  84.545    0.026  54.301    0.815 -48.977
   3.000    0.521 -73.977    4.431  79.409    0.027  53.638    0.800 -51.974
   3.500    0.457 -84.096    4.047  67.038    0.032  52.045    0.760 -59.338
   4.000    0.402 -94.682    3.721  55.215    0.037  49.962    0.720 -66.803
   4.500    0.355 -106.693    3.452  43.863    0.043  46.801    0.679 -74.486
   5.000    0.311 -120.296    3.218  32.522    0.050  42.239    0.631 -82.373
   5.500    0.269 -135.900    2.990  21.079    0.056  36.902    0.577 -90.096
   6.000    0.249 -155.480    2.834   9.361    0.066  28.770    0.521 -100.099
   6.500    0.233 -170.429    2.643  -0.493    0.074  28.020    0.480 -107.742
   7.000    0.183 170.231    2.324 -11.296    0.066  26.878    0.394 -109.506
   7.500    0.251 152.228    2.372 -22.191    0.099  16.506    0.382 -129.899
   8.000    0.290 129.284    2.252 -35.581    0.113   2.532    0.305 -150.347
   8.500    0.318 109.256    2.064 -48.392    0.118  -9.166    0.223 -172.493
   9.000    0.362  93.114    1.920 -60.732    0.129 -19.922    0.191 156.452
   9.500    0.405  76.629    1.746 -73.621    0.134 -33.818    0.192 115.624
  10.000    0.446  62.281    1.580 -86.981    0.138 -46.826    0.243  80.880
  10.500    0.483  48.093    1.391 -100.329    0.137 -61.645    0.314  55.438
  11.000    0.502  34.576    1.192 -112.573    0.129 -76.334    0.384  35.693
  11.500    0.525  22.836    1.020 -125.000    0.121 -90.683    0.455  20.381
  12.000    0.532  10.355    0.837 -136.143    0.103 -108.016    0.509   5.601
!     DEEMBEDDED NOISE DATA
!FREQUENCY    FMIN    GAMMA OPT        Rn
!  (GHz)      (dB)    Mag    Ang   (NORMALIZED)
