! Filename BFG424W_2V_20mA.prm
! Simulation_Values
!	! Created	by	janssen	on	Thu	Sep	15	10:02:03	WETDST	2005
!	Column ranking S11, S21,S12,S22 both magnitude and phase.									
!	VCE	=	2	V,	IC	=	20	mA		
!	Common	Emitter	S-Parameters							
#	GHz	S	MA	R	50					
	1.00E-01	0.446	-18.846	34.932	165.837	0.005	90.23	0.938	-8.598	
	2.00E-01	0.423	-37.818	32.558	153.01	0.009	77.027	0.887	-17.238	
	3.00E-01	0.392	-54.214	29.426	142.079	0.013	71.759	0.819	-23.935	
	4.00E-01	0.363	-68.711	26.368	133.096	0.016	68.892	0.751	-28.973	
	5.00E-01	0.336	-81.483	23.543	125.567	0.019	67.183	0.69	-32.64	
	6.00E-01	0.314	-92.73	21.071	119.411	0.021	66.317	0.637	-35.342	
	7.00E-01	0.297	-102.593	18.949	114.225	0.023	65.972	0.593	-37.351	
	8.00E-01	0.283	-111.309	17.157	109.853	0.026	66.023	0.556	-38.84	
	9.00E-01	0.273	-119.393	15.643	105.963	0.028	66.152	0.525	-40.042	
	1.00E+00	0.266	-126.477	14.345	102.583	0.03	66.674	0.5	-41.041	
	1.10E+00	0.26	-133.17	13.222	99.531	0.032	67.048	0.477	-41.955	
	1.20E+00	0.256	-139.173	12.252	96.771	0.034	67.321	0.458	-42.791
	1.30E+00	0.254	-144.684	11.414	94.211	0.036	67.253	0.441	-43.65
	1.40E+00	0.253	-149.934	10.666	91.858	0.039	67.533	0.426	-44.457
	1.50E+00	0.253	-154.706	10.008	89.65	0.041	67.661	0.413	-45.34
	1.60E+00	0.254	-159.189	9.422	87.53	0.043	67.981	0.401	-46.23
	1.70E+00	0.255	-163.346	8.898	85.558	0.045	68.129	0.39	-47.244
	1.80E+00	0.258	-167.326	8.425	83.662	0.048	68.137	0.379	-48.233
	1.90E+00	0.26	-171.114	7.999	81.902	0.05	68.141	0.369	-49.27
	2.00E+00	0.263	-174.636	7.61	80.153	0.052	68.086	0.36	-50.401
	2.10E+00	0.267	-177.827	7.255	78.501	0.055	68.112	0.351	-51.585
	2.20E+00	0.271	178.851	6.932	76.856	0.057	67.957	0.342	-52.825
	2.30E+00	0.275	175.868	6.631	75.271	0.059	67.936	0.334	-54.094
	2.40E+00	0.279	173.019	6.356	73.794	0.062	67.604	0.326	-55.442
	2.50E+00	0.284	170.408	6.105	72.381	0.064	67.647	0.318	-56.789
	2.60E+00	0.29	167.777	5.868	70.933	0.067	67.312	0.31	-58.28
	2.70E+00	0.295	165.187	5.654	69.503	0.069	67.366	0.302	-59.789
	2.80E+00	0.3	162.905	5.445	68.131	0.071	66.917	0.295	-61.419
	2.90E+00	0.306	160.629	5.255	66.74	0.074	66.752	0.287	-63.018
	3.00E+00	0.313	158.479	5.083	65.429	0.077	66.493	0.28	-64.806
	3.10E+00	0.319	156.287	4.914	64.126	0.079	66.151	0.273	-66.669
	3.20E+00	0.325	154.182	4.757	62.809	0.082	65.686	0.265	-68.574
	3.30E+00	0.332	152.163	4.612	61.525	0.084	65.39	0.258	-70.582
	3.40E+00	0.338	150.218	4.473	60.246	0.087	65.022	0.251	-72.658
	3.50E+00	0.345	148.441	4.342	58.986	0.089	64.57	0.244	-75.019
	3.60E+00	0.352	146.477	4.217	57.742	0.092	64.036	0.237	-77.429
	3.70E+00	0.36	144.72	4.096	56.535	0.094	63.643	0.23	-79.794
	3.80E+00	0.366	142.991	3.989	55.329	0.097	63.196	0.223	-82.385
	3.90E+00	0.374	141.44	3.882	54.113	0.1	62.639	0.216	-85.214
	4.00E+00	0.381	139.632	3.776	52.93	0.102	62.15	0.21	-88.082
	4.10E+00	0.389	138.115	3.686	51.722	0.104	61.732	0.203	-91.041
	4.20E+00	0.396	136.495	3.592	50.632	0.107	61.256	0.197	-94.246
	4.30E+00	0.404	134.903	3.502	49.451	0.109	60.669	0.191	-97.556
	4.40E+00	0.411	133.34	3.418	48.326	0.112	60.19	0.185	-101.001
	4.50E+00	0.419	131.96	3.341	47.26	0.115	59.879	0.181	-104.606
	4.60E+00	0.426	130.505	3.26	46.101	0.117	59.22	0.176	-108.484
	4.70E+00	0.434	129.054	3.19	45.021	0.12	58.543	0.172	-112.6
	4.80E+00	0.442	127.587	3.118	43.954	0.122	58.188	0.167	-116.742
	4.90E+00	0.449	126.28	3.05	42.808	0.125	57.706	0.165	-121.107
	5.00E+00	0.456	124.809	2.989	41.791	0.127	56.902	0.162	-125.737
	5.10E+00	0.464	123.343	2.924	40.821	0.129	56.309	0.159	-130.28
	5.20E+00	0.472	122.131	2.863	39.682	0.132	55.987	0.158	-134.773
	5.30E+00	0.479	120.928	2.812	38.632	0.135	55.29	0.157	-139.624
	5.40E+00	0.486	119.419	2.754	37.661	0.137	54.479	0.157	-144.64
	5.50E+00	0.494	118.239	2.7	36.544	0.139	53.981	0.157	-149.275
	5.60E+00	0.501	117.148	2.654	35.511	0.142	53.606	0.158	-153.904
	5.70E+00	0.508	115.883	2.602	34.581	0.145	52.78	0.161	-158.678
	5.80E+00	0.516	114.607	2.555	33.453	0.147	52.022	0.163	-163.339
	5.90E+00	0.523	113.385	2.511	32.463	0.149	51.575	0.166	-167.69
	6.00E+00	0.53	112.265	2.462	31.542	0.152	51.084	0.17	-171.988
	6.10E+00	0.537	111.108	2.421	30.475	0.154	50.26	0.173	-175.995
	6.20E+00	0.543	110.087	2.384	29.551	0.156	49.559	0.178	-179.945
	6.30E+00	0.55	108.904	2.34	28.586	0.158	49.248	0.183	176.324
	6.40E+00	0.557	107.862	2.303	27.527	0.161	48.62	0.189	172.891
	6.50E+00	0.563	106.796	2.27	26.606	0.163	47.791	0.194	169.528
	6.60E+00	0.57	105.626	2.23	25.659	0.165	47.219	0.2	166.326
	6.70E+00	0.577	104.647	2.196	24.576	0.168	46.983	0.207	163.343
	6.80E+00	0.582	103.599	2.164	23.706	0.171	46.13	0.214	160.322
	6.90E+00	0.589	102.386	2.127	22.732	0.172	45.231	0.22	157.391
	7.00E+00	0.596	101.429	2.096	21.693	0.174	44.824	0.227	154.781
	7.10E+00	0.601	100.427	2.066	20.812	0.177	44.464	0.234	152.228
	7.20E+00	0.606	99.378	2.033	19.907	0.18	43.557	0.24	149.993
	7.30E+00	0.612	98.407	2.006	18.893	0.181	42.827	0.248	147.752
	7.40E+00	0.617	97.504	1.978	18.043	0.183	42.519	0.255	145.709
	7.50E+00	0.623	96.525	1.949	17.052	0.187	41.797	0.263	143.344
	7.60E+00	0.628	95.49	1.924	16.045	0.189	40.826	0.27	141.327
	7.70E+00	0.633	94.529	1.897	15.257	0.19	40.258	0.277	139.356
	7.80E+00	0.638	93.635	1.867	14.257	0.192	39.87	0.285	137.595
	7.90E+00	0.643	92.804	1.847	13.357	0.196	38.946	0.292	135.796
	8.00E+00	0.647	91.69	1.822	12.579	0.197	38.143	0.299	134.132
	8.10E+00	0.651	90.867	1.796	11.568	0.198	37.692	0.306	132.554
	8.20E+00	0.655	90.125	1.777	10.676	0.201	37.352	0.314	130.988
	8.30E+00	0.66	89.193	1.754	9.911	0.204	36.299	0.321	129.387
	8.40E+00	0.664	88.353	1.731	8.901	0.205	35.552	0.328	127.995
	8.50E+00	0.668	87.684	1.714	8.018	0.207	35.252	0.336	126.666
	8.60E+00	0.672	86.852	1.691	7.24	0.21	34.623	0.343	125.247
	8.70E+00	0.676	85.954	1.67	6.216	0.212	33.59	0.35	124.018
	8.80E+00	0.679	85.225	1.654	5.414	0.213	33.042	0.357	122.705
	8.90E+00	0.683	84.579	1.63	4.67	0.216	32.727	0.365	121.332
	9.00E+00	0.686	83.825	1.613	3.596	0.219	31.648	0.371	119.978
	9.10E+00	0.69	83.186	1.598	2.824	0.22	30.741	0.378	118.777
	9.20E+00	0.694	82.562	1.574	2.16	0.221	30.307	0.386	117.519
	9.30E+00	0.699	82.057	1.558	1.187	0.224	29.71	0.393	116.218
	9.40E+00	0.704	81.376	1.546	0.418	0.226	28.67	0.398	114.894
	9.50E+00	0.709	80.531	1.526	-0.198	0.226	28.039	0.404	113.674
	9.60E+00	0.717	79.996	1.513	-1.12	0.228	27.814	0.409	112.337
	9.70E+00	0.723	79.111	1.506	-1.998	0.232	27.117	0.413	111.262
	9.80E+00	0.727	77.696	1.487	-2.898	0.233	26.094	0.418	110.269
	9.90E+00	0.726	76.777	1.472	-3.918	0.234	25.629	0.423	109.329
	1.00E+01	0.725	76.249	1.461	-4.63	0.236	25.195	0.428	108.353
	1.01E+01	0.728	75.627	1.442	-5.499	0.239	24.252	0.432	107.462
	1.02E+01	0.732	74.964	1.43	-6.562	0.24	23.329	0.437	106.55
	1.03E+01	0.736	74.271	1.419	-7.24	0.241	22.846	0.441	105.675
	1.04E+01	0.738	73.578	1.4	-8.089	0.243	22.286	0.445	104.874
	1.05E+01	0.742	72.708	1.39	-9.124	0.245	21.374	0.449	103.899
	1.06E+01	0.744	71.908	1.38	-9.797	0.246	20.583	0.453	103.245
	1.07E+01	0.746	71.241	1.362	-10.739	0.246	20.115	0.457	102.689
	1.08E+01	0.748	70.755	1.35	-11.854	0.249	19.322	0.462	102.017
	1.09E+01	0.751	70.134	1.336	-12.444	0.249	18.424	0.467	101.376
	1.10E+01	0.756	69.543	1.318	-13.157	0.249	17.93	0.471	100.737
	1.11E+01	0.764	68.867	1.311	-13.95	0.25	17.893	0.476	99.917
	1.12E+01	0.768	67.891	1.304	-14.516	0.255	17.336	0.48	99.11
	1.13E+01	0.771	66.704	1.294	-15.498	0.256	16.293	0.484	98.503
	1.14E+01	0.77	65.634	1.287	-16.697	0.257	15.614	0.488	98.043
	1.15E+01	0.767	65.026	1.276	-17.416	0.259	15.042	0.493	97.428
	1.16E+01	0.765	64.076	1.262	-18.462	0.261	13.98	0.499	97.041
	1.17E+01	0.761	63.464	1.251	-19.495	0.26	13.042	0.504	96.253
	1.18E+01	0.766	62.957	1.237	-20.034	0.26	12.912	0.508	95.549
	1.19E+01	0.766	61.825	1.222	-20.986	0.262	12.583	0.513	94.939
	1.20E+01	0.76	60.85	1.217	-21.691	0.264	11.848	0.522	94.246
	1.21E+01	0.757	60.113	1.207	-22.486	0.264	11.377	0.527	92.975
	1.22E+01	0.753	59.358	1.194	-23.545	0.268	11.45	0.53	92.176
	1.23E+01	0.745	59.222	1.183	-24.617	0.272	10.041	0.534	91.109
	1.24E+01	0.747	58.739	1.165	-25.059	0.27	9.226	0.537	90.428
	1.25E+01	0.745	57.951	1.156	-25.977	0.272	8.645	0.54	89.368
	1.26E+01	0.742	57.851	1.147	-26.556	0.271	8.609	0.537	87.886
	1.27E+01	0.74	57.406	1.137	-27.272	0.275	7.919	0.533	87.4
	1.28E+01	0.74	56.861	1.125	-28.228	0.275	7.158	0.532	87.062
	1.29E+01	0.741	56.506	1.115	-28.868	0.276	6.962	0.53	86.845
	1.30E+01	0.74	56.211	1.105	-29.399	0.279	6.643	0.531	86.712
	1.31E+01	0.738	55.609	1.097	-30.392	0.282	5.589	0.531	86.41
	1.32E+01	0.739	54.907	1.089	-31.129	0.282	4.787	0.537	86.273
	1.33E+01	0.736	54.471	1.077	-31.704	0.283	4.472	0.54	85.404
	1.34E+01	0.736	54.263	1.069	-32.558	0.285	3.882	0.541	85.665
	1.35E+01	0.735	53.604	1.066	-33.133	0.287	2.914	0.549	85.018
	1.36E+01	0.734	53.158	1.051	-33.969	0.286	2.233	0.553	84.489
	1.37E+01	0.736	52.868	1.043	-34.545	0.286	2.548	0.556	83.784
	1.38E+01	0.737	52.403	1.041	-35.011	0.29	1.783	0.56	83.137
	1.39E+01	0.735	51.699	1.029	-35.922	0.29	0.788	0.559	82.39
	1.40E+01	0.737	51.302	1.023	-36.781	0.288	0.982	0.562	81.817
	1.41E+01	0.737	50.974	1.019	-37.129	0.293	1.338	0.563	81.208
	1.42E+01	0.735	50.467	1.008	-38.052	0.298	0.011	0.564	80.709
	1.43E+01	0.735	49.781	1.001	-39.07	0.298	-0.645	0.565	80.305
	1.44E+01	0.735	49.393	0.995	-39.432	0.299	-0.433	0.567	79.796
	1.45E+01	0.734	48.971	0.981	-40.411	0.307	-1.462	0.567	79.196
	1.46E+01	0.732	48.352	0.974	-41.322	0.307	-2.906	0.567	78.772
	1.47E+01	0.732	47.746	0.966	-41.579	0.305	-3.162	0.569	78.292
	1.48E+01	0.73	47.285	0.956	-42.327	0.309	-3.238	0.571	77.71
	1.49E+01	0.729	46.772	0.949	-43.379	0.314	-4.534	0.571	77.248
	1.50E+01	0.728	46.128	0.941	-43.714	0.313	-5.506	0.574	76.873
!	Noise	data:							
!	Freq.	Fmin	Gamma-opt	rn					
	900	1.9	0.19	-165.5	0.18				
	2000	2.2	0.17	-155.5	0.2
