! Filename: 117bfg425.001
! BFG425W Field C1
! V1=8.701E-001V,V2=1.000E+000V, I1=2.655E-004A, I2=1.753E-002A
# GHz   S   MA   R 50
!                S11              S21              S12              S22
!Freq(GHz)  Mag     Ang      Mag     Ang      Mag     Ang      Mag     Ang 
   0.040    0.417  -9.089   32.562 173.864    0.003  79.331    0.899  -3.985
   0.100    0.417 -22.500   31.710 165.180    0.006  81.449    0.888 -11.371
   0.200    0.399 -43.923   29.475 151.240    0.012  73.589    0.834 -22.486
   0.300    0.378 -62.060   26.912 139.791    0.017  68.402    0.765 -31.759
   0.400    0.357 -78.479   24.143 129.766    0.020  64.086    0.692 -39.161
   0.500    0.341 -93.438   21.587 121.130    0.024  60.851    0.626 -45.046
   0.600    0.327 -105.554   19.323 114.103    0.027  58.896    0.569 -49.851
   0.700    0.317 -116.051   17.390 108.088    0.029  57.076    0.519 -53.813
   0.800    0.309 -125.474   15.747 102.650    0.032  55.936    0.477 -57.137
   0.900    0.303 -133.673   14.350  97.885    0.034  55.020    0.443 -60.106
   1.000    0.298 -141.115   13.145  93.587    0.037  54.245    0.413 -62.754
   1.100    0.296 -147.699   12.111  89.621    0.039  53.411    0.386 -65.216
   1.200    0.295 -153.700   11.217  85.946    0.042  52.754    0.364 -67.584
   1.300    0.294 -159.208   10.434  82.506    0.044  51.932    0.343 -69.799
   1.400    0.294 -164.279    9.750  79.286    0.047  51.219    0.325 -71.905
   1.500    0.295 -169.299    9.142  76.204    0.050  50.454    0.308 -73.957
   1.600    0.297 -173.880    8.603  73.224    0.052  49.579    0.293 -76.074
   1.700    0.299 -178.263    8.114  70.404    0.055  48.717    0.280 -78.178
   1.800    0.301 177.723    7.681  67.660    0.057  47.798    0.267 -80.266
   1.900    0.303 173.824    7.288  64.957    0.060  46.789    0.255 -82.557
   2.000    0.306 170.123    6.930  62.364    0.063  45.741    0.244 -84.850
   2.200    0.312 163.077    6.307  57.333    0.068  43.545    0.224 -89.654
   2.400    0.320 156.364    5.782  52.391    0.074  41.279    0.204 -94.730
   2.600    0.329 150.170    5.330  47.665    0.079  38.788    0.187 -100.366
   2.800    0.338 144.218    4.940  43.078    0.084  36.212    0.170 -106.497
   3.000    0.349 138.581    4.599  38.545    0.090  33.547    0.154 -113.442
   3.500    0.378 125.502    3.911  27.551    0.103  26.429    0.121 -135.439
   4.000    0.411 113.362    3.379  16.840    0.115  18.932    0.100 -166.811
   4.500    0.445 102.476    2.964   6.435    0.127  11.097    0.103 156.984
   5.000    0.485  91.727    2.610  -4.168    0.137   2.517    0.133 124.494
   5.500    0.514  81.369    2.300 -13.790    0.144  -4.741    0.164 102.015
   6.000    0.554  71.789    2.046 -24.079    0.150 -13.546    0.216  85.508
   6.500    0.564  64.997    1.877 -31.275    0.164 -17.545    0.233  78.874
   7.000    0.597  57.576    1.724 -40.494    0.175 -25.410    0.282  71.337
   7.500    0.648  48.692    1.545 -51.671    0.176 -36.725    0.356  59.258
   8.000    0.678  41.382    1.409 -60.787    0.181 -44.527    0.404  51.089
   8.500    0.710  33.739    1.273 -70.370    0.182 -53.565    0.456  42.228
   9.000    0.733  26.033    1.138 -78.890    0.179 -61.468    0.497  33.294
   9.500    0.756  19.082    1.033 -87.173    0.177 -69.412    0.528  25.798
  10.000    0.779  12.515    0.943 -96.609    0.177 -78.321    0.575  19.310
  10.500    0.796   5.827    0.851 -105.653    0.174 -86.981    0.615  12.027
  11.000    0.810  -1.063    0.758 -114.105    0.167 -96.037    0.647   4.071
  11.500    0.821  -7.835    0.681 -123.036    0.161 -105.206    0.677  -2.547
  12.000    0.826 -14.685    0.598 -131.728    0.151 -114.887    0.706 -10.098
!     DEEMBEDDED NOISE DATA
!FREQUENCY    FMIN    GAMMA OPT        Rn
!  (GHz)      (dB)    Mag    Ang   (NORMALIZED)
