! Filename: 14bfg403.001
!BFG403W Field A1
! V1=8.939E-001V,V2=1.000E+000V, I1=6.411E-005A, I2=4.010E-003A
# GHz   S   MA   R 50
!                S11              S21              S12              S22
!Freq(GHz)  Mag     Ang      Mag     Ang      Mag     Ang      Mag     Ang 
   0.040    0.832  -1.823    8.298 177.436    0.001  65.220    0.976  -0.634
   0.100    0.838  -4.221    8.156 174.922    0.002  91.135    0.977  -2.136
   0.200    0.834  -8.432    8.100 169.762    0.003  84.251    0.975  -4.612
   0.300    0.827 -12.268    8.081 164.737    0.005  81.499    0.972  -7.046
   0.400    0.818 -15.714    8.042 160.128    0.006  79.498    0.968  -9.322
   0.500    0.805 -20.666    7.954 155.138    0.008  75.717    0.961 -11.559
   0.600    0.792 -24.239    7.806 150.554    0.010  73.659    0.954 -13.756
   0.700    0.777 -27.835    7.629 146.069    0.011  71.639    0.946 -15.979
   0.800    0.762 -31.563    7.481 141.541    0.012  69.792    0.937 -18.108
   0.900    0.745 -34.907    7.339 137.239    0.014  67.881    0.928 -20.197
   1.000    0.728 -38.292    7.187 133.023    0.015  66.060    0.918 -22.207
   1.100    0.710 -41.525    7.013 128.969    0.016  64.490    0.909 -24.081
   1.200    0.692 -44.673    6.846 124.971    0.017  62.966    0.899 -26.003
   1.300    0.675 -47.741    6.660 121.014    0.018  61.720    0.888 -27.873
   1.400    0.659 -50.500    6.512 117.504    0.019  60.591    0.878 -29.634
   1.500    0.640 -53.422    6.345 113.822    0.020  59.370    0.868 -31.364
   1.600    0.623 -56.213    6.195 110.363    0.021  58.485    0.859 -33.083
   1.700    0.605 -58.862    6.034 106.967    0.021  57.533    0.849 -34.750
   1.800    0.589 -61.523    5.873 103.643    0.022  56.788    0.840 -36.421
   1.900    0.573 -63.977    5.713 100.439    0.023  56.051    0.830 -38.073
   2.000    0.557 -66.504    5.551  97.265    0.024  55.445    0.821 -39.704
   2.200    0.526 -71.261    5.272  91.202    0.026  54.549    0.803 -42.887
   2.400    0.497 -75.752    5.012  85.400    0.027  53.777    0.786 -46.002
   2.600    0.470 -80.359    4.760  79.828    0.029  53.158    0.769 -49.104
   2.800    0.445 -84.791    4.533  74.436    0.031  52.416    0.751 -52.134
   3.000    0.421 -89.186    4.322  69.224    0.033  51.814    0.734 -55.230
   3.500    0.364 -100.228    3.876  56.803    0.039  49.758    0.692 -62.924
   4.000    0.315 -112.142    3.507  44.900    0.046  46.808    0.648 -70.685
   4.500    0.274 -125.850    3.200  33.443    0.054  42.399    0.601 -78.809
   5.000    0.234 -142.027    2.934  22.071    0.062  36.853    0.548 -87.145
   5.500    0.199 -161.670    2.685  10.734    0.069  30.735    0.489 -95.285
   6.000    0.187 173.655    2.500  -0.967    0.080  21.950    0.425 -105.978
   6.500    0.180 154.339    2.304 -10.749    0.089  19.276    0.378 -114.534
   7.000    0.158 126.501    2.014 -20.887    0.082  16.966    0.298 -115.884
   7.500    0.229 114.299    2.005 -31.876    0.113   6.338    0.269 -140.400
   8.000    0.287  95.251    1.868 -44.491    0.125  -6.709    0.199 -166.759
   8.500    0.335  78.791    1.692 -56.309    0.129 -17.625    0.139 159.096
   9.000    0.392  66.545    1.561 -67.519    0.139 -27.651    0.147 118.917
   9.500    0.449  54.132    1.414 -79.316    0.143 -40.216    0.194  83.686
  10.000    0.500  43.503    1.277 -91.474    0.145 -51.945    0.268  60.378
  10.500    0.549  33.053    1.132 -103.602    0.145 -65.289    0.344  42.786
  11.000    0.583  22.757    0.984 -114.951    0.138 -78.777    0.415  27.803
  11.500    0.616  13.579    0.855 -126.577    0.131 -92.093    0.482  15.407
  12.000    0.633   3.683    0.713 -137.715    0.114 -107.912    0.535   2.747
!     DEEMBEDDED NOISE DATA
!FREQUENCY    FMIN    GAMMA OPT        Rn
!  (GHz)      (dB)    Mag    Ang   (NORMALIZED)
