! Filename: 11bfg425.001
! BFG425W Field C1
! V1=7.910E-001V,V2=1.000E+000V, I1=1.367E-005A, I2=1.000E-003A
# GHz   S   MA   R 50
!                S11              S21              S12              S22
!Freq(GHz)  Mag     Ang      Mag     Ang      Mag     Ang      Mag     Ang 
   0.040    0.948  -2.024    3.560 177.794    0.003  83.323    0.996  -1.194
   0.100    0.952  -5.543    3.502 175.076    0.008  87.108    0.996  -3.417
   0.200    0.949 -11.083    3.478 169.881    0.017  81.856    0.988  -7.196
   0.300    0.944 -16.741    3.471 165.696    0.025  77.923    0.985 -10.598
   0.400    0.937 -22.160    3.462 160.105    0.033  73.617    0.976 -14.228
   0.500    0.930 -27.645    3.440 155.260    0.041  69.854    0.965 -17.538
   0.600    0.921 -33.145    3.394 150.446    0.049  66.045    0.956 -20.920
   0.700    0.912 -38.558    3.339 145.722    0.056  61.991    0.942 -24.369
   0.800    0.903 -44.030    3.298 141.175    0.063  58.281    0.928 -27.616
   0.900    0.891 -49.307    3.259 136.616    0.069  54.593    0.912 -30.907
   1.000    0.877 -54.744    3.206 131.955    0.075  51.011    0.895 -34.025
   1.100    0.865 -59.971    3.151 127.602    0.081  47.550    0.879 -36.990
   1.200    0.850 -65.201    3.092 123.184    0.086  44.106    0.861 -40.013
   1.300    0.838 -70.339    3.033 118.997    0.091  40.794    0.843 -42.928
   1.400    0.824 -75.516    2.980 114.787    0.095  37.524    0.824 -45.775
   1.500    0.808 -80.656    2.922 110.645    0.099  34.392    0.806 -48.553
   1.600    0.793 -85.912    2.866 106.516    0.103  31.318    0.787 -51.194
   1.700    0.779 -90.905    2.808 102.577    0.106  28.414    0.768 -53.869
   1.800    0.765 -95.894    2.743  98.568    0.109  25.547    0.749 -56.461
   1.900    0.752 -100.715    2.679  94.838    0.112  22.796    0.731 -58.978
   2.000    0.739 -105.619    2.614  91.079    0.114  20.113    0.713 -61.457
   2.200    0.713 -115.326    2.495  83.734    0.117  15.041    0.677 -66.218
   2.400    0.689 -124.915    2.382  76.677    0.120  10.339    0.643 -70.825
   2.600    0.669 -134.342    2.269  69.900    0.122   5.926    0.610 -75.385
   2.800    0.650 -143.691    2.163  63.278    0.123   1.804    0.578 -79.819
   3.000    0.635 -152.873    2.063  56.837    0.124  -2.006    0.548 -84.156
   3.500    0.608 -175.372    1.840  41.502    0.123 -10.335    0.476 -95.003
   4.000    0.597 163.405    1.642  26.868    0.121 -17.345    0.411 -106.198
   4.500    0.602 143.975    1.472  13.358    0.119 -22.731    0.351 -118.590
   5.000    0.615 125.714    1.319   0.036    0.118 -28.501    0.292 -133.495
   5.500    0.628 109.732    1.173 -12.044    0.113 -32.098    0.237 -149.228
   6.000    0.651  94.917    1.052 -24.290    0.113 -37.097    0.196 -172.364
   6.500    0.664  83.916    0.962 -32.807    0.117 -32.075    0.186 170.506
   7.000    0.690  72.680    0.884 -43.157    0.128 -34.935    0.196 144.827
   7.500    0.725  60.847    0.799 -55.466    0.131 -45.600    0.228 114.169
   8.000    0.747  51.494    0.730 -65.396    0.138 -50.557    0.273  94.514
   8.500    0.771  42.220    0.662 -75.813    0.142 -58.252    0.330  76.701
   9.000    0.787  33.451    0.589 -85.187    0.141 -64.890    0.378  61.411
   9.500    0.805  25.330    0.531 -93.562    0.142 -72.211    0.414  50.823
  10.000    0.821  17.933    0.489 -103.298    0.145 -80.780    0.484  41.145
  10.500    0.833  10.698    0.442 -112.665    0.144 -89.043    0.544  30.940
  11.000    0.842   3.476    0.392 -121.714    0.139 -98.368    0.589  20.343
  11.500    0.847  -3.590    0.351 -131.124    0.134 -108.336    0.636  11.900
  12.000    0.849 -10.492    0.306 -140.377    0.124 -118.676    0.681   2.399
!     DEEMBEDDED NOISE DATA
!FREQUENCY    FMIN    GAMMA OPT        Rn
!  (GHz)      (dB)    Mag    Ang   (NORMALIZED)
