! Filename: 4_460BFG480.001
! Title: BFG480W
! Bias: Vce=4.4V; Ic=60mA
! Company: Philips Semiconductors NL
! User: Quality&Reliability T&D
! Measure time: 10 Nov 1999 / 12:06:13
#  MHz  S  MA  R 50
! Freq       S11             S21             S12             S22    :
  100  0.32165 -139.1 50.19531 150.28 0.007047 65.606  0.78389 -37.37
  200  0.48571 -148.9 39.70623 129.89 0.011257 57.005  0.64554 -66.19
  300  0.56515 -157.2 31.09412 117.02 0.013745 54.266  0.54520 -86.07
  400  0.60598 -163.0 25.00395 108.35 0.015622 54.662  0.48559 -100.3
  500  0.62993 -167.4 20.74476 102.03 0.017361 56.181  0.44994 -110.9
  600  0.64492 -170.8 17.59161 97.143 0.019035 57.726  0.42750 -119.0
  700  0.65504 -173.7 15.24093 93.225 0.020810 60.013  0.41242 -125.3
  800  0.66336 -176.2 13.39359 89.864 0.022650 62.156  0.40237 -130.6
  900  0.67151 -178.5 11.90750 86.994 0.024545 64.273  0.39643 -135.2
 1000  0.67984 179.48 10.71667 84.321 0.026707 65.782  0.39431 -139.4
 1200  0.69618 176.00  8.86130 79.327 0.030836 68.307  0.39866 -146.1
 1400  0.70812 173.40  7.50971 74.493 0.035065 70.025  0.40756 -151.2
 1600  0.71432 170.90  6.55315 70.563 0.040021 71.474  0.41353 -155.1
 1800  0.71535 168.15  5.82495 67.121 0.045378 72.629  0.42014 -159.0
 2000  0.72603 165.73  5.15661 64.088 0.050076 73.738  0.43034 -163.6
 2200  0.74601 163.46  4.60539 60.524 0.054287 74.003  0.44960 -167.6
 2400  0.75850 161.63  4.13182 56.792 0.059118 73.787  0.47425 -170.3
 2600  0.75935 159.96  3.77739 53.423 0.065064 73.431  0.49379 -171.8
 2800  0.75645 157.69  3.50600 49.018 0.069805 72.262  0.50316 -173.8
 3000  0.76151 154.99  3.25553 45.599 0.075086 71.692  0.51069 -176.8
