! Filename: 3_290BFG480.001
! Title: BFG480W
! Bias: Vce=3.2V; Ic=90mA
! Company: Philips Semiconductors NL
! User: Quality&Reliability T&D
! Measure time: 10 Nov 1999 / 11:57:46
#  MHz  S  MA  R 50
! Freq       S11             S21             S12             S22    :
  100  0.44513 -155.8 51.40774 146.55 0.006313 69.489  0.76407 -42.74
  200  0.57370 -160.9 39.23338 125.61 0.009817 60.510  0.61590 -74.33
  300  0.63010 -166.4 30.04911 113.41 0.012126 58.989  0.52085 -95.05
  400  0.65861 -170.5 23.88153 105.34 0.014099 60.624  0.46911 -109.4
  500  0.67523 -173.6 19.67876 99.512 0.016006 62.669  0.44017 -119.7
  600  0.68663 -176.2 16.61800 95.003 0.018025 64.544  0.42281 -127.4
  700  0.69338 -178.4 14.36746 91.383 0.020094 66.676  0.41122 -133.3
  800  0.69967 179.55 12.60292 88.268 0.022271 68.339  0.40386 -138.3
  900  0.70723 177.66 11.19799 85.604 0.024494 70.114  0.40028 -142.5
 1000  0.71349 175.91 10.07232 83.084 0.026859 71.140  0.39982 -146.3
 1200  0.72820 172.97  8.31343 78.364 0.031460 72.747  0.40634 -152.4
 1400  0.73757 170.63  7.03477 73.698 0.036136 73.717  0.41599 -156.9
 1600  0.74154 168.27  6.13852 69.880 0.041436 74.458  0.42198 -160.4
 1800  0.74150 165.67  5.45928 66.535 0.047132 75.004  0.42908 -164.1
 2000  0.75179 163.45  4.83225 63.634 0.052026 75.703  0.44008 -168.3
 2200  0.77042 161.34  4.31209 60.169 0.056405 75.573  0.45954 -171.9
 2400  0.78055 159.59  3.86337 56.548 0.061280 74.977  0.48293 -174.2
 2600  0.78054 157.94  3.53341 53.267 0.067376 74.261  0.50098 -175.6
 2800  0.77554 155.66  3.27523 48.866 0.072111 72.901  0.50958 -177.4
 3000  0.78095 153.00  3.04157 45.494 0.077457 72.126  0.51701 179.70
