! Filename: 3_2110BFG480.001
! Title: BFG480W
! Bias: Vce=3.2V; Ic=110mA
! Company: Philips Semiconductors NL
! User: Quality&Reliability T&D
! Measure time: 10 Nov 1999 / 11:58:12
#  MHz  S  MA  R 50
! Freq       S11             S21             S12             S22    :
  100  0.50077 -160.1 48.63812 145.10 0.006016 68.988  0.72763 -44.38
  200  0.60982 -164.5 37.44481 124.28 0.009296 61.292  0.58481 -76.92
  300  0.65624 -169.2 28.77387 112.33 0.011467 60.877  0.49675 -97.85
  400  0.68024 -172.7 22.84789 104.42 0.013530 62.859  0.45077 -112.1
  500  0.69426 -175.5 18.82213 98.702 0.015517 64.884  0.42579 -122.2
  600  0.70347 -177.8 15.88617 94.283 0.017573 66.844  0.41096 -129.6
  700  0.70972 -179.9 13.72959 90.717 0.019769 68.902  0.40129 -135.4
  800  0.71538 178.20 12.04479 87.651 0.022010 70.429  0.39553 -140.1
  900  0.72282 176.41 10.69903 85.023 0.024283 72.015  0.39302 -144.2
 1000  0.72848 174.78  9.62280 82.524 0.026795 72.912  0.39354 -147.8
 1200  0.74123 171.93  7.93633 77.824 0.031481 74.258  0.40158 -153.6
 1400  0.75092 169.70  6.71481 73.186 0.036223 74.973  0.41220 -157.9
 1600  0.75482 167.41  5.85698 69.371 0.041602 75.652  0.41871 -161.2
 1800  0.75451 164.85  5.20995 65.993 0.047425 75.915  0.42661 -164.8
 2000  0.76358 162.68  4.61021 63.126 0.052232 76.463  0.43854 -168.9
 2200  0.78253 160.64  4.11278 59.662 0.056760 76.316  0.45810 -172.4
 2400  0.79107 158.89  3.68313 56.028 0.061697 75.666  0.48197 -174.6
 2600  0.79011 157.19  3.36703 52.723 0.067949 74.894  0.50016 -176.0
 2800  0.78501 154.91  3.11986 48.312 0.072657 73.414  0.50903 -177.8
 3000  0.79051 152.24  2.89697 44.918 0.078007 72.550  0.51681 179.43
