! Filename: 417bfg425.001
! BFG425W Field C1
! V1=8.378E-001V,V2=4.000E+000V, I1=2.095E-004A, I2=1.749E-002A
# GHz   S   MA   R 50
!                S11              S21              S12              S22
!Freq(GHz)  Mag     Ang      Mag     Ang      Mag     Ang      Mag     Ang 
   0.040    0.480  -5.276   32.903 173.433    0.002  45.016    0.927  -2.540
   0.100    0.488 -15.219   31.984 166.567    0.004  74.163    0.923  -7.450
   0.200    0.465 -30.433   30.408 154.874    0.008  71.772    0.890 -14.846
   0.300    0.437 -44.149   28.210 144.601    0.012  68.966    0.842 -21.155
   0.400    0.404 -56.949   25.900 135.269    0.015  65.967    0.789 -26.279
   0.500    0.373 -68.562   23.627 126.801    0.018  63.169    0.738 -30.449
   0.600    0.345 -78.825   21.485 119.846    0.020  61.563    0.692 -33.775
   0.700    0.322 -88.074   19.597 113.833    0.022  60.056    0.652 -36.441
   0.800    0.300 -97.027   17.935 108.267    0.024  59.048    0.617 -38.682
   0.900    0.283 -104.808   16.480 103.386    0.026  58.112    0.587 -40.676
   1.000    0.269 -112.288   15.202  98.947    0.028  57.387    0.561 -42.453
   1.100    0.256 -119.249   14.090  94.863    0.030  56.735    0.539 -44.090
   1.200    0.248 -125.795   13.109  91.073    0.032  56.165    0.519 -45.651
   1.300    0.239 -132.031   12.241  87.546    0.034  55.618    0.501 -47.087
   1.400    0.233 -138.030   11.477  84.264    0.036  55.016    0.484 -48.464
   1.500    0.229 -143.928   10.797  81.107    0.038  54.418    0.470 -49.791
   1.600    0.225 -149.527   10.186  78.086    0.040  53.711    0.457 -51.189
   1.700    0.222 -154.867    9.635  75.198    0.042  53.018    0.445 -52.574
   1.800    0.221 -159.871    9.141  72.411    0.044  52.303    0.434 -53.962
   1.900    0.219 -164.769    8.690  69.711    0.047  51.479    0.424 -55.451
   2.000    0.219 -169.450    8.282  67.078    0.049  50.636    0.413 -56.932
   2.200    0.220 -178.431    7.562  62.041    0.053  48.845    0.394 -59.934
   2.400    0.224 173.152    6.955  57.170    0.058  46.949    0.375 -62.969
   2.600    0.230 165.235    6.429  52.386    0.062  44.844    0.357 -66.157
   2.800    0.237 157.777    5.974  47.814    0.067  42.611    0.339 -69.365
   3.000    0.246 150.911    5.578  43.314    0.071  40.270    0.322 -72.758
   3.500    0.273 135.189    4.772  32.410    0.083  33.914    0.277 -81.645
   4.000    0.306 121.403    4.150  21.751    0.094  27.022    0.228 -91.480
   4.500    0.342 109.457    3.659  11.407    0.106  19.721    0.180 -103.143
   5.000    0.386  97.921    3.246   0.764    0.115  11.392    0.123 -119.663
   5.500    0.419  86.763    2.871  -8.952    0.123   4.417    0.072 -138.173
   6.000    0.465  76.782    2.571 -19.373    0.130  -4.451    0.043 149.155
   6.500    0.474  70.174    2.360 -26.419    0.144  -7.458    0.053 127.432
   7.000    0.512  63.069    2.184 -35.710    0.157 -15.000    0.100  99.933
   7.500    0.576  53.825    1.970 -47.424    0.160 -27.076    0.182  73.463
   8.000    0.614  46.426    1.805 -56.879    0.167 -34.968    0.240  62.779
   8.500    0.656  38.492    1.635 -66.979    0.170 -44.468    0.306  51.538
   9.000    0.686  30.389    1.462 -76.100    0.169 -52.838    0.360  40.482
   9.500    0.716  23.078    1.323 -84.836    0.168 -61.299    0.402  31.730
  10.000    0.748  16.210    1.208 -94.820    0.170 -70.806    0.463  25.113
  10.500    0.772   9.155    1.088 -104.433    0.168 -80.037    0.516  17.162
  11.000    0.789   1.868    0.962 -113.504    0.162 -89.802    0.560   8.175
  11.500    0.805  -5.329    0.858 -122.940    0.156 -99.792    0.602   0.967
  12.000    0.813 -12.568    0.746 -132.052    0.147 -110.281    0.643  -7.380
!     DEEMBEDDED NOISE DATA
!FREQUENCY    FMIN    GAMMA OPT        Rn
!  (GHz)      (dB)    Mag    Ang   (NORMALIZED)
