! Filename: 46bfg410.001
! BFG410W Field B1
! V1=8.519E-001V,V2=4.000E+000V, I1=7.765E-005A, I2=5.990E-003A
# GHz   S   MA   R 50
!                S11              S21              S12              S22
!Freq(GHz)  Mag     Ang      Mag     Ang      Mag     Ang      Mag     Ang 
   0.040    0.760  -2.358   15.007 175.839    0.001  39.305    0.979  -0.938
   0.100    0.767  -5.529   14.649 172.976    0.003  74.728    0.979  -2.883
   0.200    0.761 -11.194   14.427 167.083    0.005  75.905    0.971  -6.230
   0.300    0.750 -16.853   14.219 161.664    0.007  75.725    0.965  -9.204
   0.400    0.735 -22.291   13.984 155.716    0.010  73.786    0.953 -12.275
   0.500    0.716 -27.643   13.684 150.039    0.012  70.742    0.939 -15.025
   0.600    0.697 -32.775   13.307 144.746    0.014  68.767    0.925 -17.706
   0.700    0.675 -37.704   12.892 139.652    0.016  66.257    0.908 -20.337
   0.800    0.652 -42.496   12.501 134.641    0.018  64.333    0.892 -22.733
   0.900    0.628 -46.985   12.100 129.845    0.019  62.378    0.875 -25.074
   1.000    0.604 -51.406   11.678 125.212    0.021  60.580    0.857 -27.253
   1.100    0.580 -55.530   11.264 120.891    0.022  59.057    0.841 -29.299
   1.200    0.557 -59.635   10.859 116.635    0.024  57.607    0.825 -31.327
   1.300    0.535 -63.435   10.456 112.644    0.025  56.356    0.809 -33.134
   1.400    0.513 -67.148   10.083 108.802    0.026  55.129    0.793 -34.886
   1.500    0.492 -70.849    9.715 105.081    0.028  54.066    0.779 -36.592
   1.600    0.470 -74.446    9.371 101.497    0.029  53.155    0.765 -38.224
   1.700    0.451 -77.869    9.038  98.051    0.030  52.248    0.753 -39.849
   1.800    0.433 -81.224    8.717  94.735    0.031  51.401    0.740 -41.416
   1.900    0.416 -84.411    8.419  91.569    0.032  50.655    0.728 -43.013
   2.000    0.399 -87.603    8.131  88.453    0.034  49.958    0.717 -44.558
   2.200    0.368 -94.153    7.609  82.502    0.036  48.617    0.695 -47.571
   2.400    0.339 -100.451    7.137  76.825    0.038  47.546    0.675 -50.523
   2.600    0.314 -106.963    6.710  71.345    0.041  46.258    0.655 -53.492
   2.800    0.290 -113.664    6.330  66.116    0.043  45.010    0.636 -56.471
   3.000    0.269 -120.530    5.988  61.051    0.046  43.744    0.618 -59.474
   3.500    0.227 -139.672    5.263  48.930    0.054  40.066    0.574 -67.007
   4.000    0.198 -161.594    4.678  37.283    0.062  35.579    0.529 -74.742
   4.500    0.191 174.170    4.209  26.087    0.071  30.115    0.483 -83.093
   5.000    0.200 149.659    3.800  14.967    0.079  23.869    0.430 -91.600
   5.500    0.224 126.014    3.427   3.566    0.086  16.195    0.365 -100.245
   6.000    0.259 111.340    3.154  -6.543    0.098  10.411    0.321 -110.346
   6.500    0.294  95.055    2.852 -16.996    0.103   3.379    0.259 -119.317
   7.000    0.271  85.440    2.576 -22.306    0.109   9.209    0.261 -116.804
   7.500    0.369  78.211    2.486 -35.520    0.131  -6.224    0.192 -146.405
   8.000    0.435  67.699    2.315 -46.979    0.142 -16.914    0.145 -178.313
   8.500    0.501  56.410    2.101 -59.255    0.148 -29.591    0.116 128.120
   9.000    0.551  46.683    1.905 -70.039    0.151 -39.570    0.145  87.053
   9.500    0.591  36.739    1.696 -80.540    0.148 -49.750    0.198  57.816
  10.000    0.644  29.656    1.563 -91.927    0.156 -60.029    0.278  43.797
  10.500    0.685  21.045    1.396 -102.959    0.156 -70.728    0.349  29.754
  11.000    0.723  12.046    1.225 -114.443    0.152 -84.200    0.428  16.383
  11.500    0.743   3.157    1.051 -125.303    0.142 -96.322    0.495   4.408
  12.000    0.760  -5.517    0.888 -136.135    0.131 -110.082    0.559  -7.258
!     DEEMBEDDED NOISE DATA
!FREQUENCY    FMIN    GAMMA OPT        Rn
!  (GHz)      (dB)    Mag    Ang   (NORMALIZED)
