! Filename: 3_230BFG480.001
! Title: BFG480W
! Bias: Vce=3.2V; Ic=30mA
! Company: Philips Semiconductors NL
! User: Quality&Reliability T&D
! Measure time: 10 Nov 1999 / 11:56:35
#  MHz  S  MA  R 50
! Freq       S11             S21             S12             S22    :
  100  0.29545 -84.05 39.77702 153.20 0.009507 66.989  0.84875 -33.35
  200  0.44384 -120.2 33.20696 133.53 0.015529 54.745  0.71465 -59.92
  300  0.53071 -138.3 26.97271 120.29 0.018847 48.869  0.60761 -79.01
  400  0.57917 -148.5 22.05290 111.11 0.020966 46.281  0.53917 -93.13
  500  0.60886 -155.9 18.52006 104.30 0.022396 45.787  0.49555 -104.0
  600  0.62686 -161.3 15.81571 98.975 0.023697 46.125  0.46687 -112.3
  700  0.63903 -165.5 13.75539 94.708 0.024893 47.590  0.44713 -119.0
  800  0.64848 -169.0 12.11628 91.046 0.026190 49.371  0.43354 -124.7
  900  0.65773 -172.0 10.78339 87.932 0.027537 51.462  0.42485 -129.5
 1000  0.66703 -174.7  9.71880 85.054 0.029122 53.388  0.42034 -134.0
 1200  0.68492 -179.2  8.04639 79.691 0.032119 56.888  0.42147 -141.4
 1400  0.69927 177.51  6.83005 74.543 0.035416 59.800  0.42885 -147.1
 1600  0.70723 174.56  5.95651 70.406 0.039575 62.673  0.43489 -151.4
 1800  0.70939 171.48  5.29461 66.827 0.044275 65.093  0.44103 -155.7
 2000  0.72017 168.73  4.68331 63.585 0.048354 66.955  0.45108 -160.6
 2200  0.74028 166.13  4.18140 59.797 0.052210 68.339  0.46896 -164.9
 2400  0.75431 164.00  3.74810 55.923 0.056673 68.885  0.49376 -167.9
 2600  0.75640 162.11  3.42446 52.453 0.062369 69.248  0.51371 -169.9
 2800  0.75450 159.71  3.17766 47.924 0.066932 68.607  0.52351 -172.1
 3000  0.75984 156.90  2.94926 44.406 0.072119 68.575  0.53146 -175.3
