! Filename: 22bfg403.001
!BFG403W Field A1
! V1=8.662E-001V,V2=2.000E+000V, I1=2.759E-005A, I2=2.000E-003A
# GHz   S   MA   R 50
!                S11              S21              S12              S22
!Freq(GHz)  Mag     Ang      Mag     Ang      Mag     Ang      Mag     Ang 
   0.040    0.916  -1.381    5.484 177.286    0.001  31.194    0.994  -0.711
   0.100    0.918  -2.800    5.381 175.611    0.001  89.362    0.994  -1.956
   0.200    0.916  -5.557    5.365 171.810    0.003  85.841    0.993  -4.070
   0.300    0.912  -8.240    5.341 168.611    0.004  83.989    0.992  -6.113
   0.400    0.906 -10.711    5.334 164.407    0.006  81.629    0.989  -8.191
   0.500    0.898 -13.878    5.312 160.421    0.007  78.108    0.985 -10.174
   0.600    0.889 -16.476    5.252 156.701    0.008  76.264    0.981 -12.151
   0.700    0.879 -19.047    5.187 153.134    0.009  74.539    0.976 -14.186
   0.800    0.868 -21.732    5.137 149.523    0.011  72.300    0.971 -16.099
   0.900    0.855 -24.271    5.083 145.922    0.012  70.428    0.965 -18.082
   1.000    0.840 -26.834    5.024 142.245    0.013  68.656    0.959 -20.003
   1.100    0.826 -29.282    4.959 138.819    0.014  66.932    0.952 -21.870
   1.200    0.811 -31.770    4.894 135.351    0.015  65.485    0.945 -23.757
   1.300    0.796 -34.193    4.819 132.050    0.016  63.767    0.938 -25.601
   1.400    0.781 -36.492    4.755 128.728    0.017  62.143    0.930 -27.390
   1.500    0.761 -38.820    4.677 125.350    0.018  60.753    0.923 -29.165
   1.600    0.744 -41.121    4.607 122.107    0.019  59.529    0.915 -30.900
   1.700    0.727 -43.398    4.532 118.971    0.019  58.120    0.907 -32.630
   1.800    0.710 -45.649    4.454 115.849    0.020  56.915    0.899 -34.363
   1.900    0.694 -47.727    4.375 112.908    0.021  55.845    0.891 -36.076
   2.000    0.677 -49.919    4.296 109.940    0.022  54.832    0.883 -37.745
   2.200    0.642 -54.099    4.148 104.128    0.023  53.027    0.866 -41.055
   2.400    0.607 -58.230    4.006  98.504    0.024  51.655    0.849 -44.278
   2.600    0.575 -62.350    3.864  93.116    0.026  50.337    0.832 -47.470
   2.800    0.544 -66.424    3.730  87.852    0.027  49.286    0.814 -50.574
   3.000    0.513 -70.479    3.607  82.764    0.028  48.422    0.797 -53.708
   3.500    0.440 -81.296    3.328  70.431    0.032  46.610    0.754 -61.351
   4.000    0.378 -93.071    3.089  58.607    0.037  44.857    0.709 -69.006
   4.500    0.327 -107.010    2.893  47.243    0.043  42.202    0.664 -76.836
   5.000    0.285 -123.548    2.723  35.817    0.049  38.262    0.613 -84.869
   5.500    0.254 -142.589    2.554  24.157    0.054  33.383    0.557 -92.786
   6.000    0.250 -164.261    2.441  12.159    0.064  25.640    0.499 -103.011
   6.500    0.251 179.349    2.291   1.878    0.073  25.145    0.455 -110.912
   7.000    0.225 159.864    2.028  -9.378    0.064  24.100    0.366 -113.190
   7.500    0.299 146.679    2.079 -20.603    0.098  13.795    0.356 -134.222
   8.000    0.343 128.311    1.980 -34.527    0.111  -0.499    0.284 -156.745
   8.500    0.368 111.686    1.814 -47.924    0.116 -12.537    0.208 177.669
   9.000    0.399  97.384    1.683 -60.813    0.127 -23.583    0.190 144.068
   9.500    0.422  82.221    1.519 -74.037    0.130 -37.886    0.209 104.990
  10.000    0.437  68.305    1.365 -87.645    0.132 -50.973    0.270  74.184
  10.500    0.447  54.162    1.192 -101.029    0.130 -65.643    0.341  51.343
  11.000    0.443  40.430    1.013 -113.219    0.121 -79.972    0.409  33.064
  11.500    0.445  27.714    0.862 -125.246    0.112 -93.941    0.475  18.685
  12.000    0.437  14.252    0.705 -136.134    0.095 -110.676    0.526   4.644
!     DEEMBEDDED NOISE DATA
!FREQUENCY    FMIN    GAMMA OPT        Rn
!  (GHz)      (dB)    Mag    Ang   (NORMALIZED)
