! Filename: 4_440BFG480.001
! Title: BFG480W
! Bias: Vce=4.4V; Ic=40mA
! Company: Philips Semiconductors NL
! User: Quality&Reliability T&D
! Measure time: 10 Nov 1999 / 12:05:49
#  MHz  S  MA  R 50
! Freq       S11             S21             S12             S22    :
  100  0.26600 -109.0 44.70722 152.57 0.008127 62.032  0.79235 -33.77
  200  0.43843 -133.3 36.55508 132.87 0.013209 54.293  0.66785 -60.71
  300  0.52887 -146.6 29.28820 119.80 0.016088 50.156  0.56881 -80.01
  400  0.57744 -154.7 23.83926 110.74 0.018001 49.015  0.50604 -94.17
  500  0.60675 -160.7 19.93908 104.06 0.019603 49.479  0.46684 -104.9
  600  0.62453 -165.2 16.99286 98.840 0.021046 50.940  0.44133 -113.2
  700  0.63672 -168.8 14.76144 94.648 0.022465 52.940  0.42382 -119.8
  800  0.64636 -171.9 12.99925 91.050 0.023967 54.935  0.41199 -125.4
  900  0.65548 -174.6 11.56866 87.988 0.025548 57.194  0.40455 -130.2
 1000  0.66486 -177.0 10.42100 85.157 0.027378 59.032  0.40121 -134.5
 1200  0.68294 178.97  8.62799 79.876 0.030956 62.286  0.40387 -141.8
 1400  0.69666 175.98  7.32113 74.813 0.034631 64.928  0.41236 -147.3
 1600  0.70417 173.25  6.38593 70.721 0.039156 67.228  0.41863 -151.4
 1800  0.70602 170.31  5.67512 67.181 0.044197 69.029  0.42513 -155.6
 2000  0.71712 167.71  5.02374 63.983 0.048595 70.740  0.43490 -160.4
 2200  0.73735 165.24  4.48548 60.281 0.052687 71.476  0.45402 -164.8
 2400  0.75030 163.24  4.02396 56.429 0.057335 71.737  0.47929 -167.7
 2600  0.75328 161.48  3.67838 52.983 0.063140 71.726  0.49962 -169.6
 2800  0.75116 159.14  3.41475 48.522 0.067814 70.907  0.50976 -171.7
 3000  0.75643 156.39  3.16938 45.016 0.073060 70.574  0.51772 -174.8
