! Filename: 36bfg403.001
! BFG403W Field A1
! V1=8.961E-001V,V2=3.000E+000V, I1=9.291E-005A, I2=6.010E-003A
# GHz   S   MA   R 50
!                S11              S21              S12              S22
!Freq(GHz)  Mag     Ang      Mag     Ang      Mag     Ang      Mag     Ang 
   0.040    0.793  -1.554   10.378 176.121    0.000  96.314    0.985  -0.375
   0.100    0.797  -3.951   10.227 174.171    0.001  89.638    0.988  -1.907
   0.200    0.792  -8.101   10.184 169.121    0.003  84.449    0.986  -4.325
   0.300    0.784 -12.018   10.095 164.097    0.004  82.635    0.983  -6.569
   0.400    0.773 -15.701    9.989 158.911    0.005  78.777    0.978  -8.793
   0.500    0.757 -19.993    9.839 153.636    0.006  76.345    0.971 -10.895
   0.600    0.742 -23.548    9.630 148.795    0.007  74.938    0.964 -12.940
   0.700    0.725 -26.969    9.390 144.112    0.008  72.784    0.956 -14.986
   0.800    0.707 -30.464    9.166 139.417    0.009  71.184    0.947 -16.926
   0.900    0.688 -33.637    8.926 134.958    0.010  69.890    0.938 -18.839
   1.000    0.668 -36.765    8.676 130.607    0.011  68.474    0.929 -20.686
   1.100    0.648 -39.739    8.422 126.484    0.012  67.152    0.920 -22.386
   1.200    0.628 -42.534    8.171 122.440    0.013  66.198    0.912 -24.163
   1.300    0.608 -45.263    7.911 118.555    0.013  65.361    0.902 -25.829
   1.400    0.590 -47.753    7.675 114.924    0.014  64.490    0.893 -27.455
   1.500    0.570 -50.322    7.434 111.286    0.015  63.807    0.885 -29.026
   1.600    0.552 -52.752    7.210 107.838    0.016  63.385    0.876 -30.594
   1.700    0.534 -55.065    6.986 104.504    0.016  62.968    0.868 -32.132
   1.800    0.516 -57.342    6.770 101.257    0.017  62.481    0.861 -33.672
   1.900    0.500 -59.406    6.564  98.171    0.018  62.166    0.853 -35.190
   2.000    0.484 -61.509    6.368  95.118    0.018  61.955    0.845 -36.719
   2.200    0.453 -65.564    6.004  89.295    0.020  61.619    0.830 -39.663
   2.400    0.424 -69.440    5.670  83.732    0.021  61.420    0.816 -42.603
   2.600    0.397 -73.373    5.365  78.424    0.023  61.100    0.802 -45.509
   2.800    0.373 -77.155    5.089  73.317    0.025  60.756    0.788 -48.397
   3.000    0.349 -80.997    4.841  68.394    0.027  60.470    0.774 -51.331
   3.500    0.295 -91.199    4.313  56.647    0.032  58.495    0.739 -58.623
   4.000    0.249 -102.738    3.892  45.411    0.039  55.626    0.702 -66.097
   4.500    0.211 -117.193    3.553  34.543    0.046  51.144    0.663 -73.898
   5.000    0.177 -135.484    3.264  23.710    0.054  45.579    0.617 -81.902
   5.500    0.152 -158.113    2.998  12.786    0.061  39.441    0.565 -89.753
   6.000    0.153 174.560    2.810   1.524    0.071  30.477    0.506 -99.924
   6.500    0.157 155.877    2.602  -7.976    0.081  28.054    0.466 -107.996
   7.000    0.140 128.199    2.278 -18.126    0.074  26.059    0.384 -109.787
   7.500    0.215 120.094    2.298 -28.859    0.106  14.772    0.364 -131.040
   8.000    0.272 101.855    2.159 -41.711    0.118   1.090    0.285 -152.096
   8.500    0.316  85.763    1.966 -53.888    0.123 -10.387    0.204 -175.391
   9.000    0.367  73.468    1.820 -65.511    0.134 -21.029    0.176 151.409
   9.500    0.415  60.329    1.651 -77.804    0.138 -34.391    0.184 109.601
  10.000    0.459  48.696    1.490 -90.427    0.141 -46.809    0.242  76.390
  10.500    0.499  36.947    1.315 -103.040    0.141 -60.967    0.315  52.519
  11.000    0.524  25.498    1.134 -114.643    0.133 -74.969    0.385  33.820
  11.500    0.549  15.256    0.976 -126.548    0.125 -88.655    0.456  19.149
  12.000    0.559   4.134    0.806 -137.391    0.108 -104.898    0.512   4.848
!     DEEMBEDDED NOISE DATA
!FREQUENCY    FMIN    GAMMA OPT        Rn
!  (GHz)      (dB)    Mag    Ang   (NORMALIZED)
