! Filename: 220BFG480.001
! Title: BFG480W
! Bias: Vce=2V; Ic=20mA
! Company: Philips Semiconductors NL
! User: Quality&Reliability T&D
! Measure time: 10 Nov 1999 / 11:53:27
#  MHz  S  MA  R 50
! Freq       S11             S21             S12             S22    :
  100  0.39074 -60.74 30.98289 154.01 0.013310 68.089  0.86640 -34.61
  200  0.47908 -102.6 26.56767 134.87 0.021625 53.381  0.73959 -62.45
  300  0.54912 -126.3 22.13103 121.41 0.026200 45.206  0.63820 -82.51
  400  0.59226 -139.5 18.23687 112.12 0.028758 40.740  0.57450 -97.39
  500  0.61998 -149.0 15.44108 105.10 0.030338 38.686  0.53320 -108.8
  600  0.63646 -155.7 13.24277 99.643 0.031484 37.940  0.50615 -117.5
  700  0.64776 -160.8 11.54633 95.294 0.032496 38.097  0.48766 -124.5
  800  0.65649 -165.0 10.18943 91.582 0.033452 38.995  0.47476 -130.2
  900  0.66471 -168.4  9.07055 88.485 0.034410 40.360  0.46672 -135.2
 1000  0.67346 -171.7  8.18743 85.581 0.035595 41.838  0.46256 -139.7
 1200  0.69074 -176.8  6.78793 80.180 0.037680 44.705  0.46335 -147.1
 1400  0.70488 179.38  5.76562 74.950 0.039917 47.622  0.46988 -152.7
 1600  0.71276 176.12  5.03232 70.852 0.043141 50.896  0.47509 -157.0
 1800  0.71464 172.81  4.48361 67.314 0.047074 53.933  0.48044 -161.3
 2000  0.72479 169.85  3.96707 64.059 0.050341 56.654  0.48932 -165.9
 2200  0.74361 167.04  3.53784 60.289 0.053436 58.611  0.50657 -170.0
 2400  0.75578 164.72  3.17179 56.440 0.057283 59.926  0.52886 -172.9
 2600  0.75940 162.65  2.90098 53.018 0.062342 60.996  0.54542 -174.9
 2800  0.75675 160.14  2.69203 48.458 0.066415 60.957  0.55322 -177.2
 3000  0.76179 157.27  2.49844 44.947 0.071192 61.455  0.56065 179.70
