! Filename: 48bfg410.001
! BFG410W Field B1
! V1=8.570E-001V,V2=4.000E+000V, I1=1.076E-004A, I2=8.000E-003A
# GHz   S   MA   R 50
!                S11              S21              S12              S22
!Freq(GHz)  Mag     Ang      Mag     Ang      Mag     Ang      Mag     Ang 
   0.040    0.704  -2.105   17.936 175.463    0.001  50.965    0.974  -0.789
   0.100    0.710  -6.141   17.529 172.191    0.003  77.766    0.976  -3.050
   0.200    0.701 -12.407   17.220 165.613    0.005  76.753    0.967  -6.653
   0.300    0.688 -18.655   16.875 159.556    0.007  75.574    0.957  -9.837
   0.400    0.670 -24.536   16.479 153.114    0.009  72.869    0.943 -13.049
   0.500    0.648 -30.344   16.003 146.963    0.011  70.387    0.926 -15.897
   0.600    0.625 -35.799   15.445 141.220    0.013  68.721    0.909 -18.622
   0.700    0.601 -40.957   14.841 135.862    0.015  66.286    0.889 -21.222
   0.800    0.576 -46.061   14.270 130.597    0.017  64.613    0.870 -23.561
   0.900    0.550 -50.558   13.692 125.652    0.018  62.995    0.851 -25.808
   1.000    0.524 -54.983   13.105 120.943    0.020  61.351    0.832 -27.898
   1.100    0.500 -59.154   12.548 116.564    0.021  59.991    0.815 -29.827
   1.200    0.477 -63.161   12.011 112.306    0.022  58.976    0.798 -31.728
   1.300    0.455 -66.965   11.491 108.338    0.024  57.877    0.781 -33.384
   1.400    0.434 -70.547   11.013 104.564    0.025  56.964    0.766 -35.007
   1.500    0.414 -74.240   10.555 100.914    0.026  56.103    0.752 -36.587
   1.600    0.394 -77.686   10.131  97.427    0.027  55.422    0.739 -38.125
   1.700    0.376 -81.033    9.726  94.095    0.029  54.767    0.727 -39.644
   1.800    0.359 -84.343    9.343  90.884    0.030  54.041    0.715 -41.115
   1.900    0.344 -87.415    8.992  87.814    0.031  53.469    0.704 -42.626
   2.000    0.329 -90.586    8.659  84.797    0.032  52.909    0.693 -44.094
   2.200    0.301 -96.969    8.058  79.050    0.035  51.729    0.673 -46.983
   2.400    0.275 -103.299    7.522  73.594    0.037  50.639    0.654 -49.845
   2.600    0.254 -110.072    7.047  68.367    0.040  49.422    0.636 -52.734
   2.800    0.234 -116.790    6.624  63.351    0.043  48.145    0.619 -55.673
   3.000    0.216 -124.120    6.248  58.396    0.046  46.741    0.602 -58.634
   3.500    0.181 -144.818    5.463  46.692    0.054  42.667    0.560 -66.110
   4.000    0.161 -168.934    4.840  35.408    0.062  37.712    0.516 -73.815
   4.500    0.164 165.228    4.345  24.516    0.072  31.855    0.471 -82.155
   5.000    0.181 140.739    3.916  13.657    0.081  25.292    0.420 -90.601
   5.500    0.213 118.444    3.527   2.508    0.088  17.420    0.355 -99.112
   6.000    0.250 105.386    3.244  -7.369    0.099  11.274    0.312 -109.184
   6.500    0.289  90.427    2.931 -17.619    0.105   4.105    0.249 -117.914
   7.000    0.266  80.801    2.652 -22.773    0.111   9.247    0.255 -115.188
   7.500    0.364  75.195    2.559 -35.867    0.132  -5.992    0.183 -145.205
   8.000    0.431  65.437    2.382 -47.210    0.144 -16.691    0.135 -178.410
   8.500    0.498  54.735    2.163 -59.370    0.149 -29.314    0.109 124.348
   9.000    0.549  45.256    1.961 -70.017    0.152 -39.290    0.143  83.185
   9.500    0.589  35.582    1.748 -80.453    0.149 -49.411    0.199  54.891
  10.000    0.643  28.639    1.610 -91.752    0.158 -59.700    0.279  41.787
  10.500    0.685  20.198    1.439 -102.707    0.157 -70.383    0.350  28.191
  11.000    0.724  11.293    1.264 -114.074    0.154 -83.753    0.429  15.152
  11.500    0.744   2.500    1.085 -124.871    0.143 -95.738    0.496   3.365
  12.000    0.761  -6.167    0.917 -135.566    0.132 -109.360    0.560  -8.131
!     DEEMBEDDED NOISE DATA
!FREQUENCY    FMIN    GAMMA OPT        Rn
!  (GHz)      (dB)    Mag    Ang   (NORMALIZED)
