! Filename BFG424F_2V_10mA.prm
! Simulation_Values
! Created	by	janssen	on	nov	2006			
!	Column ranking S11, S21,S12,S22 both magnitude and phase.								
!	VCE	=	2	V,	IC	=	10	mA	
!	Common	Emitter	S-Parameters						
#	GHZ	S	MA	R	50				
	5.00E-01	0.573	-60.04	19.812	139.44	0.023	65.58	0.814	-28.86
	6.00E-01	0.546	-69.83	18.487	133.44	0.026	61.91	0.767	-32.71
	7.00E-01	0.52	-78.89	17.231	128.1	0.029	60.26	0.723	-35.96
	8.00E-01	0.496	-87.23	16.038	123.36	0.031	58.44	0.682	-38.74
	9.00E-01	0.478	-95	14.953	119.22	0.033	57.1	0.645	-41.17
	1.00E+00	0.461	-101.99	13.975	115.38	0.035	55.98	0.612	-43.22
	1.10E+00	0.447	-108.63	13.08	111.98	0.036	55.69	0.582	-45.04
	1.20E+00	0.434	-114.72	12.261	108.88	0.038	55.41	0.555	-46.67
	1.30E+00	0.423	-120.49	11.541	106.04	0.039	55.04	0.53	-48.14
	1.40E+00	0.415	-126	10.885	103.4	0.041	54.95	0.509	-49.52
	1.50E+00	0.41	-131.03	10.303	100.88	0.042	54.92	0.489	-50.8
	1.60E+00	0.403	-135.75	9.767	98.58	0.044	55.01	0.471	-52.03
	1.70E+00	0.397	-140.15	9.273	96.45	0.045	55.39	0.454	-53.23
	1.80E+00	0.394	-144.65	8.819	94.41	0.046	55.56	0.439	-54.36
	1.90E+00	0.392	-148.56	8.409	92.46	0.048	55.98	0.425	-55.47
	2.00E+00	0.392	-152.32	8.04	90.69	0.05	56.44	0.413	-56.61
	2.10E+00	0.389	-156	7.691	88.87	0.051	56.61	0.401	-57.83
	2.20E+00	0.388	-159.51	7.371	87.17	0.053	56.77	0.39	-59.08
	2.30E+00	0.389	-163.09	7.067	85.55	0.054	57.19	0.379	-60.26
	2.40E+00	0.392	-166.07	6.799	84.01	0.056	57.52	0.368	-61.47
	2.50E+00	0.393	-168.86	6.54	82.5	0.057	57.93	0.359	-62.72
	2.60E+00	0.392	-171.9	6.308	80.95	0.059	58.05	0.35	-64.09
	2.70E+00	0.394	-175.02	6.089	79.55	0.061	58.42	0.34	-65.56
	2.80E+00	0.398	-177.64	5.879	78.16	0.062	58.5	0.332	-66.87
	2.90E+00	0.401	179.87	5.682	76.84	0.064	58.83	0.323	-68.32
	3.00E+00	0.403	177.54	5.499	75.51	0.066	58.99	0.315	-69.75
	3.10E+00	0.406	174.94	5.333	74.17	0.068	58.95	0.307	-71.35
	3.20E+00	0.409	172.55	5.17	72.89	0.069	59.11	0.3	-72.9
	3.30E+00	0.414	170.14	5.013	71.68	0.072	59.45	0.293	-74.51
	3.40E+00	0.419	168.11	4.866	70.39	0.073	59.37	0.285	-76.3
	3.50E+00	0.422	166.21	4.724	69.24	0.075	59.42	0.279	-78.13
	3.60E+00	0.424	163.79	4.596	68.01	0.077	59.42	0.272	-80.1
	3.70E+00	0.429	161.71	4.481	66.81	0.079	59.32	0.265	-82.12
	3.80E+00	0.434	159.82	4.36	65.71	0.081	59.59	0.258	-84.13
	3.90E+00	0.438	158.05	4.251	64.59	0.083	59.49	0.252	-86.16
	4.00E+00	0.442	156.12	4.142	63.4	0.085	59.43	0.246	-88.32
	4.10E+00	0.446	154.13	4.039	62.39	0.087	59.38	0.24	-90.48
	4.20E+00	0.451	152.23	3.943	61.21	0.089	59.17	0.234	-93.01
	4.30E+00	0.457	150.55	3.854	60.23	0.091	59.09	0.229	-95.33
	4.40E+00	0.463	149.08	3.764	59.05	0.093	59.1	0.223	-97.73
	4.50E+00	0.465	147.59	3.677	57.99	0.096	58.97	0.219	-100.24
	4.60E+00	0.469	145.7	3.595	57.03	0.098	58.66	0.215	-103.07
	4.70E+00	0.475	143.92	3.516	55.94	0.099	58.39	0.211	-105.89
	4.80E+00	0.483	142.55	3.447	54.8	0.101	58.28	0.207	-108.94
	4.90E+00	0.487	141.24	3.374	53.9	0.104	57.87	0.203	-111.97
	5.00E+00	0.491	139.95	3.301	52.87	0.106	57.67	0.198	-114.9
	5.10E+00	0.493	138.2	3.239	51.72	0.108	57.48	0.195	-117.83
	5.20E+00	0.5	136.57	3.173	50.85	0.11	57.28	0.193	-120.94
	5.30E+00	0.508	135.48	3.108	49.86	0.113	56.76	0.191	-124.39
	5.40E+00	0.512	134.18	3.054	48.8	0.114	56.46	0.188	-127.89
	5.50E+00	0.515	132.86	2.991	47.94	0.116	56.28	0.186	-131.14
	5.60E+00	0.52	131.39	2.927	46.86	0.118	55.97	0.185	-134.55
	5.70E+00	0.526	130.18	2.881	45.91	0.12	55.53	0.185	-137.81
	5.80E+00	0.533	128.94	2.826	45.1	0.123	55.26	0.185	-141.48
	5.90E+00	0.537	127.83	2.771	43.94	0.124	54.98	0.185	-145.07
	6.00E+00	0.54	126.6	2.73	43.14	0.127	54.56	0.185	-148.58
	6.10E+00	0.544	125.19	2.679	42.3	0.129	54.13	0.185	-151.95
	6.20E+00	0.55	123.83	2.624	41.12	0.13	53.85	0.187	-155.28
	6.30E+00	0.558	122.93	2.587	40.23	0.133	53.6	0.189	-158.86
	6.40E+00	0.56	121.83	2.538	39.44	0.135	53.23	0.192	-162.11
	6.50E+00	0.563	120.59	2.495	38.42	0.137	52.77	0.194	-165.35
	6.60E+00	0.568	119.41	2.454	37.65	0.139	52.46	0.196	-168.28
	6.70E+00	0.574	118.38	2.408	36.86	0.141	52.09	0.199	-171.23
	6.80E+00	0.58	117.29	2.369	35.75	0.143	51.57	0.203	-174.4
	6.90E+00	0.584	116.38	2.337	34.98	0.144	51.22	0.207	-177.41
	7.00E+00	0.586	115.37	2.292	34.21	0.147	51.05	0.21	179.77
	7.10E+00	0.589	114.13	2.258	33.27	0.149	50.45	0.213	177.35
	7.20E+00	0.595	113	2.224	32.57	0.151	49.93	0.217	175.22
	7.30E+00	0.601	112.35	2.183	31.72	0.152	49.52	0.223	172.98
	7.40E+00	0.604	111.41	2.153	30.65	0.155	49.35	0.229	170.36
	7.50E+00	0.607	110.29	2.122	30.03	0.157	48.69	0.235	167.36
	7.60E+00	0.612	109.38	2.088	29.16	0.158	48.14	0.238	164.85
	7.70E+00	0.616	108.5	2.058	28.39	0.16	47.99	0.242	162.92
	7.80E+00	0.619	107.67	2.03	27.73	0.162	47.55	0.247	161.31
	7.90E+00	0.621	106.51	1.993	26.69	0.164	46.72	0.254	159.43
	8.00E+00	0.627	105.7	1.973	25.83	0.165	46.42	0.259	157.32
	8.10E+00	0.629	104.91	1.942	25.35	0.167	46.43	0.263	155.21
	8.20E+00	0.633	104.11	1.912	24.42	0.17	45.97	0.268	153.57
	8.30E+00	0.637	103.19	1.889	23.6	0.171	45.29	0.275	152.1
	8.40E+00	0.639	102.37	1.858	22.99	0.172	44.85	0.282	150.46
	8.50E+00	0.642	101.53	1.826	21.82	0.174	44.63	0.289	148.56
	8.60E+00	0.646	100.72	1.811	21.13	0.177	44.06	0.293	146.81
	8.70E+00	0.65	99.88	1.78	20.63	0.178	43.56	0.298	145.35
	8.80E+00	0.654	99.32	1.756	19.73	0.179	43.27	0.304	144.14
	8.90E+00	0.655	98.5	1.738	19.08	0.182	42.99	0.31	142.72
	9.00E+00	0.657	97.71	1.706	18.44	0.184	42.11	0.317	141.13
	9.10E+00	0.661	96.96	1.691	17.31	0.185	41.59	0.321	139.59
	9.20E+00	0.664	96.26	1.68	16.82	0.187	41.27	0.326	138.41
	9.30E+00	0.669	95.63	1.646	16.08	0.189	40.76	0.332	137.3
	9.40E+00	0.672	94.84	1.621	14.89	0.191	39.98	0.34	136.09
	9.50E+00	0.674	94.27	1.605	14.23	0.191	39.57	0.346	134.3
	9.60E+00	0.678	93.52	1.573	13.52	0.193	39.29	0.35	132.84
	9.70E+00	0.684	92.62	1.564	12.56	0.196	38.75	0.351	131.71
	9.80E+00	0.688	91.47	1.546	11.75	0.198	37.64	0.355	130.87
	9.90E+00	0.683	90.75	1.506	11.03	0.197	37.06	0.361	129.97
	1.00E+01	0.684	90.31	1.479	10.18	0.198	36.69	0.368	128.72
	1.01E+01	0.688	89.53	1.46	10.15	0.199	36.32	0.372	127.53
	1.02E+01	0.69	89.01	1.433	9.68	0.2	35.96	0.375	126.6
	1.03E+01	0.694	88.53	1.426	9.12	0.201	35.83	0.377	125.98
	1.04E+01	0.695	87.65	1.41	8.91	0.203	35.3	0.384	125.32
	1.05E+01	0.7	86.8	1.391	8.04	0.203	34.62	0.39	124.1
	1.06E+01	0.703	86.18	1.385	6.82	0.204	34.25	0.396	122.92
	1.07E+01	0.703	85.47	1.368	6.43	0.205	34.16	0.399	121.96
	1.08E+01	0.704	84.97	1.344	5.6	0.207	33.37	0.401	121.43
	1.09E+01	0.704	84.48	1.331	5.16	0.207	32.73	0.405	121.1
	1.10E+01	0.706	83.79	1.311	4.74	0.207	32.61	0.412	120.48
	1.11E+01	0.712	83.2	1.282	3.72	0.207	32.17	0.419	119.49
	1.12E+01	0.721	82.65	1.273	3.11	0.207	31.66	0.424	118.26
	1.13E+01	0.726	82.01	1.257	3.08	0.206	31.83	0.425	117.29
	1.14E+01	0.727	80.66	1.248	2.46	0.209	32.22	0.428	117.02
	1.15E+01	0.73	79.87	1.244	1.69	0.212	32.06	0.434	116.27
	1.16E+01	0.729	78.45	1.233	0.93	0.215	31.34	0.44	115.68
	1.17E+01	0.724	77.57	1.217	-0.37	0.216	30.7	0.442	114.53
	1.18E+01	0.732	76.99	1.207	-0.97	0.219	30.37	0.441	113.69
	1.19E+01	0.727	75.49	1.191	-1.62	0.222	29.59	0.442	113.66
	1.20E+01	0.717	74.63	1.179	-3	0.222	28.32	0.454	113.75
	1.21E+01	0.712	73.89	1.156	-3.91	0.222	27.8	0.461	112.22
	1.22E+01	0.706	73.77	1.136	-4.38	0.225	27.13	0.463	111.57
	1.23E+01	0.697	73.11	1.129	-5.94	0.225	25.22	0.469	110.6
	1.24E+01	0.698	72.67	1.102	-6.47	0.219	24.78	0.47	109.37
	1.25E+01	0.698	72.34	1.075	-6.89	0.217	24.29	0.475	109.23
	1.26E+01	0.696	72.27	1.049	-7.22	0.215	25.67	0.478	107.44
	1.27E+01	0.692	71.68	1.036	-7.44	0.218	25.59	0.475	106.61
	1.28E+01	0.691	71.04	1.014	-8.01	0.218	25.21	0.473	105.89
	1.29E+01	0.694	70.68	1.003	-8.24	0.218	25.41	0.471	105.72
	1.30E+01	0.69	70.42	0.993	-8.13	0.222	25.47	0.473	105.63
	1.31E+01	0.69	69.69	0.978	-8.75	0.223	24.6	0.475	105.85
	1.32E+01	0.688	69.24	0.972	-9.48	0.223	24.23	0.483	105.52
	1.33E+01	0.687	68.94	0.965	-9.58	0.224	24.25	0.487	104.09
	1.34E+01	0.683	68.34	0.952	-10.31	0.226	23.76	0.488	104.07
	1.35E+01	0.687	68.21	0.945	-10.67	0.225	23.43	0.492	103.27
	1.36E+01	0.682	67.64	0.933	-10.8	0.226	23.56	0.495	103.12
	1.37E+01	0.681	67.12	0.918	-11.65	0.228	23.45	0.498	102.36
	1.38E+01	0.685	66.38	0.911	-12.45	0.229	22.68	0.501	101.3
	1.39E+01	0.682	66.26	0.902	-12.72	0.229	22.47	0.499	100.53
	1.40E+01	0.681	65.65	0.89	-13.29	0.231	22.64	0.499	100.34
	1.41E+01	0.678	65.11	0.879	-13.8	0.232	22.1	0.5	100.21
	1.42E+01	0.678	64.6	0.864	-14.34	0.234	21.41	0.502	99.7
	1.43E+01	0.675	63.97	0.85	-15.34	0.234	21.54	0.505	98.97
	1.44E+01	0.677	63.53	0.847	-15.62	0.236	21.37	0.505	98.32
	1.45E+01	0.672	63.1	0.83	-15.87	0.239	20.63	0.505	98.06
	1.46E+01	0.672	62.64	0.82	-16.21	0.239	19.69	0.507	97.8
	1.47E+01	0.67	61.95	0.811	-16.53	0.239	19.71	0.508	97.2
	1.48E+01	0.668	61.54	0.796	-17.13	0.241	19.6	0.508	96.42
	1.49E+01	0.666	60.72	0.783	-18.07	0.244	18.88	0.508	96.01
	1.50E+01	0.666	60.63	0.781	-18.02	0.242	18.11	0.509	95.84
!	Noise	data:							
!	Freq.	Fmin	Gamma-opt	rn					
	0.9	1.4	0.02	-63.9	0.19				
	2	1.6	0.06	137.4	0.19
