! Filename: 13bfg403.001
! BFG403W Field A1
! V1=8.823E-001V,V2=1.000E+000V, I1=4.547E-005A, I2=3.000E-003A
# GHz   S   MA   R 50
!                S11              S21              S12              S22
!Freq(GHz)  Mag     Ang      Mag     Ang      Mag     Ang      Mag     Ang 
   0.040    0.872  -1.584    7.199 177.668    0.001  50.967    0.984  -0.684
   0.100    0.876  -3.451    7.103 175.616    0.002  88.969    0.985  -2.074
   0.200    0.874  -6.823    7.087 171.305    0.003  84.802    0.983  -4.423
   0.300    0.870 -10.107    7.060 167.373    0.005  83.166    0.981  -6.674
   0.400    0.864 -13.150    7.041 163.065    0.006  80.970    0.978  -8.918
   0.500    0.855 -17.079    6.999 158.703    0.008  77.617    0.973 -11.086
   0.600    0.848 -20.242    6.911 154.687    0.009  75.812    0.967 -13.232
   0.700    0.839 -23.318    6.808 150.789    0.011  73.850    0.961 -15.427
   0.800    0.828 -26.581    6.726 146.803    0.012  71.891    0.954 -17.530
   0.900    0.816 -29.611    6.638 142.919    0.014  70.179    0.946 -19.631
   1.000    0.803 -32.720    6.542 139.017    0.015  68.504    0.938 -21.663
   1.100    0.791 -35.656    6.436 135.303    0.016  66.662    0.929 -23.577
   1.200    0.777 -38.562    6.330 131.591    0.017  65.172    0.921 -25.554
   1.300    0.764 -41.481    6.206 127.899    0.018  63.686    0.911 -27.477
   1.400    0.751 -44.171    6.106 124.470    0.019  62.309    0.901 -29.334
   1.500    0.735 -46.986    5.992 120.956    0.021  60.920    0.892 -31.135
   1.600    0.720 -49.679    5.884 117.544    0.021  59.790    0.882 -32.916
   1.700    0.705 -52.341    5.768 114.216    0.022  58.627    0.873 -34.682
   1.800    0.691 -54.914    5.649 110.919    0.023  57.463    0.863 -36.436
   1.900    0.677 -57.329    5.533 107.801    0.024  56.567    0.854 -38.162
   2.000    0.663 -59.804    5.414 104.666    0.025  55.704    0.845 -39.860
   2.200    0.635 -64.579    5.196  98.574    0.027  54.170    0.825 -43.180
   2.400    0.607 -69.208    4.986  92.685    0.029  52.914    0.807 -46.417
   2.600    0.581 -73.778    4.780  87.039    0.030  51.825    0.788 -49.606
   2.800    0.555 -78.156    4.587  81.548    0.032  50.725    0.769 -52.714
   3.000    0.531 -82.480    4.409  76.219    0.034  49.825    0.751 -55.857
   3.500    0.471 -93.393    4.011  63.398    0.039  47.392    0.705 -63.531
   4.000    0.418 -104.550    3.668  51.131    0.046  44.499    0.659 -71.362
   4.500    0.370 -116.766    3.379  39.356    0.053  40.436    0.611 -79.429
   5.000    0.322 -130.468    3.122  27.671    0.061  35.224    0.556 -87.698
   5.500    0.275 -146.189    2.874  15.991    0.067  29.384    0.496 -95.753
   6.000    0.247 -166.306    2.691   4.048    0.078  20.897    0.431 -106.395
   6.500    0.224 176.927    2.486  -6.024    0.087  18.805    0.385 -114.604
   7.000    0.173 154.227    2.176 -16.398    0.078  16.693    0.302 -115.543
   7.500    0.238 135.329    2.181 -27.515    0.111   6.699    0.278 -139.842
   8.000    0.284 111.484    2.040 -40.439    0.123  -6.481    0.206 -165.768
   8.500    0.324  91.736    1.854 -52.563    0.127 -17.466    0.145 161.256
   9.000    0.381  76.830    1.713 -64.137    0.137 -27.507    0.149 121.665
   9.500    0.439  62.430    1.553 -76.167    0.142 -40.280    0.195  85.669
  10.000    0.493  50.283    1.405 -88.647    0.145 -52.226    0.268  61.507
  10.500    0.545  38.512    1.245 -101.130    0.145 -65.819    0.344  43.429
  11.000    0.580  27.224    1.079 -112.708    0.137 -79.556    0.414  28.097
  11.500    0.615  17.302    0.934 -124.609    0.130 -93.094    0.481  15.504
  12.000    0.632   6.693    0.776 -135.750    0.113 -109.358    0.534   2.662
!     DEEMBEDDED NOISE DATA
!FREQUENCY    FMIN    GAMMA OPT        Rn
!  (GHz)      (dB)    Mag    Ang   (NORMALIZED)
