! Filename: 4140BFG480.001
! Title: BFG480W
! Bias: Vce=4V; Ic=140mA
! Company: Philips Semiconductors NL
! User: Quality&Reliability T&D
! Measure time: 10 Nov 1999 / 12:04:49
#  MHz  S  MA  R 50
! Freq       S11             S21             S12             S22    :
  100  0.53323 -161.6 45.49860 143.93 0.005782 66.541  0.66408 -45.07
  200  0.63900 -166.1 34.37695 122.88 0.008814 60.473  0.52750 -77.69
  300  0.68121 -170.5 26.42318 111.06 0.010916 60.949  0.44651 -98.18
  400  0.70221 -173.9 20.99574 103.25 0.012893 63.316  0.40623 -111.9
  500  0.71311 -176.5 17.33552 97.640 0.014878 65.926  0.38544 -121.5
  600  0.72182 -178.7 14.64976 93.265 0.016936 67.880  0.37355 -128.5
  700  0.72675 179.26 12.67494 89.731 0.019053 70.052  0.36627 -133.9
  800  0.73185 177.43 11.11951 86.657 0.021338 71.575  0.36254 -138.3
  900  0.73883 175.71  9.87648 84.021 0.023623 73.344  0.36162 -142.1
 1000  0.74499 174.13  8.88362 81.504 0.026086 74.295  0.36393 -145.6
 1200  0.75570 171.30  7.32534 76.768 0.030764 75.619  0.37495 -151.1
 1400  0.76374 169.09  6.19760 72.110 0.035550 76.453  0.38817 -155.1
 1600  0.76811 166.76  5.40421 68.210 0.040991 77.018  0.39724 -158.3
 1800  0.76721 164.23  4.80146 64.786 0.046814 77.302  0.40722 -161.8
 2000  0.77607 162.11  4.24886 61.845 0.051754 77.770  0.42121 -165.9
 2200  0.79395 160.06  3.79069 58.312 0.056321 77.586  0.44273 -169.4
 2400  0.80251 158.32  3.39327 54.612 0.061284 76.912  0.46852 -171.8
 2600  0.80022 156.57  3.09805 51.225 0.067607 76.132  0.48952 -173.2
 2800  0.79583 154.23  2.87104 46.761 0.072386 74.654  0.50075 -175.0
 3000  0.80076 151.58  2.66506 43.318 0.077899 73.739  0.50995 -177.8
