! Filename: 315bfg425.001
! BFG425W Field C1
! V1=8.465E-001V,V2=3.000E+000V, I1=1.942E-004A, I2=1.497E-002A
# GHz   S   MA   R 50
!                S11              S21              S12              S22
!Freq(GHz)  Mag     Ang      Mag     Ang      Mag     Ang      Mag     Ang 
   0.040    0.525  -5.139   30.967 173.971    0.002  63.104    0.950  -2.650
   0.100    0.527 -15.013   30.174 167.078    0.005  82.096    0.946  -7.631
   0.200    0.505 -29.755   28.758 155.556    0.009  75.579    0.912 -15.149
   0.300    0.475 -43.301   26.819 145.424    0.013  70.857    0.863 -21.604
   0.400    0.441 -55.818   24.726 136.123    0.016  67.288    0.810 -27.007
   0.500    0.409 -67.461   22.646 127.659    0.019  63.839    0.758 -31.418
   0.600    0.379 -77.703   20.664 120.662    0.021  61.608    0.710 -34.999
   0.700    0.354 -86.932   18.896 114.582    0.024  59.547    0.667 -37.929
   0.800    0.331 -95.730   17.322 108.968    0.026  58.244    0.629 -40.382
   0.900    0.311 -103.599   15.946 104.005    0.028  57.205    0.598 -42.565
   1.000    0.296 -111.091   14.726  99.484    0.030  56.261    0.570 -44.500
   1.100    0.282 -118.012   13.660  95.348    0.032  55.383    0.545 -46.264
   1.200    0.272 -124.545   12.720  91.492    0.034  54.735    0.524 -47.944
   1.300    0.263 -130.838   11.883  87.906    0.036  54.157    0.504 -49.474
   1.400    0.256 -136.794   11.148  84.555    0.038  53.450    0.486 -50.932
   1.500    0.251 -142.694   10.490  81.346    0.040  52.843    0.471 -52.337
   1.600    0.246 -148.286    9.903  78.264    0.042  52.179    0.456 -53.801
   1.700    0.243 -153.482    9.367  75.350    0.044  51.431    0.444 -55.237
   1.800    0.241 -158.621    8.886  72.517    0.046  50.713    0.431 -56.672
   1.900    0.239 -163.453    8.451  69.762    0.048  49.999    0.420 -58.210
   2.000    0.238 -168.109    8.054  67.096    0.050  49.127    0.409 -59.736
   2.200    0.239 -177.135    7.356  61.975    0.054  47.326    0.388 -62.819
   2.400    0.242 174.356    6.764  57.031    0.059  45.454    0.368 -65.940
   2.600    0.248 166.497    6.252  52.204    0.063  43.434    0.350 -69.221
   2.800    0.254 158.964    5.809  47.578    0.068  41.262    0.331 -72.554
   3.000    0.263 152.003    5.423  43.031    0.073  38.938    0.313 -76.050
   3.500    0.289 136.186    4.637  32.016    0.084  32.638    0.266 -85.381
   4.000    0.321 122.096    4.028  21.255    0.096  25.785    0.218 -95.897
   4.500    0.357 109.953    3.550  10.833    0.107  18.501    0.170 -108.789
   5.000    0.400  98.216    3.147   0.110    0.117  10.189    0.115 -128.290
   5.500    0.434  87.029    2.781  -9.645    0.124   3.229    0.068 -153.467
   6.000    0.478  76.905    2.488 -20.145    0.131  -5.598    0.057 135.648
   6.500    0.488  70.153    2.284 -27.223    0.145  -8.629    0.070 118.935
   7.000    0.525  62.927    2.112 -36.517    0.158 -16.187    0.118  97.307
   7.500    0.587  53.558    1.902 -48.215    0.161 -28.231    0.199  73.313
   8.000    0.624  46.141    1.741 -57.683    0.168 -36.128    0.256  62.706
   8.500    0.665  38.156    1.576 -67.780    0.171 -45.577    0.321  51.536
   9.000    0.694  30.043    1.408 -76.869    0.169 -53.847    0.374  40.639
   9.500    0.723  22.725    1.274 -85.573    0.169 -62.296    0.414  31.889
  10.000    0.753  15.871    1.162 -95.508    0.170 -71.804    0.474  25.159
  10.500    0.775   8.801    1.047 -105.125    0.168 -80.965    0.527  17.183
  11.000    0.794   1.532    0.926 -114.109    0.162 -90.700    0.569   8.241
  11.500    0.808  -5.617    0.827 -123.527    0.156 -100.647    0.610   1.056
  12.000    0.815 -12.801    0.719 -132.650    0.146 -111.105    0.650  -7.251
!     DEEMBEDDED NOISE DATA
!FREQUENCY    FMIN    GAMMA OPT        Rn
!  (GHz)      (dB)    Mag    Ang   (NORMALIZED)
