! Filename: 210bfg425.001
! BFG425W Field C1
! V1=8.464E-001V,V2=2.000E+000V, I1=1.354E-004A, I2=9.990E-003A
# GHz   S   MA   R 50
!                S11              S21              S12              S22
!Freq(GHz)  Mag     Ang      Mag     Ang      Mag     Ang      Mag     Ang 
   0.040    0.628  -5.336   24.547 174.923    0.002  76.451    0.961  -2.658
   0.100    0.630 -13.033   23.982 168.784    0.005  84.386    0.957  -7.307
   0.200    0.610 -25.843   23.135 158.435    0.011  76.875    0.929 -14.558
   0.300    0.581 -37.914   21.983 149.186    0.015  71.876    0.889 -21.085
   0.400    0.548 -49.348   20.648 140.384    0.019  66.734    0.843 -26.835
   0.500    0.514 -60.040   19.260 132.156    0.023  62.736    0.794 -31.787
   0.600    0.482 -69.776   17.834 125.168    0.026  59.572    0.747 -36.030
   0.700    0.453 -78.679   16.520 118.983    0.029  56.785    0.703 -39.681
   0.800    0.425 -87.225   15.319 113.159    0.031  54.730    0.663 -42.816
   0.900    0.401 -94.933   14.228 107.957    0.033  52.973    0.627 -45.635
   1.000    0.380 -102.247   13.234 103.181    0.035  51.492    0.595 -48.126
   1.100    0.362 -109.145   12.347  98.795    0.038  50.239    0.567 -50.401
   1.200    0.347 -115.750   11.551  94.701    0.039  49.235    0.542 -52.518
   1.300    0.334 -121.928   10.835  90.876    0.041  48.350    0.518 -54.459
   1.400    0.323 -127.972   10.199  87.304    0.043  47.448    0.496 -56.265
   1.500    0.314 -133.805    9.622  83.881    0.045  46.698    0.478 -57.977
   1.600    0.306 -139.489    9.100  80.598    0.047  45.938    0.460 -59.689
   1.700    0.300 -144.862    8.626  77.494    0.049  45.231    0.444 -61.352
   1.800    0.295 -150.093    8.196  74.493    0.051  44.478    0.429 -62.992
   1.900    0.291 -155.020    7.803  71.594    0.053  43.695    0.416 -64.705
   2.000    0.288 -159.893    7.444  68.765    0.055  42.878    0.402 -66.400
   2.200    0.285 -169.312    6.812  63.355    0.059  41.222    0.378 -69.781
   2.400    0.285 -178.218    6.270  58.124    0.064  39.557    0.355 -73.178
   2.600    0.288 173.428    5.801  53.129    0.068  37.685    0.333 -76.746
   2.800    0.292 165.486    5.393  48.309    0.072  35.677    0.313 -80.372
   3.000    0.298 157.983    5.037  43.579    0.077  33.546    0.293 -84.203
   3.500    0.322 140.950    4.307  32.164    0.088  27.703    0.244 -94.624
   4.000    0.352 125.725    3.741  21.099    0.099  21.200    0.195 -107.045
   4.500    0.386 112.736    3.293  10.420    0.110  14.179    0.149 -123.352
   5.000    0.428 100.304    2.915  -0.493    0.120   6.083    0.103 -150.621
   5.500    0.459  88.558    2.574 -10.438    0.127  -0.679    0.072 171.600
   6.000    0.502  78.028    2.299 -21.046    0.134  -9.294    0.091 118.581
   6.500    0.512  70.908    2.109 -28.291    0.147 -12.141    0.106 106.652
   7.000    0.548  63.204    1.945 -37.709    0.160 -19.601    0.156  91.596
   7.500    0.607  53.568    1.749 -49.374    0.163 -31.482    0.235  71.730
   8.000    0.641  45.975    1.598 -58.844    0.169 -39.212    0.290  61.477
   8.500    0.680  37.852    1.445 -68.906    0.172 -48.511    0.352  50.698
   9.000    0.706  29.764    1.291 -77.935    0.170 -56.687    0.402  40.150
   9.500    0.733  22.429    1.168 -86.574    0.169 -64.949    0.440  31.651
  10.000    0.761  15.571    1.066 -96.448    0.170 -74.270    0.497  24.822
  10.500    0.782   8.576    0.959 -105.986    0.168 -83.314    0.548  16.922
  11.000    0.798   1.356    0.850 -114.896    0.161 -92.874    0.587   8.141
  11.500    0.811  -5.691    0.759 -124.258    0.155 -102.668    0.626   1.031
  12.000    0.817 -12.863    0.661 -133.366    0.146 -113.008    0.663  -7.144

!BFG425W_noise.xls                                                                 !Philips part #:BFG425W
! Bias condition: Vce=2V,Ic=10mA                                            # MHz dB Ratio deg ohm
! Freq. Fmin Gmag Gangle Rn
900 1.4 0.02 -63.9 0.19                                                        2000 1.6 0.06 137.4 0.19
