! Filename: 227bfg425.001
! BFG425W Field C1
! V1=8.688E-001V,V2=2.000E+000V, I1=3.977E-004A, I2=2.753E-002A
# GHz   S   MA   R 50
!                S11              S21              S12              S22
!Freq(GHz)  Mag     Ang      Mag     Ang      Mag     Ang      Mag     Ang 
   0.040    0.289  -9.000   39.614 173.195    0.002  72.134    0.915  -3.058
   0.100    0.295 -25.277   38.559 164.129    0.004  82.324    0.907  -9.699
   0.200    0.282 -48.301   35.635 149.674    0.008  76.035    0.853 -19.357
   0.300    0.267 -67.824   31.965 137.797    0.011  72.071    0.782 -26.882
   0.400    0.255 -85.291   28.332 127.772    0.014  68.644    0.712 -32.425
   0.500    0.247 -100.574   25.090 119.203    0.017  66.432    0.651 -36.560
   0.600    0.240 -112.681   22.294 112.355    0.019  65.350    0.600 -39.650
   0.700    0.235 -123.010   19.958 106.577    0.022  64.147    0.557 -42.046
   0.800    0.232 -132.266   17.993 101.363    0.024  63.550    0.522 -43.989
   0.900    0.229 -140.053   16.350  96.819    0.026  62.947    0.494 -45.749
   1.000    0.228 -147.243   14.945  92.709    0.028  62.224    0.469 -47.342
   1.100    0.228 -153.434   13.748  88.925    0.031  61.518    0.448 -48.849
   1.200    0.228 -159.034   12.717  85.409    0.033  60.885    0.430 -50.334
   1.300    0.229 -164.293   11.814  82.128    0.035  60.180    0.413 -51.714
   1.400    0.231 -169.104   11.033  79.054    0.038  59.410    0.399 -53.063
   1.500    0.234 -173.824   10.344  76.102    0.040  58.617    0.386 -54.416
   1.600    0.236 -178.127    9.726  73.277    0.042  57.703    0.374 -55.856
   1.700    0.238 177.819    9.173  70.553    0.045  56.782    0.363 -57.294
   1.800    0.241 174.066    8.684  67.906    0.047  55.769    0.353 -58.749
   1.900    0.244 170.365    8.241  65.328    0.050  54.725    0.343 -60.345
   2.000    0.247 166.857    7.836  62.827    0.052  53.655    0.333 -61.954
   2.200    0.255 160.209    7.134  57.975    0.057  51.347    0.314 -65.211
   2.400    0.263 153.788    6.542  53.275    0.062  49.049    0.297 -68.546
   2.600    0.272 147.933    6.033  48.649    0.067  46.491    0.279 -72.095
   2.800    0.282 142.357    5.595  44.207    0.072  43.888    0.262 -75.735
   3.000    0.293 136.983    5.213  39.825    0.077  41.181    0.245 -79.606
   3.500    0.324 124.468    4.441  29.141    0.090  34.018    0.201 -90.219
   4.000    0.358 112.858    3.847  18.667    0.102  26.503    0.154 -103.101
   4.500    0.394 102.503    3.382   8.462    0.114  18.654    0.110 -121.261
   5.000    0.436  92.197    2.990  -2.015    0.123  10.038    0.068 -157.482
   5.500    0.468  81.958    2.640 -11.571    0.131   2.752    0.053 146.147
   6.000    0.511  72.667    2.357 -21.858    0.138  -6.210    0.095  99.063
   6.500    0.519  66.203    2.163 -28.854    0.152  -9.946    0.112  91.060
   7.000    0.555  59.167    1.996 -38.061    0.164 -17.794    0.164  81.475
   7.500    0.613  50.407    1.795 -49.447    0.167 -29.470    0.246  65.446
   8.000    0.647  43.165    1.641 -58.714    0.173 -37.430    0.300  56.576
   8.500    0.686  35.508    1.485 -68.565    0.176 -46.829    0.362  46.863
   9.000    0.712  27.698    1.328 -77.393    0.173 -55.043    0.412  37.044
   9.500    0.738  20.626    1.204 -85.903    0.173 -63.308    0.449  28.931
  10.000    0.766  13.945    1.098 -95.628    0.174 -72.558    0.505  22.443
  10.500    0.787   7.098    0.991 -104.969    0.171 -81.619    0.554  14.839
  11.000    0.803   0.078    0.879 -113.748    0.165 -91.072    0.593   6.335
  11.500    0.816  -6.910    0.787 -122.938    0.158 -100.727    0.631  -0.592
  12.000    0.823 -13.989    0.687 -131.874    0.149 -110.820    0.667  -8.593
!     DEEMBEDDED NOISE DATA
!FREQUENCY    FMIN    GAMMA OPT        Rn
!  (GHz)      (dB)    Mag    Ang   (NORMALIZED)
