! Filename: 3_280BFG480.001
! Title: BFG480W
! Bias: Vce=3.2V; Ic=80mA
! Company: Philips Semiconductors NL
! User: Quality&Reliability T&D
! Measure time: 10 Nov 1999 / 11:57:34
#  MHz  S  MA  R 50
! Freq       S11             S21             S12             S22    :
  100  0.41640 -152.6 51.56009 147.26 0.006546 69.220  0.77898 -41.88
  200  0.55565 -158.5 39.46223 126.34 0.010235 59.776  0.62968 -72.98
  300  0.61707 -164.6 30.31385 114.02 0.012575 58.149  0.53161 -93.57
  400  0.64827 -169.0 24.13177 105.85 0.014550 59.192  0.47750 -107.9
  500  0.66653 -172.4 19.90613 99.938 0.016380 61.301  0.44691 -118.3
  600  0.67857 -175.1 16.81895 95.371 0.018324 63.050  0.42806 -126.1
  700  0.68583 -177.5 14.54553 91.708 0.020343 64.985  0.41565 -132.2
  800  0.69261 -179.6 12.76425 88.566 0.022429 66.747  0.40776 -137.2
  900  0.69955 178.40 11.34088 85.877 0.024525 68.914  0.40342 -141.5
 1000  0.70693 176.60 10.20085 83.332 0.026978 69.843  0.40253 -145.4
 1200  0.72106 173.51  8.42210 78.564 0.031461 71.631  0.40846 -151.6
 1400  0.73124 171.15  7.12936 73.896 0.036007 72.763  0.41784 -156.3
 1600  0.73612 168.77  6.22127 70.075 0.041292 73.695  0.42356 -159.8
 1800  0.73620 166.15  5.53264 66.716 0.046911 74.323  0.43047 -163.5
 2000  0.74673 163.89  4.89849 63.808 0.051639 75.007  0.44144 -167.9
 2200  0.76552 161.74  4.37023 60.333 0.056106 75.019  0.46036 -171.5
 2400  0.77628 160.00  3.91692 56.710 0.061028 74.590  0.48382 -173.9
 2600  0.77652 158.32  3.58315 53.422 0.067062 73.918  0.50192 -175.3
 2800  0.77161 156.06  3.32121 49.027 0.071783 72.534  0.51033 -177.2
 3000  0.77748 153.38  3.08446 45.641 0.077132 71.863  0.51764 179.96
