! Filename BFG424F_5V_15mA.prm
! Simulation_Values
! Created	by	janssen	on	nov	2006			
!	Column ranking S11, S21,S12,S22 both magnitude and phase.								
!	VCE	=	5	V,	IC	=	15	mA	
!	Common	Emitter	S-Parameters						
#	GHZ	S	MA	R	50				
	5.00E-01	0.450	-66.79	23.585	136.36	0.018	61.10	0.747	-26.40
	6.00E-01	0.428	-77.15	21.775	130.36	0.020	59.06	0.705	-29.45
	7.00E-01	0.408	-86.66	20.097	125.09	0.022	59.04	0.666	-31.85
	8.00E-01	0.389	-95.23	18.555	120.52	0.024	58.43	0.632	-33.74
	9.00E-01	0.378	-103.14	17.209	116.51	0.025	58.08	0.601	-35.46
	1.00E+00	0.366	-110.31	15.992	112.83	0.027	58.23	0.574	-36.87
	1.10E+00	0.356	-116.87	14.891	109.62	0.028	58.63	0.551	-38.11
	1.20E+00	0.347	-122.89	13.911	106.75	0.030	58.96	0.529	-39.12
	1.30E+00	0.341	-128.55	13.069	104.08	0.031	59.38	0.511	-40.17
	1.40E+00	0.337	-133.93	12.292	101.59	0.033	59.96	0.494	-41.06
	1.50E+00	0.334	-138.73	11.606	99.32	0.034	60.30	0.481	-41.78
	1.60E+00	0.330	-143.04	10.988	97.19	0.036	60.67	0.466	-42.81
	1.70E+00	0.327	-147.43	10.425	95.15	0.037	61.40	0.453	-43.61
	1.80E+00	0.326	-151.89	9.897	93.24	0.039	61.79	0.443	-44.48
	1.90E+00	0.326	-155.56	9.429	91.45	0.040	62.36	0.432	-45.36
	2.00E+00	0.327	-159.02	9.012	89.83	0.042	62.75	0.424	-46.20
	2.10E+00	0.326	-162.58	8.622	88.14	0.044	63.14	0.414	-47.29
	2.20E+00	0.328	-165.83	8.257	86.52	0.045	63.31	0.406	-48.14
	2.30E+00	0.329	-169.18	7.914	85.04	0.047	63.78	0.398	-49.21
	2.40E+00	0.332	-171.83	7.615	83.62	0.048	64.08	0.390	-50.19
	2.50E+00	0.335	-174.53	7.328	82.16	0.050	64.47	0.383	-51.32
	2.60E+00	0.337	-177.18	7.067	80.69	0.052	64.52	0.375	-52.56
	2.70E+00	0.338	179.86	6.817	79.39	0.054	64.85	0.368	-53.61
	2.80E+00	0.343	177.52	6.586	78.11	0.055	64.89	0.362	-54.64
	2.90E+00	0.347	175.22	6.368	76.88	0.057	65.21	0.355	-55.94
	3.00E+00	0.350	173.04	6.167	75.60	0.059	65.29	0.348	-57.15
	3.10E+00	0.354	170.50	5.981	74.33	0.061	65.34	0.340	-58.54
	3.20E+00	0.356	168.52	5.799	73.14	0.063	65.46	0.334	-59.63
	3.30E+00	0.361	166.15	5.622	72.00	0.065	65.64	0.328	-61.04
	3.40E+00	0.367	164.31	5.464	70.79	0.067	65.52	0.323	-62.69
	3.50E+00	0.371	162.59	5.310	69.68	0.068	65.57	0.317	-64.35
	3.60E+00	0.373	160.28	5.167	68.47	0.070	65.50	0.310	-66.06
	3.70E+00	0.379	158.22	5.037	67.34	0.072	65.36	0.302	-67.64
	3.80E+00	0.386	156.63	4.905	66.33	0.074	65.44	0.295	-69.11
	3.90E+00	0.389	155.23	4.786	65.29	0.076	65.31	0.290	-70.65
	4.00E+00	0.393	153.30	4.668	64.12	0.078	65.22	0.285	-72.61
	4.10E+00	0.397	151.57	4.554	63.12	0.080	64.97	0.279	-74.67
	4.20E+00	0.403	149.65	4.446	61.97	0.082	64.88	0.272	-76.80
	4.30E+00	0.410	148.11	4.348	61.04	0.084	64.71	0.266	-78.32
	4.40E+00	0.417	146.96	4.249	59.94	0.086	64.65	0.262	-80.01
	4.50E+00	0.417	145.91	4.157	58.88	0.089	64.52	0.258	-82.01
	4.60E+00	0.420	143.68	4.067	57.89	0.091	64.08	0.254	-84.79
	4.70E+00	0.427	141.92	3.976	56.85	0.093	63.82	0.248	-87.33
	4.80E+00	0.437	141.00	3.900	55.79	0.095	63.68	0.243	-89.62
	4.90E+00	0.438	139.53	3.822	54.88	0.097	63.26	0.238	-91.97
	5.00E+00	0.445	138.33	3.741	53.89	0.099	62.96	0.233	-94.11
	5.10E+00	0.448	136.92	3.673	52.79	0.101	62.80	0.228	-96.47
	5.20E+00	0.452	135.50	3.602	51.92	0.104	62.55	0.223	-99.19
	5.30E+00	0.461	133.91	3.530	50.90	0.106	61.95	0.218	-101.95
	5.40E+00	0.468	132.93	3.471	49.87	0.108	61.60	0.212	-104.65
	5.50E+00	0.471	131.78	3.401	49.05	0.110	61.42	0.210	-107.22
	5.60E+00	0.474	130.33	3.331	47.98	0.112	61.09	0.208	-110.39
	5.70E+00	0.484	129.08	3.280	47.02	0.114	60.66	0.206	-113.71
	5.80E+00	0.490	128.25	3.220	46.25	0.116	60.34	0.203	-117.06
	5.90E+00	0.494	127.01	3.161	45.10	0.118	60.02	0.198	-120.33
	6.00E+00	0.497	125.69	3.115	44.32	0.121	59.48	0.196	-123.64
	6.10E+00	0.504	124.45	3.058	43.48	0.123	59.09	0.195	-127.01
	6.20E+00	0.509	123.12	2.998	42.31	0.124	58.77	0.195	-131.01
	6.30E+00	0.519	122.45	2.958	41.41	0.127	58.54	0.193	-134.63
	6.40E+00	0.520	121.51	2.906	40.66	0.129	58.13	0.192	-137.50
	6.50E+00	0.522	120.32	2.858	39.63	0.131	57.56	0.192	-140.39
	6.60E+00	0.529	118.78	2.812	38.79	0.133	57.25	0.193	-143.79
	6.70E+00	0.535	118.01	2.761	37.99	0.135	56.87	0.195	-147.44
	6.80E+00	0.542	117.01	2.718	36.88	0.138	56.32	0.197	-151.65
	6.90E+00	0.546	116.19	2.683	36.14	0.139	55.94	0.197	-154.91
	7.00E+00	0.549	115.31	2.635	35.38	0.141	55.75	0.197	-157.34
	7.10E+00	0.551	113.97	2.598	34.40	0.144	55.11	0.200	-159.90
	7.20E+00	0.557	112.86	2.558	33.63	0.146	54.56	0.203	-162.74
	7.30E+00	0.564	112.07	2.512	32.74	0.148	54.14	0.207	-166.22
	7.40E+00	0.569	111.16	2.480	31.64	0.150	53.86	0.209	-170.05
	7.50E+00	0.574	110.12	2.444	31.02	0.152	53.20	0.213	-173.25
	7.60E+00	0.578	109.57	2.406	30.21	0.154	52.73	0.214	-175.54
	7.70E+00	0.581	108.52	2.376	29.38	0.156	52.44	0.220	-177.72
	7.80E+00	0.585	107.50	2.345	28.63	0.158	51.89	0.224	179.65
	7.90E+00	0.591	106.29	2.302	27.50	0.160	51.06	0.228	176.06
	8.00E+00	0.595	105.84	2.279	26.68	0.161	50.73	0.230	173.17
	8.10E+00	0.598	104.90	2.244	26.23	0.163	50.77	0.233	171.46
	8.20E+00	0.603	104.17	2.212	25.28	0.166	50.29	0.239	170.25
	8.30E+00	0.607	103.35	2.187	24.39	0.168	49.51	0.248	168.23
	8.40E+00	0.607	102.34	2.152	23.69	0.169	48.99	0.255	165.47
	8.50E+00	0.614	101.47	2.116	22.45	0.171	48.70	0.259	162.21
	8.60E+00	0.618	100.81	2.101	21.77	0.174	48.11	0.261	160.14
	8.70E+00	0.622	100.15	2.064	21.30	0.175	47.64	0.266	158.75
	8.80E+00	0.626	99.24	2.036	20.32	0.177	47.32	0.275	157.39
	8.90E+00	0.629	98.70	2.016	19.61	0.180	46.94	0.282	155.11
	9.00E+00	0.629	97.84	1.981	18.91	0.182	46.02	0.286	153.09
	9.10E+00	0.634	96.87	1.965	17.74	0.183	45.36	0.287	151.47
	9.20E+00	0.639	96.13	1.951	17.23	0.184	45.05	0.291	150.48
	9.30E+00	0.644	95.83	1.912	16.48	0.187	44.60	0.301	149.26
	9.40E+00	0.647	94.96	1.882	15.22	0.189	43.76	0.312	147.43
	9.50E+00	0.650	94.38	1.865	14.47	0.190	43.25	0.317	144.61
	9.60E+00	0.655	93.75	1.830	13.73	0.192	42.93	0.318	143.06
	9.70E+00	0.660	92.73	1.819	12.75	0.195	42.36	0.318	142.08
	9.80E+00	0.665	91.52	1.798	11.89	0.196	41.20	0.324	141.16
	9.90E+00	0.664	90.73	1.748	11.11	0.196	40.58	0.334	139.42
	1.00E+01	0.664	90.62	1.717	10.32	0.196	40.27	0.338	137.58
	1.01E+01	0.666	89.84	1.697	10.33	0.198	39.92	0.338	136.38
	1.02E+01	0.669	89.18	1.670	9.82	0.199	39.49	0.342	136.16
	1.03E+01	0.674	88.56	1.662	9.14	0.200	39.29	0.348	135.91
	1.04E+01	0.674	87.69	1.642	8.80	0.202	38.65	0.361	134.81
	1.05E+01	0.680	86.75	1.618	7.87	0.203	37.89	0.368	132.56
	1.06E+01	0.686	86.07	1.611	6.55	0.204	37.49	0.371	130.15
	1.07E+01	0.688	85.68	1.592	6.18	0.205	37.38	0.369	129.05
	1.08E+01	0.685	85.19	1.567	5.41	0.207	36.66	0.370	129.40
	1.09E+01	0.686	84.41	1.551	4.93	0.207	35.98	0.377	129.53
	1.10E+01	0.690	83.68	1.526	4.35	0.207	35.80	0.390	128.62
	1.11E+01	0.697	83.13	1.492	3.28	0.208	35.32	0.396	126.69
	1.12E+01	0.707	82.41	1.482	2.66	0.208	34.77	0.398	124.89
	1.13E+01	0.714	82.06	1.465	2.67	0.208	34.91	0.397	124.23
	1.14E+01	0.713	80.75	1.459	1.96	0.211	35.26	0.402	124.66
	1.15E+01	0.715	79.58	1.454	1.06	0.214	34.97	0.410	123.65
	1.16E+01	0.718	78.16	1.438	0.18	0.217	34.08	0.418	122.60
	1.17E+01	0.712	77.48	1.418	-1.17	0.218	33.37	0.419	120.87
	1.18E+01	0.718	76.82	1.408	-1.71	0.221	33.09	0.416	120.20
	1.19E+01	0.716	75.24	1.391	-2.40	0.224	32.23	0.418	120.44
	1.20E+01	0.704	74.57	1.375	-3.92	0.224	30.88	0.431	120.29
	1.21E+01	0.696	73.60	1.345	-4.95	0.224	30.29	0.438	118.21
	1.22E+01	0.696	72.94	1.321	-5.46	0.226	29.55	0.438	117.42
	1.23E+01	0.689	72.83	1.320	-7.07	0.227	27.54	0.445	117.27
	1.24E+01	0.682	72.64	1.289	-7.84	0.222	27.15	0.449	116.40
	1.25E+01	0.681	71.68	1.251	-8.30	0.219	26.70	0.460	116.28
	1.26E+01	0.687	71.75	1.218	-8.69	0.217	28.07	0.465	113.43
	1.27E+01	0.682	71.73	1.203	-8.92	0.221	27.93	0.460	111.93
	1.28E+01	0.674	70.60	1.177	-9.58	0.220	27.45	0.455	110.85
	1.29E+01	0.681	69.80	1.162	-9.81	0.221	27.69	0.450	111.22
	1.30E+01	0.683	69.99	1.152	-9.73	0.225	27.64	0.454	111.62
	1.31E+01	0.679	69.58	1.133	-10.47	0.226	26.66	0.463	111.58
	1.32E+01	0.674	68.91	1.125	-11.26	0.225	26.30	0.471	110.82
	1.33E+01	0.676	68.38	1.116	-11.29	0.226	26.29	0.471	108.99
	1.34E+01	0.673	67.94	1.104	-12.00	0.229	25.87	0.470	109.51
	1.35E+01	0.677	67.84	1.096	-12.44	0.229	25.47	0.475	109.08
	1.36E+01	0.672	67.42	1.079	-12.71	0.230	25.50	0.484	108.98
	1.37E+01	0.671	66.91	1.061	-13.57	0.232	25.35	0.488	108.00
	1.38E+01	0.675	66.02	1.055	-14.32	0.233	24.61	0.487	106.77
	1.39E+01	0.674	66.11	1.044	-14.57	0.233	24.40	0.481	105.92
	1.40E+01	0.671	65.49	1.032	-15.35	0.235	24.53	0.483	105.92
	1.41E+01	0.665	64.68	1.017	-16.06	0.237	23.78	0.490	105.82
	1.42E+01	0.667	64.05	0.996	-16.74	0.238	22.99	0.497	105.01
	1.43E+01	0.668	63.44	0.981	-17.76	0.238	23.09	0.501	104.24
	1.44E+01	0.672	63.52	0.980	-18.03	0.241	22.93	0.496	103.67
	1.45E+01	0.661	62.91	0.959	-18.38	0.244	22.08	0.497	103.44
	1.46E+01	0.656	61.92	0.944	-18.73	0.244	21.16	0.501	102.69
	1.47E+01	0.666	60.69	0.928	-19.06	0.242	21.18	0.501	101.46
	1.48E+01	0.666	61.49	0.912	-19.62	0.245	21.16	0.494	100.48
	1.49E+01	0.650	60.73	0.900	-20.65	0.250	20.31	0.492	100.75
	1.50E+01	0.652	59.40	0.898	-20.79	0.248	19.31	0.498	101.65
