! Filename BFG424F_1V_10mA.prm
! Created	by	janssen	on	nov	2006			
!	Column ranking S11, S21,S12,S22 both magnitude and phase.								
!	VCE	=	1	V,	IC	=	10	mA	
!	Common	Emitter	S-Parameters						
#	GHz	S	MA	R	50				
	5.00E-01	0.55	-68.29	19.369	136.24	0.028	62.43	0.757	-36.18
	6.00E-01	0.526	-78.9	17.896	130.08	0.031	59	0.702	-40.96
	7.00E-01	0.503	-88.55	16.538	124.7	0.034	57.22	0.652	-45.01
	8.00E-01	0.483	-97.35	15.282	119.99	0.036	55.26	0.607	-48.48
	9.00E-01	0.47	-105.35	14.158	115.87	0.039	53.98	0.566	-51.56
	1.00E+00	0.457	-112.44	13.162	112.11	0.041	53.12	0.53	-54.21
	1.10E+00	0.447	-119.1	12.265	108.76	0.042	52.66	0.498	-56.61
	1.20E+00	0.438	-125.09	11.454	105.75	0.044	52.46	0.469	-58.75
	1.30E+00	0.431	-130.83	10.742	102.99	0.046	52.24	0.442	-60.74
	1.40E+00	0.426	-136.06	10.106	100.41	0.047	52.18	0.419	-62.62
	1.50E+00	0.423	-140.9	9.537	97.98	0.049	52.18	0.398	-64.41
	1.60E+00	0.419	-145.39	9.02	95.75	0.051	52.26	0.38	-66.09
	1.70E+00	0.415	-149.61	8.546	93.68	0.052	52.64	0.361	-67.82
	1.80E+00	0.415	-153.81	8.116	91.7	0.054	52.82	0.345	-69.4
	1.90E+00	0.415	-157.43	7.726	89.8	0.056	53.12	0.331	-71
	2.00E+00	0.417	-160.96	7.377	88.08	0.057	53.33	0.317	-72.59
	2.10E+00	0.416	-164.37	7.045	86.29	0.059	53.52	0.305	-74.3
	2.20E+00	0.416	-167.63	6.743	84.63	0.061	53.68	0.293	-76.12
	2.30E+00	0.418	-170.89	6.46	83.06	0.062	54.04	0.282	-77.88
	2.40E+00	0.422	-173.55	6.207	81.54	0.064	54.2	0.271	-79.63
	2.50E+00	0.424	-176.2	5.964	80.06	0.066	54.56	0.261	-81.49
	2.60E+00	0.424	-179	5.747	78.55	0.068	54.5	0.252	-83.47
	2.70E+00	0.426	178.1	5.542	77.16	0.07	54.7	0.243	-85.54
	2.80E+00	0.431	175.69	5.346	75.8	0.072	54.79	0.234	-87.59
	2.90E+00	0.436	173.37	5.163	74.49	0.074	54.96	0.226	-89.86
	3.00E+00	0.438	171.18	4.992	73.19	0.076	55.02	0.219	-91.99
	3.10E+00	0.441	168.82	4.835	71.88	0.077	54.93	0.212	-94.43
	3.20E+00	0.444	166.47	4.685	70.61	0.079	55	0.206	-96.88
	3.30E+00	0.45	164.25	4.54	69.41	0.082	55.25	0.199	-99.41
	3.40E+00	0.455	162.51	4.402	68.14	0.084	55.02	0.193	-102.19
	3.50E+00	0.458	160.54	4.271	67.01	0.085	54.98	0.187	-105.05
	3.60E+00	0.461	158.42	4.15	65.79	0.088	55	0.182	-108
	3.70E+00	0.465	156.41	4.041	64.61	0.09	54.92	0.178	-111.23
	3.80E+00	0.471	154.69	3.93	63.52	0.092	54.87	0.173	-114.54
	3.90E+00	0.475	152.96	3.83	62.41	0.094	54.7	0.169	-117.78
	4.00E+00	0.479	151.16	3.729	61.27	0.096	54.59	0.165	-121.28
	4.10E+00	0.482	149.28	3.634	60.26	0.098	54.41	0.162	-124.73
	4.20E+00	0.488	147.43	3.543	59.11	0.1	54.23	0.159	-128.46
	4.30E+00	0.494	145.84	3.46	58.15	0.102	54.04	0.157	-132.22
	4.40E+00	0.499	144.51	3.379	57.02	0.104	53.87	0.155	-136.04
	4.50E+00	0.502	143.03	3.299	55.95	0.107	53.73	0.155	-139.73
	4.60E+00	0.505	141.26	3.224	55.03	0.109	53.31	0.154	-143.46
	4.70E+00	0.511	139.54	3.15	53.95	0.111	53.01	0.154	-147.07
	4.80E+00	0.518	138.21	3.085	52.85	0.113	52.82	0.155	-151.19
	4.90E+00	0.523	137.04	3.018	51.98	0.115	52.44	0.156	-155.23
	5.00E+00	0.526	135.76	2.953	50.96	0.117	52.1	0.156	-159.13
	5.10E+00	0.528	134.03	2.895	49.81	0.119	51.91	0.158	-162.56
	5.20E+00	0.534	132.48	2.834	48.96	0.121	51.74	0.16	-165.74
	5.30E+00	0.543	131.5	2.771	47.97	0.124	51.18	0.164	-169.21
	5.40E+00	0.545	130.21	2.722	46.95	0.125	50.82	0.166	-172.91
	5.50E+00	0.549	128.96	2.666	46.13	0.127	50.59	0.169	-176.36
	5.60E+00	0.553	127.49	2.607	45.09	0.129	50.23	0.172	-179.56
	5.70E+00	0.558	126.34	2.564	44.16	0.131	49.8	0.176	177.75
	5.80E+00	0.565	125.13	2.512	43.38	0.133	49.51	0.181	174.92
	5.90E+00	0.568	124.06	2.462	42.26	0.135	49.21	0.186	172.1
	6.00E+00	0.571	122.91	2.424	41.51	0.137	48.72	0.19	169.21
	6.10E+00	0.575	121.54	2.378	40.69	0.139	48.29	0.194	166.55
	6.20E+00	0.581	120.19	2.328	39.6	0.141	48.02	0.199	164.28
	6.30E+00	0.588	119.36	2.293	38.73	0.143	47.76	0.205	161.92
	6.40E+00	0.589	118.27	2.248	37.96	0.145	47.34	0.211	159.78
	6.50E+00	0.592	117.06	2.209	36.97	0.147	46.83	0.216	157.33
	6.60E+00	0.597	115.93	2.172	36.27	0.148	46.61	0.221	155.26
	6.70E+00	0.601	114.92	2.132	35.51	0.15	46.21	0.226	153.36
	6.80E+00	0.607	113.89	2.095	34.47	0.152	45.69	0.232	151.42
	6.90E+00	0.611	112.97	2.065	33.74	0.154	45.33	0.238	149.58
	7.00E+00	0.612	111.98	2.025	32.99	0.156	45.18	0.244	147.66
	7.10E+00	0.615	110.86	1.995	32.08	0.158	44.59	0.249	145.99
	7.20E+00	0.621	109.74	1.964	31.43	0.16	44.09	0.253	144.65
	7.30E+00	0.626	109.13	1.928	30.63	0.161	43.71	0.259	143.41
	7.40E+00	0.628	108.18	1.899	29.63	0.163	43.53	0.267	141.99
	7.50E+00	0.631	107.13	1.87	29.03	0.165	42.88	0.275	140.02
	7.60E+00	0.635	106.2	1.839	28.18	0.166	42.36	0.28	138.2
	7.70E+00	0.639	105.35	1.813	27.48	0.168	42.22	0.284	136.81
	7.80E+00	0.641	104.63	1.788	26.88	0.17	41.75	0.288	135.88
	7.90E+00	0.643	103.51	1.753	25.9	0.171	41	0.295	134.93
	8.00E+00	0.648	102.64	1.736	25.07	0.172	40.75	0.302	133.6
	8.10E+00	0.65	101.9	1.709	24.6	0.174	40.76	0.307	132.03
	8.20E+00	0.653	101.1	1.682	23.72	0.176	40.31	0.312	130.74
	8.30E+00	0.657	100.23	1.662	23	0.178	39.61	0.317	129.79
	8.40E+00	0.659	99.49	1.634	22.46	0.179	39.26	0.324	128.91
	8.50E+00	0.66	98.64	1.604	21.37	0.18	39.07	0.331	127.82
	8.60E+00	0.664	97.85	1.59	20.7	0.183	38.56	0.336	126.59
	8.70E+00	0.668	96.99	1.562	20.26	0.183	38.07	0.341	125.48
	8.80E+00	0.671	96.53	1.543	19.42	0.185	37.81	0.345	124.58
	8.90E+00	0.672	95.68	1.526	18.86	0.187	37.55	0.351	123.7
	9.00E+00	0.673	94.92	1.497	18.3	0.189	36.76	0.358	122.66
	9.10E+00	0.677	94.26	1.484	17.19	0.19	36.23	0.363	121.53
	9.20E+00	0.679	93.55	1.474	16.74	0.191	35.95	0.369	120.58
	9.30E+00	0.684	92.89	1.445	16.11	0.193	35.51	0.373	119.74
	9.40E+00	0.686	92.14	1.423	15.04	0.195	34.79	0.379	118.92
	9.50E+00	0.688	91.58	1.409	14.44	0.195	34.42	0.385	117.76
	9.60E+00	0.691	90.87	1.382	13.75	0.197	34.15	0.389	116.6
	9.70E+00	0.698	89.95	1.374	12.79	0.2	33.64	0.391	115.61
	9.80E+00	0.7	88.88	1.359	12.07	0.201	32.61	0.393	114.93
	9.90E+00	0.695	88.19	1.326	11.38	0.201	32.03	0.397	114.41
	1.00E+01	0.695	87.75	1.302	10.53	0.201	31.67	0.403	113.65
	1.01E+01	0.698	86.98	1.284	10.55	0.201	31.33	0.408	112.74
	1.02E+01	0.701	86.5	1.26	10.12	0.202	30.97	0.411	111.83
	1.03E+01	0.704	86.07	1.255	9.6	0.203	30.87	0.412	111.24
	1.04E+01	0.705	85.18	1.24	9.51	0.204	30.43	0.417	110.79
	1.05E+01	0.71	84.4	1.223	8.72	0.205	29.79	0.422	110.05
	1.06E+01	0.711	83.82	1.218	7.57	0.206	29.5	0.427	109.4
	1.07E+01	0.712	83.05	1.204	7.18	0.207	29.41	0.43	108.64
	1.08E+01	0.712	82.54	1.183	6.33	0.208	28.63	0.432	108.06
	1.09E+01	0.712	82.12	1.171	5.95	0.207	27.95	0.436	107.76
	1.10E+01	0.713	81.45	1.154	5.63	0.207	27.86	0.441	107.36
	1.11E+01	0.718	80.91	1.128	4.66	0.208	27.49	0.447	106.77
	1.12E+01	0.726	80.35	1.12	4.1	0.207	27.01	0.452	105.89
	1.13E+01	0.731	79.79	1.105	4.14	0.206	27.28	0.454	104.98
	1.14E+01	0.733	78.49	1.097	3.58	0.208	27.77	0.456	104.62
	1.15E+01	0.735	77.75	1.094	2.94	0.21	27.74	0.461	104.06
	1.16E+01	0.734	76.42	1.085	2.32	0.214	27.14	0.466	103.64
	1.17E+01	0.729	75.48	1.072	1.04	0.215	26.6	0.468	102.7
	1.18E+01	0.737	74.96	1.064	0.44	0.217	26.31	0.467	101.88
	1.19E+01	0.732	73.49	1.05	-0.18	0.22	25.61	0.468	101.83
	1.20E+01	0.722	72.58	1.04	-1.44	0.221	24.37	0.477	101.99
	1.21E+01	0.717	71.98	1.02	-2.26	0.22	23.86	0.484	100.75
	1.22E+01	0.71	71.81	1.002	-2.73	0.223	23.32	0.486	100.13
	1.23E+01	0.702	71.18	0.993	-4.1	0.223	21.65	0.49	98.92
	1.24E+01	0.703	70.71	0.972	-4.52	0.217	21.1	0.489	97.89
	1.25E+01	0.702	70.43	0.951	-4.96	0.216	20.49	0.491	97.89
	1.26E+01	0.699	70.37	0.929	-5.18	0.213	21.88	0.493	96.53
	1.27E+01	0.696	69.77	0.918	-5.35	0.216	21.88	0.491	95.94
	1.28E+01	0.695	69.16	0.899	-5.87	0.215	21.54	0.488	95.46
	1.29E+01	0.697	68.88	0.89	-6.08	0.216	21.79	0.487	95.2
	1.30E+01	0.693	68.48	0.882	-5.9	0.219	21.93	0.488	95.03
	1.31E+01	0.693	67.82	0.87	-6.47	0.22	21.08	0.488	95.29
	1.32E+01	0.691	67.37	0.865	-7.18	0.22	20.75	0.496	95.19
	1.33E+01	0.689	67.1	0.859	-7.3	0.221	20.72	0.5	94.04
	1.34E+01	0.686	66.42	0.848	-8.01	0.222	20.29	0.501	93.92
	1.35E+01	0.689	66.29	0.842	-8.27	0.221	20	0.504	93.07
	1.36E+01	0.685	65.79	0.831	-8.37	0.222	20.21	0.505	92.84
	1.37E+01	0.684	65.33	0.819	-9.12	0.225	20.15	0.507	92.28
	1.38E+01	0.686	64.53	0.813	-9.85	0.225	19.45	0.511	91.38
	1.39E+01	0.684	64.38	0.806	-10.2	0.225	19.21	0.509	90.73
	1.40E+01	0.683	63.76	0.796	-10.7	0.226	19.45	0.508	90.53
	1.41E+01	0.68	63.32	0.787	-11.07	0.227	19	0.507	90.36
	1.42E+01	0.68	62.73	0.774	-11.6	0.229	18.36	0.509	90.02
	1.43E+01	0.676	62.16	0.762	-12.5	0.229	18.58	0.51	89.32
	1.44E+01	0.677	61.69	0.759	-12.77	0.231	18.39	0.51	88.75
	1.45E+01	0.674	61.26	0.746	-12.98	0.233	17.72	0.509	88.37
	1.46E+01	0.674	60.88	0.738	-13.29	0.234	16.79	0.511	88.3
	1.47E+01	0.67	60.27	0.73	-13.53	0.233	16.83	0.512	87.93
	1.48E+01	0.667	59.64	0.717	-14.16	0.236	16.74	0.513	87.38
	1.49E+01	0.668	58.94	0.706	-15.03	0.239	16.11	0.513	86.79
	1.50E+01	0.667	58.86	0.704	-14.92	0.236	15.44	0.512	86.25
