! Filename: 27bfg410.001
! BFG410W Field B1
! V1=8.670E-001V,V2=2.000E+000V, I1=1.060E-004A, I2=7.010E-003A
# GHz   S   MA   R 50
!                S11              S21              S12              S22
!Freq(GHz)  Mag     Ang      Mag     Ang      Mag     Ang      Mag     Ang 
   0.040    0.718  -2.611   16.843 176.589    0.001  70.200    0.984  -0.806
   0.100    0.723  -6.287   16.556 172.956    0.003  86.373    0.984  -3.108
   0.200    0.714 -12.722   16.214 166.023    0.005  82.209    0.970  -7.185
   0.300    0.701 -19.049   15.958 159.908    0.008  79.289    0.962 -10.485
   0.400    0.683 -25.046   15.600 153.312    0.010  75.708    0.947 -14.055
   0.500    0.662 -30.928   15.151 147.353    0.013  72.417    0.927 -16.954
   0.600    0.639 -36.552   14.657 141.607    0.015  69.672    0.910 -19.888
   0.700    0.616 -41.990   14.086 136.076    0.017  66.822    0.888 -22.811
   0.800    0.590 -47.200   13.564 130.846    0.019  64.730    0.867 -25.310
   0.900    0.565 -51.997   13.036 125.837    0.021  62.792    0.847 -27.775
   1.000    0.538 -56.614   12.484 121.086    0.022  60.914    0.826 -30.019
   1.100    0.514 -61.027   11.969 116.683    0.024  59.229    0.807 -32.085
   1.200    0.491 -65.311   11.463 112.377    0.025  57.952    0.788 -34.140
   1.300    0.469 -69.327   10.975 108.372    0.027  56.697    0.769 -35.978
   1.400    0.448 -73.197   10.530 104.550    0.028  55.523    0.753 -37.730
   1.500    0.427 -77.108   10.096 100.816    0.029  54.560    0.737 -39.419
   1.600    0.407 -80.854    9.697  97.285    0.030  53.755    0.722 -41.047
   1.700    0.389 -84.551    9.315  93.888    0.032  52.890    0.708 -42.646
   1.800    0.372 -88.042    8.949  90.615    0.033  52.130    0.694 -44.214
   1.900    0.356 -91.430    8.615  87.505    0.034  51.386    0.682 -45.780
   2.000    0.341 -94.850    8.294  84.452    0.036  50.752    0.670 -47.319
   2.200    0.313 -101.811    7.720  78.615    0.038  49.469    0.647 -50.325
   2.400    0.288 -108.762    7.209  73.045    0.041  48.228    0.626 -53.287
   2.600    0.266 -116.062    6.751  67.680    0.044  46.888    0.606 -56.292
   2.800    0.246 -123.451    6.344  62.572    0.047  45.485    0.587 -59.242
   3.000    0.230 -131.379    5.982  57.605    0.050  43.990    0.568 -62.294
   3.500    0.198 -153.130    5.225  45.693    0.058  39.731    0.522 -70.016
   4.000    0.183 -177.225    4.622  34.237    0.067  34.656    0.475 -77.990
   4.500    0.191 158.741    4.140  23.185    0.077  28.596    0.427 -86.672
   5.000    0.212 136.122    3.723  12.218    0.086  21.926    0.373 -95.567
   5.500    0.245 115.696    3.344   1.017    0.093  14.029    0.307 -104.670
   6.000    0.283 102.977    3.068  -8.973    0.105   7.647    0.263 -115.776
   6.500    0.321  88.673    2.767 -19.241    0.110   0.493    0.201 -125.914
   7.000    0.301  79.462    2.503 -24.520    0.117   5.054    0.203 -121.699
   7.500    0.397  72.879    2.399 -37.596    0.137 -10.039    0.139 -159.884
   8.000    0.460  63.256    2.226 -48.857    0.148 -20.542    0.113 156.045
   8.500    0.522  52.652    2.016 -60.850    0.153 -32.895    0.129  99.849
   9.000    0.571  43.373    1.824 -71.344    0.155 -42.743    0.179  70.362
   9.500    0.607  33.993    1.624 -81.578    0.151 -52.627    0.238  48.723
  10.000    0.657  27.105    1.493 -92.699    0.159 -62.651    0.315  37.372
  10.500    0.696  18.871    1.335 -103.419    0.158 -73.123    0.383  25.057
  11.000    0.733  10.323    1.174 -114.564    0.154 -86.086    0.457  12.966
  11.500    0.751   1.776    1.011 -125.156    0.144 -97.647    0.520   1.867
  12.000    0.767  -6.713    0.856 -135.725    0.133 -110.984    0.580  -9.101
!     DEEMBEDDED NOISE DATA
!FREQUENCY    FMIN    GAMMA OPT        Rn
!  (GHz)      (dB)    Mag    Ang   (NORMALIZED)
