! Filename: 15bfg425.001
! BFG425W Field C1
! V1=8.342E-001V,V2=1.000E+000V, I1=7.034E-005A, I2=5.000E-003A
# GHz   S   MA   R 50
!                S11              S21              S12              S22
!Freq(GHz)  Mag     Ang      Mag     Ang      Mag     Ang      Mag     Ang 
   0.040    0.770  -4.217   14.840 176.126    0.003  74.802    0.971  -2.515
   0.100    0.775 -10.376   14.539 171.224    0.008  84.899    0.967  -6.536
   0.200    0.762 -20.591   14.212 162.703    0.015  77.831    0.947 -13.262
   0.300    0.741 -30.560   13.838 154.922    0.022  72.308    0.923 -19.496
   0.400    0.716 -40.204   13.336 147.124    0.028  66.951    0.889 -25.412
   0.500    0.688 -49.485   12.785 139.825    0.034  62.056    0.851 -30.733
   0.600    0.659 -58.297   12.140 133.179    0.039  57.786    0.813 -35.735
   0.700    0.631 -66.656   11.503 126.957    0.043  53.715    0.773 -40.386
   0.800    0.602 -74.759   10.905 121.055    0.047  50.302    0.734 -44.523
   0.900    0.574 -82.204   10.327 115.633    0.050  47.323    0.697 -48.396
   1.000    0.549 -89.436    9.752 110.520    0.053  44.579    0.662 -51.902
   1.100    0.527 -96.252    9.222 105.778    0.056  42.145    0.630 -55.167
   1.200    0.506 -102.783    8.727 101.271    0.058  39.992    0.599 -58.245
   1.300    0.488 -109.058    8.267  97.064    0.060  38.093    0.570 -61.111
   1.400    0.472 -115.134    7.849  93.055    0.062  36.392    0.544 -63.776
   1.500    0.457 -121.066    7.456  89.230    0.064  34.868    0.519 -66.300
   1.600    0.444 -126.907    7.096  85.571    0.066  33.475    0.497 -68.733
   1.700    0.433 -132.375    6.761  82.028    0.067  32.170    0.475 -71.091
   1.800    0.424 -137.733    6.451  78.657    0.069  30.976    0.455 -73.356
   1.900    0.415 -142.821    6.164  75.443    0.071  29.864    0.437 -75.637
   2.000    0.408 -147.874    5.898  72.303    0.072  28.799    0.420 -77.859
   2.200    0.397 -157.661    5.425  66.298    0.075  26.813    0.387 -82.235
   2.400    0.390 -167.087    5.014  60.569    0.079  24.983    0.358 -86.573
   2.600    0.388 -175.980    4.653  55.077    0.082  23.118    0.331 -91.049
   2.800    0.387 175.504    4.335  49.804    0.086  21.301    0.306 -95.578
   3.000    0.389 167.356    4.054  44.645    0.089  19.366    0.282 -100.346
   3.500    0.404 148.575    3.476  32.315    0.098  14.365    0.229 -113.628
   4.000    0.428 131.862    3.020  20.487    0.108   8.783    0.181 -130.277
   4.500    0.457 117.289    2.657   9.199    0.117   2.719    0.144 -152.696
   5.000    0.493 103.562    2.348  -2.186    0.125  -4.541    0.121 174.104
   5.500    0.520  91.160    2.071 -12.571    0.131 -10.514    0.117 140.112
   6.000    0.558  79.714    1.847 -23.406    0.137 -18.416    0.150 109.160
   6.500    0.570  71.779    1.691 -31.064    0.149 -20.437    0.168  98.849
   7.000    0.603  63.190    1.554 -40.726    0.161 -27.344    0.217  86.662
   7.500    0.653  53.213    1.394 -52.328    0.163 -38.697    0.289  70.327
   8.000    0.682  45.298    1.272 -61.816    0.168 -45.995    0.341  60.359
   8.500    0.714  37.075    1.149 -71.824    0.171 -54.801    0.398  50.026
   9.000    0.736  28.966    1.026 -80.818    0.168 -62.519    0.443  39.887
   9.500    0.758  21.641    0.929 -89.266    0.168 -70.429    0.477  31.797
  10.000    0.780  14.754    0.848 -99.053    0.168 -79.387    0.531  24.857
  10.500    0.798   7.829    0.765 -108.365    0.166 -88.003    0.578  17.059
  11.000    0.810   0.813    0.679 -117.159    0.159 -97.231    0.614   8.517
  11.500    0.820  -6.063    0.608 -126.419    0.153 -106.727    0.650   1.534
  12.000    0.825 -13.025    0.532 -135.475    0.143 -116.754    0.685  -6.442
!     DEEMBEDDED NOISE DATA
!FREQUENCY    FMIN    GAMMA OPT        Rn
!  (GHz)      (dB)    Mag    Ang   (NORMALIZED)
