! Filename: 41bfg425.001
! BFG425W Field C1
! V1=7.837E-001V,V2=4.000E+000V, I1=8.591E-006A, I2=1.000E-003A
# GHz   S   MA   R 50
!                S11              S21              S12              S22
!Freq(GHz)  Mag     Ang      Mag     Ang      Mag     Ang      Mag     Ang 
   0.040    0.967  -1.639    3.513 177.631    0.002  70.908    0.995  -1.070
   0.100    0.968  -5.109    3.444 175.282    0.006  83.815    0.995  -2.843
   0.200    0.965 -10.163    3.433 170.769    0.012  80.916    0.992  -5.677
   0.300    0.960 -15.322    3.428 167.079    0.017  77.877    0.989  -8.472
   0.400    0.955 -20.291    3.432 161.957    0.023  74.610    0.984 -11.281
   0.500    0.949 -25.354    3.422 157.335    0.029  71.355    0.978 -14.080
   0.600    0.942 -30.442    3.380 152.917    0.034  68.152    0.971 -16.790
   0.700    0.934 -35.362    3.336 148.709    0.039  64.617    0.963 -19.529
   0.800    0.925 -40.443    3.306 144.469    0.044  61.320    0.953 -22.225
   0.900    0.914 -45.363    3.280 140.248    0.049  58.116    0.942 -24.902
   1.000    0.902 -50.409    3.243 135.888    0.053  54.792    0.931 -27.495
   1.100    0.891 -55.316    3.201 131.761    0.057  51.656    0.920 -29.995
   1.200    0.878 -60.215    3.156 127.593    0.061  48.574    0.908 -32.507
   1.300    0.866 -65.040    3.108 123.625    0.065  45.528    0.895 -34.998
   1.400    0.852 -69.919    3.067 119.585    0.068  42.498    0.881 -37.404
   1.500    0.837 -74.811    3.023 115.629    0.072  39.614    0.868 -39.761
   1.600    0.822 -79.773    2.980 111.625    0.074  36.750    0.854 -42.065
   1.700    0.808 -84.502    2.932 107.814    0.077  34.056    0.840 -44.355
   1.800    0.794 -89.289    2.876 103.915    0.079  31.376    0.826 -46.623
   1.900    0.780 -93.901    2.819 100.274    0.081  28.791    0.812 -48.834
   2.000    0.766 -98.559    2.759  96.609    0.083  26.298    0.798 -50.998
   2.200    0.738 -107.929    2.654  89.370    0.086  21.529    0.769 -55.245
   2.400    0.712 -117.270    2.550  82.363    0.088  17.125    0.741 -59.344
   2.600    0.688 -126.432    2.443  75.638    0.090  13.128    0.714 -63.380
   2.800    0.666 -135.567    2.342  69.011    0.091   9.349    0.686 -67.272
   3.000    0.646 -144.631    2.244  62.598    0.092   5.941    0.660 -71.176
   3.500    0.610 -167.105    2.022  47.158    0.092  -1.151    0.595 -80.815
   4.000    0.589 171.279    1.818  32.382    0.091  -6.704    0.533 -90.452
   4.500    0.586 151.139    1.638  18.694    0.091 -10.422    0.472 -100.631
   5.000    0.595 131.969    1.475   5.158    0.092 -14.915    0.409 -112.070
   5.500    0.605 115.123    1.316  -7.245    0.091 -17.156    0.345 -123.108
   6.000    0.629  99.489    1.183 -19.793    0.094 -21.704    0.283 -138.185
   6.500    0.640  87.995    1.079 -28.495    0.103 -15.242    0.255 -150.256
   7.000    0.668  76.382    0.992 -38.972    0.118 -18.696    0.227 -171.509
   7.500    0.705  64.033    0.899 -51.623    0.123 -30.770    0.203 155.097
   8.000    0.730  54.288    0.821 -61.829    0.132 -36.623    0.217 126.741
   8.500    0.756  44.791    0.744 -72.649    0.139 -45.461    0.254  99.502
   9.000    0.775  35.705    0.661 -82.507    0.139 -53.062    0.295  77.448
   9.500    0.794  27.292    0.594 -91.226    0.141 -61.310    0.331  63.329
  10.000    0.812  19.717    0.547 -101.393    0.145 -70.859    0.408  51.172
  10.500    0.826  12.265    0.492 -111.252    0.146 -80.082    0.476  38.930
  11.000    0.836   4.875    0.434 -120.698    0.140 -90.350    0.528  26.592
  11.500    0.843  -2.349    0.387 -130.584    0.135 -101.260    0.583  17.093
  12.000    0.846  -9.391    0.336 -140.351    0.124 -112.477    0.638   6.501
!     DEEMBEDDED NOISE DATA
!FREQUENCY    FMIN    GAMMA OPT        Rn
!  (GHz)      (dB)    Mag    Ang   (NORMALIZED)
