! Filename BFG424W_3V_5mA.prm
! Simulation_Values
!	! Created	by	janssen	on	Thu	Sep	15	10:02:03	WETDST	2005
!	Column ranking S11, S21,S12,S22 both magnitude and phase.									
!	VCE	=	3	V,	IC	=	5	mA		
!	Common	Emitter	S-Parameters							
#	GHz	S	MA	R	50					
1.00E-01	0.807	-8.923	14.287	172.360	0.006	83.071	0.981	-4.944		
2.00E-01	0.795	-17.791	14.021	165.091	0.012	79.591	0.967	-9.836		
3.00E+08	0.776	-26.322	13.571	158.131	0.018	75.573	0.946	-14.470		
4.00E+08	0.753	-34.652	13.124	151.648	0.023	70.631	0.919	-18.830		
5.00E+08	0.724	-42.746	12.597	145.418	0.028	67.126	0.889	-22.838		
6.00E+08	0.694	-50.381	12.036	139.713	0.032	63.878	0.855	-26.544		
7.00E+08	0.665	-57.700	11.448	134.429	0.036	60.979	0.821	-29.881		
8.00E+08	0.634	-64.732	10.887	129.517	0.039	58.670	0.789	-32.847		
9.00E+08	0.616	-73.824	10.507	121.965	0.045	53.737	0.768	-38.012		
1.00E+09	0.591	-81.806	10.009	115.838	0.050	50.136	0.740	-42.009		
1.10E+09	0.565	-89.788	9.512	109.711	0.055	46.535	0.712	-46.007		
1.20E+09	0.540	-97.770	9.014	103.583	0.059	42.935	0.684	-50.004
1.30E+09	0.515	-105.752	8.516	97.456	0.064	39.334	0.655	-54.002
1.40E+09	0.489	-113.734	8.019	91.329	0.069	35.733	0.627	-57.999
1.50E+09	0.464	-121.716	7.521	85.202	0.073	32.133	0.599	-61.996
1.60E+09	0.438	-129.698	7.024	79.074	0.078	28.532	0.570	-65.994
1.70E+09	0.413	-137.680	6.526	72.947	0.083	24.931	0.542	-69.991
1.80E+09	0.387	-145.662	6.028	66.820	0.087	21.331	0.514	-73.988
1.90E+09	0.362	-153.643	5.531	60.692	0.092	17.730	0.485	-77.986
2.00E+09	0.336	-161.625	5.033	54.565	0.097	14.129	0.457	-81.983
2.10E+09	0.311	-169.607	4.536	48.438	0.101	10.529	0.429	-85.981
2.20E+09	0.285	-177.589	4.038	42.310	0.106	6.928	0.401	-89.978
2.30E+09	0.260	-185.571	3.540	36.183	0.111	3.327	0.372	-93.975
2.40E+09	0.234	-193.553	3.043	30.056	0.115	-0.274	0.344	-97.973
2.50E+09	0.209	-201.535	2.545	23.928	0.120	-3.874	0.316	-101.970
2.60E+09	0.183	-209.517	2.047	17.801	0.125	-7.475	0.287	-105.968
2.70E+09	0.158	-217.499	1.550	11.674	0.129	-11.076	0.259	-109.965
2.80E+09	0.132	-225.481	1.052	5.546	0.134	-14.676	0.231	-113.962
2.90E+09	0.107	-233.462	0.555	-0.581	0.139	-18.277	0.203	-117.960
3.00E+09	0.081	-241.444	0.057	-6.708	0.143	-21.878	0.174	-121.957
3.10E+09	0.056	-249.426	-0.441	-12.836	0.148	-25.478	0.146	-125.954
3.20E+09	0.031	-257.408	-0.938	-18.963	0.153	-29.079	0.118	-129.952
3.30E+09	0.005	-265.390	-1.436	-25.090	0.157	-32.680	0.089	-133.949
3.40E+09	-0.020	-273.372	-1.933	-31.218	0.162	-36.280	0.061	-137.947
3.50E+09	-0.046	-281.354	-2.431	-37.345	0.166	-39.881	0.033	-141.944
3.60E+09	-0.071	-289.336	-2.929	-43.472	0.171	-43.482	0.005	-145.941
3.70E+09	-0.097	-297.318	-3.426	-49.600	0.176	-47.082	-0.024	-149.939
3.80E+09	-0.122	-305.300	-3.924	-55.727	0.180	-50.683	-0.052	-153.936
3.90E+09	-0.148	-313.282	-4.421	-61.854	0.185	-54.284	-0.080	-157.934
4.00E+09	-0.173	-321.263	-4.919	-67.982	0.190	-57.884	-0.109	-161.931
4.10E+09	-0.199	-329.245	-5.417	-74.109	0.194	-61.485	-0.137	-165.928
4.20E+09	-0.224	-337.227	-5.914	-80.236	0.199	-65.086	-0.165	-169.926
4.30E+09	-0.250	-345.209	-6.412	-86.364	0.204	-68.687	-0.193	-173.923
4.40E+09	-0.275	-353.191	-6.910	-92.491	0.208	-72.287	-0.222	-177.920
4.50E+09	-0.301	-361.173	-7.407	-98.618	0.213	-75.888	-0.250	-181.918
4.60E+09	-0.326	-369.155	-7.905	-104.745	0.218	-79.489	-0.278	-185.915
4.70E+09	-0.352	-377.137	-8.402	-110.873	0.222	-83.089	-0.307	-189.913
4.80E+09	-0.377	-385.119	-8.900	-117.000	0.227	-86.690	-0.335	-193.910
4.90E+09	-0.403	-393.101	-9.398	-123.127	0.232	-90.291	-0.363	-197.907
5.00E+09	-0.428	-401.083	-9.895	-129.255	0.236	-93.891	-0.391	-201.905
5.10E+09	-0.453	-409.064	-10.393	-135.382	0.241	-97.492	-0.420	-205.902
5.20E+09	-0.479	-417.046	-10.890	-141.509	0.246	-101.093	-0.448	-209.900
5.30E+09	-0.504	-425.028	-11.388	-147.637	0.250	-104.693	-0.476	-213.897
5.40E+09	-0.530	-433.010	-11.886	-153.764	0.255	-108.294	-0.505	-217.894
5.50E+09	-0.555	-440.992	-12.383	-159.891	0.260	-111.895	-0.533	-221.892
5.60E+09	-0.581	-448.974	-12.881	-166.019	0.264	-115.495	-0.561	-225.889
5.70E+09	-0.606	-456.956	-13.378	-172.146	0.269	-119.096	-0.589	-229.886
5.80E+09	-0.632	-464.938	-13.876	-178.273	0.274	-122.697	-0.618	-233.884
5.90E+09	-0.657	-472.920	-14.374	-184.401	0.278	-126.298	-0.646	-237.881
6.00E+09	-0.683	-480.902	-14.871	-190.528	0.283	-129.898	-0.674	-241.879
6.10E+09	-0.708	-488.883	-15.369	-196.655	0.288	-133.499	-0.703	-245.876
6.20E+09	-0.734	-496.865	-15.867	-202.783	0.292	-137.100	-0.731	-249.873
6.30E+09	-0.759	-504.847	-16.364	-208.910	0.297	-140.700	-0.759	-253.871
6.40E+09	-0.785	-512.829	-16.862	-215.037	0.301	-144.301	-0.787	-257.868
6.50E+09	-0.810	-520.811	-17.359	-221.165	0.306	-147.902	-0.816	-261.866
6.60E+09	-0.836	-528.793	-17.857	-227.292	0.311	-151.502	-0.844	-265.863
6.70E+09	-0.861	-536.775	-18.355	-233.419	0.315	-155.103	-0.872	-269.860
6.80E+09	-0.887	-544.757	-18.852	-239.547	0.320	-158.704	-0.901	-273.858
6.90E+09	-0.912	-552.739	-19.350	-245.674	0.325	-162.304	-0.929	-277.855
7.00E+09	-0.937	-560.721	-19.847	-251.801	0.329	-165.905	-0.957	-281.852
7.10E+09	-0.963	-568.703	-20.345	-257.929	0.334	-169.506	-0.985	-285.850
7.20E+09	-0.988	-576.684	-20.843	-264.056	0.339	-173.106	-1.014	-289.847
7.30E+09	-1.014	-584.666	-21.340	-270.183	0.343	-176.707	-1.042	-293.845
7.40E+09	-1.039	-592.648	-21.838	-276.310	0.348	-180.308	-1.070	-297.842
7.50E+09	-1.065	-600.630	-22.335	-282.438	0.353	-183.909	-1.099	-301.839
7.60E+09	-1.090	-608.612	-22.833	-288.565	0.357	-187.509	-1.127	-305.837
7.70E+09	-1.116	-616.594	-23.331	-294.692	0.362	-191.110	-1.155	-309.834
7.80E+09	-1.141	-624.576	-23.828	-300.820	0.367	-194.711	-1.183	-313.831
7.90E+09	-1.167	-632.558	-24.326	-306.947	0.371	-198.311	-1.212	-317.829
8.00E+09	-1.192	-640.540	-24.824	-313.074	0.376	-201.912	-1.240	-321.826
8.10E+09	-1.218	-648.522	-25.321	-319.202	0.381	-205.513	-1.268	-325.824
8.20E+09	-1.243	-656.503	-25.819	-325.329	0.385	-209.113	-1.297	-329.821
8.30E+09	-1.269	-664.485	-26.316	-331.456	0.390	-212.714	-1.325	-333.818
8.40E+09	-1.294	-672.467	-26.814	-337.584	0.395	-216.315	-1.353	-337.816
8.50E+09	-1.320	-680.449	-27.312	-343.711	0.399	-219.915	-1.381	-341.813
8.60E+09	-1.345	-688.431	-27.809	-349.838	0.404	-223.516	-1.410	-345.811
8.70E+09	-1.371	-696.413	-28.307	-355.966	0.409	-227.117	-1.438	-349.808
8.80E+09	-1.396	-704.395	-28.804	-362.093	0.413	-230.717	-1.466	-353.805
8.90E+09	-1.421	-712.377	-29.302	-368.220	0.418	-234.318	-1.495	-357.803
9.00E+09	-1.447	-720.359	-29.800	-374.348	0.423	-237.919	-1.523	-361.800
9.10E+09	-1.472	-728.341	-30.297	-380.475	0.427	-241.520	-1.551	-365.797
9.20E+09	-1.498	-736.323	-30.795	-386.602	0.432	-245.120	-1.579	-369.795
9.30E+09	-1.523	-744.304	-31.292	-392.730	0.437	-248.721	-1.608	-373.792
9.40E+09	-1.549	-752.286	-31.790	-398.857	0.441	-252.322	-1.636	-377.790
9.50E+09	-1.574	-760.268	-32.288	-404.984	0.446	-255.922	-1.664	-381.787
9.60E+09	-1.600	-768.250	-32.785	-411.112	0.450	-259.523	-1.693	-385.784
9.70E+09	-1.625	-776.232	-33.283	-417.239	0.455	-263.124	-1.721	-389.782
9.80E+09	-1.651	-784.214	-33.781	-423.366	0.460	-266.724	-1.749	-393.779
9.90E+09	-1.676	-792.196	-34.278	-429.494	0.464	-270.325	-1.777	-397.777
1.00E+10	-1.702	-800.178	-34.776	-435.621	0.469	-273.926	-1.806	-401.774
1.01E+10	-1.727	-808.160	-35.273	-441.748	0.474	-277.526	-1.834	-405.771
1.02E+10	-1.753	-816.142	-35.771	-447.875	0.478	-281.127	-1.862	-409.769
1.03E+10	-1.778	-824.124	-36.269	-454.003	0.483	-284.728	-1.891	-413.766
1.04E+10	-1.804	-832.105	-36.766	-460.130	0.488	-288.328	-1.919	-417.763
1.05E+10	-1.829	-840.087	-37.264	-466.257	0.492	-291.929	-1.947	-421.761
1.06E+10	-1.854	-848.069	-37.761	-472.385	0.497	-295.530	-1.975	-425.758
1.07E+10	-1.880	-856.051	-38.259	-478.512	0.502	-299.131	-2.004	-429.756
1.08E+10	-1.905	-864.033	-38.757	-484.639	0.506	-302.731	-2.032	-433.753
1.09E+10	-1.931	-872.015	-39.254	-490.767	0.511	-306.332	-2.060	-437.750
1.10E+10	-1.956	-879.997	-39.752	-496.894	0.516	-309.933	-2.089	-441.748
1.11E+10	-1.982	-887.979	-40.249	-503.021	0.520	-313.533	-2.117	-445.745
1.12E+10	-2.007	-895.961	-40.747	-509.149	0.525	-317.134	-2.145	-449.743
1.13E+10	-2.033	-903.943	-41.245	-515.276	0.530	-320.735	-2.173	-453.740
1.14E+10	-2.058	-911.924	-41.742	-521.403	0.534	-324.335	-2.202	-457.737
1.15E+10	-2.084	-919.906	-42.240	-527.531	0.539	-327.936	-2.230	-461.735
1.16E+10	-2.109	-927.888	-42.738	-533.658	0.544	-331.537	-2.258	-465.732
1.17E+10	-2.135	-935.870	-43.235	-539.785	0.548	-335.137	-2.287	-469.729
1.18E+10	-2.160	-943.852	-43.733	-545.913	0.553	-338.738	-2.315	-473.727
1.19E+10	-2.186	-951.834	-44.230	-552.040	0.558	-342.339	-2.343	-477.724
1.20E+10	-2.211	-959.816	-44.728	-558.167	0.562	-345.939	-2.371	-481.722
1.21E+10	-2.237	-967.798	-45.226	-564.295	0.567	-349.540	-2.400	-485.719
1.22E+10	-2.262	-975.780	-45.723	-570.422	0.572	-353.141	-2.428	-489.716
1.23E+10	-2.288	-983.762	-46.221	-576.549	0.576	-356.742	-2.456	-493.714
1.24E+10	-2.313	-991.744	-46.718	-582.677	0.581	-360.342	-2.485	-497.711
1.25E+10	-2.338	-999.725	-47.216	-588.804	0.586	-363.943	-2.513	-501.709
1.26E+10	-2.364	-1007.707	-47.714	-594.931	0.590	-367.544	-2.541	-505.706
1.27E+10	-2.389	-1015.689	-48.211	-601.059	0.595	-371.144	-2.569	-509.703
1.28E+10	-2.415	-1023.671	-48.709	-607.186	0.599	-374.745	-2.598	-513.701
1.29E+10	-2.440	-1031.653	-49.206	-613.313	0.604	-378.346	-2.626	-517.698
1.30E+10	-2.466	-1039.635	-49.704	-619.440	0.609	-381.946	-2.654	-521.695
1.31E+10	-2.491	-1047.617	-50.202	-625.568	0.613	-385.547	-2.683	-525.693
1.32E+10	-2.517	-1055.599	-50.699	-631.695	0.618	-389.148	-2.711	-529.690
1.33E+10	-2.542	-1063.581	-51.197	-637.822	0.623	-392.748	-2.739	-533.688
1.34E+10	-2.568	-1071.563	-51.695	-643.950	0.627	-396.349	-2.767	-537.685
1.35E+10	-2.593	-1079.545	-52.192	-650.077	0.632	-399.950	-2.796	-541.682
1.36E+10	-2.619	-1087.526	-52.690	-656.204	0.637	-403.550	-2.824	-545.680
1.37E+10	-2.644	-1095.508	-53.187	-662.332	0.641	-407.151	-2.852	-549.677
1.38E+10	-2.670	-1103.490	-53.685	-668.459	0.646	-410.752	-2.881	-553.675
1.39E+10	-2.695	-1111.472	-54.183	-674.586	0.651	-414.353	-2.909	-557.672
1.40E+10	-2.721	-1119.454	-54.680	-680.714	0.655	-417.953	-2.937	-561.669
1.41E+10	-2.746	-1127.436	-55.178	-686.841	0.660	-421.554	-2.965	-565.667
1.42E+10	-2.772	-1135.418	-55.675	-692.968	0.665	-425.155	-2.994	-569.664
1.43E+10	-2.797	-1143.400	-56.173	-699.096	0.669	-428.755	-3.022	-573.661
1.44E+10	-2.822	-1151.382	-56.671	-705.223	0.674	-432.356	-3.050	-577.659
1.45E+10	-2.848	-1159.364	-57.168	-711.350	0.679	-435.957	-3.079	-581.656
1.46E+10	-2.873	-1167.345	-57.666	-717.478	0.683	-439.557	-3.107	-585.654
1.47E+10	-2.899	-1175.327	-58.163	-723.605	0.688	-443.158	-3.135	-589.651
1.48E+10	-2.924	-1183.309	-58.661	-729.732	0.693	-446.759	-3.163	-593.648
1.49E+10	-2.950	-1191.291	-59.159	-735.860	0.697	-450.359	-3.192	-597.646
1.50E+10	-2.975	-1199.273	-59.656	-741.987	0.702	-453.960	-3.220	-601.643
