! Filename: 215bfg425.001
! BFG425W Field C1
! V1=8.558E-001V,V2=2.000E+000V, I1=2.081E-004A, I2=1.497E-002A
# GHz   S   MA   R 50
!                S11              S21              S12              S22
!Freq(GHz)  Mag     Ang      Mag     Ang      Mag     Ang      Mag     Ang 
   0.040    0.501  -6.499   31.091 174.115    0.002  70.576    0.948  -3.089
   0.100    0.506 -16.308   30.318 166.872    0.005  84.332    0.941  -8.375
   0.200    0.484 -32.147   28.799 154.846    0.010  76.428    0.903 -16.672
   0.300    0.454 -46.508   26.769 144.379    0.014  71.100    0.850 -23.768
   0.400    0.422 -59.842   24.551 134.902    0.017  66.188    0.791 -29.617
   0.500    0.392 -72.083   22.385 126.373    0.020  63.311    0.735 -34.401
   0.600    0.365 -82.941   20.346 119.339    0.023  61.004    0.683 -38.280
   0.700    0.343 -92.625   18.546 113.236    0.025  59.043    0.638 -41.457
   0.800    0.323 -101.773   16.955 107.628    0.027  57.784    0.598 -44.109
   0.900    0.306 -109.882   15.577 102.688    0.030  56.583    0.565 -46.460
   1.000    0.293 -117.603   14.357  98.199    0.032  55.754    0.535 -48.532
   1.100    0.283 -124.675   13.300  94.080    0.034  54.881    0.510 -50.433
   1.200    0.274 -131.243   12.370  90.246    0.036  54.147    0.487 -52.238
   1.300    0.268 -137.471   11.544  86.688    0.038  53.443    0.466 -53.887
   1.400    0.263 -143.338   10.820  83.349    0.040  52.814    0.448 -55.441
   1.500    0.259 -149.209   10.172  80.154    0.042  52.108    0.432 -56.946
   1.600    0.256 -154.624    9.594  77.086    0.044  51.433    0.417 -58.509
   1.700    0.254 -159.694    9.071  74.183    0.047  50.642    0.403 -60.030
   1.800    0.253 -164.686    8.599  71.350    0.049  49.884    0.391 -61.554
   1.900    0.253 -169.195    8.174  68.620    0.051  49.028    0.379 -63.191
   2.000    0.253 -173.709    7.785  65.955    0.053  48.182    0.367 -64.819
   2.200    0.255 177.779    7.103  60.847    0.058  46.263    0.346 -68.103
   2.400    0.260 169.592    6.527  55.906    0.063  44.324    0.325 -71.460
   2.600    0.267 162.219    6.027  51.076    0.067  42.112    0.306 -75.006
   2.800    0.274 155.195    5.596  46.449    0.072  39.835    0.287 -78.620
   3.000    0.284 148.521    5.221  41.902    0.077  37.451    0.268 -82.502
   3.500    0.312 133.452    4.456  30.881    0.089  30.936    0.222 -93.074
   4.000    0.345 119.919    3.866  20.108    0.101  23.884    0.175 -105.867
   4.500    0.380 108.189    3.401   9.695    0.112  16.466    0.130 -123.229
   5.000    0.423  96.675    3.009  -0.995    0.122   8.076    0.087 -154.445
   5.500    0.455  85.709    2.657 -10.738    0.129   1.006    0.063 160.114
   6.000    0.498  75.760    2.373 -21.189    0.136  -7.812    0.094 108.796
   6.500    0.508  68.957    2.178 -28.285    0.150 -11.109    0.110  98.986
   7.000    0.544  61.664    2.009 -37.600    0.162 -18.777    0.161  86.699
   7.500    0.604  52.387    1.807 -49.149    0.165 -30.628    0.242  68.673
   8.000    0.638  44.919    1.652 -58.525    0.171 -38.489    0.297  59.098
   8.500    0.677  37.035    1.494 -68.509    0.174 -47.820    0.358  48.812
   9.000    0.705  29.076    1.335 -77.440    0.172 -56.038    0.409  38.596
   9.500    0.731  21.834    1.209 -86.024    0.171 -64.293    0.446  30.265
  10.000    0.760  15.008    1.103 -95.852    0.172 -73.630    0.503  23.588
  10.500    0.781   8.076    0.994 -105.313    0.170 -82.688    0.552  15.817
  11.000    0.798   0.861    0.881 -114.200    0.163 -92.232    0.591   7.154
  11.500    0.811  -6.168    0.787 -123.436    0.157 -101.965    0.629   0.110
  12.000    0.818 -13.286    0.686 -132.462    0.147 -112.195    0.666  -7.978

!BFG425W_noise.xls                                                                 !Philips part #:BFG425W
! Bias condition: Vce=2V,Ic=15mA                                            # MHz dB Ratio deg ohm
! Freq. Fmin Gmag Gangle Rn
900 1.6 0.11 -162.4 0.18                                                       2000 1.9 0.13 -162.1 0.20
