! Filename BFG424F_3V_10mA.prm
! Simulation_Values
! Created	by	janssen	on		nov	2006		
!	Column ranking S11, S21,S12,S22 both magnitude and phase.								
!	VCE	=	3	V,	IC	=	10	mA	
!	Common	Emitter	S-Parameters						
#	GHZ	S	MA	R	50				
	5.00E-01	0.571	-58.60	20.311	139.86	0.021	65.79	0.823	-26.80
	6.00E-01	0.544	-68.24	18.982	133.91	0.024	62.37	0.779	-30.36
	7.00E-01	0.516	-77.13	17.705	128.60	0.026	60.93	0.737	-33.31
	8.00E-01	0.491	-85.37	16.494	123.88	0.028	59.06	0.699	-35.77
	9.00E-01	0.473	-93.05	15.407	119.74	0.030	57.79	0.663	-38.00
	1.00E+00	0.455	-100.01	14.400	115.89	0.032	56.91	0.632	-39.86
	1.10E+00	0.440	-106.63	13.485	112.49	0.034	56.55	0.604	-41.51
	1.20E+00	0.425	-112.59	12.648	109.44	0.035	56.39	0.578	-42.93
	1.30E+00	0.415	-118.40	11.920	106.57	0.036	56.11	0.555	-44.29
	1.40E+00	0.406	-123.98	11.245	103.90	0.038	56.29	0.534	-45.50
	1.50E+00	0.399	-128.98	10.642	101.45	0.039	56.13	0.517	-46.50
	1.60E+00	0.392	-133.57	10.098	99.17	0.041	56.44	0.500	-47.76
	1.70E+00	0.386	-138.15	9.596	96.98	0.042	56.72	0.483	-48.76
	1.80E+00	0.382	-142.78	9.125	94.94	0.043	56.99	0.469	-49.79
	1.90E+00	0.379	-146.80	8.701	93.01	0.045	57.46	0.456	-50.82
	2.00E+00	0.377	-150.56	8.325	91.28	0.046	57.82	0.445	-51.82
	2.10E+00	0.375	-154.30	7.973	89.44	0.048	58.03	0.433	-53.01
	2.20E+00	0.374	-157.84	7.641	87.71	0.049	58.23	0.423	-53.99
	2.30E+00	0.374	-161.44	7.326	86.12	0.051	58.73	0.413	-55.11
	2.40E+00	0.376	-164.46	7.053	84.62	0.052	59.23	0.403	-56.23
	2.50E+00	0.378	-167.41	6.789	83.07	0.054	59.62	0.394	-57.38
	2.60E+00	0.378	-170.42	6.550	81.49	0.055	59.66	0.385	-58.70
	2.70E+00	0.379	-173.58	6.319	80.10	0.057	59.92	0.376	-59.93
	2.80E+00	0.382	-176.22	6.105	78.74	0.059	60.21	0.369	-61.04
	2.90E+00	0.386	-178.70	5.903	77.43	0.060	60.46	0.360	-62.48
	3.00E+00	0.388	178.82	5.718	76.10	0.062	60.82	0.353	-63.68
	3.10E+00	0.391	176.19	5.546	74.73	0.064	60.71	0.344	-65.18
	3.20E+00	0.393	173.82	5.377	73.47	0.066	60.94	0.337	-66.44
	3.30E+00	0.397	171.38	5.213	72.26	0.068	61.35	0.331	-67.95
	3.40E+00	0.402	169.34	5.064	71.00	0.069	61.30	0.324	-69.62
	3.50E+00	0.406	167.22	4.922	69.82	0.071	61.21	0.318	-71.30
	3.60E+00	0.407	164.85	4.789	68.55	0.073	61.43	0.311	-73.09
	3.70E+00	0.412	162.60	4.668	67.36	0.075	61.29	0.302	-74.83
	3.80E+00	0.418	160.87	4.543	66.28	0.077	61.47	0.296	-76.55
	3.90E+00	0.422	159.14	4.433	65.19	0.079	61.48	0.289	-78.23
	4.00E+00	0.426	157.07	4.322	63.98	0.081	61.39	0.284	-80.18
	4.10E+00	0.429	155.11	4.215	62.94	0.083	61.38	0.279	-82.28
	4.20E+00	0.435	153.18	4.116	61.75	0.085	61.25	0.272	-84.53
	4.30E+00	0.441	151.45	4.024	60.76	0.087	61.17	0.266	-86.33
	4.40E+00	0.447	150.02	3.931	59.61	0.089	61.15	0.260	-88.25
	4.50E+00	0.449	148.73	3.844	58.52	0.091	61.08	0.256	-90.38
	4.60E+00	0.452	146.63	3.758	57.51	0.093	60.73	0.251	-93.11
	4.70E+00	0.458	144.78	3.674	56.43	0.095	60.55	0.247	-95.75
	4.80E+00	0.467	143.53	3.605	55.31	0.097	60.40	0.241	-98.27
	4.90E+00	0.470	142.07	3.530	54.40	0.100	60.07	0.236	-100.74
	5.00E+00	0.474	140.80	3.455	53.36	0.101	59.78	0.231	-103.11
	5.10E+00	0.477	139.12	3.391	52.22	0.103	59.68	0.227	-105.66
	5.20E+00	0.483	137.56	3.323	51.33	0.106	59.54	0.224	-108.45
	5.30E+00	0.492	136.18	3.255	50.33	0.108	58.97	0.219	-111.48
	5.40E+00	0.496	134.96	3.200	49.23	0.110	58.63	0.215	-114.47
	5.50E+00	0.500	133.67	3.135	48.38	0.112	58.51	0.212	-117.31
	5.60E+00	0.504	132.20	3.070	47.28	0.114	58.22	0.210	-120.42
	5.70E+00	0.511	130.91	3.022	46.32	0.116	57.83	0.209	-123.56
	5.80E+00	0.518	129.78	2.965	45.50	0.118	57.56	0.207	-126.93
	5.90E+00	0.522	128.59	2.909	44.34	0.120	57.26	0.204	-130.31
	6.00E+00	0.525	127.31	2.866	43.53	0.123	56.80	0.203	-133.60
	6.10E+00	0.530	125.91	2.812	42.69	0.125	56.38	0.202	-136.91
	6.20E+00	0.535	124.54	2.757	41.50	0.126	56.14	0.202	-140.50
	6.30E+00	0.544	123.72	2.718	40.54	0.128	55.87	0.202	-144.07
	6.40E+00	0.546	122.66	2.669	39.77	0.131	55.49	0.202	-147.10
	6.50E+00	0.549	121.43	2.624	38.74	0.133	54.99	0.203	-150.09
	6.60E+00	0.554	120.04	2.581	37.92	0.135	54.74	0.204	-153.19
	6.70E+00	0.560	119.07	2.534	37.09	0.137	54.32	0.207	-156.48
	6.80E+00	0.567	117.99	2.493	35.96	0.139	53.83	0.210	-160.25
	6.90E+00	0.571	117.14	2.461	35.19	0.141	53.44	0.211	-163.47
	7.00E+00	0.573	116.15	2.414	34.43	0.143	53.28	0.212	-166.03
	7.10E+00	0.575	114.82	2.379	33.44	0.146	52.69	0.214	-168.47
	7.20E+00	0.582	113.66	2.342	32.71	0.147	52.12	0.218	-170.92
	7.30E+00	0.588	112.96	2.300	31.83	0.149	51.77	0.223	-173.87
	7.40E+00	0.592	112.04	2.269	30.73	0.151	51.50	0.227	-177.17
	7.50E+00	0.596	110.92	2.237	30.10	0.154	50.85	0.231	179.66
	7.60E+00	0.601	110.13	2.201	29.26	0.155	50.34	0.233	177.20
	7.70E+00	0.604	109.20	2.171	28.46	0.157	50.16	0.238	175.11
	7.80E+00	0.607	108.20	2.142	27.74	0.160	49.69	0.242	173.05
	7.90E+00	0.611	107.00	2.103	26.61	0.161	48.83	0.248	170.31
	8.00E+00	0.616	106.32	2.082	25.79	0.162	48.57	0.251	167.82
	8.10E+00	0.619	105.48	2.049	25.31	0.164	48.57	0.255	165.80
	8.20E+00	0.623	104.74	2.018	24.36	0.167	48.10	0.260	164.27
	8.30E+00	0.627	103.82	1.995	23.50	0.169	47.37	0.268	162.49
	8.40E+00	0.629	102.90	1.962	22.83	0.170	46.88	0.274	160.25
	8.50E+00	0.633	102.03	1.929	21.60	0.172	46.62	0.280	157.66
	8.60E+00	0.637	101.24	1.915	20.92	0.175	46.04	0.283	155.65
	8.70E+00	0.641	100.47	1.881	20.41	0.176	45.55	0.288	154.16
	8.80E+00	0.644	99.78	1.855	19.47	0.177	45.23	0.295	152.87
	8.90E+00	0.647	99.02	1.836	18.76	0.180	44.89	0.302	151.03
	9.00E+00	0.648	98.18	1.803	18.09	0.183	44.03	0.307	149.15
	9.10E+00	0.652	97.35	1.788	16.94	0.183	43.42	0.309	147.52
	9.20E+00	0.657	96.62	1.776	16.42	0.185	43.12	0.314	146.35
	9.30E+00	0.662	96.12	1.739	15.66	0.188	42.60	0.322	145.15
	9.40E+00	0.664	95.28	1.711	14.42	0.189	41.79	0.331	143.55
	9.50E+00	0.666	94.70	1.695	13.69	0.190	41.36	0.337	141.18
	9.60E+00	0.671	93.98	1.662	12.97	0.192	41.02	0.339	139.64
	9.70E+00	0.677	93.02	1.652	11.99	0.195	40.49	0.339	138.70
	9.80E+00	0.681	91.83	1.633	11.18	0.196	39.36	0.345	137.80
	9.90E+00	0.678	91.05	1.589	10.43	0.196	38.78	0.352	136.37
	1.00E+01	0.678	90.76	1.561	9.60	0.196	38.43	0.358	134.80
	1.01E+01	0.681	89.97	1.542	9.59	0.198	38.06	0.361	133.59
	1.02E+01	0.684	89.41	1.515	9.08	0.199	37.64	0.364	132.96
	1.03E+01	0.688	88.86	1.508	8.44	0.200	37.50	0.368	132.47
	1.04E+01	0.689	87.97	1.490	8.15	0.202	36.92	0.377	131.56
	1.05E+01	0.694	87.11	1.468	7.27	0.203	36.19	0.384	129.79
	1.06E+01	0.698	86.40	1.462	5.98	0.203	35.79	0.389	128.02
	1.07E+01	0.699	85.87	1.444	5.61	0.205	35.70	0.389	126.96
	1.08E+01	0.699	85.32	1.420	4.80	0.206	34.98	0.391	126.83
	1.09E+01	0.699	84.70	1.407	4.33	0.207	34.30	0.396	126.65
	1.10E+01	0.701	83.98	1.384	3.83	0.207	34.13	0.406	125.88
	1.11E+01	0.708	83.39	1.353	2.79	0.207	33.68	0.413	124.38
	1.12E+01	0.717	82.77	1.343	2.17	0.207	33.11	0.416	122.87
	1.13E+01	0.723	82.26	1.327	2.14	0.207	33.24	0.416	122.05
	1.14E+01	0.723	80.92	1.319	1.50	0.209	33.60	0.420	122.05
	1.15E+01	0.726	80.01	1.314	0.65	0.213	33.41	0.427	121.14
	1.16E+01	0.727	78.55	1.301	-0.17	0.216	32.57	0.434	120.33
	1.17E+01	0.720	77.76	1.284	-1.49	0.217	31.90	0.436	118.92
	1.18E+01	0.729	77.09	1.274	-2.09	0.219	31.62	0.434	118.17
	1.19E+01	0.724	75.67	1.257	-2.74	0.223	30.81	0.436	118.20
	1.20E+01	0.714	74.81	1.243	-4.19	0.223	29.50	0.448	118.06
	1.21E+01	0.707	73.93	1.217	-5.13	0.222	28.92	0.455	116.32
	1.22E+01	0.705	73.65	1.197	-5.58	0.226	28.23	0.456	115.77
	1.23E+01	0.696	73.22	1.192	-7.22	0.226	26.23	0.465	115.09
	1.24E+01	0.693	72.86	1.163	-7.87	0.220	25.81	0.466	113.67
	1.25E+01	0.693	72.23	1.132	-8.27	0.218	25.37	0.472	113.62
	1.26E+01	0.694	72.28	1.103	-8.66	0.215	26.71	0.476	111.42
	1.27E+01	0.690	71.88	1.090	-8.89	0.219	26.60	0.473	110.28
	1.28E+01	0.686	70.98	1.066	-9.50	0.218	26.18	0.469	109.34
	1.29E+01	0.690	70.43	1.053	-9.72	0.219	26.41	0.466	109.36
	1.30E+01	0.690	70.45	1.044	-9.64	0.223	26.39	0.469	109.49
	1.31E+01	0.688	69.76	1.027	-10.34	0.224	25.46	0.475	109.58
	1.32E+01	0.684	69.30	1.019	-11.04	0.223	25.14	0.482	109.02
	1.33E+01	0.685	68.82	1.012	-11.10	0.225	25.15	0.484	107.38
	1.34E+01	0.681	68.33	1.000	-11.85	0.227	24.69	0.484	107.63
	1.35E+01	0.685	68.23	0.992	-12.24	0.226	24.29	0.489	106.97
	1.36E+01	0.680	67.70	0.978	-12.43	0.228	24.36	0.495	106.87
	1.37E+01	0.679	67.14	0.962	-13.31	0.230	24.21	0.498	105.97
	1.38E+01	0.682	66.34	0.955	-14.09	0.231	23.48	0.499	104.80
	1.39E+01	0.681	66.33	0.946	-14.33	0.231	23.27	0.496	103.93
	1.40E+01	0.679	65.70	0.934	-14.97	0.233	23.43	0.497	103.81
	1.41E+01	0.675	64.97	0.921	-15.60	0.234	22.79	0.500	103.72
	1.42E+01	0.676	64.37	0.903	-16.20	0.236	22.06	0.504	103.01
	1.43E+01	0.675	63.89	0.889	-17.20	0.236	22.17	0.508	102.25
	1.44E+01	0.677	63.66	0.887	-17.46	0.238	21.97	0.506	101.63
	1.45E+01	0.669	63.14	0.870	-17.77	0.241	21.21	0.506	101.50
	1.46E+01	0.669	62.43	0.857	-18.09	0.241	20.26	0.509	100.94
	1.47E+01	0.669	61.54	0.845	-18.36	0.240	20.34	0.509	99.95
	1.48E+01	0.669	61.66	0.829	-18.91	0.243	20.29	0.505	98.99
	1.49E+01	0.661	60.79	0.818	-19.91	0.246	19.54	0.505	99.04
	1.50E+01	0.663	60.15	0.816	-20.01	0.245	18.58	0.510	99.40
