! Filename: 490BFG480.001
! Title: BFG480W
! Bias: Vce=4V; Ic=90mA
! Company: Philips Semiconductors NL
! User: Quality&Reliability T&D
! Measure time: 10 Nov 1999 / 12:03:47
#  MHz  S  MA  R 50
! Freq       S11             S21             S12             S22    :
  100  0.41312 -153.4 53.56234 147.47 0.006314 69.160  0.77348 -41.22
  200  0.55005 -158.8 40.90731 126.39 0.009832 59.901  0.62125 -71.89
  300  0.61197 -164.7 31.32462 113.94 0.012095 58.793  0.52122 -92.16
  400  0.64308 -169.1 24.90023 105.75 0.014021 59.919  0.46581 -106.3
  500  0.66121 -172.4 20.51401 99.829 0.015957 61.943  0.43414 -116.6
  600  0.67271 -175.1 17.32090 95.257 0.017833 63.976  0.41501 -124.3
  700  0.68077 -177.5 14.97252 91.585 0.019884 66.236  0.40226 -130.3
  800  0.68752 -179.6 13.13625 88.434 0.021942 67.919  0.39424 -135.3
  900  0.69545 178.44 11.66850 85.738 0.024130 69.734  0.38988 -139.6
 1000  0.70200 176.66 10.49273 83.201 0.026508 70.864  0.38894 -143.5
 1200  0.71638 173.58  8.66167 78.420 0.031033 72.672  0.39507 -149.8
 1400  0.72674 171.24  7.33414 73.747 0.035539 73.680  0.40480 -154.4
 1600  0.73169 168.89  6.39810 69.910 0.040869 74.539  0.41092 -158.0
 1800  0.73272 166.27  5.68724 66.532 0.046472 75.197  0.41802 -161.7
 2000  0.74219 164.02  5.03423 63.614 0.051078 75.807  0.42935 -166.1
 2200  0.76155 161.89  4.49343 60.117 0.055673 75.760  0.44867 -169.8
 2400  0.77262 160.15  4.02965 56.471 0.060544 75.276  0.47300 -172.2
 2600  0.77259 158.48  3.68462 53.151 0.066644 74.710  0.49206 -173.7
 2800  0.76845 156.24  3.41710 48.774 0.071339 73.361  0.50126 -175.5
 3000  0.77457 153.57  3.17341 45.368 0.076742 72.543  0.50878 -178.4
