! Filename: 260BFG480.001
! Title: BFG480W
! Bias: Vce=2V; Ic=60mA
! Company: Philips Semiconductors NL
! User: Quality&Reliability T&D
! Measure time: 10 Nov 1999 / 11:54:13
#  MHz  S  MA  R 50
! Freq       S11             S21             S12             S22    :
  100  0.42106 -146.5 44.76024 145.88 0.008048 67.290  0.75940 -46.25
  200  0.57059 -155.6 34.77510 125.47 0.012333 56.327  0.62674 -79.78
  300  0.63444 -162.9 26.80060 113.44 0.014856 53.494  0.54490 -101.6
  400  0.66641 -167.8 21.32678 105.46 0.016811 54.126  0.50236 -116.3
  500  0.68478 -171.6 17.59919 99.699 0.018666 55.748  0.47887 -126.8
  600  0.69692 -174.6 14.87324 95.242 0.020490 57.395  0.46479 -134.5
  700  0.70358 -177.1 12.86593 91.688 0.022478 59.536  0.45538 -140.4
  800  0.71000 -179.4 11.29233 88.622 0.024492 61.495  0.44954 -145.3
  900  0.71755 178.54 10.03567 86.041 0.026630 63.402  0.44671 -149.5
 1000  0.72359 176.64  9.03135 83.574 0.028956 64.674  0.44659 -153.1
 1200  0.73670 173.40  7.45918 78.927 0.033413 66.789  0.45283 -159.0
 1400  0.74598 170.89  6.31027 74.328 0.037871 68.205  0.46126 -163.4
 1600  0.75127 168.39  5.51013 70.607 0.043072 69.385  0.46609 -166.9
 1800  0.75089 165.72  4.91279 67.329 0.048704 70.190  0.47204 -170.5
 2000  0.76043 163.45  4.34871 64.551 0.053431 71.156  0.48232 -174.4
 2200  0.77809 161.22  3.87687 61.159 0.057707 71.312  0.49985 -177.8
 2400  0.78659 159.39  3.47430 57.634 0.062458 70.969  0.52033 -179.9
 2600  0.78568 157.64  3.18148 54.469 0.068416 70.452  0.53462 178.69
 2800  0.78098 155.31  2.94714 50.064 0.072979 69.173  0.54028 176.78
 3000  0.78527 152.63  2.73803 46.745 0.078241 68.521  0.54672 173.94
