! Filename BFG424W_2V_30mA.prm
!	! Created	by	janssen	on	Thu	Sep	15	10:02:03	WETDST	2005
!	Column ranking S11, S21,S12,S22 both magnitude and phase.									
!	VCE	=	2	V,	IC	=	30	mA		
!	Common	Emitter	S-Parameters							
#	GHz	S	MA	R	50					
	1.00E-01	0.311	-25.935	39.846	163.926	0.005	91.422	0.915	-9.472	
	2.00E-01	0.296	-50.87	36.352	149.457	0.008	76.135	0.85	-19.002	
	3.00E-01	0.28	-71.438	32.036	137.711	0.012	72.197	0.771	-25.796	
	4.00E-01	0.269	-88.474	28.058	128.486	0.014	70.204	0.697	-30.461	
	5.00E-01	0.258	-102.803	24.603	121.052	0.017	69.584	0.634	-33.558	
	6.00E-01	0.252	-114.661	21.723	115.112	0.019	69.272	0.583	-35.653	
	7.00E-01	0.247	-124.413	19.34	110.186	0.022	69.428	0.542	-37.122	
	8.00E-01	0.245	-132.77	17.377	106.098	0.024	69.769	0.51	-38.145	
	9.00E-01	0.244	-140.142	15.752	102.463	0.026	70.022	0.483	-38.985	
	1.00E+00	0.244	-146.428	14.379	99.298	0.028	70.852	0.461	-39.685	
	1.10E+00	0.245	-152.109	13.21	96.451	0.031	71.066	0.442	-40.381	
	1.20E+00	0.246	-157.068	12.204	93.878	0.033	71.314	0.426	-41.06
	1.30E+00	0.248	-161.715	11.342	91.478	0.035	71.248	0.411	-41.805
	1.40E+00	0.251	-166.018	10.578	89.268	0.038	71.338	0.399	-42.526
	1.50E+00	0.254	-169.807	9.908	87.184	0.04	71.515	0.388	-43.365
	1.60E+00	0.258	-173.528	9.317	85.182	0.042	71.568	0.377	-44.214
	1.70E+00	0.261	-176.796	8.788	83.32	0.045	71.46	0.368	-45.214
	1.80E+00	0.265	179.975	8.313	81.515	0.047	71.443	0.358	-46.22
	1.90E+00	0.269	177.004	7.886	79.846	0.05	71.346	0.349	-47.241
	2.00E+00	0.274	174.125	7.495	78.17	0.052	71.151	0.341	-48.405
	2.10E+00	0.279	171.517	7.141	76.592	0.055	71.124	0.333	-49.636
	2.20E+00	0.284	168.832	6.819	75.004	0.057	70.817	0.325	-50.889
	2.30E+00	0.289	166.451	6.52	73.489	0.06	70.683	0.317	-52.2
	2.40E+00	0.294	164.006	6.245	72.062	0.062	70.142	0.31	-53.557
	2.50E+00	0.299	162.02	5.996	70.698	0.064	70.018	0.302	-54.914
	2.60E+00	0.305	159.746	5.76	69.301	0.067	69.626	0.295	-56.46
	2.70E+00	0.311	157.534	5.548	67.914	0.07	69.522	0.287	-58.003
	2.80E+00	0.317	155.671	5.34	66.577	0.072	68.943	0.28	-59.681
	2.90E+00	0.323	153.69	5.153	65.228	0.075	68.884	0.273	-61.332
	3.00E+00	0.33	151.852	4.981	63.961	0.078	68.346	0.266	-63.149
	3.10E+00	0.336	150.071	4.815	62.689	0.08	67.907	0.259	-65.068
	3.20E+00	0.342	148.166	4.66	61.396	0.083	67.404	0.252	-67.029
	3.30E+00	0.349	146.399	4.516	60.139	0.085	67.119	0.245	-69.06
	3.40E+00	0.356	144.722	4.379	58.906	0.088	66.625	0.238	-71.206
	3.50E+00	0.362	143.206	4.25	57.668	0.091	66.076	0.231	-73.615
	3.60E+00	0.37	141.463	4.127	56.442	0.093	65.496	0.224	-76.117
	3.70E+00	0.377	139.907	4.008	55.266	0.095	65.032	0.217	-78.57
	3.80E+00	0.384	138.393	3.902	54.089	0.098	64.545	0.21	-81.178
	3.90E+00	0.391	136.918	3.798	52.888	0.101	63.943	0.204	-84.12
	4.00E+00	0.399	135.352	3.692	51.742	0.103	63.296	0.197	-87.135
	4.10E+00	0.406	133.891	3.605	50.564	0.106	62.929	0.19	-90.172
	4.20E+00	0.414	132.504	3.511	49.482	0.109	62.399	0.184	-93.515
	4.30E+00	0.421	131.052	3.423	48.324	0.111	61.752	0.178	-96.942
	4.40E+00	0.429	129.614	3.34	47.2	0.113	61.191	0.173	-100.581
	4.50E+00	0.436	128.338	3.264	46.167	0.116	60.83	0.168	-104.281
	4.60E+00	0.443	127.003	3.185	45.034	0.119	60.203	0.164	-108.432
	4.70E+00	0.451	125.637	3.116	43.958	0.121	59.438	0.159	-112.792
	4.80E+00	0.459	124.287	3.045	42.918	0.124	59.066	0.155	-117.17
	4.90E+00	0.466	123.102	2.978	41.794	0.127	58.505	0.152	-121.737
	5.00E+00	0.473	121.7	2.918	40.794	0.129	57.701	0.15	-126.681
	5.10E+00	0.48	120.343	2.855	39.829	0.131	57.078	0.148	-131.495
	5.20E+00	0.488	119.213	2.796	38.71	0.134	56.762	0.147	-136.255
	5.30E+00	0.495	118.082	2.745	37.686	0.137	55.99	0.147	-141.389
	5.40E+00	0.502	116.657	2.688	36.717	0.139	55.172	0.147	-146.643
	5.50E+00	0.509	115.546	2.635	35.619	0.141	54.659	0.147	-151.512
	5.60E+00	0.516	114.502	2.59	34.598	0.144	54.238	0.149	-156.288
	5.70E+00	0.523	113.305	2.539	33.688	0.147	53.416	0.152	-161.239
	5.80E+00	0.531	112.078	2.493	32.59	0.148	52.613	0.155	-165.998
	5.90E+00	0.538	110.93	2.449	31.598	0.15	52.211	0.158	-170.463
	6.00E+00	0.544	109.882	2.402	30.693	0.153	51.624	0.162	-174.788
	6.10E+00	0.552	108.839	2.362	29.648	0.156	50.772	0.166	-178.876
	6.20E+00	0.557	107.814	2.325	28.734	0.158	50.104	0.171	177.215
	6.30E+00	0.565	106.665	2.282	27.78	0.16	49.762	0.176	173.472
	6.40E+00	0.571	105.665	2.246	26.733	0.163	49.112	0.183	170.081
	6.50E+00	0.577	104.649	2.213	25.817	0.165	48.277	0.189	166.77
	6.60E+00	0.584	103.525	2.174	24.885	0.167	47.678	0.195	163.629
	6.70E+00	0.59	102.581	2.141	23.82	0.169	47.413	0.201	160.713
	6.80E+00	0.595	101.574	2.11	22.958	0.173	46.563	0.209	157.731
	6.90E+00	0.602	100.407	2.074	22	0.174	45.647	0.215	154.903
	7.00E+00	0.609	99.479	2.044	20.971	0.176	45.257	0.222	152.364
	7.10E+00	0.613	98.533	2.015	20.107	0.179	44.863	0.23	149.899
	7.20E+00	0.619	97.505	1.983	19.219	0.182	43.932	0.236	147.701
	7.30E+00	0.624	96.556	1.956	18.201	0.183	43.215	0.244	145.554
	7.40E+00	0.629	95.671	1.929	17.336	0.185	42.904	0.252	143.568
	7.50E+00	0.635	94.733	1.901	16.374	0.189	42.174	0.259	141.307
	7.60E+00	0.64	93.732	1.875	15.402	0.191	41.182	0.266	139.334
	7.70E+00	0.645	92.817	1.849	14.608	0.191	40.612	0.274	137.407
	7.80E+00	0.65	91.965	1.821	13.641	0.194	40.221	0.282	135.734
	7.90E+00	0.654	91.128	1.801	12.738	0.197	39.258	0.289	133.973
	8.00E+00	0.658	90.052	1.776	11.981	0.199	38.474	0.296	132.383
	8.10E+00	0.663	89.236	1.751	10.985	0.2	38.009	0.304	130.85
	8.20E+00	0.666	88.502	1.733	10.088	0.203	37.656	0.311	129.34
	8.30E+00	0.67	87.602	1.71	9.345	0.206	36.59	0.318	127.792
	8.40E+00	0.674	86.778	1.688	8.343	0.206	35.851	0.326	126.451
	8.50E+00	0.678	86.143	1.67	7.462	0.208	35.546	0.333	125.146
	8.60E+00	0.682	85.316	1.649	6.693	0.212	34.901	0.341	123.783
	8.70E+00	0.686	84.434	1.628	5.693	0.214	33.849	0.347	122.608
	8.80E+00	0.689	83.739	1.613	4.895	0.215	33.328	0.355	121.335
	8.90E+00	0.692	83.089	1.59	4.164	0.218	32.99	0.362	120
	9.00E+00	0.696	82.371	1.572	3.106	0.221	31.904	0.369	118.67
	9.10E+00	0.699	81.72	1.558	2.325	0.222	30.975	0.376	117.522
	9.20E+00	0.703	81.116	1.536	1.678	0.223	30.552	0.384	116.29
	9.30E+00	0.708	80.636	1.519	0.709	0.226	29.956	0.391	115.014
	9.40E+00	0.713	79.971	1.508	-0.056	0.228	28.888	0.396	113.724
	9.50E+00	0.718	79.185	1.488	-0.657	0.228	28.27	0.402	112.525
	9.60E+00	0.725	78.644	1.475	-1.561	0.23	28.056	0.407	111.22
	9.70E+00	0.731	77.747	1.468	-2.45	0.234	27.348	0.411	110.155
	9.80E+00	0.736	76.353	1.45	-3.318	0.235	26.298	0.415	109.195
	9.90E+00	0.734	75.444	1.435	-4.321	0.236	25.881	0.421	108.293
	1.00E+01	0.733	74.951	1.424	-5.037	0.238	25.411	0.426	107.342
	1.01E+01	0.735	74.339	1.406	-5.915	0.241	24.471	0.43	106.459
	1.02E+01	0.74	73.666	1.394	-6.95	0.242	23.536	0.434	105.551
	1.03E+01	0.743	72.967	1.383	-7.611	0.243	23.097	0.438	104.719
	1.04E+01	0.746	72.297	1.366	-8.446	0.245	22.51	0.443	103.923
	1.05E+01	0.75	71.442	1.355	-9.495	0.247	21.595	0.447	102.974
	1.06E+01	0.751	70.654	1.346	-10.142	0.248	20.801	0.451	102.341
	1.07E+01	0.754	69.983	1.329	-11.078	0.248	20.335	0.455	101.781
	1.08E+01	0.756	69.491	1.317	-12.195	0.251	19.531	0.46	101.141
	1.09E+01	0.758	68.864	1.303	-12.773	0.251	18.632	0.464	100.516
	1.10E+01	0.763	68.315	1.286	-13.466	0.251	18.154	0.469	99.881
	1.11E+01	0.771	67.646	1.278	-14.24	0.252	18.122	0.474	99.079
	1.12E+01	0.775	66.686	1.272	-14.809	0.257	17.547	0.478	98.27
	1.13E+01	0.778	65.494	1.262	-15.782	0.258	16.527	0.481	97.673
	1.14E+01	0.777	64.433	1.256	-16.974	0.259	15.808	0.486	97.223
	1.15E+01	0.774	63.832	1.244	-17.672	0.262	15.254	0.491	96.617
	1.16E+01	0.772	62.87	1.231	-18.692	0.263	14.147	0.496	96.242
	1.17E+01	0.768	62.307	1.22	-19.744	0.262	13.245	0.501	95.488
	1.18E+01	0.773	61.779	1.206	-20.267	0.262	13.124	0.506	94.777
	1.19E+01	0.773	60.66	1.192	-21.198	0.264	12.804	0.511	94.194
	1.20E+01	0.766	59.703	1.187	-21.915	0.266	12.045	0.52	93.514
	1.21E+01	0.763	58.947	1.178	-22.677	0.266	11.575	0.524	92.253
	1.22E+01	0.759	58.158	1.164	-23.713	0.27	11.654	0.527	91.467
	1.23E+01	0.752	58.073	1.154	-24.78	0.275	10.198	0.531	90.411
	1.24E+01	0.753	57.574	1.137	-25.202	0.272	9.385	0.534	89.729
	1.25E+01	0.751	56.803	1.128	-26.09	0.274	8.827	0.538	88.686
	1.26E+01	0.748	56.704	1.119	-26.665	0.273	8.8	0.535	87.201
	1.27E+01	0.747	56.252	1.109	-27.383	0.277	8.069	0.531	86.73
	1.28E+01	0.746	55.697	1.098	-28.329	0.277	7.308	0.529	86.396
	1.29E+01	0.747	55.342	1.089	-28.95	0.278	7.107	0.527	86.186
	1.30E+01	0.746	55.03	1.079	-29.475	0.281	6.798	0.529	86.048
	1.31E+01	0.744	54.406	1.071	-30.485	0.284	5.717	0.528	85.746
	1.32E+01	0.744	53.741	1.064	-31.177	0.284	4.932	0.534	85.612
	1.33E+01	0.741	53.279	1.052	-31.754	0.286	4.619	0.537	84.745
	1.34E+01	0.742	53.079	1.044	-32.595	0.288	4.036	0.538	85.017
	1.35E+01	0.741	52.416	1.042	-33.163	0.29	3.022	0.547	84.378
	1.36E+01	0.739	51.977	1.027	-33.984	0.288	2.355	0.55	83.858
	1.37E+01	0.742	51.663	1.019	-34.571	0.289	2.689	0.553	83.147
	1.38E+01	0.742	51.207	1.017	-35.021	0.292	1.876	0.557	82.518
	1.39E+01	0.74	50.496	1.005	-35.928	0.292	0.907	0.557	81.778
	1.40E+01	0.741	50.087	0.999	-36.775	0.29	1.147	0.559	81.207
	1.41E+01	0.742	49.774	0.996	-37.124	0.295	1.461	0.56	80.582
	1.42E+01	0.739	49.246	0.985	-38.058	0.301	0.057	0.561	80.095
	1.43E+01	0.74	48.565	0.978	-39.036	0.3	-0.554	0.562	79.694
	1.44E+01	0.74	48.182	0.973	-39.412	0.302	-0.355	0.564	79.176
	1.45E+01	0.738	47.738	0.959	-40.346	0.309	-1.428	0.564	78.57
	1.46E+01	0.736	47.136	0.952	-41.27	0.31	-2.888	0.564	78.164
	1.47E+01	0.737	46.55	0.945	-41.524	0.308	-3.113	0.566	77.682
	1.48E+01	0.735	46.061	0.935	-42.293	0.312	-3.177	0.568	77.085
	1.49E+01	0.733	45.512	0.928	-43.289	0.317	-4.536	0.568	76.622
	1.50E+01	0.732	44.854	0.921	-43.587	0.315	-5.521	0.571	76.259
!	Noise	data:							
!	Freq.	Fmin	Gamma-opt	rn					
	0.9	2.3	0.29	-166.5	0.19				
	2	2.8	0.27	-150.8	0.25
