! Filename: 335bfg425.001
! BFG425W Field C1
! V1=8.585E-001V,V2=3.000E+000V, I1=5.159E-004A, I2=3.507E-002A
# GHz   S   MA   R 50
!                S11              S21              S12              S22
!Freq(GHz)  Mag     Ang      Mag     Ang      Mag     Ang      Mag     Ang 
   0.040    0.244 -12.638   36.968 172.681    0.002  59.933    0.842  -2.960
   0.100    0.249 -29.202   36.094 163.232    0.005  75.704    0.835  -9.642
   0.200    0.242 -55.275   32.997 148.635    0.008  71.815    0.781 -18.645
   0.300    0.238 -76.877   28.965 136.861    0.011  68.923    0.715 -25.798
   0.400    0.236 -95.221   25.381 127.310    0.014  67.197    0.650 -30.599
   0.500    0.239 -110.725   22.394 119.072    0.017  65.020    0.601 -34.091
   0.600    0.242 -122.363   19.891 112.505    0.019  64.148    0.557 -37.115
   0.700    0.244 -131.976   17.869 106.970    0.022  63.074    0.521 -39.060
   0.800    0.248 -140.618   16.150 101.766    0.024  62.530    0.493 -41.053
   0.900    0.251 -148.035   14.687  97.203    0.026  61.976    0.467 -42.832
   1.000    0.253 -154.953   13.420  93.194    0.028  61.285    0.446 -44.099
   1.100    0.255 -160.828   12.351  89.486    0.031  60.595    0.429 -45.768
   1.200    0.257 -166.317   11.427  86.047    0.033  59.977    0.411 -47.098
   1.300    0.259 -171.219   10.627  82.742    0.035  59.279    0.398 -48.447
   1.400    0.263 -175.656    9.928  79.612    0.038  58.641    0.384 -50.045
   1.500    0.267 179.995    9.303  76.569    0.040  57.727    0.372 -51.204
   1.600    0.271 175.932    8.759  73.673    0.042  56.908    0.362 -52.682
   1.700    0.274 172.243    8.272  70.842    0.045  56.101    0.352 -54.252
   1.800    0.278 168.649    7.826  68.161    0.047  55.033    0.342 -55.522
   1.900    0.281 165.072    7.428  65.638    0.050  54.058    0.334 -57.166
   2.000    0.285 161.793    7.066  63.156    0.052  52.934    0.324 -58.717
   2.200    0.291 155.258    6.437  58.407    0.057  50.688    0.307 -61.832
   2.400    0.301 149.133    5.895  53.608    0.062  48.317    0.290 -64.947
   2.600    0.311 143.564    5.436  48.994    0.067  45.808    0.272 -68.343
   2.800    0.320 138.138    5.051  44.573    0.072  43.231    0.255 -71.846
   3.000    0.329 132.951    4.715  40.272    0.077  40.574    0.239 -75.329
   3.500    0.358 120.774    4.025  29.624    0.089  33.509    0.197 -84.846
   4.000    0.389 109.768    3.499  19.055    0.101  26.144    0.151 -96.004
   4.500    0.424  99.586    3.078   8.700    0.112  18.426    0.106 -111.847
   5.000    0.463  89.508    2.723  -1.749    0.122   9.920    0.058 -143.876
   5.500    0.493  79.508    2.406 -11.259    0.129   2.738    0.036 147.582
   6.000    0.533  70.401    2.152 -21.464    0.136  -6.068    0.081  93.189
   6.500    0.541  63.744    1.975 -28.434    0.150  -9.827    0.098  85.365
   7.000    0.574  56.829    1.824 -37.575    0.162 -17.540    0.149  77.563
   7.500    0.628  48.418    1.644 -49.066    0.165 -29.052    0.231  63.320
   8.000    0.659  41.425    1.509 -58.306    0.171 -36.926    0.286  55.028
   8.500    0.696  33.956    1.367 -68.211    0.174 -46.207    0.348  45.852
   9.000    0.722  26.374    1.226 -77.046    0.172 -54.345    0.399  36.335
   9.500    0.747  19.439    1.113 -85.534    0.172 -62.539    0.437  28.442
  10.000    0.773  12.918    1.018 -95.205    0.173 -71.736    0.492  22.246
  10.500    0.793   6.279    0.920 -104.656    0.171 -80.711    0.542  14.846
  11.000    0.809  -0.685    0.817 -113.508    0.165 -90.187    0.583   6.448
  11.500    0.821  -7.528    0.733 -122.735    0.159 -99.813    0.622  -0.390
  12.000    0.828 -14.462    0.641 -131.672    0.150 -109.863    0.660  -8.310
!     DEEMBEDDED NOISE DATA
!FREQUENCY    FMIN    GAMMA OPT        Rn
!  (GHz)      (dB)    Mag    Ang   (NORMALIZED)
