! Filename: 24bfg425.001
! BFG425W Field C1
! V1=8.240E-001V,V2=2.000E+000V, I1=5.227E-005A, I2=4.000E-003A
# GHz   S   MA   R 50
!                S11              S21              S12              S22
!Freq(GHz)  Mag     Ang      Mag     Ang      Mag     Ang      Mag     Ang 
   0.040    0.821  -3.464   12.431 176.413    0.002  74.057    0.983  -1.953
   0.100    0.828  -8.446   12.171 172.440    0.006  86.011    0.981  -4.969
   0.200    0.818 -16.753   12.000 165.202    0.012  79.424    0.969 -10.041
   0.300    0.801 -25.040   11.782 158.598    0.018  74.889    0.954 -14.845
   0.400    0.783 -33.108   11.507 151.673    0.024  69.804    0.932 -19.508
   0.500    0.759 -40.913   11.188 145.034    0.029  65.659    0.907 -23.864
   0.600    0.735 -48.473   10.766 138.946    0.034  61.427    0.879 -27.982
   0.700    0.710 -55.731   10.343 133.197    0.038  57.536    0.849 -31.891
   0.800    0.683 -62.885    9.945 127.570    0.041  54.060    0.819 -35.472
   0.900    0.656 -69.609    9.544 122.271    0.045  50.902    0.789 -38.861
   1.000    0.630 -76.219    9.128 117.179    0.048  47.981    0.760 -41.998
   1.100    0.606 -82.504    8.725 112.462    0.050  45.303    0.733 -44.928
   1.200    0.582 -88.564    8.340 107.896    0.053  42.881    0.706 -47.714
   1.300    0.561 -94.451    7.972 103.592    0.055  40.669    0.680 -50.319
   1.400    0.541 -100.201    7.632  99.470    0.057  38.689    0.655 -52.741
   1.500    0.521 -105.879    7.302  95.508    0.058  36.899    0.632 -55.032
   1.600    0.503 -111.491    6.997  91.674    0.060  35.252    0.611 -57.241
   1.700    0.488 -116.753    6.707  88.038    0.061  33.755    0.590 -59.382
   1.800    0.473 -122.009    6.430  84.511    0.063  32.320    0.571 -61.436
   1.900    0.461 -127.027    6.174  81.162    0.064  31.064    0.553 -63.469
   2.000    0.449 -131.999    5.931  77.875    0.066  29.855    0.535 -65.440
   2.200    0.429 -141.888    5.493  71.593    0.068  27.655    0.503 -69.279
   2.400    0.415 -151.491    5.107  65.593    0.071  25.779    0.473 -72.996
   2.600    0.404 -160.802    4.761  59.882    0.074  23.932    0.445 -76.746
   2.800    0.397 -169.861    4.454  54.375    0.076  22.221    0.419 -80.420
   3.000    0.393 -178.625    4.180  49.026    0.079  20.469    0.394 -84.205
   3.500    0.396 160.764    3.608  36.255    0.087  16.141    0.335 -94.034
   4.000    0.411 142.054    3.151  24.042    0.095  11.281    0.279 -104.929
   4.500    0.437 125.877    2.783  12.464    0.104   5.973    0.227 -117.838
   5.000    0.471 110.626    2.470   0.757    0.112  -0.860    0.173 -135.678
   5.500    0.497  97.083    2.182  -9.945    0.117  -6.302    0.124 -155.944
   6.000    0.536  84.702    1.950 -21.088    0.123 -13.983    0.097 163.910
   6.500    0.548  76.354    1.785 -28.863    0.136 -14.868    0.101 144.848
   7.000    0.583  67.314    1.643 -38.681    0.149 -21.474    0.136 116.595
   7.500    0.635  56.723    1.478 -50.630    0.152 -33.326    0.200  87.059
   8.000    0.667  48.448    1.350 -60.440    0.159 -40.563    0.254  73.010
   8.500    0.702  39.922    1.220 -70.778    0.163 -49.691    0.316  59.610
   9.000    0.726  31.520    1.088 -80.114    0.161 -57.648    0.368  47.283
   9.500    0.751  23.892    0.982 -88.795    0.161 -65.821    0.407  38.069
  10.000    0.775  16.787    0.897 -98.890    0.163 -75.057    0.470  30.527
  10.500    0.794   9.686    0.807 -108.620    0.161 -84.080    0.524  21.987
  11.000    0.808   2.423    0.713 -117.748    0.155 -93.744    0.568  12.589
  11.500    0.818  -4.698    0.637 -127.284    0.149 -103.756    0.611   5.096
  12.000    0.823 -11.773    0.554 -136.676    0.139 -114.298    0.653  -3.507

!BFG425W_noise.xls                                                                 !Philips part #:BFG425W
! Bias condition: Vce=2V,Ic=4mA                                            # MHz dB Ratio deg ohm
! Freq. Fmin Gmag Gangle Rn
900 1 0.28 11.7 0.24                                                         2000 1.2 0.22 60.8 0.18
