! Filename: 21bfg403.001
! BFG403W Field A1
! V1=8.453E-001V,V2=2.000E+000V, I1=1.311E-005A, I2=1.000E-003A
# GHz   S   MA   R 50
!                S11              S21              S12              S22
!Freq(GHz)  Mag     Ang      Mag     Ang      Mag     Ang      Mag     Ang 
   0.040    0.956  -0.784    3.143 177.850    0.001  72.204    0.996  -0.637
   0.100    0.959  -2.370    3.084 176.556    0.001  90.182    0.997  -1.879
   0.200    0.957  -4.723    3.080 173.450    0.003  85.790    0.995  -3.844
   0.300    0.955  -7.037    3.077 171.317    0.004  84.404    0.995  -5.748
   0.400    0.952  -9.100    3.085 167.470    0.006  82.897    0.993  -7.706
   0.500    0.947 -11.888    3.087 164.237    0.007  79.112    0.991  -9.596
   0.600    0.942 -14.134    3.062 161.136    0.009  77.710    0.988 -11.474
   0.700    0.938 -16.447    3.042 158.208    0.010  75.727    0.985 -13.429
   0.800    0.932 -18.831    3.028 155.178    0.011  73.999    0.982 -15.287
   0.900    0.924 -21.082    3.018 152.261    0.012  72.170    0.978 -17.204
   1.000    0.919 -23.463    3.009 149.281    0.014  70.316    0.973 -19.084
   1.100    0.910 -25.701    2.991 146.282    0.015  68.503    0.968 -20.916
   1.200    0.900 -27.950    2.974 143.259    0.016  66.861    0.963 -22.789
   1.300    0.892 -30.248    2.954 140.549    0.017  65.393    0.958 -24.630
   1.400    0.882 -32.403    2.937 137.459    0.018  63.517    0.952 -26.439
   1.500    0.871 -34.744    2.924 134.672    0.020  61.965    0.947 -28.247
   1.600    0.862 -37.051    2.909 131.802    0.021  60.474    0.940 -30.017
   1.700    0.850 -39.241    2.887 128.896    0.022  58.965    0.934 -31.808
   1.800    0.838 -41.500    2.858 125.965    0.023  57.354    0.927 -33.608
   1.900    0.829 -43.649    2.835 123.383    0.024  56.127    0.921 -35.371
   2.000    0.817 -45.814    2.804 120.563    0.024  54.683    0.914 -37.132
   2.200    0.787 -50.046    2.747 114.916    0.026  52.209    0.899 -40.603
   2.400    0.762 -54.397    2.703 109.598    0.028  49.950    0.884 -44.022
   2.600    0.738 -58.712    2.650 104.424    0.029  47.837    0.867 -47.426
   2.800    0.717 -63.107    2.604  99.364    0.031  45.848    0.850 -50.754
   3.000    0.690 -67.312    2.554  94.300    0.032  44.198    0.833 -54.094
   3.500    0.621 -78.291    2.430  81.714    0.035  40.674    0.788 -62.301
   4.000    0.562 -89.799    2.322  69.539    0.039  38.024    0.740 -70.486
   4.500    0.506 -102.387    2.230  57.663    0.044  35.442    0.690 -78.784
   5.000    0.453 -116.396    2.142  45.634    0.049  31.880    0.634 -87.239
   5.500    0.413 -131.832    2.052  33.241    0.053  27.498    0.572 -95.645
   6.000    0.390 -149.467    1.989  20.590    0.062  20.900    0.511 -106.025
   6.500    0.372 -164.440    1.891   9.537    0.069  22.289    0.460 -114.142
   7.000    0.323 178.033    1.690  -2.571    0.058  22.754    0.364 -117.680
   7.500    0.380 160.922    1.735 -14.083    0.094  13.356    0.354 -137.346
   8.000    0.409 141.203    1.668 -28.561    0.108  -1.122    0.286 -159.644
   8.500    0.423 122.857    1.537 -42.534    0.113 -13.159    0.214 174.864
   9.000    0.448 106.228    1.433 -55.994    0.125 -24.196    0.198 142.767
   9.500    0.468  89.502    1.295 -69.488    0.129 -38.589    0.216 105.754
  10.000    0.482  74.453    1.172 -83.589    0.132 -51.901    0.275  75.924
  10.500    0.497  59.177    1.028 -97.528    0.130 -66.961    0.346  53.453
  11.000    0.494  44.891    0.873 -110.331    0.120 -81.817    0.414  35.165
  11.500    0.502  31.829    0.744 -122.784    0.111 -96.184    0.482  20.656
  12.000    0.497  18.629    0.610 -134.345    0.092 -113.929    0.535   6.446
!     DEEMBEDDED NOISE DATA
!FREQUENCY    FMIN    GAMMA OPT        Rn
!  (GHz)      (dB)    Mag    Ang   (NORMALIZED)
