! Filename BFG424F_4V_25mA.prm
! Simulation_Values
! Created	by	janssen	on		nov	2006		
!	Column ranking S11, S21,S12,S22 both magnitude and phase.								
!	VCE	=	4	V,	IC	=	25	mA	
!	Common	Emitter	S-Parameters						
#	GHZ	S	MA	R	50				
	5.00E-01	0.351	-87.82	27.182	128.96	0.016	66.30	0.705	-30.81
	6.00E-01	0.340	-99.28	24.472	122.96	0.018	64.36	0.654	-33.50
	7.00E-01	0.331	-109.33	22.147	117.92	0.019	64.98	0.611	-35.42
	8.00E-01	0.323	-118.10	20.125	113.65	0.021	64.53	0.575	-36.85
	9.00E-01	0.321	-125.78	18.420	109.97	0.023	64.67	0.544	-38.07
	1.00E+00	0.317	-132.25	16.943	106.67	0.024	65.10	0.518	-39.00
	1.10E+00	0.316	-138.19	15.654	103.78	0.026	65.47	0.495	-39.85
	1.20E+00	0.313	-143.59	14.520	101.19	0.028	66.19	0.476	-40.60
	1.30E+00	0.313	-148.41	13.552	98.85	0.029	66.58	0.459	-41.33
	1.40E+00	0.314	-153.01	12.691	96.66	0.031	67.06	0.445	-42.03
	1.50E+00	0.315	-156.84	11.934	94.64	0.033	67.47	0.433	-42.65
	1.60E+00	0.315	-160.60	11.259	92.73	0.034	67.82	0.421	-43.43
	1.70E+00	0.315	-164.11	10.648	90.92	0.036	68.37	0.409	-44.18
	1.80E+00	0.318	-167.70	10.091	89.24	0.038	68.61	0.399	-44.94
	1.90E+00	0.321	-170.65	9.593	87.61	0.040	69.10	0.390	-45.77
	2.00E+00	0.325	-173.41	9.148	86.16	0.041	69.35	0.382	-46.62
	2.10E+00	0.326	-176.25	8.733	84.62	0.043	69.45	0.375	-47.66
	2.20E+00	0.329	-178.86	8.354	83.16	0.045	69.60	0.367	-48.57
	2.30E+00	0.332	178.31	7.998	81.79	0.047	69.78	0.359	-49.55
	2.40E+00	0.337	176.33	7.684	80.51	0.049	69.85	0.352	-50.57
	2.50E+00	0.340	174.20	7.385	79.21	0.051	70.33	0.345	-51.74
	2.60E+00	0.342	172.01	7.114	77.86	0.053	70.07	0.338	-52.99
	2.70E+00	0.345	169.50	6.860	76.65	0.055	70.16	0.331	-54.20
	2.80E+00	0.351	167.69	6.621	75.45	0.057	69.97	0.326	-55.23
	2.90E+00	0.356	165.77	6.396	74.30	0.059	70.18	0.319	-56.56
	3.00E+00	0.359	164.06	6.188	73.14	0.061	70.05	0.312	-57.76
	3.10E+00	0.364	162.02	5.998	71.98	0.062	69.70	0.305	-59.23
	3.20E+00	0.367	160.22	5.813	70.85	0.065	69.78	0.299	-60.50
	3.30E+00	0.373	158.31	5.634	69.77	0.067	69.75	0.294	-62.03
	3.40E+00	0.379	156.82	5.469	68.63	0.069	69.52	0.288	-63.67
	3.50E+00	0.383	155.40	5.310	67.62	0.071	69.34	0.282	-65.39
	3.60E+00	0.385	153.34	5.165	66.49	0.073	69.20	0.276	-67.20
	3.70E+00	0.392	151.65	5.036	65.44	0.075	68.81	0.269	-68.91
	3.80E+00	0.398	150.32	4.902	64.45	0.077	68.84	0.262	-70.56
	3.90E+00	0.402	149.05	4.779	63.44	0.079	68.55	0.256	-72.29
	4.00E+00	0.407	147.31	4.658	62.36	0.081	68.26	0.251	-74.36
	4.10E+00	0.411	145.90	4.543	61.44	0.084	68.05	0.246	-76.43
	4.20E+00	0.417	144.21	4.436	60.37	0.086	67.75	0.240	-78.69
	4.30E+00	0.424	142.89	4.336	59.47	0.088	67.45	0.234	-80.47
	4.40E+00	0.430	141.88	4.235	58.39	0.090	67.25	0.229	-82.36
	4.50E+00	0.432	140.81	4.140	57.39	0.093	66.94	0.225	-84.59
	4.60E+00	0.436	138.94	4.049	56.50	0.095	66.51	0.220	-87.45
	4.70E+00	0.443	137.39	3.961	55.49	0.097	66.07	0.216	-90.24
	4.80E+00	0.451	136.53	3.884	54.44	0.099	65.81	0.210	-92.89
	4.90E+00	0.454	135.29	3.804	53.58	0.101	65.29	0.206	-95.48
	5.00E+00	0.460	134.25	3.722	52.65	0.103	64.95	0.201	-97.92
	5.10E+00	0.463	132.84	3.653	51.58	0.105	64.68	0.196	-100.55
	5.20E+00	0.468	131.47	3.582	50.77	0.108	64.35	0.193	-103.55
	5.30E+00	0.477	130.34	3.509	49.81	0.110	63.70	0.188	-106.80
	5.40E+00	0.483	129.42	3.450	48.81	0.112	63.22	0.183	-109.97
	5.50E+00	0.486	128.27	3.379	48.01	0.114	62.96	0.181	-112.95
	5.60E+00	0.491	126.95	3.309	46.99	0.116	62.58	0.179	-116.29
	5.70E+00	0.499	125.87	3.258	46.10	0.118	62.07	0.178	-119.80
	5.80E+00	0.505	124.93	3.198	45.34	0.121	61.71	0.175	-123.52
	5.90E+00	0.509	123.89	3.139	44.22	0.123	61.31	0.173	-127.28
	6.00E+00	0.513	122.76	3.091	43.46	0.125	60.76	0.171	-130.91
	6.10E+00	0.518	121.56	3.034	42.67	0.127	60.25	0.171	-134.56
	6.20E+00	0.524	120.27	2.974	41.55	0.129	59.93	0.172	-138.56
	6.30E+00	0.533	119.66	2.935	40.70	0.131	59.62	0.171	-142.50
	6.40E+00	0.535	118.70	2.882	39.96	0.134	59.15	0.172	-145.84
	6.50E+00	0.538	117.58	2.833	38.93	0.136	58.56	0.172	-149.12
	6.60E+00	0.544	116.27	2.787	38.17	0.137	58.23	0.173	-152.61
	6.70E+00	0.550	115.51	2.737	37.42	0.140	57.80	0.176	-156.15
	6.80E+00	0.557	114.51	2.695	36.35	0.142	57.16	0.179	-160.26
	6.90E+00	0.561	113.77	2.660	35.60	0.144	56.77	0.181	-163.68
	7.00E+00	0.563	112.86	2.610	34.86	0.146	56.55	0.183	-166.46
	7.10E+00	0.566	111.62	2.573	33.92	0.148	55.86	0.185	-169.03
	7.20E+00	0.573	110.58	2.533	33.21	0.150	55.29	0.189	-171.66
	7.30E+00	0.578	109.97	2.488	32.37	0.152	54.79	0.194	-174.77
	7.40E+00	0.583	109.09	2.457	31.31	0.154	54.55	0.199	-178.30
	7.50E+00	0.587	108.01	2.420	30.71	0.156	53.85	0.204	178.29
	7.60E+00	0.593	107.43	2.382	29.89	0.158	53.30	0.206	175.70
	7.70E+00	0.595	106.49	2.351	29.12	0.160	53.03	0.211	173.65
	7.80E+00	0.599	105.60	2.321	28.43	0.162	52.49	0.215	171.53
	7.90E+00	0.603	104.42	2.278	27.35	0.164	51.60	0.221	168.64
	8.00E+00	0.608	103.90	2.255	26.53	0.165	51.32	0.225	165.99
	8.10E+00	0.611	103.09	2.221	26.09	0.167	51.28	0.229	163.98
	8.20E+00	0.615	102.38	2.188	25.16	0.170	50.79	0.234	162.52
	8.30E+00	0.620	101.50	2.163	24.33	0.172	49.98	0.242	160.82
	8.40E+00	0.621	100.65	2.129	23.70	0.173	49.48	0.250	158.60
	8.50E+00	0.626	99.81	2.093	22.50	0.175	49.25	0.255	155.92
	8.60E+00	0.630	99.12	2.077	21.84	0.178	48.61	0.258	153.89
	8.70E+00	0.634	98.42	2.041	21.37	0.179	48.08	0.263	152.42
	8.80E+00	0.637	97.68	2.014	20.43	0.180	47.76	0.271	151.19
	8.90E+00	0.641	97.07	1.994	19.78	0.183	47.38	0.278	149.31
	9.00E+00	0.641	96.27	1.959	19.13	0.186	46.47	0.284	147.50
	9.10E+00	0.645	95.49	1.942	17.98	0.186	45.88	0.286	145.89
	9.20E+00	0.651	94.75	1.929	17.49	0.188	45.52	0.291	144.82
	9.30E+00	0.655	94.40	1.891	16.76	0.191	45.02	0.299	143.68
	9.40E+00	0.658	93.53	1.862	15.55	0.192	44.20	0.308	142.17
	9.50E+00	0.660	93.03	1.846	14.85	0.193	43.70	0.315	139.81
	9.60E+00	0.666	92.40	1.810	14.12	0.195	43.35	0.317	138.26
	9.70E+00	0.671	91.43	1.799	13.18	0.198	42.80	0.318	137.28
	9.80E+00	0.676	90.22	1.779	12.34	0.200	41.63	0.323	136.36
	9.90E+00	0.673	89.51	1.731	11.58	0.199	41.03	0.331	135.04
	1.00E+01	0.674	89.29	1.700	10.78	0.200	40.67	0.336	133.41
	1.01E+01	0.677	88.46	1.680	10.79	0.201	40.29	0.339	132.17
	1.02E+01	0.679	87.93	1.651	10.31	0.202	39.83	0.343	131.67
	1.03E+01	0.684	87.42	1.644	9.69	0.203	39.67	0.347	131.32
	1.04E+01	0.685	86.53	1.626	9.43	0.205	39.12	0.356	130.52
	1.05E+01	0.691	85.62	1.603	8.53	0.206	38.34	0.363	128.70
	1.06E+01	0.695	85.00	1.596	7.25	0.207	37.95	0.368	126.84
	1.07E+01	0.697	84.50	1.578	6.87	0.208	37.85	0.369	125.76
	1.08E+01	0.695	83.97	1.551	6.07	0.210	37.06	0.370	125.74
	1.09E+01	0.696	83.37	1.536	5.61	0.210	36.42	0.376	125.70
	1.10E+01	0.699	82.66	1.513	5.11	0.210	36.24	0.386	125.00
	1.11E+01	0.706	82.17	1.480	4.08	0.211	35.78	0.393	123.52
	1.12E+01	0.716	81.46	1.469	3.45	0.211	35.26	0.396	121.92
	1.13E+01	0.722	81.05	1.452	3.45	0.210	35.38	0.396	121.06
	1.14E+01	0.723	79.66	1.445	2.80	0.213	35.74	0.400	121.18
	1.15E+01	0.725	78.68	1.441	1.96	0.216	35.49	0.408	120.33
	1.16E+01	0.727	77.23	1.427	1.13	0.220	34.63	0.415	119.56
	1.17E+01	0.720	76.47	1.407	-0.25	0.221	33.93	0.416	118.14
	1.18E+01	0.728	75.84	1.397	-0.80	0.223	33.62	0.413	117.33
	1.19E+01	0.724	74.29	1.380	-1.49	0.227	32.78	0.414	117.48
	1.20E+01	0.713	73.50	1.365	-2.97	0.227	31.43	0.428	117.50
	1.21E+01	0.706	72.63	1.337	-3.96	0.226	30.83	0.436	115.69
	1.22E+01	0.704	72.30	1.313	-4.45	0.229	30.08	0.437	115.01
	1.23E+01	0.695	71.82	1.310	-6.07	0.230	28.14	0.443	114.58
	1.24E+01	0.691	71.58	1.278	-6.75	0.224	27.70	0.445	113.52
	1.25E+01	0.692	70.92	1.243	-7.17	0.222	27.27	0.453	113.44
	1.26E+01	0.693	71.03	1.213	-7.51	0.219	28.66	0.457	111.06
	1.27E+01	0.689	70.67	1.198	-7.79	0.223	28.49	0.454	109.84
	1.28E+01	0.684	69.69	1.171	-8.42	0.223	28.03	0.451	108.89
	1.29E+01	0.690	69.16	1.157	-8.64	0.223	28.23	0.448	109.01
	1.30E+01	0.689	69.13	1.147	-8.54	0.227	28.24	0.451	109.24
	1.31E+01	0.687	68.61	1.129	-9.25	0.228	27.29	0.456	109.40
	1.32E+01	0.683	68.02	1.122	-10.00	0.228	26.91	0.464	108.82
	1.33E+01	0.683	67.63	1.113	-10.08	0.229	26.90	0.466	107.05
	1.34E+01	0.680	67.02	1.099	-10.81	0.231	26.43	0.466	107.31
	1.35E+01	0.684	67.09	1.091	-11.22	0.231	26.05	0.471	106.77
	1.36E+01	0.679	66.53	1.077	-11.43	0.232	26.05	0.477	106.80
	1.37E+01	0.678	65.99	1.060	-12.31	0.235	25.90	0.480	105.99
	1.38E+01	0.682	65.17	1.052	-13.07	0.236	25.16	0.480	104.81
	1.39E+01	0.680	65.26	1.041	-13.34	0.236	24.93	0.477	103.95
	1.40E+01	0.678	64.54	1.028	-14.04	0.237	25.08	0.479	103.81
	1.41E+01	0.673	63.81	1.014	-14.70	0.239	24.38	0.483	103.75
	1.42E+01	0.676	63.26	0.994	-15.39	0.240	23.60	0.488	103.07
	1.43E+01	0.673	62.70	0.980	-16.38	0.240	23.72	0.492	102.39
	1.44E+01	0.677	62.58	0.977	-16.65	0.243	23.50	0.489	101.89
	1.45E+01	0.668	62.02	0.958	-16.95	0.246	22.72	0.489	101.66
	1.46E+01	0.666	61.34	0.944	-17.33	0.247	21.73	0.491	101.08
	1.47E+01	0.670	60.20	0.930	-17.66	0.245	21.75	0.493	100.02
	1.48E+01	0.669	60.67	0.913	-18.23	0.248	21.66	0.489	99.02
	1.49E+01	0.660	59.78	0.900	-19.31	0.252	20.85	0.489	99.14
	1.50E+01	0.660	58.99	0.899	-19.38	0.250	19.92	0.493	99.78
