! Filename: 270BFG480.001
! Title: BFG480W
! Bias: Vce=2V; Ic=70mA
! Company: Philips Semiconductors NL
! User: Quality&Reliability T&D
! Measure time: 10 Nov 1999 / 11:54:25
#  MHz  S  MA  R 50
! Freq       S11             S21             S12             S22    :
  100  0.46489 -152.5 44.10041 144.75 0.007553 67.129  0.73794 -47.65
  200  0.59593 -159.6 34.44097 124.51 0.011544 57.195  0.60898 -81.86
  300  0.65151 -165.7 26.59355 112.69 0.013918 55.333  0.53195 -103.7
  400  0.67992 -170.1 21.13440 104.84 0.015907 56.364  0.49284 -118.4
  500  0.69623 -173.4 17.42749 99.164 0.017860 58.152  0.47174 -128.7
  600  0.70731 -176.2 14.71718 94.802 0.019861 60.127  0.45924 -136.2
  700  0.71326 -178.5 12.72880 91.288 0.021907 62.192  0.45084 -142.0
  800  0.71934 179.39 11.16863 88.276 0.024028 63.952  0.44585 -146.7
  900  0.72647 177.42  9.92608 85.723 0.026214 65.841  0.44365 -150.7
 1000  0.73222 175.64  8.93328 83.289 0.028696 66.952  0.44410 -154.3
 1200  0.74483 172.54  7.37466 78.690 0.033232 68.817  0.45091 -160.0
 1400  0.75444 170.13  6.23576 74.113 0.037906 69.875  0.45974 -164.3
 1600  0.75802 167.71  5.44627 70.428 0.043194 70.844  0.46450 -167.7
 1800  0.75766 165.08  4.85547 67.140 0.048957 71.492  0.47076 -171.1
 2000  0.76695 162.87  4.29673 64.387 0.053723 72.401  0.48122 -175.1
 2200  0.78465 160.70  3.83082 61.017 0.058075 72.271  0.49894 -178.3
 2400  0.79240 158.89  3.43249 57.510 0.062892 71.867  0.51942 179.65
 2600  0.79071 157.13  3.14227 54.353 0.068935 71.212  0.53363 178.26
 2800  0.78526 154.82  2.91021 49.945 0.073563 69.869  0.53937 176.39
 3000  0.78953 152.16  2.70360 46.645 0.078789 69.154  0.54578 173.58
