! Filename: 411bfg410.001
! BFG410W Field B1
! V1=8.617E-001V,V2=4.000E+000V, I1=1.538E-004A, I2=1.098E-002A
# GHz   S   MA   R 50
!                S11              S21              S12              S22
!Freq(GHz)  Mag     Ang      Mag     Ang      Mag     Ang      Mag     Ang 
   0.040    0.634  -1.978   21.265 175.012    0.001  33.078    0.968  -0.718
   0.100    0.641  -6.847   20.809 171.325    0.002  80.896    0.972  -3.229
   0.200    0.630 -13.969   20.367 163.967    0.005  78.397    0.962  -7.138
   0.300    0.614 -20.825   19.829 157.117    0.007  77.388    0.949 -10.571
   0.400    0.593 -27.370   19.193 150.083    0.009  73.707    0.931 -13.904
   0.500    0.568 -33.684   18.459 143.355    0.011  70.890    0.909 -16.825
   0.600    0.544 -39.542   17.637 137.277    0.013  69.227    0.889 -19.528
   0.700    0.517 -44.892   16.782 131.641    0.014  67.162    0.866 -22.039
   0.800    0.490 -50.053   15.969 126.184    0.016  65.497    0.845 -24.261
   0.900    0.463 -54.687   15.180 121.145    0.017  64.042    0.825 -26.379
   1.000    0.438 -59.069   14.403 116.423    0.019  62.830    0.805 -28.314
   1.100    0.415 -63.205   13.683 112.042    0.020  61.730    0.787 -30.092
   1.200    0.393 -67.206   13.001 107.852    0.021  60.858    0.771 -31.843
   1.300    0.373 -70.915   12.362 103.948    0.022  60.082    0.754 -33.411
   1.400    0.354 -74.423   11.783 100.295    0.024  59.395    0.740 -34.911
   1.500    0.335 -78.092   11.233  96.744    0.025  58.811    0.727 -36.361
   1.600    0.317 -81.445   10.731  93.384    0.026  58.230    0.714 -37.801
   1.700    0.302 -84.801   10.261  90.169    0.027  57.626    0.703 -39.222
   1.800    0.287 -88.003    9.826  87.078    0.029  57.121    0.692 -40.612
   1.900    0.273 -91.093    9.426  84.123    0.030  56.585    0.682 -42.055
   2.000    0.261 -94.302    9.050  81.225    0.031  56.100    0.673 -43.473
   2.200    0.237 -100.888    8.379  75.727    0.034  54.933    0.654 -46.272
   2.400    0.215 -107.377    7.793  70.456    0.037  53.820    0.637 -49.071
   2.600    0.197 -114.475    7.277  65.437    0.040  52.520    0.620 -51.923
   2.800    0.181 -122.024    6.822  60.608    0.043  51.035    0.604 -54.759
   3.000    0.166 -130.033    6.423  55.870    0.046  49.494    0.589 -57.702
   3.500    0.141 -153.635    5.587  44.502    0.054  44.953    0.549 -65.155
   4.000    0.133 179.046    4.936  33.547    0.063  39.620    0.506 -72.843
   4.500    0.147 153.179    4.421  22.918    0.073  33.400    0.462 -81.162
   5.000    0.173 130.362    3.977  12.312    0.082  26.548    0.411 -89.535
   5.500    0.212 110.293    3.578   1.381    0.089  18.529    0.347 -97.866
   6.000    0.250  99.073    3.289  -8.313    0.101  12.116    0.303 -107.906
   6.500    0.291  85.571    2.973 -18.395    0.107   4.809    0.241 -116.302
   7.000    0.269  76.222    2.688 -23.359    0.113   9.298    0.249 -113.563
   7.500    0.365  71.922    2.593 -36.349    0.134  -5.752    0.175 -143.697
   8.000    0.432  62.916    2.414 -47.567    0.145 -16.425    0.125 -177.982
   8.500    0.500  52.690    2.192 -59.593    0.150 -28.954    0.102 120.819
   9.000    0.550  43.578    1.989 -70.123    0.153 -38.894    0.140  79.593
   9.500    0.591  34.136    1.774 -80.465    0.150 -48.953    0.199  52.253
  10.000    0.644  27.559    1.633 -91.662    0.159 -59.234    0.279  40.017
  10.500    0.687  19.210    1.462 -102.495    0.158 -69.863    0.350  26.857
  11.000    0.726  10.440    1.284 -113.781    0.155 -83.112    0.429  14.139
  11.500    0.747   1.829    1.105 -124.436    0.144 -94.958    0.496   2.557
  12.000    0.763  -6.850    0.933 -135.111    0.133 -108.471    0.560  -8.797
!     DEEMBEDDED NOISE DATA
!FREQUENCY    FMIN    GAMMA OPT        Rn
!  (GHz)      (dB)    Mag    Ang   (NORMALIZED)
