! Filename: 44bfg410.001
! BFG410W Field B1
! V1=8.442E-001V,V2=4.000E+000V, I1=4.867E-005A, I2=4.000E-003A
# GHz   S   MA   R 50
!                S11              S21              S12              S22
!Freq(GHz)  Mag     Ang      Mag     Ang      Mag     Ang      Mag     Ang 
   0.040    0.833  -1.957   11.311 176.469    0.001  43.676    0.985  -0.912
   0.100    0.838  -4.815   11.025 174.047    0.003  74.860    0.985  -2.641
   0.200    0.832  -9.702   10.900 168.888    0.005  76.300    0.978  -5.682
   0.300    0.825 -14.693   10.813 164.356    0.008  76.275    0.975  -8.366
   0.400    0.814 -19.366   10.719 159.000    0.010  73.948    0.967 -11.247
   0.500    0.799 -24.204   10.581 153.984    0.013  71.373    0.956 -13.821
   0.600    0.784 -28.866   10.374 149.234    0.015  69.133    0.947 -16.396
   0.700    0.769 -33.369   10.139 144.574    0.017  67.080    0.933 -18.992
   0.800    0.751 -37.899    9.934 140.007    0.019  64.697    0.920 -21.390
   0.900    0.731 -42.117    9.724 135.526    0.021  62.604    0.907 -23.777
   1.000    0.709 -46.396    9.484 131.096    0.023  60.578    0.892 -26.045
   1.100    0.689 -50.449    9.242 127.004    0.024  58.637    0.878 -28.148
   1.200    0.668 -54.428    8.999 122.857    0.026  56.969    0.864 -30.308
   1.300    0.647 -58.312    8.750 118.929    0.028  55.160    0.848 -32.303
   1.400    0.626 -62.094    8.516 115.080    0.029  53.695    0.834 -34.223
   1.500    0.605 -65.852    8.275 111.312    0.030  52.173    0.820 -36.085
   1.600    0.583 -69.583    8.047 107.664    0.031  50.827    0.806 -37.875
   1.700    0.564 -73.082    7.822 104.131    0.033  49.601    0.794 -39.652
   1.800    0.545 -76.499    7.590 100.718    0.034  48.440    0.780 -41.372
   1.900    0.526 -79.837    7.376  97.459    0.035  47.412    0.768 -43.102
   2.000    0.509 -83.171    7.159  94.216    0.036  46.418    0.756 -44.777
   2.200    0.474 -89.850    6.768  87.988    0.038  44.620    0.732 -48.008
   2.400    0.442 -96.352    6.400  81.961    0.040  43.131    0.710 -51.163
   2.600    0.412 -102.871    6.060  76.278    0.043  41.710    0.688 -54.276
   2.800    0.384 -109.451    5.751  70.760    0.045  40.335    0.668 -57.344
   3.000    0.359 -116.189    5.469  65.426    0.047  39.056    0.648 -60.436
   3.500    0.305 -134.084    4.857  52.632    0.054  35.716    0.599 -68.201
   4.000    0.265 -154.045    4.348  40.380    0.061  31.776    0.551 -76.039
   4.500    0.246 -176.268    3.931  28.666    0.069  26.976    0.503 -84.436
   5.000    0.242 160.336    3.561  17.079    0.077  21.316    0.449 -93.029
   5.500    0.254 136.455    3.220   5.266    0.084  13.960    0.384 -101.904
   6.000    0.282 119.892    2.966  -5.222    0.095   8.797    0.339 -111.950
   6.500    0.313 102.209    2.682 -16.020    0.100   2.154    0.276 -121.310
   7.000    0.289  92.185    2.421 -21.693    0.106   9.255    0.273 -119.277
   7.500    0.387  82.439    2.335 -35.090    0.128  -6.513    0.208 -147.909
   8.000    0.450  70.948    2.172 -46.733    0.140 -17.251    0.161 -177.779
   8.500    0.513  58.975    1.972 -59.161    0.146 -30.022    0.128 133.898
   9.000    0.561  48.709    1.787 -70.145    0.149 -40.009    0.150  93.519
   9.500    0.600  38.451    1.588 -80.753    0.146 -50.186    0.197  62.897
  10.000    0.652  30.968    1.464 -92.248    0.154 -60.440    0.276  47.282
  10.500    0.691  22.176    1.306 -103.418    0.154 -71.204    0.346  32.495
  11.000    0.727  13.153    1.146 -115.026    0.150 -84.800    0.425  18.597
  11.500    0.746   4.129    0.983 -126.084    0.140 -97.060    0.493   6.268
  12.000    0.762  -4.597    0.829 -137.048    0.128 -111.044    0.557  -5.652
!     DEEMBEDDED NOISE DATA
!FREQUENCY    FMIN    GAMMA OPT        Rn
!  (GHz)      (dB)    Mag    Ang   (NORMALIZED)
