! Filename: 43bfg410.001
! BFG410W Field B1
! V1=8.374E-001V,V2=4.000E+000V, I1=3.483E-005A, I2=3.000E-003A
# GHz   S   MA   R 50
!                S11              S21              S12              S22
!Freq(GHz)  Mag     Ang      Mag     Ang      Mag     Ang      Mag     Ang 
   0.040    0.873  -1.992    9.025 176.930    0.001  55.337    0.989  -0.773
   0.100    0.878  -4.442    8.801 174.703    0.003  74.721    0.989  -2.475
   0.200    0.875  -8.834    8.718 170.009    0.005  76.927    0.983  -5.322
   0.300    0.867 -13.387    8.681 166.073    0.008  76.720    0.981  -7.843
   0.400    0.859 -17.577    8.645 161.066    0.011  75.376    0.974 -10.553
   0.500    0.849 -22.049    8.572 156.480    0.013  72.179    0.966 -13.001
   0.600    0.837 -26.381    8.442 152.094    0.015  70.241    0.959 -15.491
   0.700    0.824 -30.540    8.289 147.793    0.018  67.694    0.948 -18.013
   0.800    0.810 -34.776    8.168 143.555    0.020  65.656    0.938 -20.377
   0.900    0.794 -38.767    8.047 139.357    0.022  63.447    0.926 -22.749
   1.000    0.775 -42.952    7.902 135.133    0.024  61.248    0.914 -25.022
   1.100    0.758 -46.825    7.748 131.183    0.026  59.133    0.902 -27.152
   1.200    0.740 -50.706    7.594 127.174    0.028  57.161    0.889 -29.342
   1.300    0.722 -54.525    7.431 123.380    0.029  55.232    0.876 -31.426
   1.400    0.703 -58.289    7.280 119.598    0.031  53.463    0.863 -33.426
   1.500    0.683 -62.019    7.120 115.879    0.032  51.668    0.850 -35.372
   1.600    0.662 -65.771    6.968 112.229    0.034  50.151    0.837 -37.260
   1.700    0.644 -69.272    6.812 108.697    0.035  48.634    0.824 -39.133
   1.800    0.625 -72.811    6.645 105.223    0.036  47.175    0.811 -40.971
   1.900    0.608 -76.126    6.484 101.961    0.037  45.905    0.799 -42.768
   2.000    0.590 -79.506    6.322  98.692    0.038  44.588    0.787 -44.537
   2.200    0.555 -86.226    6.027  92.318    0.041  42.354    0.762 -47.960
   2.400    0.521 -92.902    5.746  86.160    0.043  40.390    0.739 -51.280
   2.600    0.490 -99.462    5.476  80.311    0.045  38.647    0.717 -54.562
   2.800    0.460 -106.106    5.224  74.601    0.047  37.038    0.695 -57.749
   3.000    0.432 -112.796    4.993  69.072    0.049  35.574    0.674 -60.965
   3.500    0.371 -130.387    4.479  55.761    0.054  32.129    0.622 -68.918
   4.000    0.324 -149.563    4.037  43.008    0.061  28.473    0.572 -76.888
   4.500    0.296 -170.381    3.668  30.871    0.068  24.101    0.522 -85.353
   5.000    0.283 167.064    3.335  18.882    0.076  18.859    0.466 -94.047
   5.500    0.286 143.496    3.022   6.702    0.082  11.833    0.400 -103.067
   6.000    0.308 126.072    2.786  -4.134    0.093   7.284    0.354 -113.070
   6.500    0.333 107.597    2.520 -15.256    0.098   0.961    0.291 -122.696
   7.000    0.309  97.129    2.274 -21.225    0.103   9.248    0.283 -121.157
   7.500    0.404  85.706    2.192 -34.715    0.126  -6.814    0.221 -148.908
   8.000    0.466  73.300    2.038 -46.537    0.138 -17.532    0.175 -177.225
   8.500    0.526  60.871    1.851 -59.088    0.144 -30.362    0.139 138.185
   9.000    0.573  50.207    1.676 -70.218    0.147 -40.323    0.154  98.720
   9.500    0.609  39.739    1.488 -80.915    0.143 -50.512    0.197  67.251
  10.000    0.659  32.002    1.372 -92.517    0.153 -60.769    0.275  50.263
  10.500    0.697  23.036    1.224 -103.739    0.152 -71.498    0.344  34.863
  11.000    0.732  13.880    1.072 -115.550    0.149 -85.259    0.423  20.493
  11.500    0.750   4.935    0.920 -126.653    0.138 -97.615    0.491   7.879
  12.000    0.764  -3.797    0.777 -137.774    0.126 -111.794    0.557  -4.291
!     DEEMBEDDED NOISE DATA
!FREQUENCY    FMIN    GAMMA OPT        Rn
!  (GHz)      (dB)    Mag    Ang   (NORMALIZED)
