! Filename: 29bfg410.001
! BFG410W Field B1
! V1=8.739E-001V,V2=2.000E+000V, I1=1.389E-004A, I2=8.990E-003A
# GHz   S   MA   R 50
!                S11              S21              S12              S22
!Freq(GHz)  Mag     Ang      Mag     Ang      Mag     Ang      Mag     Ang 
   0.040    0.659  -2.711   19.454 176.256    0.001  81.892    0.978  -0.856
   0.100    0.665  -7.084   19.141 172.239    0.003  87.964    0.980  -3.313
   0.200    0.654 -14.139   18.707 164.598    0.005  81.644    0.965  -7.590
   0.300    0.639 -21.058   18.298 157.848    0.008  78.765    0.954 -11.122
   0.400    0.618 -27.622   17.760 150.764    0.010  75.637    0.935 -14.798
   0.500    0.593 -34.122   17.108 144.364    0.012  71.875    0.912 -17.739
   0.600    0.569 -40.067   16.418 138.271    0.014  69.405    0.892 -20.683
   0.700    0.543 -45.739   15.651 132.511    0.016  66.894    0.867 -23.525
   0.800    0.516 -51.174   14.939 127.095    0.018  64.960    0.844 -25.913
   0.900    0.490 -56.056   14.244 121.986    0.019  63.234    0.823 -28.251
   1.000    0.464 -60.796   13.542 117.201    0.021  61.631    0.801 -30.364
   1.100    0.440 -65.261   12.892 112.802    0.022  60.249    0.782 -32.288
   1.200    0.418 -69.562   12.276 108.524    0.024  59.281    0.763 -34.202
   1.300    0.396 -73.580   11.687 104.564    0.025  58.216    0.745 -35.893
   1.400    0.377 -77.467   11.159 100.833    0.026  57.312    0.729 -37.506
   1.500    0.358 -81.456   10.648  97.200    0.028  56.576    0.714 -39.077
   1.600    0.340 -85.249   10.184  93.765    0.029  55.986    0.700 -40.606
   1.700    0.323 -88.856    9.747  90.463    0.030  55.220    0.687 -42.107
   1.800    0.308 -92.424    9.337  87.303    0.032  54.630    0.674 -43.581
   1.900    0.294 -95.893    8.961  84.285    0.033  54.036    0.663 -45.076
   2.000    0.281 -99.426    8.610  81.309    0.034  53.436    0.652 -46.551
   2.200    0.256 -106.638    7.976  75.685    0.037  52.228    0.631 -49.463
   2.400    0.234 -114.064    7.422  70.293    0.040  51.056    0.612 -52.358
   2.600    0.216 -121.794    6.932  65.140    0.043  49.662    0.593 -55.313
   2.800    0.201 -129.863    6.498  60.133    0.046  48.203    0.575 -58.225
   3.000    0.187 -138.426    6.115  55.307    0.049  46.615    0.558 -61.256
   3.500    0.166 -162.207    5.319  43.733    0.058  42.003    0.514 -68.960
   4.000    0.162 172.043    4.693  32.559    0.067  36.588    0.468 -76.921
   4.500    0.179 148.675    4.196  21.734    0.077  30.246    0.421 -85.600
   5.000    0.206 127.892    3.768  10.958    0.086  23.346    0.368 -94.445
   5.500    0.245 109.197    3.382  -0.061    0.094  15.309    0.303 -103.411
   6.000    0.284  97.869    3.101  -9.896    0.105   8.706    0.258 -114.492
   6.500    0.324  84.745    2.796 -20.015    0.111   1.418    0.197 -124.349
   7.000    0.305  75.820    2.531 -25.173    0.118   5.491    0.200 -120.225
   7.500    0.398  70.098    2.425 -38.168    0.138  -9.521    0.134 -158.665
   8.000    0.462  61.026    2.249 -49.326    0.149 -20.036    0.107 155.687
   8.500    0.525  50.967    2.037 -61.230    0.153 -32.361    0.126  97.848
   9.000    0.572  41.908    1.844 -71.640    0.156 -42.218    0.177  68.735
   9.500    0.610  32.764    1.642 -81.812    0.152 -52.058    0.238  47.478
  10.000    0.659  26.071    1.510 -92.854    0.160 -62.096    0.315  36.483
  10.500    0.699  17.992    1.351 -103.501    0.159 -72.578    0.382  24.358
  11.000    0.735   9.488    1.189 -114.595    0.155 -85.503    0.457  12.430
  11.500    0.753   1.061    1.023 -125.120    0.145 -96.908    0.520   1.419
  12.000    0.769  -7.345    0.867 -135.645    0.134 -110.122    0.580  -9.485
!     DEEMBEDDED NOISE DATA
!FREQUENCY    FMIN    GAMMA OPT        Rn
!  (GHz)      (dB)    Mag    Ang   (NORMALIZED)
