! Filename: 32bfg425.001
! BFG425W Field C1
! V1=8.039E-001V,V2=3.000E+000V, I1=2.337E-005A, I2=2.000E-003A
# GHz   S   MA   R 50
!                S11              S21              S12              S22
!Freq(GHz)  Mag     Ang      Mag     Ang      Mag     Ang      Mag     Ang 
   0.040    0.912  -3.031    6.781 177.124    0.003  68.792    0.992  -1.450
   0.100    0.916  -6.329    6.638 174.197    0.006  84.532    0.991  -3.587
   0.200    0.911 -12.487    6.604 168.717    0.012  80.646    0.987  -7.101
   0.300    0.904 -18.797    6.556 163.890    0.017  76.932    0.980 -10.616
   0.400    0.893 -24.895    6.510 158.183    0.023  73.065    0.970 -14.044
   0.500    0.881 -31.016    6.441 152.688    0.029  69.178    0.958 -17.451
   0.600    0.867 -37.048    6.309 147.589    0.034  65.332    0.944 -20.726
   0.700    0.852 -42.941    6.172 142.743    0.038  61.627    0.929 -23.940
   0.800    0.835 -48.900    6.054 137.848    0.043  58.054    0.911 -27.049
   0.900    0.817 -54.583    5.937 133.100    0.047  54.702    0.893 -30.077
   1.000    0.798 -60.410    5.799 128.316    0.051  51.441    0.875 -32.974
   1.100    0.779 -65.923    5.650 123.822    0.054  48.248    0.856 -35.760
   1.200    0.759 -71.432    5.502 119.355    0.057  45.279    0.837 -38.473
   1.300    0.740 -76.790    5.355 115.102    0.060  42.414    0.818 -41.052
   1.400    0.721 -82.147    5.215 110.895    0.063  39.635    0.798 -43.543
   1.500    0.701 -87.434    5.074 106.797    0.065  37.118    0.779 -45.934
   1.600    0.681 -92.791    4.935 102.748    0.067  34.654    0.761 -48.253
   1.700    0.664 -97.828    4.798  98.888    0.069  32.372    0.742 -50.533
   1.800    0.648 -102.865    4.655  95.066    0.070  30.184    0.724 -52.731
   1.900    0.632 -107.649    4.517  91.477    0.072  28.144    0.707 -54.894
   2.000    0.617 -112.546    4.380  87.905    0.073  26.217    0.690 -56.992
   2.200    0.588 -122.240    4.131  80.961    0.075  22.661    0.657 -61.056
   2.400    0.563 -131.773    3.899  74.341    0.077  19.556    0.626 -64.947
   2.600    0.543 -141.089    3.681  68.021    0.078  16.799    0.597 -68.772
   2.800    0.524 -150.306    3.481  61.880    0.080  14.310    0.568 -72.531
   3.000    0.510 -159.384    3.296  55.948    0.081  12.086    0.541 -76.250
   3.500    0.490 178.609    2.896  41.797    0.084   7.492    0.477 -85.528
   4.000    0.486 157.999    2.559  28.323    0.088   3.422    0.417 -95.095
   4.500    0.498 139.269    2.278  15.704    0.093  -0.263    0.359 -105.529
   5.000    0.521 121.812    2.032   3.096    0.098  -5.611    0.298 -117.938
   5.500    0.540 106.455    1.802  -8.430    0.101  -9.344    0.237 -129.843
   6.000    0.572  92.378    1.615 -20.276    0.107 -15.736    0.181 -149.046
   6.500    0.585  82.485    1.475 -28.597    0.118 -13.594    0.163 -163.184
   7.000    0.617  72.128    1.357 -38.830    0.133 -18.936    0.152 168.264
   7.500    0.664  60.653    1.224 -51.178    0.137 -31.026    0.162 125.804
   8.000    0.693  51.654    1.118 -61.308    0.145 -37.737    0.202 100.563
   8.500    0.724  42.556    1.011 -71.999    0.150 -46.794    0.258  79.149
   9.000    0.746  33.819    0.900 -81.733    0.150 -54.698    0.309  61.872
   9.500    0.769  25.826    0.808 -90.556    0.151 -62.959    0.349  50.288
  10.000    0.792  18.386    0.741 -100.872    0.154 -72.390    0.421  40.903
  10.500    0.808  11.131    0.666 -110.795    0.153 -81.580    0.485  30.686
  11.000    0.820   3.779    0.587 -120.213    0.147 -91.615    0.534  19.843
  11.500    0.829  -3.440    0.522 -130.047    0.142 -102.144    0.585  11.407
  12.000    0.833 -10.507    0.453 -139.739    0.132 -113.105    0.635   1.834
!     DEEMBEDDED NOISE DATA
!FREQUENCY    FMIN    GAMMA OPT        Rn
!  (GHz)      (dB)    Mag    Ang   (NORMALIZED)
