! Filename: 3_2100BFG480.001
! Title: BFG480W
! Bias: Vce=3.2V; Ic=100mA
! Company: Philips Semiconductors NL
! User: Quality&Reliability T&D
! Measure time: 10 Nov 1999 / 11:57:59
#  MHz  S  MA  R 50
! Freq       S11             S21             S12             S22    :
  100  0.47290 -158.2 50.44041 145.84 0.006149 69.053  0.74731 -43.54
  200  0.59136 -162.9 38.61352 124.95 0.009521 60.966  0.60127 -75.61
  300  0.64272 -167.9 29.55444 112.87 0.011797 60.130  0.50936 -96.43
  400  0.66899 -171.7 23.46291 104.88 0.013784 61.891  0.46052 -110.7
  500  0.68429 -174.6 19.32815 99.117 0.015777 63.884  0.43340 -120.9
  600  0.69515 -177.1 16.31344 94.649 0.017807 65.707  0.41718 -128.5
  700  0.70105 -179.2 14.10103 91.056 0.019865 67.915  0.40662 -134.3
  800  0.70712 178.83 12.36910 87.968 0.022129 69.585  0.39983 -139.2
  900  0.71445 176.99 10.98784 85.318 0.024348 71.195  0.39679 -143.4
 1000  0.72042 175.32  9.88196 82.830 0.026836 72.196  0.39683 -147.1
 1200  0.73456 172.42  8.15436 78.113 0.031440 73.614  0.40415 -153.0
 1400  0.74388 170.17  6.89937 73.471 0.036188 74.357  0.41412 -157.4
 1600  0.74820 167.82  6.01946 69.658 0.041548 75.084  0.42040 -160.8
 1800  0.74706 165.25  5.35316 66.298 0.047321 75.514  0.42782 -164.4
 2000  0.75736 163.07  4.73811 63.419 0.052046 76.064  0.43948 -168.7
 2200  0.77654 161.00  4.22708 59.951 0.056607 75.928  0.45869 -172.2
 2400  0.78555 159.22  3.78695 56.328 0.061542 75.358  0.48236 -174.4
 2600  0.78506 157.58  3.46295 53.027 0.067649 74.635  0.50063 -175.8
 2800  0.78000 155.29  3.20931 48.630 0.072399 73.170  0.50917 -177.6
 3000  0.78467 152.63  2.97968 45.246 0.077742 72.365  0.51665 179.53
