! BFG403W 
! V1=8.248E-001V,V2=3.000E+000V, I1=6.127E-006A, I2=5.000E-004A
# GHz   S   MA   R 50
!                S11              S21              S12              S22
!Freq(GHz)  Mag     Ang      Mag     Ang      Mag     Ang      Mag     Ang 
   0.040    0.979  -0.881    1.708 178.053    0.000  67.813    0.999  -0.698
   0.100    0.980  -2.153    1.676 177.047    0.001  94.290    0.998  -1.784
   0.200    0.979  -4.243    1.674 174.373    0.003  86.357    0.997  -3.623
   0.300    0.978  -6.285    1.674 173.109    0.004  85.236    0.997  -5.387
   0.400    0.976  -8.113    1.682 169.322    0.006  83.340    0.996  -7.244
   0.500    0.974 -10.688    1.687 166.446    0.007  80.371    0.994  -9.015
   0.600    0.972 -12.788    1.677 163.765    0.008  79.022    0.993 -10.788
   0.700    0.969 -14.819    1.669 161.157    0.010  77.326    0.990 -12.620
   0.800    0.966 -16.990    1.666 158.600    0.011  75.927    0.988 -14.379
   0.900    0.962 -19.047    1.666 156.124    0.012  74.156    0.985 -16.215
   1.000    0.959 -21.193    1.666 153.366    0.013  72.859    0.982 -18.010
   1.100    0.954 -23.259    1.663 150.826    0.015  71.054    0.979 -19.754
   1.200    0.949 -25.386    1.662 148.188    0.016  69.622    0.975 -21.558
   1.300    0.944 -27.482    1.662 146.089    0.017  68.007    0.972 -23.338
   1.400    0.939 -29.524    1.656 143.023    0.018  66.547    0.967 -25.082
   1.500    0.932 -31.690    1.658 140.595    0.020  64.887    0.963 -26.829
   1.600    0.926 -33.811    1.655 137.828    0.021  63.366    0.959 -28.578
   1.700    0.920 -35.974    1.652 135.251    0.022  61.812    0.954 -30.311
   1.800    0.912 -38.076    1.644 132.598    0.023  60.180    0.949 -32.097
   1.900    0.906 -40.097    1.636 130.128    0.024  58.838    0.944 -33.839
   2.000    0.898 -42.171    1.628 127.521    0.025  57.485    0.938 -35.579
   2.200    0.883 -46.401    1.617 122.465    0.027  54.618    0.927 -39.044
   2.400    0.864 -50.553    1.607 117.458    0.029  52.151    0.914 -42.478
   2.600    0.848 -54.767    1.593 112.547    0.031  49.655    0.901 -45.901
   2.800    0.830 -59.000    1.577 107.620    0.032  47.283    0.886 -49.282
   3.000    0.811 -63.223    1.568 102.759    0.034  45.039    0.871 -52.711
   3.500    0.761 -74.029    1.535  90.563    0.038  40.217    0.830 -61.172
   4.000    0.713 -85.248    1.502  78.448    0.041  36.113    0.784 -69.703
   4.500    0.667 -97.239    1.485  66.563    0.045  32.623    0.735 -78.349
   5.000    0.621 -110.145    1.467  54.242    0.050  28.530    0.679 -87.190
   5.500    0.575 -124.118    1.433  41.448    0.052  23.854    0.616 -96.061
   6.000    0.543 -139.638    1.415  28.293    0.061  17.945    0.553 -106.580
   6.500    0.510 -153.996    1.364  16.696    0.066  21.360    0.496 -115.203
   7.000    0.448 -170.114    1.236   3.897    0.051  23.879    0.395 -120.650
   7.500    0.484 172.708    1.288  -8.043    0.091  15.344    0.381 -138.236
   8.000    0.490 152.434    1.249 -22.930    0.105   0.700    0.313 -158.901
   8.500    0.490 132.885    1.161 -37.339    0.110 -11.115    0.239 177.871
   9.000    0.504 114.304    1.089 -51.236    0.123 -21.907    0.216 149.012
   9.500    0.521  95.902    0.992 -64.808    0.129 -36.483    0.223 114.021
  10.000    0.538  79.449    0.911 -79.398    0.132 -50.143    0.274  83.382
  10.500    0.556  63.438    0.803 -94.013    0.131 -65.749    0.341  59.630
  11.000    0.559  48.791    0.684 -107.734    0.121 -81.182    0.411  40.229
  11.500    0.573  35.474    0.584 -120.767    0.112 -96.503    0.482  24.812
  12.000    0.572  22.153    0.479 -133.381    0.091 -115.491    0.539   9.839
!     DEEMBEDDED NOISE DATA
!FREQUENCY    FMIN    GAMMA OPT        Rn
!  (GHz)      (dB)    Mag    Ang   (NORMALIZED)
