! Filename BFG424W_2V_5mA.prm
! Simulation_Values
!	! Created	by	janssen	on	Thu	Sep	15	10:02:03	WETDST	2005
!	Column ranking S11, S21,S12,S22 both magnitude and phase.									
!	VCE	=	2	V,	IC	=	5	mA		
!	Common	Emitter	S-Parameters							
#	GHz	S	MA	R	50					
	1.00E-01	0.807	-8.923	14.287	172.36	0.006	83.071	0.981	-4.944	
	2.00E-01	0.795	-17.791	14.021	165.091	0.012	79.591	0.967	-9.836	
	3.00E-01	0.776	-26.322	13.571	158.131	0.018	75.573	0.946	-14.47	
	4.00E-01	0.753	-34.652	13.124	151.648	0.023	70.631	0.919	-18.83	
	5.00E-01	0.737	-43.351	12.766	144.534	0.029	66.882	0.901	-23.593	
	6.00E-01	0.719	-51.923	12.372	137.624	0.035	62.748	0.881	-28.222	
	7.00E-01	0.7	-60.495	11.978	130.714	0.041	58.615	0.86	-32.852	
	8.00E-01	0.682	-69.067	11.584	123.805	0.046	54.481	0.839	-37.481	
	9.00E-01	0.664	-77.638	11.19	116.895	0.052	50.347	0.818	-42.11	
	1.00E+00	0.646	-86.21	10.796	109.986	0.058	46.213	0.798	-46.74	
	1.10E+00	0.627	-94.782	10.402	103.076	0.063	42.08	0.777	-51.369	
	1.20E+00	0.609	-103.354	10.008	96.166	0.069	37.946	0.756	-55.998
	1.30E+00	0.591	-111.926	9.614	89.257	0.074	33.812	0.736	-60.627
	1.40E+00	0.572	-120.497	9.221	82.347	0.08	29.679	0.715	-65.257
	1.50E+00	0.554	-129.069	8.827	75.438	0.086	25.545	0.694	-69.886
	1.60E+00	0.536	-137.641	8.433	68.528	0.091	21.411	0.673	-74.515
	1.70E+00	0.517	-146.213	8.039	61.618	0.097	17.277	0.653	-79.144
	1.80E+00	0.499	-154.784	7.645	54.709	0.103	13.144	0.632	-83.774
	1.90E+00	0.481	-163.356	7.251	47.799	0.108	9.01	0.611	-88.403
	2.00E+00	0.462	-171.928	6.857	40.89	0.114	4.876	0.591	-93.032
	2.10E+00	0.444	-180.5	6.463	33.98	0.12	0.742	0.57	-97.662
	2.20E+00	0.426	-189.072	6.069	27.07	0.125	-3.391	0.549	-102.291
	2.30E+00	0.408	-197.643	5.675	20.161	0.131	-7.525	0.529	-106.92
	2.40E+00	0.389	-206.215	5.281	13.251	0.137	-11.659	0.508	-111.549
	2.50E+00	0.371	-214.787	4.888	6.342	0.142	-15.793	0.487	-116.179
	2.60E+00	0.353	-223.359	4.494	-0.568	0.148	-19.926	0.466	-120.808
	2.70E+00	0.334	-231.931	4.1	-7.478	0.154	-24.06	0.446	-125.437
	2.80E+00	0.316	-240.502	3.706	-14.387	0.159	-28.194	0.425	-130.067
	2.90E+00	0.298	-249.074	3.312	-21.297	0.165	-32.328	0.404	-134.696
	3.00E+00	0.279	-257.646	2.918	-28.206	0.171	-36.461	0.384	-139.325
	3.10E+00	0.261	-266.218	2.524	-35.116	0.176	-40.595	0.363	-143.954
	3.20E+00	0.243	-274.789	2.13	-42.026	0.182	-44.729	0.342	-148.584
	3.30E+00	0.225	-283.361	1.736	-48.935	0.187	-48.863	0.321	-153.213
	3.40E+00	0.206	-291.933	1.342	-55.845	0.193	-52.996	0.301	-157.842
	3.50E+00	0.188	-300.505	0.948	-62.754	0.199	-57.13	0.28	-162.471
	3.60E+00	0.17	-309.077	0.555	-69.664	0.204	-61.264	0.259	-167.101
	3.70E+00	0.151	-317.648	0.161	-76.574	0.21	-65.397	0.239	-171.73
	3.80E+00	0.133	-326.22	-0.233	-83.483	0.216	-69.531	0.218	-176.359
	3.90E+00	0.115	-334.792	-0.627	-90.393	0.221	-73.665	0.197	-180.989
	4.00E+00	0.096	-343.364	-1.021	-97.302	0.227	-77.799	0.176	-185.618
	4.10E+00	0.078	-351.935	-1.415	-104.212	0.233	-81.932	0.156	-190.247
	4.20E+00	0.06	-360.507	-1.809	-111.122	0.238	-86.066	0.135	-194.876
	4.30E+00	0.041	-369.079	-2.203	-118.031	0.244	-90.2	0.114	-199.506
	4.40E+00	0.023	-377.651	-2.597	-124.941	0.25	-94.334	0.094	-204.135
	4.50E+00	0.005	-386.223	-2.991	-131.85	0.255	-98.467	0.073	-208.764
	4.60E+00	-0.013	-394.794	-3.385	-138.76	0.261	-102.601	0.052	-213.394
	4.70E+00	-0.032	-403.366	-3.778	-145.67	0.267	-106.735	0.032	-218.023
	4.80E+00	-0.05	-411.938	-4.172	-152.579	0.272	-110.869	0.011	-222.652
	4.90E+00	-0.068	-420.51	-4.566	-159.489	0.278	-115.002	-0.01	-227.281
	5.00E+00	-0.087	-429.081	-4.96	-166.398	0.284	-119.136	-0.031	-231.911
	5.10E+00	-0.105	-437.653	-5.354	-173.308	0.289	-123.27	-0.051	-236.54
	5.20E+00	-0.123	-446.225	-5.748	-180.218	0.295	-127.404	-0.072	-241.169
	5.30E+00	-0.142	-454.797	-6.142	-187.127	0.301	-131.537	-0.093	-245.798
	5.40E+00	-0.16	-463.369	-6.536	-194.037	0.306	-135.671	-0.113	-250.428
	5.50E+00	-0.178	-471.94	-6.93	-200.946	0.312	-139.805	-0.134	-255.057
	5.60E+00	-0.196	-480.512	-7.324	-207.856	0.317	-143.939	-0.155	-259.686
	5.70E+00	-0.215	-489.084	-7.718	-214.766	0.323	-148.072	-0.176	-264.316
	5.80E+00	-0.233	-497.656	-8.111	-221.675	0.329	-152.206	-0.196	-268.945
	5.90E+00	-0.251	-506.228	-8.505	-228.585	0.334	-156.34	-0.217	-273.574
	6.00E+00	-0.27	-514.799	-8.899	-235.494	0.34	-160.474	-0.238	-278.203
	6.10E+00	-0.288	-523.371	-9.293	-242.404	0.346	-164.607	-0.258	-282.833
	6.20E+00	-0.306	-531.943	-9.687	-249.314	0.351	-168.741	-0.279	-287.462
	6.30E+00	-0.325	-540.515	-10.081	-256.223	0.357	-172.875	-0.3	-292.091
	6.40E+00	-0.343	-549.086	-10.475	-263.133	0.363	-177.008	-0.32	-296.721
	6.50E+00	-0.361	-557.658	-10.869	-270.042	0.368	-181.142	-0.341	-301.35
	6.60E+00	-0.38	-566.23	-11.263	-276.952	0.374	-185.276	-0.362	-305.979
	6.70E+00	-0.398	-574.802	-11.657	-283.862	0.38	-189.41	-0.383	-310.608
	6.80E+00	-0.416	-583.374	-12.051	-290.771	0.385	-193.543	-0.403	-315.238
	6.90E+00	-0.434	-591.945	-12.444	-297.681	0.391	-197.677	-0.424	-319.867
	7.00E+00	-0.453	-600.517	-12.838	-304.59	0.397	-201.811	-0.445	-324.496
	7.10E+00	-0.471	-609.089	-13.232	-311.5	0.402	-205.945	-0.465	-329.125
	7.20E+00	-0.489	-617.661	-13.626	-318.41	0.408	-210.078	-0.486	-333.755
	7.30E+00	-0.508	-626.232	-14.02	-325.319	0.414	-214.212	-0.507	-338.384
	7.40E+00	-0.526	-634.804	-14.414	-332.229	0.419	-218.346	-0.528	-343.013
	7.50E+00	-0.544	-643.376	-14.808	-339.138	0.425	-222.48	-0.548	-347.643
	7.60E+00	-0.563	-651.948	-15.202	-346.048	0.43	-226.613	-0.569	-352.272
	7.70E+00	-0.581	-660.52	-15.596	-352.958	0.436	-230.747	-0.59	-356.901
	7.80E+00	-0.599	-669.091	-15.99	-359.867	0.442	-234.881	-0.61	-361.53
	7.90E+00	-0.617	-677.663	-16.384	-366.777	0.447	-239.015	-0.631	-366.16
	8.00E+00	-0.636	-686.235	-16.777	-373.686	0.453	-243.148	-0.652	-370.789
	8.10E+00	-0.654	-694.807	-17.171	-380.596	0.459	-247.282	-0.672	-375.418
	8.20E+00	-0.672	-703.378	-17.565	-387.506	0.464	-251.416	-0.693	-380.047
	8.30E+00	-0.691	-711.95	-17.959	-394.415	0.47	-255.55	-0.714	-384.677
	8.40E+00	-0.709	-720.522	-18.353	-401.325	0.476	-259.683	-0.735	-389.306
	8.50E+00	-0.727	-729.094	-18.747	-408.234	0.481	-263.817	-0.755	-393.935
	8.60E+00	-0.746	-737.666	-19.141	-415.144	0.487	-267.951	-0.776	-398.565
	8.70E+00	-0.764	-746.237	-19.535	-422.054	0.493	-272.084	-0.797	-403.194
	8.80E+00	-0.782	-754.809	-19.929	-428.963	0.498	-276.218	-0.817	-407.823
	8.90E+00	-0.801	-763.381	-20.323	-435.873	0.504	-280.352	-0.838	-412.452
	9.00E+00	-0.819	-771.953	-20.717	-442.782	0.51	-284.486	-0.859	-417.082
	9.10E+00	-0.837	-780.525	-21.111	-449.692	0.515	-288.619	-0.88	-421.711
	9.20E+00	-0.855	-789.096	-21.504	-456.602	0.521	-292.753	-0.9	-426.34
	9.30E+00	-0.874	-797.668	-21.898	-463.511	0.527	-296.887	-0.921	-430.97
	9.40E+00	-0.892	-806.24	-22.292	-470.421	0.532	-301.021	-0.942	-435.599
	9.50E+00	-0.91	-814.812	-22.686	-477.33	0.538	-305.154	-0.962	-440.228
	9.60E+00	-0.929	-823.383	-23.08	-484.24	0.543	-309.288	-0.983	-444.857
	9.70E+00	-0.947	-831.955	-23.474	-491.15	0.549	-313.422	-1.004	-449.487
	9.80E+00	-0.965	-840.527	-23.868	-498.059	0.555	-317.556	-1.025	-454.116
	9.90E+00	-0.984	-849.099	-24.262	-504.969	0.56	-321.689	-1.045	-458.745
	1.00E+01	-1.002	-857.671	-24.656	-511.878	0.566	-325.823	-1.066	-463.374
	1.01E+01	-1.02	-866.242	-25.05	-518.788	0.572	-329.957	-1.087	-468.004
	1.02E+01	-1.038	-874.814	-25.444	-525.698	0.577	-334.091	-1.107	-472.633
	1.03E+01	-1.057	-883.386	-25.837	-532.607	0.583	-338.224	-1.128	-477.262
	1.04E+01	-1.075	-891.958	-26.231	-539.517	0.589	-342.358	-1.149	-481.892
	1.05E+01	-1.093	-900.529	-26.625	-546.426	0.594	-346.492	-1.169	-486.521
	1.06E+01	-1.112	-909.101	-27.019	-553.336	0.6	-350.626	-1.19	-491.15
	1.07E+01	-1.13	-917.673	-27.413	-560.246	0.606	-354.759	-1.211	-495.779
	1.08E+01	-1.148	-926.245	-27.807	-567.155	0.611	-358.893	-1.232	-500.409
	1.09E+01	-1.167	-934.817	-28.201	-574.065	0.617	-363.027	-1.252	-505.038
	1.10E+01	-1.185	-943.388	-28.595	-580.974	0.623	-367.161	-1.273	-509.667
	1.11E+01	-1.203	-951.96	-28.989	-587.884	0.628	-371.294	-1.294	-514.297
	1.12E+01	-1.222	-960.532	-29.383	-594.794	0.634	-375.428	-1.314	-518.926
	1.13E+01	-1.24	-969.104	-29.777	-601.703	0.64	-379.562	-1.335	-523.555
	1.14E+01	-1.258	-977.675	-30.17	-608.613	0.645	-383.695	-1.356	-528.184
	1.15E+01	-1.276	-986.247	-30.564	-615.522	0.651	-387.829	-1.377	-532.814
	1.16E+01	-1.295	-994.819	-30.958	-622.432	0.656	-391.963	-1.397	-537.443
	1.17E+01	-1.313	-1003.391	-31.352	-629.342	0.662	-396.097	-1.418	-542.072
	1.18E+01	-1.331	-1011.963	-31.746	-636.251	0.668	-400.23	-1.439	-546.701
	1.19E+01	-1.35	-1020.534	-32.14	-643.161	0.673	-404.364	-1.459	-551.331
	1.20E+01	-1.368	-1029.106	-32.534	-650.07	0.679	-408.498	-1.48	-555.96
	1.21E+01	-1.386	-1037.678	-32.928	-656.98	0.685	-412.632	-1.501	-560.589
	1.22E+01	-1.405	-1046.25	-33.322	-663.89	0.69	-416.765	-1.521	-565.219
	1.23E+01	-1.423	-1054.821	-33.716	-670.799	0.696	-420.899	-1.542	-569.848
	1.24E+01	-1.441	-1063.393	-34.11	-677.709	0.702	-425.033	-1.563	-574.477
	1.25E+01	-1.459	-1071.965	-34.503	-684.618	0.707	-429.167	-1.584	-579.106
	1.26E+01	-1.478	-1080.537	-34.897	-691.528	0.713	-433.3	-1.604	-583.736
	1.27E+01	-1.496	-1089.109	-35.291	-698.438	0.719	-437.434	-1.625	-588.365
	1.28E+01	-1.514	-1097.68	-35.685	-705.347	0.724	-441.568	-1.646	-592.994
	1.29E+01	-1.533	-1106.252	-36.079	-712.257	0.73	-445.702	-1.666	-597.624
	1.30E+01	-1.551	-1114.824	-36.473	-719.166	0.736	-449.835	-1.687	-602.253
	1.31E+01	-1.569	-1123.396	-36.867	-726.076	0.741	-453.969	-1.708	-606.882
	1.32E+01	-1.588	-1131.968	-37.261	-732.986	0.747	-458.103	-1.729	-611.511
	1.33E+01	-1.606	-1140.539	-37.655	-739.895	0.753	-462.237	-1.749	-616.141
	1.34E+01	-1.624	-1149.111	-38.049	-746.805	0.758	-466.37	-1.77	-620.77
	1.35E+01	-1.643	-1157.683	-38.443	-753.714	0.764	-470.504	-1.791	-625.399
	1.36E+01	-1.661	-1166.255	-38.836	-760.624	0.77	-474.638	-1.811	-630.028
	1.37E+01	-1.679	-1174.826	-39.23	-767.534	0.775	-478.771	-1.832	-634.658
	1.38E+01	-1.697	-1183.398	-39.624	-774.443	0.781	-482.905	-1.853	-639.287
	1.39E+01	-1.716	-1191.97	-40.018	-781.353	0.786	-487.039	-1.874	-643.916
	1.40E+01	-1.734	-1200.542	-40.412	-788.262	0.792	-491.173	-1.894	-648.546
	1.41E+01	-1.752	-1209.114	-40.806	-795.172	0.798	-495.306	-1.915	-653.175
	1.42E+01	-1.771	-1217.685	-41.2	-802.082	0.803	-499.44	-1.936	-657.804
	1.43E+01	-1.789	-1226.257	-41.594	-808.991	0.809	-503.574	-1.956	-662.433
	1.44E+01	-1.807	-1234.829	-41.988	-815.901	0.815	-507.708	-1.977	-667.063
	1.45E+01	-1.826	-1243.401	-42.382	-822.81	0.82	-511.841	-1.998	-671.692
	1.46E+01	-1.844	-1251.972	-42.776	-829.72	0.826	-515.975	-2.018	-676.321
	1.47E+01	-1.862	-1260.544	-43.169	-836.63	0.832	-520.109	-2.039	-680.95
	1.48E+01	-1.88	-1269.116	-43.563	-843.539	0.837	-524.243	-2.06	-685.58
	1.49E+01	-1.899	-1277.688	-43.957	-850.449	0.843	-528.376	-2.081	-690.209
	1.50E+01	-1.917	-1286.26	-44.351	-857.358	0.849	-532.51	-2.101	-694.838
!	Noise	data:							
!	Freq.	Fmin	Gamma-opt	rn					
	0.9	1	0.28	11.7	0.24				
	2	1.2	0.22	60.8	0.18
