! Filename: 39bfg410.001
! BFG410W Field B1
! V1=8.665E-001V,V2=3.000E+000V, I1=1.322E-004A, I2=8.990E-003A
# GHz   S   MA   R 50
!                S11              S21              S12              S22
!Freq(GHz)  Mag     Ang      Mag     Ang      Mag     Ang      Mag     Ang 
   0.040    0.672  -2.448   19.435 175.736    0.001  61.936    0.980  -0.872
   0.100    0.679  -6.730   19.049 172.027    0.003  86.941    0.981  -3.203
   0.200    0.668 -13.498   18.660 164.819    0.005  81.298    0.969  -7.140
   0.300    0.654 -20.172   18.247 158.239    0.007  78.896    0.958 -10.536
   0.400    0.632 -26.472   17.735 151.393    0.009  75.722    0.941 -13.960
   0.500    0.609 -32.727   17.124 145.009    0.011  71.775    0.921 -16.845
   0.600    0.585 -38.436   16.452 139.036    0.013  69.790    0.901 -19.657
   0.700    0.559 -43.823   15.717 133.396    0.015  67.171    0.879 -22.339
   0.800    0.533 -49.116   15.027 128.015    0.017  65.437    0.857 -24.668
   0.900    0.506 -53.790   14.345 122.993    0.018  63.653    0.837 -26.918
   1.000    0.480 -58.364   13.664 118.225    0.020  62.279    0.817 -28.972
   1.100    0.456 -62.603   13.027 113.837    0.021  60.948    0.798 -30.860
   1.200    0.434 -66.742   12.420 109.590    0.022  59.908    0.781 -32.720
   1.300    0.412 -70.649   11.838 105.640    0.024  58.926    0.763 -34.384
   1.400    0.392 -74.295   11.312 101.909    0.025  58.085    0.748 -35.972
   1.500    0.372 -78.063   10.807  98.290    0.026  57.246    0.734 -37.509
   1.600    0.354 -81.607   10.345  94.853    0.027  56.636    0.720 -39.015
   1.700    0.337 -85.111    9.910  91.547    0.029  55.950    0.708 -40.490
   1.800    0.321 -88.490    9.500  88.399    0.030  55.374    0.696 -41.943
   1.900    0.306 -91.681    9.123  85.379    0.031  54.778    0.685 -43.424
   2.000    0.292 -95.031    8.769  82.411    0.033  54.232    0.675 -44.881
   2.200    0.267 -101.732    8.135  76.782    0.035  53.039    0.655 -47.758
   2.400    0.244 -108.488    7.577  71.398    0.038  51.948    0.636 -50.603
   2.600    0.224 -115.635    7.083  66.254    0.041  50.615    0.618 -53.524
   2.800    0.207 -123.081    6.647  61.311    0.044  49.207    0.601 -56.389
   3.000    0.191 -131.104    6.260  56.444    0.047  47.752    0.584 -59.372
   3.500    0.164 -153.813    5.455  44.893    0.055  43.319    0.542 -66.933
   4.000    0.153 -179.537    4.820  33.744    0.064  38.113    0.498 -74.745
   4.500    0.164 155.446    4.318  22.943    0.074  31.935    0.453 -83.219
   5.000    0.189 132.861    3.884  12.200    0.083  25.163    0.400 -91.808
   5.500    0.225 112.578    3.492   1.147    0.090  17.193    0.335 -100.452
   6.000    0.263 100.695    3.208  -8.672    0.102  10.762    0.291 -110.864
   6.500    0.303  86.931    2.896 -18.820    0.108   3.531    0.229 -119.902
   7.000    0.283  77.768    2.620 -23.931    0.114   8.063    0.235 -116.779
   7.500    0.378  72.396    2.521 -36.943    0.135  -7.089    0.164 -149.306
   8.000    0.443  63.083    2.343 -48.192    0.146 -17.703    0.121 173.160
   8.500    0.509  52.698    2.125 -60.223    0.151 -30.209    0.112 113.322
   9.000    0.559  43.538    1.926 -70.750    0.154 -40.177    0.155  76.822
   9.500    0.598  34.120    1.716 -81.054    0.151 -50.147    0.213  51.616
  10.000    0.650  27.359    1.579 -92.256    0.159 -60.371    0.292  39.504
  10.500    0.691  19.134    1.413 -103.044    0.158 -70.980    0.362  26.556
  11.000    0.729  10.426    1.241 -114.264    0.154 -84.112    0.439  13.982
  11.500    0.749   1.792    1.067 -124.953    0.144 -95.878    0.505   2.510
  12.000    0.765  -6.771    0.902 -135.542    0.133 -109.333    0.567  -8.743
!     DEEMBEDDED NOISE DATA
!FREQUENCY    FMIN    GAMMA OPT        Rn
!  (GHz)      (dB)    Mag    Ang   (NORMALIZED)
