! Filename: 330bfg425.001
! BFG425W Field C1
! V1=8.550E-001V,V2=3.000E+000V, I1=4.198E-004A, I2=3.001E-002A
# GHz   S   MA   R 50
!                S11              S21              S12              S22
!Freq(GHz)  Mag     Ang      Mag     Ang      Mag     Ang      Mag     Ang 
   0.040    0.309  -9.397   39.111 173.169    0.002  81.151    0.909  -2.523
   0.100    0.307 -22.896   38.183 164.134    0.004  80.676    0.902  -8.941
   0.200    0.291 -43.939   35.264 149.984    0.008  74.630    0.852 -17.802
   0.300    0.275 -62.109   31.523 138.432    0.011  70.924    0.787 -24.717
   0.400    0.260 -78.733   27.956 128.629    0.014  68.699    0.722 -29.815
   0.500    0.249 -93.168   24.795 120.263    0.016  66.581    0.666 -33.595
   0.600    0.239 -105.276   22.099 113.526    0.019  65.322    0.619 -36.533
   0.700    0.233 -115.502   19.844 107.842    0.021  64.133    0.579 -38.764
   0.800    0.229 -125.129   17.938 102.647    0.023  63.404    0.546 -40.665
   0.900    0.225 -133.131   16.332  98.084    0.025  62.766    0.519 -42.377
   1.000    0.223 -140.634   14.949  93.963    0.027  62.013    0.496 -43.865
   1.100    0.221 -147.286   13.772  90.155    0.030  61.403    0.476 -45.361
   1.200    0.221 -153.228   12.753  86.628    0.032  60.700    0.458 -46.775
   1.300    0.220 -158.958   11.861  83.325    0.034  60.056    0.442 -48.116
   1.400    0.222 -164.046   11.085  80.226    0.036  59.322    0.428 -49.472
   1.500    0.224 -169.104   10.401  77.237    0.039  58.623    0.415 -50.741
   1.600    0.226 -173.782    9.790  74.359    0.041  57.811    0.404 -52.137
   1.700    0.228 -178.015    9.241  71.630    0.043  56.911    0.393 -53.535
   1.800    0.231 177.787    8.750  68.969    0.045  55.963    0.383 -54.913
   1.900    0.233 173.876    8.309  66.368    0.048  54.956    0.373 -56.461
   2.000    0.236 170.170    7.904  63.857    0.050  53.888    0.364 -57.988
   2.200    0.243 163.035    7.203  58.998    0.055  51.737    0.346 -61.090
   2.400    0.251 156.397    6.610  54.264    0.060  49.479    0.328 -64.223
   2.600    0.260 150.213    6.099  49.634    0.065  47.061    0.311 -67.546
   2.800    0.270 144.287    5.660  45.187    0.069  44.534    0.294 -70.921
   3.000    0.281 138.627    5.277  40.804    0.074  41.899    0.277 -74.459
   3.500    0.311 125.742    4.502  30.106    0.087  34.934    0.232 -83.843
   4.000    0.344 113.893    3.906  19.627    0.098  27.582    0.185 -94.488
   4.500    0.381 103.388    3.438   9.400    0.110  19.898    0.138 -108.055
   5.000    0.423  92.838    3.044  -1.103    0.120  11.347    0.085 -130.644
   5.500    0.456  82.569    2.689 -10.685    0.127   4.164    0.043 -168.621
   6.000    0.499  73.165    2.404 -20.980    0.134  -4.747    0.061 109.412
   6.500    0.508  66.682    2.207 -27.966    0.148  -8.301    0.077  98.437
   7.000    0.544  59.690    2.038 -37.166    0.161 -16.026    0.129  85.875
   7.500    0.603  50.951    1.837 -48.655    0.164 -27.853    0.212  67.381
   8.000    0.638  43.721    1.682 -57.949    0.170 -35.814    0.268  58.209
   8.500    0.678  36.076    1.523 -67.885    0.173 -45.192    0.332  48.179
   9.000    0.705  28.239    1.363 -76.833    0.171 -53.436    0.384  38.034
   9.500    0.733  21.108    1.235 -85.401    0.171 -61.770    0.424  29.737
  10.000    0.761  14.385    1.128 -95.214    0.172 -71.105    0.482  23.321
  10.500    0.784   7.527    1.018 -104.692    0.170 -80.220    0.533  15.665
  11.000    0.801   0.438    0.902 -113.570    0.164 -89.825    0.575   7.000
  11.500    0.815  -6.601    0.807 -122.862    0.158 -99.618    0.615  -0.015
  12.000    0.822 -13.700    0.704 -131.876    0.149 -109.823    0.654  -8.133
!     DEEMBEDDED NOISE DATA
!FREQUENCY    FMIN    GAMMA OPT        Rn
!  (GHz)      (dB)    Mag    Ang   (NORMALIZED)
