! Filename: 25bfg410.001
! BFG410W Field B1
! V1=8.578E-001V,V2=2.000E+000V, I1=7.377E-005A, I2=5.000E-003A
# GHz   S   MA   R 50
!                S11              S21              S12              S22
!Freq(GHz)  Mag     Ang      Mag     Ang      Mag     Ang      Mag     Ang 
   0.040    0.782  -2.306   13.436 176.960    0.001  56.051    0.989  -0.804
   0.100    0.790  -5.492   13.198 173.871    0.003  87.655    0.989  -2.855
   0.200    0.783 -11.027   12.967 167.773    0.006  82.704    0.976  -6.629
   0.300    0.773 -16.639   12.844 162.529    0.008  79.761    0.972  -9.648
   0.400    0.759 -21.935   12.658 156.537    0.011  76.485    0.960 -13.049
   0.500    0.742 -27.183   12.405 151.205    0.014  73.190    0.944 -15.785
   0.600    0.724 -32.291   12.112 146.003    0.016  70.407    0.932 -18.679
   0.700    0.705 -37.306   11.757 140.839    0.018  67.507    0.914 -21.644
   0.800    0.683 -42.224   11.440 135.958    0.020  65.031    0.896 -24.197
   0.900    0.660 -46.778   11.114 131.175    0.022  62.772    0.879 -26.787
   1.000    0.636 -51.310   10.750 126.556    0.024  60.675    0.859 -29.165
   1.100    0.614 -55.570   10.402 122.268    0.026  58.662    0.842 -31.380
   1.200    0.591 -59.761   10.055 117.973    0.028  56.888    0.824 -33.619
   1.300    0.569 -63.802    9.706 113.964    0.029  55.373    0.806 -35.602
   1.400    0.548 -67.692    9.388 110.091    0.030  53.830    0.790 -37.523
   1.500    0.526 -71.579    9.065 106.269    0.032  52.378    0.773 -39.408
   1.600    0.505 -75.437    8.763 102.659    0.033  51.290    0.758 -41.201
   1.700    0.485 -79.085    8.471  99.131    0.034  50.136    0.743 -42.965
   1.800    0.466 -82.579    8.179  95.746    0.036  49.065    0.728 -44.677
   1.900    0.449 -85.977    7.913  92.526    0.037  48.116    0.715 -46.370
   2.000    0.432 -89.442    7.649  89.350    0.038  47.247    0.702 -48.013
   2.200    0.400 -96.278    7.175  83.250    0.041  45.607    0.676 -51.222
   2.400    0.371 -103.140    6.740  77.392    0.043  44.164    0.653 -54.358
   2.600    0.344 -110.039    6.346  71.789    0.046  42.743    0.631 -57.480
   2.800    0.320 -117.080    5.991  66.431    0.048  41.325    0.609 -60.593
   3.000    0.299 -124.358    5.672  61.234    0.051  39.861    0.588 -63.718
   3.500    0.256 -144.117    4.989  48.786    0.059  35.962    0.538 -71.543
   4.000    0.229 -166.131    4.435  36.856    0.067  31.297    0.488 -79.579
   4.500    0.224 170.536    3.985  25.427    0.076  25.775    0.438 -88.287
   5.000    0.233 147.348    3.593  14.105    0.085  19.491    0.383 -97.265
   5.500    0.258 125.004    3.233   2.591    0.091  11.778    0.317 -106.584
   6.000    0.291 110.408    2.968  -7.666    0.103   5.920    0.272 -117.666
   6.500    0.327  94.613    2.678 -18.178    0.108  -1.019    0.209 -128.132
   7.000    0.305  85.129    2.421 -23.647    0.114   4.421    0.207 -124.051
   7.500    0.401  76.719    2.321 -36.883    0.135 -10.812    0.148 -161.542
   8.000    0.464  66.205    2.152 -48.287    0.146 -21.314    0.122 156.810
   8.500    0.525  55.034    1.949 -60.431    0.151 -33.721    0.134 103.196
   9.000    0.572  45.354    1.763 -71.071    0.154 -43.564    0.181  73.151
   9.500    0.609  35.654    1.568 -81.381    0.150 -53.470    0.238  50.957
  10.000    0.659  28.485    1.442 -92.588    0.157 -63.442    0.315  38.952
  10.500    0.697  20.008    1.289 -103.396    0.157 -73.908    0.382  26.346
  11.000    0.731  11.360    1.133 -114.699    0.153 -86.974    0.456  14.032
  11.500    0.751   2.677    0.973 -125.336    0.142 -98.632    0.520   2.791
  12.000    0.765  -5.873    0.824 -136.043    0.131 -112.074    0.580  -8.305
!     DEEMBEDDED NOISE DATA
!FREQUENCY    FMIN    GAMMA OPT        Rn
!  (GHz)      (dB)    Mag    Ang   (NORMALIZED)
