! Filename: 290BFG480.001
! Title: BFG480W
! Bias: Vce=2V; Ic=90mA
! Company: Philips Semiconductors NL
! User: Quality&Reliability T&D
! Measure time: 10 Nov 1999 / 11:54:49
#  MHz  S  MA  R 50
! Freq       S11             S21             S12             S22    :
  100  0.54003 -159.5 40.55136 142.82 0.006871 67.026  0.68884 -50.41
  200  0.64631 -164.9 31.70720 122.75 0.010509 58.443  0.57226 -85.99
  300  0.68558 -169.6 25.03886 111.39 0.012805 57.470  0.50617 -108.0
  400  0.70791 -173.2 20.01034 103.78 0.014887 59.502  0.47471 -122.3
  500  0.71950 -176.0 16.54468 98.260 0.016924 61.682  0.45853 -132.2
  600  0.72852 -178.4 13.98183 94.001 0.019013 63.579  0.44902 -139.4
  700  0.73403 179.55 12.10117 90.564 0.021224 65.429  0.44288 -144.8
  800  0.73920 177.61 10.61615 87.612 0.023529 67.290  0.43926 -149.3
  900  0.74503 175.81  9.43558 85.120 0.025876 68.845  0.43835 -153.1
 1000  0.75137 174.16  8.49369 82.698 0.028360 69.797  0.43979 -156.5
 1200  0.76240 171.29  7.00818 78.172 0.033219 71.334  0.44792 -161.8
 1400  0.76908 168.97  5.92472 73.614 0.037976 72.056  0.45748 -165.8
 1600  0.77302 166.61  5.17477 69.932 0.043502 72.709  0.46265 -169.0
 1800  0.77211 164.01  4.61235 66.643 0.049335 73.154  0.46962 -172.4
 2000  0.78057 161.90  4.08249 63.910 0.054339 73.583  0.48111 -176.1
 2200  0.79833 159.83  3.63790 60.547 0.058685 73.521  0.49872 -179.2
 2400  0.80534 158.04  3.25786 57.060 0.063518 72.925  0.51900 178.85
 2600  0.80262 156.27  2.98164 53.869 0.069655 72.173  0.53336 177.54
 2800  0.79660 153.92  2.76184 49.453 0.074332 70.713  0.53930 175.70
 3000  0.80162 151.28  2.56454 46.136 0.079587 69.911  0.54580 172.96
