! Filename: 413bfg410.001
! BFG410W Field B1
! V1=8.637E-001V,V2=4.000E+000V, I1=1.863E-004A, I2=1.299E-002A
# GHz   S   MA   R 50
!                S11              S21              S12              S22
!Freq(GHz)  Mag     Ang      Mag     Ang      Mag     Ang      Mag     Ang 
   0.040    0.596  -2.442   23.031 174.821    0.001  55.058    0.967  -0.714
   0.100    0.602  -7.388   22.541 170.886    0.002  81.179    0.970  -3.282
   0.200    0.589 -15.016   22.016 163.041    0.005  78.968    0.959  -7.395
   0.300    0.572 -22.171   21.363 155.800    0.007  76.777    0.944 -10.940
   0.400    0.550 -29.040   20.566 148.439    0.009  73.802    0.924 -14.342
   0.500    0.523 -35.812   19.659 141.382    0.010  71.100    0.900 -17.269
   0.600    0.498 -41.761   18.671 135.119    0.012  69.438    0.878 -19.943
   0.700    0.470 -47.259   17.667 129.357    0.014  67.425    0.854 -22.388
   0.800    0.443 -52.565   16.716 123.836    0.015  66.049    0.832 -24.529
   0.900    0.417 -57.140   15.810 118.784    0.017  64.668    0.811 -26.555
   1.000    0.393 -61.569   14.936 114.075    0.018  63.751    0.791 -28.397
   1.100    0.371 -65.776   14.133 109.724    0.019  62.730    0.774 -30.096
   1.200    0.350 -69.653   13.385 105.579    0.021  62.106    0.757 -31.774
   1.300    0.330 -73.483   12.686 101.739    0.022  61.473    0.741 -33.259
   1.400    0.313 -76.992   12.055  98.133    0.023  60.803    0.727 -34.697
   1.500    0.295 -80.730   11.468  94.650    0.024  60.277    0.715 -36.085
   1.600    0.279 -84.060   10.934  91.358    0.026  59.795    0.703 -37.485
   1.700    0.265 -87.462   10.436  88.214    0.027  59.234    0.693 -38.865
   1.800    0.251 -90.754    9.975  85.191    0.028  58.684    0.682 -40.224
   1.900    0.239 -94.021    9.554  82.292    0.030  58.235    0.673 -41.641
   2.000    0.227 -97.158    9.164  79.462    0.031  57.684    0.664 -43.048
   2.200    0.206 -104.006    8.465  74.069    0.034  56.510    0.646 -45.810
   2.400    0.186 -110.999    7.857  68.919    0.037  55.331    0.630 -48.593
   2.600    0.170 -118.579    7.328  63.986    0.040  53.908    0.614 -51.438
   2.800    0.156 -126.645    6.861  59.238    0.043  52.485    0.598 -54.265
   3.000    0.144 -135.444    6.451  54.608    0.046  50.755    0.583 -57.210
   3.500    0.125 -161.103    5.603  43.384    0.055  46.040    0.544 -64.665
   4.000    0.124 170.477    4.942  32.575    0.063  40.495    0.502 -72.348
   4.500    0.144 145.502    4.422  22.064    0.073  34.083    0.458 -80.649
   5.000    0.174 124.418    3.975  11.565    0.082  27.145    0.407 -88.991
   5.500    0.216 106.035    3.573   0.736    0.089  19.047    0.343 -97.218
   6.000    0.255  95.748    3.285  -8.885    0.101  12.508    0.300 -107.207
   6.500    0.296  82.981    2.967 -18.860    0.107   5.151    0.238 -115.447
   7.000    0.276  73.774    2.686 -23.824    0.114   9.382    0.247 -112.749
   7.500    0.369  69.971    2.587 -36.703    0.134  -5.638    0.171 -142.746
   8.000    0.435  61.339    2.408 -47.858    0.145 -16.253    0.120 -177.428
   8.500    0.503  51.471    2.188 -59.802    0.151 -28.732    0.098 119.315
   9.000    0.554  42.566    1.985 -70.273    0.154 -38.678    0.138  77.906
   9.500    0.594  33.316    1.771 -80.556    0.151 -48.697    0.198  51.038
  10.000    0.647  26.771    1.631 -91.699    0.159 -58.950    0.278  39.176
  10.500    0.688  18.594    1.460 -102.487    0.159 -69.549    0.349  26.248
  11.000    0.727   9.934    1.284 -113.731    0.155 -82.747    0.428  13.701
  11.500    0.748   1.262    1.105 -124.301    0.145 -94.543    0.495   2.209
  12.000    0.766  -7.305    0.934 -134.940    0.134 -107.946    0.559  -9.044
!     DEEMBEDDED NOISE DATA
!FREQUENCY    FMIN    GAMMA OPT        Rn
!  (GHz)      (dB)    Mag    Ang   (NORMALIZED)
