! Filename: 112bfg410.001
! BFG410W Field B1
! V1=8.917E-001V,V2=1.000E+000V, I1=2.041E-004A, I2=1.199E-002A
# GHz   S   MA   R 50
!                S11              S21              S12              S22
!Freq(GHz)  Mag     Ang      Mag     Ang      Mag     Ang      Mag     Ang 
   0.040    0.556  -3.816   21.724 176.350    0.001  72.469    0.941  -0.951
   0.100    0.561  -9.931   21.433 171.111    0.003  85.578    0.943  -4.210
   0.200    0.545 -19.765   20.655 161.579    0.007  79.250    0.922  -9.752
   0.300    0.527 -28.499   20.110 153.553    0.009  75.905    0.903 -14.285
   0.400    0.501 -36.874   19.226 145.487    0.012  71.990    0.874 -18.625
   0.500    0.473 -45.652   18.200 138.158    0.015  68.835    0.841 -22.100
   0.600    0.446 -53.023   17.178 131.535    0.017  66.224    0.812 -25.375
   0.700    0.419 -60.103   16.099 125.369    0.019  63.823    0.780 -28.388
   0.800    0.393 -66.793   15.133 119.734    0.021  62.012    0.751 -30.858
   0.900    0.368 -72.809   14.237 114.517    0.022  60.573    0.725 -33.209
   1.000    0.345 -78.611   13.365 109.763    0.024  59.287    0.700 -35.275
   1.100    0.325 -84.082   12.588 105.368    0.026  58.176    0.678 -37.147
   1.200    0.306 -89.452   11.868 101.166    0.027  57.270    0.658 -38.988
   1.300    0.290 -94.543   11.203  97.296    0.029  56.439    0.638 -40.623
   1.400    0.276 -99.504   10.619  93.694    0.030  55.723    0.621 -42.147
   1.500    0.262 -104.634   10.066  90.180    0.032  55.052    0.606 -43.656
   1.600    0.249 -109.535    9.571  86.881    0.033  54.436    0.592 -45.128
   1.700    0.238 -114.425    9.114  83.695    0.035  53.792    0.579 -46.591
   1.800    0.228 -119.230    8.688  80.667    0.037  53.108    0.566 -48.031
   1.900    0.219 -123.879    8.304  77.742    0.038  52.440    0.555 -49.520
   2.000    0.211 -128.692    7.944  74.881    0.040  51.792    0.544 -50.990
   2.200    0.198 -138.443    7.313  69.426    0.043  50.366    0.523 -53.921
   2.400    0.188 -148.236    6.767  64.212    0.047  48.910    0.503 -56.853
   2.600    0.182 -158.167    6.288  59.117    0.050  47.190    0.484 -59.890
   2.800    0.179 -167.884    5.870  54.295    0.054  45.418    0.466 -62.906
   3.000    0.178 -177.685    5.502  49.563    0.058  43.475    0.448 -66.050
   3.500    0.188 159.536    4.747  38.183    0.068  38.037    0.403 -74.131
   4.000    0.210 139.462    4.159  27.165    0.078  31.938    0.356 -82.597
   4.500    0.243 123.399    3.694  16.457    0.089  25.003    0.308 -92.053
   5.000    0.280 108.757    3.295   5.798    0.098  17.682    0.255 -102.036
   5.500    0.322  95.115    2.940  -4.997    0.105   9.504    0.191 -112.604
   6.000    0.361  85.695    2.682 -14.755    0.117   2.438    0.148 -127.968
   6.500    0.400  74.869    2.407 -24.742    0.123  -4.915    0.092 -146.055
   7.000    0.387  66.894    2.185 -30.055    0.130  -2.539    0.087 -134.886
   7.500    0.469  61.120    2.067 -42.744    0.148 -16.914    0.073 138.519
   8.000    0.525  52.901    1.905 -53.569    0.157 -27.046    0.122  94.419
   8.500    0.578  43.814    1.717 -64.917    0.160 -38.685    0.192  65.790
   9.000    0.618  35.550    1.552 -74.867    0.162 -48.112    0.251  50.381
   9.500    0.649  27.297    1.385 -84.587    0.157 -57.371    0.311  36.530
  10.000    0.690  20.976    1.269 -95.162    0.164 -67.029    0.380  27.882
  10.500    0.722  13.510    1.138 -105.264    0.162 -76.907    0.440  17.881
  11.000    0.753   5.708    1.006 -115.883    0.158 -88.953    0.505   7.792
  11.500    0.769  -1.910    0.873 -125.887    0.148 -99.604    0.561  -1.959
  12.000    0.782  -9.793    0.746 -136.075    0.137 -111.954    0.614 -11.759
!     DEEMBEDDED NOISE DATA
!FREQUENCY    FMIN    GAMMA OPT        Rn
!  (GHz)      (dB)    Mag    Ang   (NORMALIZED)
