! BFG403W 
! V1=8.273E-001V,V2=2.000E+000V, I1=6.688E-006A, I2=5.000E-004A
# GHz   S   MA   R 50
!                S11              S21              S12              S22
!Freq(GHz)  Mag     Ang      Mag     Ang      Mag     Ang      Mag     Ang 
   0.040    0.976  -0.774    1.715 178.379    0.000  45.199    0.998  -0.576
   0.100    0.978  -2.085    1.688 177.338    0.002  93.487    0.999  -1.753
   0.200    0.978  -4.201    1.685 174.701    0.003  87.431    0.997  -3.656
   0.300    0.977  -6.229    1.687 173.620    0.005  86.315    0.997  -5.407
   0.400    0.977  -7.934    1.696 169.904    0.006  83.911    0.995  -7.303
   0.500    0.975 -10.632    1.702 167.195    0.007  80.649    0.993  -9.068
   0.600    0.974 -12.588    1.695 164.616    0.009  79.965    0.992 -10.852
   0.700    0.973 -14.644    1.688 162.100    0.010  78.418    0.990 -12.731
   0.800    0.972 -16.830    1.688 159.675    0.012  76.889    0.987 -14.498
   0.900    0.970 -18.865    1.691 157.317    0.013  75.250    0.984 -16.336
   1.000    0.968 -21.028    1.694 154.664    0.015  73.754    0.980 -18.151
   1.100    0.966 -23.092    1.695 152.217    0.016  72.140    0.977 -19.911
   1.200    0.963 -25.226    1.697 149.656    0.017  70.905    0.974 -21.756
   1.300    0.961 -27.362    1.700 147.643    0.019  69.291    0.970 -23.557
   1.400    0.959 -29.435    1.699 144.661    0.020  67.650    0.966 -25.341
   1.500    0.955 -31.636    1.706 142.309    0.022  66.113    0.962 -27.139
   1.600    0.952 -33.795    1.708 139.595    0.023  64.617    0.957 -28.924
   1.700    0.949 -35.973    1.710 137.056    0.024  62.968    0.952 -30.708
   1.800    0.944 -38.145    1.706 134.402    0.025  61.394    0.946 -32.539
   1.900    0.941 -40.258    1.703 131.951    0.027  60.059    0.941 -34.341
   2.000    0.937 -42.383    1.699 129.373    0.028  58.583    0.935 -36.132
   2.200    0.928 -46.747    1.698 124.272    0.030  55.770    0.923 -39.733
   2.400    0.916 -51.170    1.699 119.193    0.032  53.011    0.909 -43.311
   2.600    0.906 -55.584    1.695 114.167    0.035  50.408    0.895 -46.907
   2.800    0.893 -60.048    1.687 109.056    0.037  47.732    0.879 -50.474
   3.000    0.881 -64.576    1.686 103.972    0.039  45.196    0.862 -54.090
   3.500    0.841 -76.161    1.671  90.999    0.043  39.359    0.817 -63.105
   4.000    0.800 -88.216    1.647  77.961    0.047  34.335    0.767 -72.226
   4.500    0.754 -101.006    1.633  65.024    0.051  29.967    0.713 -81.479
   5.000    0.700 -114.769    1.606  51.469    0.055  24.047    0.651 -91.013
   5.500    0.644 -129.800    1.564  37.409    0.058  16.987    0.583 -101.164
   6.000    0.604 -144.031    1.522  25.186    0.066  20.885    0.534 -110.465
   6.500    0.567 -161.959    1.484  10.872    0.079  11.000    0.470 -123.972
   7.000    0.475 -174.964    1.301   0.736    0.060  27.458    0.385 -125.968
   7.500    0.512 164.767    1.355 -13.057    0.101   9.434    0.364 -147.299
   8.000    0.497 143.407    1.270 -27.730    0.108  -3.262    0.294 -167.991
   8.500    0.508 122.519    1.185 -41.773    0.118 -15.881    0.240 167.373
   9.000    0.519 104.178    1.092 -54.761    0.127 -24.991    0.213 138.900
   9.500    0.556  85.325    0.998 -67.568    0.135 -38.053    0.227 108.732
  10.000    0.586  70.014    0.924 -81.133    0.138 -51.146    0.277  80.575
  10.500    0.624  54.033    0.815 -95.642    0.135 -66.858    0.339  56.703
  11.000    0.642  40.562    0.700 -109.039    0.124 -82.197    0.406  37.273
  11.500    0.662  29.812    0.602 -118.798    0.114 -87.885    0.454  23.286
  12.000    0.694  17.712    0.528 -132.941    0.110 -107.802    0.536  10.392
!     DEEMBEDDED NOISE DATA
!FREQUENCY    FMIN    GAMMA OPT        Rn
!  (GHz)      (dB)    Mag    Ang   (NORMALIZED)
