! Filename: 310bfg425.001
! BFG425W Field C1
! V1=8.398E-001V,V2=3.000E+000V, I1=1.270E-004A, I2=1.002E-002A
# GHz   S   MA   R 50
!                S11              S21              S12              S22
!Freq(GHz)  Mag     Ang      Mag     Ang      Mag     Ang      Mag     Ang 
   0.040    0.636  -4.879   24.495 174.676    0.002  67.751    0.964  -2.509
   0.100    0.643 -12.270   23.892 168.913    0.005  80.224    0.959  -6.613
   0.200    0.624 -24.446   23.111 158.961    0.010  75.980    0.935 -13.178
   0.300    0.596 -35.918   21.997 149.979    0.014  71.753    0.899 -19.099
   0.400    0.563 -46.855   20.734 141.372    0.018  66.727    0.857 -24.303
   0.500    0.527 -57.102   19.411 133.229    0.021  63.110    0.813 -28.871
   0.600    0.495 -66.419   18.030 126.323    0.024  60.094    0.769 -32.749
   0.700    0.465 -75.005   16.753 120.199    0.026  57.302    0.728 -36.056
   0.800    0.435 -83.221   15.568 114.394    0.029  55.443    0.691 -38.937
   0.900    0.409 -90.694   14.493 109.192    0.031  53.723    0.658 -41.510
   1.000    0.386 -97.913   13.500 104.413    0.033  52.380    0.628 -43.806
   1.100    0.367 -104.536   12.618 100.009    0.035  51.131    0.601 -45.888
   1.200    0.350 -110.953   11.823  95.884    0.037  50.136    0.577 -47.841
   1.300    0.335 -116.981   11.100  92.068    0.038  49.235    0.555 -49.618
   1.400    0.323 -122.909   10.460  88.461    0.040  48.478    0.535 -51.273
   1.500    0.312 -128.750    9.878  85.047    0.042  47.753    0.517 -52.854
   1.600    0.303 -134.515    9.353  81.748    0.044  47.060    0.501 -54.454
   1.700    0.295 -139.789    8.870  78.630    0.046  46.350    0.486 -56.008
   1.800    0.289 -144.976    8.434  75.617    0.048  45.664    0.472 -57.528
   1.900    0.283 -150.011    8.035  72.718    0.049  44.964    0.459 -59.127
   2.000    0.280 -154.991    7.670  69.875    0.051  44.215    0.446 -60.698
   2.200    0.274 -164.550    7.024  64.462    0.055  42.673    0.423 -63.848
   2.400    0.272 -173.839    6.473  59.284    0.059  41.088    0.401 -67.008
   2.600    0.273 177.487    5.993  54.224    0.063  39.322    0.380 -70.297
   2.800    0.276 169.249    5.576  49.392    0.068  37.434    0.360 -73.589
   3.000    0.282 161.426    5.210  44.656    0.072  35.430    0.341 -77.085
   3.500    0.303 143.676    4.464  33.250    0.083  29.805    0.292 -86.279
   4.000    0.332 128.045    3.883  22.173    0.094  23.499    0.242 -96.575
   4.500    0.367 114.602    3.425  11.464    0.105  16.644    0.193 -108.926
   5.000    0.408 101.832    3.036   0.543    0.114   8.657    0.137 -126.598
   5.500    0.440  89.895    2.684  -9.448    0.121   2.003    0.088 -147.029
   6.000    0.484  79.205    2.401 -20.108    0.128  -6.645    0.061 155.825
   6.500    0.494  72.136    2.203 -27.357    0.142  -9.193    0.069 135.429
   7.000    0.532  64.470    2.035 -36.795    0.155 -16.569    0.112 106.629
   7.500    0.593  54.716    1.834 -48.618    0.158 -28.671    0.188  78.254
   8.000    0.629  47.089    1.678 -58.177    0.165 -36.446    0.245  66.315
   8.500    0.669  38.917    1.518 -68.364    0.169 -45.908    0.310  54.273
   9.000    0.697  30.733    1.356 -77.572    0.167 -54.187    0.364  42.759
   9.500    0.725  23.299    1.226 -86.304    0.167 -62.601    0.404  33.794
  10.000    0.755  16.357    1.119 -96.360    0.168 -72.126    0.465  26.834
  10.500    0.777   9.266    1.007 -106.052    0.166 -81.294    0.520  18.689
  11.000    0.794   1.993    0.890 -115.082    0.160 -91.099    0.563   9.565
  11.500    0.808  -5.219    0.794 -124.597    0.154 -101.094    0.605   2.251
  12.000    0.814 -12.445    0.690 -133.823    0.144 -111.673    0.646  -6.159
!     DEEMBEDDED NOISE DATA
!FREQUENCY    FMIN    GAMMA OPT        Rn
!  (GHz)      (dB)    Mag    Ang   (NORMALIZED)
