! Filename: 19bfg410.001
! BFG410W Field B1
! V1=8.813E-001V,V2=1.000E+000V, I1=1.480E-004A, I2=8.990E-003A
# GHz   S   MA   R 50
!                S11              S21              S12              S22
!Freq(GHz)  Mag     Ang      Mag     Ang      Mag     Ang      Mag     Ang 
   0.040    0.640  -3.373   19.213 176.679    0.001  75.573    0.958  -0.992
   0.100    0.644  -8.127   18.958 172.181    0.003  86.558    0.959  -3.947
   0.200    0.632 -15.936   18.471 163.890    0.007  80.395    0.941  -9.001
   0.300    0.616 -23.542   18.063 156.714    0.010  77.337    0.927 -13.190
   0.400    0.593 -30.653   17.465 149.310    0.013  73.370    0.903 -17.432
   0.500    0.567 -38.078   16.753 142.612    0.015  70.032    0.875 -20.922
   0.600    0.541 -44.642   16.011 136.291    0.018  67.257    0.851 -24.316
   0.700    0.514 -50.805   15.197 130.386    0.020  64.334    0.821 -27.506
   0.800    0.488 -56.882   14.449 124.852    0.022  62.316    0.793 -30.197
   0.900    0.461 -62.271   13.725 119.651    0.024  60.348    0.768 -32.809
   1.000    0.435 -67.496   13.000 114.816    0.026  58.714    0.742 -35.134
   1.100    0.412 -72.500   12.343 110.364    0.027  57.298    0.719 -37.251
   1.200    0.390 -77.285   11.716 106.052    0.029  56.066    0.698 -39.319
   1.300    0.371 -81.860   11.126 102.070    0.030  54.948    0.676 -41.156
   1.400    0.352 -86.286   10.599  98.324    0.032  53.981    0.658 -42.868
   1.500    0.334 -90.705   10.095  94.666    0.034  53.040    0.640 -44.534
   1.600    0.317 -95.059    9.633  91.255    0.035  52.312    0.624 -46.149
   1.700    0.302 -99.323    9.205  87.939    0.037  51.444    0.610 -47.734
   1.800    0.288 -103.357    8.806  84.776    0.038  50.772    0.595 -49.268
   1.900    0.275 -107.458    8.437  81.749    0.040  50.022    0.582 -50.822
   2.000    0.264 -111.680    8.094  78.776    0.041  49.292    0.570 -52.363
   2.200    0.243 -120.151    7.482  73.105    0.044  47.831    0.546 -55.385
   2.400    0.225 -128.750    6.945  67.712    0.048  46.351    0.524 -58.372
   2.600    0.211 -137.740    6.472  62.480    0.051  44.748    0.503 -61.437
   2.800    0.200 -146.982    6.057  57.506    0.055  43.032    0.483 -64.460
   3.000    0.192 -156.405    5.691  52.646    0.058  41.197    0.464 -67.607
   3.500    0.185 179.181    4.929  40.995    0.068  36.094    0.416 -75.659
   4.000    0.195 155.823    4.332  29.746    0.078  30.258    0.368 -84.125
   4.500    0.221 135.890    3.857  18.854    0.088  23.575    0.319 -93.583
   5.000    0.254 118.440    3.448   8.045    0.097  16.479    0.264 -103.604
   5.500    0.294 102.443    3.081  -2.927    0.104   8.339    0.200 -114.432
   6.000    0.334  91.920    2.814 -12.794    0.116   1.520    0.157 -129.653
   6.500    0.373  79.856    2.529 -22.892    0.122  -5.743    0.100 -147.566
   7.000    0.357  71.383    2.293 -28.154    0.128  -2.848    0.095 -135.945
   7.500    0.444  65.176    2.177 -41.026    0.147 -17.252    0.079 143.695
   8.000    0.503  56.491    2.008 -52.012    0.156 -27.430    0.124  98.514
   8.500    0.559  46.849    1.811 -63.530    0.159 -39.160    0.192  68.146
   9.000    0.602  38.201    1.637 -73.620    0.161 -48.643    0.251  51.967
   9.500    0.634  29.570    1.458 -83.460    0.157 -57.996    0.310  37.550
  10.000    0.679  23.061    1.338 -94.153    0.163 -67.657    0.380  28.599
  10.500    0.713  15.325    1.198 -104.404    0.162 -77.635    0.440  18.376
  11.000    0.745   7.226    1.056 -115.143    0.157 -89.806    0.506   8.057
  11.500    0.762  -0.655    0.915 -125.228    0.147 -100.539    0.561  -1.851
  12.000    0.775  -8.722    0.780 -135.487    0.136 -113.033    0.614 -11.755
!     DEEMBEDDED NOISE DATA
!FREQUENCY    FMIN    GAMMA OPT        Rn
!  (GHz)      (dB)    Mag    Ang   (NORMALIZED)
