! Filename: 3_670BFG480.001
! Title: BFG480W
! Bias: Vce=3.6V; Ic=70mA
! Company: Philips Semiconductors NL
! User: Quality&Reliability T&D
! Measure time: 10 Nov 1999 / 12:00:21
#  MHz  S  MA  R 50
! Freq       S11             S21             S12             S22    :
  100  0.37186 -147.0 51.67950 148.51 0.006805 68.729  0.79393 -40.03
  200  0.52443 -154.4 40.00689 127.70 0.010755 59.230  0.64416 -70.10
  300  0.59430 -161.5 30.91653 115.12 0.013057 56.859  0.54209 -90.34
  400  0.62962 -166.5 24.68817 106.75 0.015023 57.358  0.48434 -104.6
  500  0.65024 -170.3 20.40265 100.69 0.016778 59.012  0.45033 -115.1
  600  0.66318 -173.3 17.25663 96.000 0.018588 60.931  0.42958 -123.0
  700  0.67196 -175.9 14.92947 92.249 0.020508 62.858  0.41567 -129.2
  800  0.67945 -178.2 13.10691 89.016 0.022533 64.959  0.40653 -134.4
  900  0.68772 179.73 11.64724 86.269 0.024611 66.859  0.40135 -138.8
 1000  0.69466 177.82 10.47762 83.686 0.026844 68.203  0.39973 -142.8
 1200  0.70986 174.56  8.65538 78.840 0.031182 70.263  0.40480 -149.3
 1400  0.72082 172.11  7.33082 74.112 0.035647 71.584  0.41389 -154.1
 1600  0.72685 169.66  6.39497 70.244 0.040742 72.779  0.41964 -157.8
 1800  0.72778 167.01  5.68725 66.861 0.046272 73.643  0.42629 -161.6
 2000  0.73728 164.69  5.03461 63.920 0.050905 74.465  0.43698 -166.1
 2200  0.75652 162.48  4.49343 60.418 0.055352 74.613  0.45579 -169.9
 2400  0.76823 160.70  4.02975 56.746 0.060254 74.233  0.47983 -172.3
 2600  0.76872 159.02  3.68545 53.425 0.066230 73.713  0.49858 -173.9
 2800  0.76461 156.76  3.41799 49.037 0.070948 72.451  0.50722 -175.8
 3000  0.76949 154.07  3.17355 45.642 0.076320 71.781  0.51457 -178.7
