! Filename: 215bfg410.001
! BFG410W Field B1
! V1=8.884E-001V,V2=2.000E+000V, I1=2.460E-004A, I2=1.500E-002A
# GHz   S   MA   R 50
!                S11              S21              S12              S22
!Freq(GHz)  Mag     Ang      Mag     Ang      Mag     Ang      Mag     Ang 
   0.040    0.517  -3.531   24.303 175.815    0.001  74.234    0.962  -0.638
   0.100    0.521  -9.224   23.983 170.763    0.003  85.871    0.965  -3.601
   0.200    0.506 -18.347   23.278 161.546    0.005  80.650    0.948  -8.417
   0.300    0.488 -26.890   22.469 153.370    0.007  77.796    0.930 -12.359
   0.400    0.463 -34.962   21.415 145.285    0.009  74.442    0.904 -16.136
   0.500    0.436 -42.819   20.235 137.935    0.011  70.932    0.874 -19.095
   0.600    0.410 -49.766   19.044 131.338    0.013  69.261    0.848 -21.870
   0.700    0.383 -56.279   17.835 125.232    0.014  67.222    0.821 -24.423
   0.800    0.358 -62.308   16.722 119.629    0.016  66.053    0.796 -26.504
   0.900    0.335 -67.750   15.692 114.515    0.017  64.848    0.774 -28.522
   1.000    0.312 -72.932   14.715 109.814    0.019  63.862    0.752 -30.320
   1.100    0.293 -77.800   13.841 105.499    0.020  63.083    0.734 -31.959
   1.200    0.275 -82.566   13.040 101.386    0.021  62.515    0.717 -33.600
   1.300    0.259 -87.078   12.299  97.615    0.023  61.896    0.701 -35.057
   1.400    0.245 -91.482   11.645  94.081    0.024  61.417    0.687 -36.458
   1.500    0.231 -96.079   11.036  90.654    0.025  60.874    0.674 -37.840
   1.600    0.218 -100.492   10.487  87.439    0.027  60.407    0.663 -39.229
   1.700    0.206 -104.862    9.981  84.347    0.028  59.940    0.652 -40.621
   1.800    0.196 -109.209    9.516  81.376    0.030  59.335    0.642 -41.993
   1.900    0.187 -113.434    9.095  78.535    0.031  58.848    0.632 -43.418
   2.000    0.179 -117.802    8.707  75.745    0.033  58.271    0.623 -44.836
   2.200    0.164 -127.026    8.014  70.432    0.036  57.093    0.606 -47.672
   2.400    0.152 -136.585    7.416  65.353    0.039  55.742    0.589 -50.518
   2.600    0.144 -146.706    6.895  60.475    0.042  54.182    0.573 -53.470
   2.800    0.138 -156.936    6.441  55.718    0.046  52.422    0.557 -56.391
   3.000    0.135 -167.588    6.042  51.115    0.049  50.643    0.541 -59.439
   3.500    0.140 166.499    5.225  40.013    0.059  45.409    0.501 -67.184
   4.000    0.160 143.885    4.590  29.226    0.068  39.420    0.457 -75.201
   4.500    0.191 126.336    4.090  18.721    0.078  32.630    0.411 -83.899
   5.000    0.229 111.045    3.662   8.250    0.088  25.355    0.359 -92.689
   5.500    0.272  96.846    3.280  -2.496    0.095  17.199    0.295 -101.425
   6.000    0.312  87.784    3.003 -12.126    0.107  10.192    0.250 -112.442
   6.500    0.353  76.791    2.705 -22.049    0.113   2.767    0.189 -122.015
   7.000    0.336  68.534    2.453 -27.137    0.121   5.970    0.193 -118.449
   7.500    0.423  63.852    2.341 -39.910    0.140  -8.905    0.124 -157.184
   8.000    0.483  55.842    2.168 -50.867    0.150 -19.420    0.096 153.840
   8.500    0.545  46.626    1.963 -62.514    0.155 -31.546    0.121  93.662
   9.000    0.591  38.254    1.777 -72.724    0.157 -41.347    0.175  65.781
   9.500    0.626  29.640    1.586 -82.769    0.154 -51.045    0.237  45.555
  10.000    0.673  23.341    1.457 -93.623    0.161 -61.080    0.313  35.186
  10.500    0.710  15.597    1.306 -104.094    0.160 -71.415    0.381  23.480
  11.000    0.745   7.452    1.151 -115.018    0.157 -84.163    0.455  11.874
  11.500    0.763  -0.673    0.994 -125.400    0.146 -95.422    0.519   1.081
  12.000    0.778  -8.797    0.845 -135.772    0.136 -108.409    0.579  -9.645
!     DEEMBEDDED NOISE DATA
!FREQUENCY    FMIN    GAMMA OPT        Rn
!  (GHz)      (dB)    Mag    Ang   (NORMALIZED)
