! Filename: 41bfg410.001
! BFG410W Field B1
! V1=8.106E-001V,V2=4.000E+000V, I1=9.941E-006A, I2=1.000E-003A
# GHz   S   MA   R 50
!                S11              S21              S12              S22
!Freq(GHz)  Mag     Ang      Mag     Ang      Mag     Ang      Mag     Ang 
   0.040    0.959  -1.053    3.402 177.992    0.001  43.165    0.998  -0.665
   0.100    0.963  -3.260    3.327 176.413    0.003  81.484    0.998  -2.036
   0.200    0.962  -6.488    3.308 172.948    0.006  81.578    0.993  -4.381
   0.300    0.960  -9.885    3.316 170.744    0.008  81.184    0.993  -6.398
   0.400    0.958 -12.761    3.334 166.414    0.011  78.964    0.991  -8.694
   0.500    0.954 -16.385    3.336 163.024    0.014  76.151    0.987 -10.747
   0.600    0.950 -19.591    3.314 159.674    0.017  74.179    0.985 -12.850
   0.700    0.945 -22.776    3.285 156.364    0.019  71.753    0.980 -15.064
   0.800    0.941 -26.131    3.273 153.185    0.022  69.649    0.975 -17.102
   0.900    0.935 -29.261    3.268 149.941    0.025  67.492    0.970 -19.266
   1.000    0.928 -32.625    3.258 146.527    0.027  65.179    0.964 -21.382
   1.100    0.921 -35.824    3.244 143.345    0.030  62.996    0.958 -23.405
   1.200    0.913 -39.049    3.229 140.034    0.032  60.916    0.952 -25.511
   1.300    0.906 -42.283    3.210 136.993    0.034  58.701    0.945 -27.558
   1.400    0.897 -45.518    3.199 133.664    0.036  56.520    0.937 -29.566
   1.500    0.887 -48.852    3.186 130.493    0.039  54.370    0.929 -31.584
   1.600    0.877 -52.226    3.172 127.190    0.040  52.300    0.921 -33.556
   1.700    0.867 -55.400    3.156 124.024    0.042  50.227    0.913 -35.555
   1.800    0.857 -58.674    3.127 120.733    0.044  48.137    0.904 -37.543
   1.900    0.847 -61.823    3.097 117.731    0.046  46.167    0.895 -39.500
   2.000    0.835 -64.990    3.063 114.612    0.048  44.283    0.886 -41.457
   2.200    0.811 -71.513    3.011 108.371    0.051  40.528    0.867 -45.281
   2.400    0.787 -78.094    2.961 102.237    0.054  36.928    0.847 -49.068
   2.600    0.762 -84.511    2.898  96.278    0.056  33.585    0.826 -52.814
   2.800    0.736 -91.148    2.835  90.275    0.058  30.392    0.805 -56.461
   3.000    0.711 -97.700    2.773  84.426    0.060  27.371    0.783 -60.155
   3.500    0.645 -114.902    2.623  69.813    0.064  20.803    0.728 -69.123
   4.000    0.583 -132.829    2.466  55.427    0.067  15.161    0.671 -78.015
   4.500    0.533 -151.875    2.318  41.636    0.071  10.576    0.615 -87.091
   5.000    0.492 -172.152    2.166  27.965    0.075   5.820    0.554 -96.372
   5.500    0.463 166.330    2.000  14.040    0.077  -0.682    0.485 -106.098
   6.000    0.460 147.137    1.863   1.620    0.085  -2.144    0.433 -116.165
   6.500    0.459 127.254    1.698 -10.882    0.087  -6.749    0.366 -126.653
   7.000    0.434 114.618    1.529 -18.207    0.090   8.650    0.337 -128.174
   7.500    0.509  98.035    1.476 -32.390    0.115  -8.758    0.284 -151.637
   8.000    0.555  83.049    1.372 -44.863    0.127 -19.270    0.240 -174.867
   8.500    0.599  68.900    1.248 -57.980    0.134 -32.321    0.194 151.827
   9.000    0.636  56.739    1.130 -69.728    0.137 -42.009    0.187 118.528
   9.500    0.663  45.322    0.997 -80.791    0.133 -52.089    0.209  86.462
  10.000    0.705  36.348    0.924 -92.525    0.143 -62.087    0.279  64.077
  10.500    0.735  26.707    0.824 -104.112    0.143 -72.860    0.345  45.843
  11.000    0.761  17.376    0.722 -116.457    0.140 -87.111    0.422  29.346
  11.500    0.775   8.284    0.618 -128.008    0.128 -99.878    0.493  15.300
  12.000    0.787  -0.469    0.524 -139.715    0.116 -114.745    0.563   1.940
!     DEEMBEDDED NOISE DATA
!FREQUENCY    FMIN    GAMMA OPT        Rn
!  (GHz)      (dB)    Mag    Ang   (NORMALIZED)
