! Filename: 4_4110BFG480.001
! Title: BFG480W
! Bias: Vce=4.4V; Ic=110mA
! Company: Philips Semiconductors NL
! User: Quality&Reliability T&D
! Measure time: 10 Nov 1999 / 12:07:16
#  MHz  S  MA  R 50
! Freq       S11             S21             S12             S22    :
  100  0.44383 -156.2 53.79206 146.48 0.006032 68.808  0.74773 -42.03
  200  0.57132 -161.1 40.71549 125.21 0.009342 60.357  0.59517 -73.06
  300  0.62751 -166.6 30.98084 112.93 0.011554 59.705  0.49800 -93.24
  400  0.65557 -170.6 24.54131 104.87 0.013454 61.520  0.44520 -107.2
  500  0.67196 -173.7 20.17859 99.044 0.015411 63.904  0.41588 -117.3
  600  0.68249 -176.3 17.02047 94.551 0.017352 66.002  0.39826 -124.7
  700  0.68976 -178.5 14.69729 90.940 0.019442 67.972  0.38692 -130.5
  800  0.69619 179.50 12.88973 87.816 0.021598 69.625  0.37976 -135.4
  900  0.70376 177.62 11.44683 85.145 0.023781 71.476  0.37614 -139.6
 1000  0.71013 175.90 10.29051 82.612 0.026206 72.559  0.37615 -143.4
 1200  0.72395 172.93  8.49036 77.869 0.030840 74.092  0.38357 -149.4
 1400  0.73374 170.66  7.18604 73.215 0.035397 75.004  0.39435 -153.9
 1600  0.73840 168.32  6.26619 69.361 0.040648 75.689  0.40115 -157.3
 1800  0.73837 165.74  5.56787 65.967 0.046384 76.192  0.40921 -161.0
 2000  0.74848 163.55  4.92951 63.047 0.051019 76.857  0.42089 -165.4
 2200  0.76847 161.43  4.39976 59.539 0.055716 76.635  0.44110 -169.1
 2400  0.77824 159.70  3.94348 55.873 0.060593 76.099  0.46606 -171.4
 2600  0.77805 158.06  3.60382 52.520 0.066745 75.479  0.48610 -172.9
 2800  0.77346 155.79  3.34202 48.139 0.071530 74.037  0.49612 -174.6
 3000  0.77832 153.12  3.10295 44.726 0.076911 73.246  0.50414 -177.5
