! Filename: 4_420BFG480.001
! Title: BFG480W
! Bias: Vce=4.4V; Ic=20mA
! Company: Philips Semiconductors NL
! User: Quality&Reliability T&D
! Measure time: 10 Nov 1999 / 12:05:26
#  MHz  S  MA  R 50
! Freq       S11             S21             S12             S22    :
  100  0.40861 -49.48 31.96725 156.72 0.010748 60.977  0.84166 -27.52
  200  0.46087 -89.39 28.14989 138.60 0.017907 52.398  0.73312 -50.64
  300  0.51461 -115.5 24.05809 125.09 0.022244 45.702  0.63360 -68.01
  400  0.55670 -130.5 20.17636 115.34 0.024745 41.722  0.56394 -81.35
  500  0.58490 -141.5 17.28673 107.80 0.026332 39.778  0.51542 -91.91
  600  0.60269 -149.2 14.94185 101.84 0.027383 39.072  0.48204 -100.2
  700  0.61565 -155.1 13.08707 97.044 0.028180 39.568  0.45849 -107.0
  800  0.62557 -159.8 11.58426 92.909 0.028984 40.519  0.44173 -112.8
  900  0.63507 -163.6 10.32330 89.412 0.029729 42.220  0.43044 -117.9
 1000  0.64524 -167.2  9.32890 86.219 0.030706 44.024  0.42387 -122.6
 1200  0.66521 -172.9  7.74899 80.278 0.032595 47.711  0.42210 -130.7
 1400  0.68193 -177.1  6.59438 74.690 0.034727 51.476  0.42877 -137.1
 1600  0.69214 179.48  5.74628 70.212 0.037852 55.516  0.43566 -142.0
 1800  0.69582 175.99  5.10212 66.411 0.041664 59.261  0.44190 -146.8
 2000  0.70685 172.85  4.51258 62.817 0.045012 62.360  0.45093 -152.1
 2200  0.72789 169.85  4.02725 58.748 0.048488 64.661  0.46951 -157.1
 2400  0.74391 167.39  3.61146 54.581 0.052664 66.214  0.49589 -160.9
 2600  0.74968 165.26  3.29439 50.901 0.058032 67.364  0.51868 -163.4
 2800  0.74844 162.74  3.05981 46.267 0.062616 67.419  0.53104 -165.9
 3000  0.75439 159.78  2.83667 42.572 0.067710 67.851  0.54022 -169.3
