! Filename: 111bfg410.001
! BFG410W Field B1
! V1=8.886E-001V,V2=1.000E+000V, I1=1.854E-004A, I2=1.101E-002A
# GHz   S   MA   R 50
!                S11              S21              S12              S22
!Freq(GHz)  Mag     Ang      Mag     Ang      Mag     Ang      Mag     Ang 
   0.040    0.584  -3.868   21.066 176.463    0.001  75.684    0.947  -0.944
   0.100    0.586  -9.255   20.790 171.461    0.003  86.252    0.949  -4.142
   0.200    0.572 -18.338   20.126 162.346    0.007  79.837    0.929  -9.519
   0.300    0.555 -26.712   19.603 154.538    0.009  76.181    0.911 -13.929
   0.400    0.529 -34.581   18.810 146.668    0.012  72.875    0.885 -18.260
   0.500    0.501 -42.979   17.884 139.559    0.015  69.173    0.853 -21.747
   0.600    0.475 -50.051   16.941 133.029    0.017  66.584    0.825 -25.075
   0.700    0.447 -56.748   15.944 126.943    0.019  63.944    0.793 -28.146
   0.800    0.422 -63.170   15.043 121.310    0.021  62.169    0.765 -30.690
   0.900    0.395 -68.945   14.188 116.093    0.023  60.537    0.739 -33.116
   1.000    0.372 -74.607   13.356 111.308    0.024  59.156    0.713 -35.265
   1.100    0.351 -79.852   12.607 106.889    0.026  57.923    0.691 -37.210
   1.200    0.331 -84.934   11.909 102.648    0.028  56.969    0.670 -39.119
   1.300    0.313 -89.855   11.258  98.740    0.029  56.063    0.650 -40.808
   1.400    0.297 -94.519   10.687  95.088    0.031  55.254    0.633 -42.386
   1.500    0.281 -99.434   10.145  91.537    0.032  54.487    0.617 -43.934
   1.600    0.268 -104.150    9.655  88.214    0.034  53.812    0.602 -45.443
   1.700    0.255 -108.810    9.203  84.978    0.035  53.164    0.588 -46.946
   1.800    0.243 -113.261    8.783  81.893    0.037  52.515    0.575 -48.415
   1.900    0.233 -117.791    8.400  78.951    0.039  51.782    0.563 -49.910
   2.000    0.224 -122.355    8.041  76.063    0.040  51.140    0.552 -51.401
   2.200    0.208 -131.593    7.411  70.555    0.044  49.729    0.530 -54.345
   2.400    0.196 -141.104    6.864  65.271    0.047  48.286    0.510 -57.282
   2.600    0.187 -150.785    6.384  60.159    0.051  46.553    0.490 -60.325
   2.800    0.181 -160.662    5.963  55.285    0.054  44.812    0.472 -63.338
   3.000    0.178 -170.459    5.593  50.526    0.058  42.902    0.453 -66.482
   3.500    0.183 165.705    4.831  39.080    0.068  37.545    0.408 -74.532
   4.000    0.202 144.436    4.236  28.002    0.078  31.545    0.360 -83.000
   4.500    0.232 127.222    3.766  17.244    0.088  24.679    0.312 -92.436
   5.000    0.269 111.714    3.362   6.541    0.098  17.413    0.258 -102.428
   5.500    0.311  97.286    3.001  -4.298    0.105   9.245    0.194 -113.055
   6.000    0.350  87.575    2.739 -14.092    0.117   2.235    0.151 -128.340
   6.500    0.389  76.467    2.460 -24.102    0.122  -5.079    0.095 -146.258
   7.000    0.375  68.340    2.233 -29.385    0.130  -2.559    0.090 -134.903
   7.500    0.459  62.436    2.114 -42.132    0.147 -16.922    0.075 140.797
   8.000    0.517  54.085    1.950 -53.022    0.157 -27.098    0.122  95.960
   8.500    0.570  44.832    1.757 -64.422    0.160 -38.762    0.191  66.625
   9.000    0.613  36.470    1.588 -74.406    0.161 -48.257    0.251  50.909
   9.500    0.643  28.104    1.416 -84.182    0.157 -57.516    0.310  36.851
  10.000    0.686  21.729    1.298 -94.801    0.163 -67.174    0.380  28.096
  10.500    0.719  14.135    1.164 -104.957    0.162 -77.101    0.440  18.025
  11.000    0.750   6.213    1.028 -115.597    0.158 -89.209    0.505   7.857
  11.500    0.766  -1.523    0.891 -125.645    0.148 -99.843    0.561  -1.953
  12.000    0.779  -9.428    0.761 -135.858    0.137 -112.252    0.614 -11.780
!     DEEMBEDDED NOISE DATA
!FREQUENCY    FMIN    GAMMA OPT        Rn
!  (GHz)      (dB)    Mag    Ang   (NORMALIZED)
