! Filename: 26bfg403.001
! BFG403W Field A1
! V1=9.043E-001V,V2=2.000E+000V, I1=9.783E-005A, I2=5.990E-003A
# GHz   S   MA   R 50
!                S11              S21              S12              S22
!Freq(GHz)  Mag     Ang      Mag     Ang      Mag     Ang      Mag     Ang 
   0.040    0.782  -1.984   10.013 176.661    0.001  53.191    0.978  -0.404
   0.100    0.785  -4.505    9.872 174.037    0.001  91.467    0.982  -2.040
   0.200    0.778  -8.909    9.816 168.343    0.003  83.255    0.980  -4.514
   0.300    0.767 -13.057    9.727 162.658    0.004  80.496    0.976  -6.861
   0.400    0.754 -16.958    9.607 157.279    0.005  79.030    0.970  -9.120
   0.500    0.735 -21.726    9.430 151.645    0.007  74.509    0.963 -11.309
   0.600    0.716 -25.442    9.187 146.518    0.008  72.969    0.955 -13.409
   0.700    0.696 -29.016    8.916 141.602    0.009  70.870    0.946 -15.463
   0.800    0.673 -32.677    8.661 136.672    0.010  69.141    0.936 -17.431
   0.900    0.651 -35.919    8.405 132.057    0.011  67.470    0.927 -19.355
   1.000    0.628 -39.118    8.141 127.608    0.011  66.197    0.916 -21.208
   1.100    0.605 -42.114    7.868 123.367    0.012  64.808    0.907 -22.910
   1.200    0.582 -44.925    7.607 119.257    0.013  64.004    0.898 -24.679
   1.300    0.561 -47.634    7.336 115.277    0.014  63.026    0.888 -26.350
   1.400    0.540 -50.071    7.099 111.676    0.014  62.240    0.879 -27.966
   1.500    0.518 -52.644    6.856 108.016    0.015  61.729    0.870 -29.520
   1.600    0.498 -54.952    6.631 104.571    0.016  61.370    0.862 -31.098
   1.700    0.478 -57.252    6.409 101.246    0.016  60.828    0.854 -32.635
   1.800    0.459 -59.482    6.196  98.023    0.017  60.579    0.846 -34.182
   1.900    0.441 -61.467    5.992  94.941    0.018  60.479    0.839 -35.693
   2.000    0.424 -63.576    5.796  91.902    0.019  60.317    0.831 -37.225
   2.200    0.391 -67.621    5.446  86.140    0.020  60.150    0.816 -40.203
   2.400    0.360 -71.440    5.128  80.631    0.021  60.294    0.802 -43.163
   2.600    0.332 -75.500    4.835  75.368    0.023  60.043    0.788 -46.107
   2.800    0.306 -79.524    4.578  70.328    0.025  59.818    0.774 -49.021
   3.000    0.282 -83.638    4.344  65.452    0.027  59.523    0.760 -52.004
   3.500    0.226 -95.273    3.858  53.836    0.033  57.772    0.724 -59.386
   4.000    0.181 -109.828    3.473  42.674    0.039  54.840    0.687 -66.998
   4.500    0.148 -130.058    3.163  31.856    0.047  50.216    0.647 -74.925
   5.000    0.129 -156.674    2.902  21.037    0.055  44.542    0.600 -83.089
   5.500    0.126 173.657    2.662  10.122    0.062  38.252    0.547 -91.161
   6.000    0.154 147.701    2.489  -1.224    0.073  29.104    0.488 -101.572
   6.500    0.173 132.509    2.303 -10.805    0.083  26.164    0.445 -110.073
   7.000    0.178 110.662    2.018 -20.990    0.077  23.950    0.363 -112.421
   7.500    0.245 106.792    2.022 -31.844    0.108  12.222    0.340 -134.392
   8.000    0.301  93.016    1.892 -44.679    0.119  -1.453    0.264 -157.046
   8.500    0.339  79.704    1.716 -56.808    0.123 -12.982    0.189 176.743
   9.000    0.381  68.848    1.581 -68.309    0.133 -23.667    0.171 141.162
   9.500    0.419  56.893    1.429 -80.441    0.136 -36.826    0.192 100.992
  10.000    0.450  46.168    1.283 -92.793    0.139 -49.006    0.256  71.202
  10.500    0.477  35.052    1.130 -105.062    0.138 -62.783    0.330  49.470
  11.000    0.493  23.904    0.974 -116.395    0.130 -76.386    0.400  32.031
  11.500    0.510  13.894    0.841 -127.881    0.122 -89.626    0.469  18.043
  12.000    0.517   3.026    0.696 -138.567    0.106 -105.236    0.523   4.372
!     DEEMBEDDED NOISE DATA
!FREQUENCY    FMIN    GAMMA OPT        Rn
!  (GHz)      (dB)    Mag    Ang   (NORMALIZED)
