! Filename: 414bfg410.001
! BFG410W Field B1
! V1=8.643E-001V,V2=4.000E+000V, I1=2.013E-004A, I2=1.399E-002A
# GHz   S   MA   R 50
!                S11              S21              S12              S22
!Freq(GHz)  Mag     Ang      Mag     Ang      Mag     Ang      Mag     Ang 
   0.040    0.576  -2.445   23.705 174.764    0.001  52.122    0.965  -0.571
   0.100    0.586  -7.539   23.217 170.697    0.002  83.996    0.969  -3.341
   0.200    0.573 -15.432   22.657 162.679    0.005  79.092    0.957  -7.493
   0.300    0.556 -22.863   21.947 155.237    0.007  76.963    0.942 -11.103
   0.400    0.532 -29.935   21.084 147.733    0.009  74.184    0.921 -14.515
   0.500    0.504 -36.750   20.104 140.588    0.010  71.157    0.896 -17.434
   0.600    0.479 -42.729   19.046 134.249    0.012  69.684    0.873 -20.091
   0.700    0.452 -48.277   17.982 128.436    0.014  67.523    0.849 -22.497
   0.800    0.424 -53.580   16.975 122.899    0.015  66.244    0.826 -24.609
   0.900    0.399 -58.299   16.017 117.860    0.016  65.158    0.806 -26.594
   1.000    0.375 -62.796   15.111 113.142    0.018  64.121    0.786 -28.402
   1.100    0.353 -66.934   14.276 108.809    0.019  63.208    0.768 -30.069
   1.200    0.332 -70.913   13.502 104.680    0.020  62.622    0.752 -31.710
   1.300    0.314 -74.644   12.781 100.869    0.022  61.962    0.736 -33.176
   1.400    0.297 -78.138   12.137  97.301    0.023  61.335    0.723 -34.584
   1.500    0.280 -81.895   11.532  93.851    0.024  60.827    0.711 -35.961
   1.600    0.264 -85.312   10.986  90.583    0.025  60.405    0.699 -37.339
   1.700    0.250 -88.796   10.476  87.467    0.027  59.858    0.689 -38.699
   1.800    0.237 -92.195   10.011  84.453    0.028  59.298    0.679 -40.060
   1.900    0.225 -95.336    9.583  81.580    0.029  58.797    0.669 -41.458
   2.000    0.214 -98.711    9.187  78.775    0.031  58.280    0.660 -42.858
   2.200    0.194 -105.666    8.479  73.428    0.033  57.093    0.643 -45.616
   2.400    0.175 -112.869    7.866  68.314    0.036  55.870    0.627 -48.386
   2.600    0.160 -120.802    7.329  63.415    0.040  54.509    0.611 -51.248
   2.800    0.147 -129.117    6.861  58.702    0.043  52.942    0.596 -54.068
   3.000    0.136 -138.317    6.448  54.102    0.046  51.215    0.581 -57.007
   3.500    0.120 -164.904    5.597  42.939    0.055  46.408    0.542 -64.461
   4.000    0.122 166.504    4.935  32.178    0.063  40.826    0.501 -72.141
   4.500    0.144 142.176    4.413  21.712    0.073  34.344    0.457 -80.436
   5.000    0.176 121.996    3.966  11.255    0.082  27.366    0.406 -88.763
   5.500    0.219 104.434    3.564   0.477    0.090  19.266    0.342 -96.935
   6.000    0.258  94.434    3.274  -9.117    0.101  12.669    0.299 -106.926
   6.500    0.299  81.990    2.958 -19.081    0.108   5.308    0.237 -115.071
   7.000    0.279  72.789    2.678 -24.009    0.114   9.405    0.246 -112.453
   7.500    0.372  69.208    2.579 -36.869    0.135  -5.564    0.169 -142.319
   8.000    0.438  60.667    2.400 -47.991    0.146 -16.184    0.118 -177.114
   8.500    0.505  50.949    2.180 -59.909    0.151 -28.651    0.096 118.768
   9.000    0.556  42.069    1.978 -70.331    0.154 -38.560    0.137  77.251
   9.500    0.596  32.943    1.766 -80.608    0.151 -48.577    0.197  50.586
  10.000    0.648  26.395    1.626 -91.727    0.159 -58.821    0.277  38.901
  10.500    0.689  18.244    1.456 -102.498    0.159 -69.407    0.349  26.044
  11.000    0.729   9.653    1.281 -113.697    0.155 -82.556    0.428  13.568
  11.500    0.750   1.102    1.103 -124.277    0.145 -94.334    0.495   2.120
  12.000    0.767  -7.452    0.933 -134.891    0.134 -107.710    0.559  -9.111
!     DEEMBEDDED NOISE DATA
!FREQUENCY    FMIN    GAMMA OPT        Rn
!  (GHz)      (dB)    Mag    Ang   (NORMALIZED)
