! Filename: 115bfg410.001
! BFG410W Field B1
! V1=9.003E-001V,V2=1.000E+000V, I1=2.653E-004A, I2=1.499E-002A
# GHz   S   MA   R 50
!                S11              S21              S12              S22
!Freq(GHz)  Mag     Ang      Mag     Ang      Mag     Ang      Mag     Ang 
   0.040    0.487  -5.229   22.587 175.969    0.001  74.069    0.912  -1.030
   0.100    0.485 -13.334   22.089 169.732    0.004  84.454    0.912  -4.647
   0.200    0.466 -26.802   20.853 158.687    0.007  77.387    0.887 -10.709
   0.300    0.445 -37.294   20.292 149.725    0.010  74.152    0.863 -15.665
   0.400    0.420 -47.189   19.189 141.053    0.012  70.160    0.829 -19.969
   0.500    0.393 -58.736   17.917 133.347    0.015  66.632    0.792 -23.367
   0.600    0.367 -67.594   16.703 126.485    0.017  64.435    0.760 -26.475
   0.700    0.343 -76.041   15.463 120.183    0.019  62.259    0.726 -29.247
   0.800    0.322 -83.919   14.402 114.562    0.021  60.887    0.697 -31.480
   0.900    0.302 -90.898   13.454 109.447    0.022  59.591    0.672 -33.555
   1.000    0.284 -97.759   12.553 104.807    0.024  58.619    0.649 -35.384
   1.100    0.270 -104.303   11.748 100.522    0.025  57.773    0.629 -37.052
   1.200    0.257 -110.683   11.021  96.451    0.027  57.138    0.611 -38.707
   1.300    0.246 -116.758   10.357  92.703    0.029  56.472    0.593 -40.196
   1.400    0.236 -122.187    9.791  89.267    0.030  56.070    0.579 -41.572
   1.500    0.228 -128.214    9.257  85.872    0.032  55.490    0.565 -42.981
   1.600    0.221 -133.833    8.781  82.699    0.033  54.908    0.553 -44.389
   1.700    0.215 -139.291    8.339  79.634    0.035  54.359    0.541 -45.794
   1.800    0.210 -144.616    7.938  76.686    0.037  53.740    0.530 -47.191
   1.900    0.206 -149.820    7.567  73.851    0.038  53.108    0.520 -48.650
   2.000    0.203 -155.019    7.224  71.059    0.040  52.510    0.511 -50.108
   2.200    0.199 -164.832    6.630  65.754    0.044  51.069    0.492 -53.032
   2.400    0.198 -174.557    6.119  60.610    0.047  49.560    0.474 -55.978
   2.600    0.200 176.444    5.674  55.683    0.051  47.846    0.457 -59.056
   2.800    0.204 167.913    5.288  50.944    0.055  46.010    0.440 -62.103
   3.000    0.209 159.836    4.947  46.279    0.059  43.929    0.423 -65.298
   3.500    0.230 141.543    4.255  35.051    0.069  38.304    0.379 -73.487
   4.000    0.259 125.689    3.718  24.145    0.079  32.014    0.334 -82.075
   4.500    0.294 112.599    3.292  13.499    0.090  24.942    0.286 -91.660
   5.000    0.331 100.252    2.929   2.956    0.100  17.516    0.233 -101.748
   5.500    0.372  88.352    2.608  -7.723    0.107   9.350    0.172 -112.484
   6.000    0.410  79.626    2.372 -17.486    0.119   2.074    0.128 -128.906
   6.500    0.446  69.869    2.128 -27.282    0.125  -5.237    0.074 -150.339
   7.000    0.437  62.233    1.933 -32.768    0.133  -3.486    0.066 -139.242
   7.500    0.510  56.208    1.819 -45.210    0.149 -17.684    0.071 121.483
   8.000    0.561  48.500    1.672 -55.836    0.158 -27.673    0.129  85.790
   8.500    0.607  39.968    1.507 -66.908    0.161 -39.066    0.200  61.617
   9.000    0.644  32.154    1.362 -76.614    0.162 -48.407    0.259  47.743
   9.500    0.672  24.340    1.218 -86.205    0.158 -57.445    0.318  34.990
  10.000    0.709  18.263    1.117 -96.549    0.164 -67.010    0.386  26.744
  10.500    0.737  11.062    1.003 -106.496    0.163 -76.756    0.445  17.203
  11.000    0.765   3.727    0.890 -116.861    0.159 -88.615    0.509   7.411
  11.500    0.779  -3.556    0.776 -126.717    0.149 -99.042    0.564  -2.043
  12.000    0.790 -11.130    0.666 -136.871    0.139 -111.165    0.617 -11.584
!     DEEMBEDDED NOISE DATA
!FREQUENCY    FMIN    GAMMA OPT        Rn
!  (GHz)      (dB)    Mag    Ang   (NORMALIZED)
