! Filename: 412bfg425.001
! BFG425W Field C1
! V1=8.355E-001V,V2=4.000E+000V, I1=1.439E-004A, I2=1.249E-002A
# GHz   S   MA   R 50
!                S11              S21              S12              S22
!Freq(GHz)  Mag     Ang      Mag     Ang      Mag     Ang      Mag     Ang 
   0.040    0.581  -4.560   27.573 174.105    0.002  44.339    0.937  -2.315
   0.100    0.586 -12.921   26.854 168.062    0.005  69.862    0.935  -6.717
   0.200    0.566 -25.987   25.852 157.605    0.009  70.663    0.908 -13.368
   0.300    0.537 -38.033   24.395 148.238    0.013  68.149    0.870 -19.291
   0.400    0.504 -49.413   22.802 139.412    0.016  65.123    0.826 -24.350
   0.500    0.468 -60.051   21.166 131.139    0.019  61.811    0.780 -28.664
   0.600    0.437 -69.582   19.524 124.199    0.022  59.654    0.737 -32.265
   0.700    0.407 -78.339   18.023 118.108    0.024  57.610    0.698 -35.274
   0.800    0.381 -86.602   16.659 112.382    0.026  56.202    0.662 -37.846
   0.900    0.357 -94.064   15.434 107.301    0.028  54.874    0.631 -40.150
   1.000    0.337 -101.273   14.331 102.622    0.030  53.873    0.604 -42.187
   1.100    0.319 -108.001   13.353  98.347    0.032  52.959    0.579 -44.052
   1.200    0.305 -114.431   12.481  94.353    0.034  52.198    0.557 -45.801
   1.300    0.293 -120.540   11.694  90.637    0.036  51.557    0.537 -47.403
   1.400    0.282 -126.386   11.000  87.159    0.038  50.930    0.519 -48.917
   1.500    0.273 -132.368   10.371  83.847    0.040  50.297    0.503 -50.356
   1.600    0.265 -138.025    9.808  80.661    0.041  49.704    0.489 -51.837
   1.700    0.260 -143.414    9.296  77.619    0.043  49.065    0.476 -53.292
   1.800    0.255 -148.685    8.831  74.698    0.045  48.382    0.463 -54.722
   1.900    0.250 -153.738    8.408  71.882    0.047  47.701    0.451 -56.257
   2.000    0.248 -158.540    8.020  69.142    0.049  47.007    0.440 -57.763
   2.200    0.244 -168.149    7.341  63.876    0.053  45.378    0.419 -60.796
   2.400    0.244 -177.260    6.759  58.803    0.057  43.736    0.399 -63.849
   2.600    0.247 174.170    6.256  53.874    0.062  41.882    0.380 -67.042
   2.800    0.251 166.089    5.820  49.151    0.066  39.888    0.361 -70.254
   3.000    0.258 158.476    5.438  44.519    0.070  37.748    0.342 -73.623
   3.500    0.282 141.229    4.658  33.325    0.082  31.905    0.296 -82.480
   4.000    0.312 125.994    4.054  22.427    0.092  25.424    0.247 -92.257
   4.500    0.348 113.110    3.577  11.875    0.104  18.454    0.198 -103.732
   5.000    0.390 100.743    3.175   1.060    0.113  10.314    0.141 -119.491
   5.500    0.423  89.031    2.808  -8.828    0.120   3.547    0.089 -136.111
   6.000    0.469  78.574    2.514 -19.416    0.128  -5.174    0.051 167.615
   6.500    0.478  71.767    2.308 -26.558    0.141  -7.865    0.056 143.866
   7.000    0.516  64.289    2.134 -35.953    0.155 -15.272    0.097 108.745
   7.500    0.580  54.775    1.924 -47.759    0.158 -27.414    0.174  77.770
   8.000    0.617  47.156    1.763 -57.299    0.165 -35.262    0.232  65.892
   8.500    0.658  39.147    1.596 -67.514    0.169 -44.749    0.298  53.865
   9.000    0.688  30.921    1.427 -76.715    0.167 -53.090    0.353  42.318
   9.500    0.718  23.508    1.290 -85.494    0.167 -61.597    0.395  33.302
  10.000    0.750  16.641    1.177 -95.537    0.169 -71.136    0.456  26.502
  10.500    0.772   9.514    1.059 -105.241    0.167 -80.357    0.511  18.371
  11.000    0.791   2.146    0.937 -114.356    0.160 -90.216    0.556   9.218
  11.500    0.805  -5.029    0.835 -123.846    0.155 -100.261    0.599   1.932
  12.000    0.812 -12.279    0.726 -133.062    0.145 -110.872    0.640  -6.523
!     DEEMBEDDED NOISE DATA
!FREQUENCY    FMIN    GAMMA OPT        Rn
!  (GHz)      (dB)    Mag    Ang   (NORMALIZED)
