! Filename: 3_6140BFG480.001
! Title: BFG480W
! Bias: Vce=3.6V; Ic=140mA
! Company: Philips Semiconductors NL
! User: Quality&Reliability T&D
! Measure time: 10 Nov 1999 / 12:01:48
#  MHz  S  MA  R 50
! Freq       S11             S21             S12             S22    :
  100  0.55654 -162.9 42.80470 143.38 0.005845 67.572  0.65050 -46.41
  200  0.65634 -167.2 32.46164 122.47 0.008798 60.584  0.52050 -79.84
  300  0.69392 -171.5 25.14563 110.77 0.010905 61.145  0.44480 -100.6
  400  0.71385 -174.6 20.05979 103.05 0.012948 63.656  0.40795 -114.4
  500  0.72445 -177.2 16.61756 97.469 0.014960 66.321  0.38923 -124.0
  600  0.73169 -179.3 14.06493 93.130 0.017096 68.283  0.37864 -131.0
  700  0.73583 178.76 12.18680 89.614 0.019211 70.192  0.37216 -136.2
  800  0.74067 176.96 10.69800 86.559 0.021542 71.769  0.36901 -140.6
  900  0.74720 175.28  9.50526 83.940 0.023780 73.543  0.36856 -144.4
 1000  0.75342 173.72  8.55445 81.432 0.026375 74.326  0.37116 -147.7
 1200  0.76437 170.94  7.05784 76.721 0.031071 75.677  0.38238 -153.1
 1400  0.77179 168.73  5.97026 72.066 0.035878 76.385  0.39544 -157.0
 1600  0.77544 166.43  5.20709 68.179 0.041358 76.769  0.40428 -160.1
 1800  0.77435 163.89  4.62873 64.751 0.047185 77.097  0.41419 -163.5
 2000  0.78309 161.77  4.09663 61.828 0.052058 77.576  0.42813 -167.6
 2200  0.80129 159.75  3.65242 58.319 0.056691 77.360  0.44940 -171.0
 2400  0.80831 157.98  3.26914 54.630 0.061743 76.662  0.47460 -173.2
 2600  0.80564 156.23  2.98462 51.249 0.067992 75.864  0.49486 -174.6
 2800  0.80083 153.87  2.76591 46.792 0.072775 74.292  0.50565 -176.4
 3000  0.80586 151.21  2.56778 43.351 0.078248 73.476  0.51464 -179.2
