! Filename: 44bfg403.001
! BFG403W Field A1
! V1=8.774E-001V,V2=4.000E+000V, I1=5.474E-005A, I2=4.000E-003A
# GHz   S   MA   R 50
!                S11              S21              S12              S22
!Freq(GHz)  Mag     Ang      Mag     Ang      Mag     Ang      Mag     Ang 
   0.040    0.857  -1.377    8.600 175.754    0.000   6.648    0.991  -0.460
   0.100    0.861  -3.207    8.403 174.417    0.001  86.698    0.993  -1.822
   0.200    0.858  -6.589    8.340 170.348    0.003  83.383    0.990  -4.131
   0.300    0.852  -9.824    8.288 166.475    0.004  83.082    0.988  -6.188
   0.400    0.844 -12.902    8.243 161.913    0.005  80.423    0.985  -8.360
   0.500    0.834 -16.460    8.173 157.416    0.006  77.109    0.979 -10.311
   0.600    0.824 -19.568    8.057 153.223    0.007  75.732    0.975 -12.309
   0.700    0.812 -22.534    7.922 149.118    0.008  74.328    0.968 -14.355
   0.800    0.799 -25.628    7.801 144.989    0.009  72.422    0.961 -16.282
   0.900    0.783 -28.487    7.670 140.962    0.010  70.915    0.954 -18.219
   1.000    0.768 -31.373    7.526 136.957    0.011  69.317    0.946 -20.092
   1.100    0.751 -34.089    7.376 133.156    0.012  67.876    0.939 -21.819
   1.200    0.735 -36.781    7.224 129.345    0.013  66.707    0.931 -23.651
   1.300    0.719 -39.362    7.057 125.693    0.014  65.440    0.922 -25.385
   1.400    0.702 -41.780    6.907 122.178    0.015  64.309    0.914 -27.066
   1.500    0.684 -44.337    6.748 118.658    0.016  63.250    0.906 -28.713
   1.600    0.667 -46.703    6.596 115.264    0.016  62.425    0.897 -30.338
   1.700    0.650 -49.036    6.441 111.965    0.017  61.451    0.890 -31.946
   1.800    0.633 -51.319    6.285 108.719    0.018  60.775    0.881 -33.547
   1.900    0.618 -53.409    6.137 105.651    0.018  60.078    0.873 -35.128
   2.000    0.602 -55.556    5.987 102.589    0.019  59.514    0.866 -36.680
   2.200    0.570 -59.707    5.710  96.686    0.021  58.641    0.850 -39.737
   2.400    0.540 -63.683    5.446  91.010    0.022  58.014    0.835 -42.711
   2.600    0.511 -67.609    5.198  85.591    0.023  57.322    0.819 -45.685
   2.800    0.484 -71.447    4.970  80.358    0.025  56.704    0.804 -48.576
   3.000    0.459 -75.268    4.761  75.300    0.027  56.243    0.790 -51.530
   3.500    0.398 -85.101    4.302  63.191    0.031  54.684    0.752 -58.773
   4.000    0.346 -95.635    3.924  51.653    0.037  52.394    0.713 -66.143
   4.500    0.302 -107.965    3.615  40.551    0.044  48.678    0.674 -73.795
   5.000    0.261 -122.260    3.351  29.467    0.051  43.758    0.628 -81.643
   5.500    0.224 -139.212    3.100  18.289    0.057  38.199    0.575 -89.316
   6.000    0.208 -160.957    2.926   6.806    0.067  29.779    0.519 -99.309
   6.500    0.198 -176.972    2.723  -2.807    0.076  28.446    0.480 -106.994
   7.000    0.155 161.196    2.389 -13.314    0.068  26.869    0.396 -108.568
   7.500    0.228 144.559    2.433 -24.090    0.101  16.367    0.381 -129.216
   8.000    0.274 122.159    2.305 -37.304    0.114   2.506    0.304 -149.610
   8.500    0.307 102.969    2.109 -49.902    0.119  -9.174    0.221 -171.658
   9.000    0.355  87.804    1.961 -62.004    0.130 -19.910    0.188 156.990
   9.500    0.401  72.197    1.783 -74.752    0.135 -33.660    0.187 115.429
  10.000    0.443  58.564    1.611 -87.906    0.139 -46.516    0.240  80.320
  10.500    0.481  45.024    1.419 -101.046    0.138 -61.223    0.311  54.835
  11.000    0.502  31.973    1.218 -113.092    0.130 -75.677    0.381  35.138
  11.500    0.525  20.601    1.044 -125.355    0.122 -89.827    0.452  19.905
  12.000    0.532   8.325    0.857 -136.340    0.104 -106.834    0.507   5.177
!     DEEMBEDDED NOISE DATA
!FREQUENCY    FMIN    GAMMA OPT        Rn
!  (GHz)      (dB)    Mag    Ang   (NORMALIZED)
