! Filename: 45bfg410.001
! BFG410W Field B1
! V1=8.484E-001V,V2=4.000E+000V, I1=6.284E-005A, I2=5.010E-003A
# GHz   S   MA   R 50
!                S11              S21              S12              S22
!Freq(GHz)  Mag     Ang      Mag     Ang      Mag     Ang      Mag     Ang 
   0.040    0.793  -1.998   13.253 176.152    0.001  37.785    0.981  -0.825
   0.100    0.801  -5.206   12.940 173.470    0.003  74.190    0.982  -2.755
   0.200    0.795 -10.498   12.765 167.931    0.005  75.659    0.975  -5.974
   0.300    0.786 -15.816   12.620 162.928    0.007  75.623    0.970  -8.816
   0.400    0.772 -20.883   12.461 157.254    0.010  73.361    0.960 -11.791
   0.500    0.756 -26.027   12.245 151.888    0.012  70.924    0.947 -14.470
   0.600    0.739 -30.939   11.957 146.846    0.014  68.829    0.936 -17.115
   0.700    0.720 -35.654   11.632 141.913    0.016  66.530    0.920 -19.734
   0.800    0.699 -40.390   11.339 137.133    0.018  64.381    0.905 -22.145
   0.900    0.676 -44.769   11.034 132.472    0.020  62.480    0.890 -24.513
   1.000    0.653 -49.160   10.701 127.920    0.022  60.529    0.873 -26.746
   1.100    0.631 -53.247   10.368 123.680    0.023  58.713    0.858 -28.801
   1.200    0.608 -57.275   10.041 119.448    0.025  57.130    0.843 -30.892
   1.300    0.587 -61.156    9.712 115.462    0.026  55.651    0.827 -32.816
   1.400    0.565 -64.920    9.407 111.621    0.028  54.276    0.812 -34.647
   1.500    0.543 -68.614    9.095 107.865    0.029  53.035    0.798 -36.422
   1.600    0.521 -72.331    8.807 104.226    0.030  51.993    0.784 -38.149
   1.700    0.502 -75.815    8.524 100.735    0.031  50.862    0.771 -39.834
   1.800    0.483 -79.173    8.243  97.362    0.032  49.940    0.758 -41.479
   1.900    0.465 -82.393    7.978  94.150    0.034  49.060    0.746 -43.120
   2.000    0.448 -85.689    7.722  90.981    0.035  48.209    0.734 -44.727
   2.200    0.415 -92.247    7.258  84.891    0.037  46.790    0.711 -47.836
   2.400    0.384 -98.642    6.833  79.064    0.039  45.448    0.690 -50.863
   2.600    0.356 -105.124    6.441  73.481    0.041  44.200    0.670 -53.910
   2.800    0.331 -111.718    6.091  68.125    0.044  42.967    0.650 -56.875
   3.000    0.308 -118.567    5.774  62.939    0.047  41.658    0.631 -59.966
   3.500    0.260 -136.956    5.096  50.521    0.054  38.166    0.585 -67.562
   4.000    0.226 -157.960    4.544  38.618    0.061  33.995    0.538 -75.340
   4.500    0.214 178.789    4.097  27.195    0.070  28.759    0.491 -83.710
   5.000    0.217 154.638    3.704  15.875    0.078  22.775    0.438 -92.249
   5.500    0.236 130.771    3.344   4.298    0.085  15.298    0.373 -101.008
   6.000    0.268 115.257    3.079  -5.980    0.097   9.770    0.329 -111.083
   6.500    0.301  98.309    2.784 -16.565    0.102   2.886    0.266 -120.232
   7.000    0.277  88.452    2.514 -22.007    0.108   9.235    0.266 -117.897
   7.500    0.376  80.060    2.425 -35.335    0.130  -6.353    0.199 -147.120
   8.000    0.441  69.183    2.257 -46.859    0.141 -17.064    0.152 -178.137
   8.500    0.506  57.595    2.049 -59.208    0.147 -29.779    0.121 130.713
   9.000    0.555  47.574    1.857 -70.080    0.150 -39.768    0.147  89.875
   9.500    0.594  37.518    1.652 -80.621    0.147 -49.938    0.198  60.022
  10.000    0.647  30.210    1.522 -92.075    0.156 -60.242    0.277  45.289
  10.500    0.687  21.498    1.359 -103.164    0.155 -70.944    0.348  30.932
  11.000    0.726  12.499    1.193 -114.708    0.152 -84.466    0.427  17.339
  11.500    0.745   3.604    1.023 -125.653    0.141 -96.651    0.494   5.190
  12.000    0.760  -5.168    0.864 -136.540    0.130 -110.530    0.558  -6.575
!     DEEMBEDDED NOISE DATA
!FREQUENCY    FMIN    GAMMA OPT        Rn
!  (GHz)      (dB)    Mag    Ang   (NORMALIZED)
