! Filename: 4_430BFG480.001
! Title: BFG480W
! Bias: Vce=4.4V; Ic=30mA
! Company: Philips Semiconductors NL
! User: Quality&Reliability T&D
! Measure time: 10 Nov 1999 / 12:05:38
#  MHz  S  MA  R 50
! Freq       S11             S21             S12             S22    :
  100  0.28776 -79.16 39.81946 154.28 0.009089 60.741  0.80786 -31.20
  200  0.42465 -116.6 33.56135 135.07 0.014976 52.917  0.69041 -56.63
  300  0.51146 -135.6 27.47511 121.81 0.018270 47.592  0.59123 -75.25
  400  0.56189 -146.3 22.58984 112.48 0.020422 45.509  0.52538 -89.17
  500  0.59326 -154.1 19.03926 105.49 0.021886 45.076  0.48256 -99.90
  600  0.61246 -159.7 16.29741 100.00 0.023124 45.655  0.45435 -108.3
  700  0.62556 -164.0 14.19535 95.586 0.024337 47.172  0.43466 -115.0
  800  0.63583 -167.6 12.52187 91.810 0.025525 49.033  0.42091 -120.6
  900  0.64554 -170.8 11.14896 88.575 0.026800 51.301  0.41234 -125.6
 1000  0.65536 -173.6 10.05099 85.609 0.028320 53.258  0.40773 -130.1
 1200  0.67445 -178.2  8.33065 80.098 0.031273 56.912  0.40905 -137.7
 1400  0.68959 178.44  7.07634 74.840 0.034413 60.070  0.41682 -143.6
 1600  0.69824 175.45  6.17104 70.590 0.038541 63.100  0.42337 -148.0
 1800  0.70083 172.34  5.48123 66.965 0.043180 65.601  0.42996 -152.4
 2000  0.71180 169.56  4.85081 63.634 0.047244 68.002  0.43920 -157.4
 2200  0.73253 166.89  4.33190 59.805 0.051092 69.072  0.45843 -162.0
 2400  0.74629 164.74  3.88433 55.826 0.055639 69.764  0.48419 -165.2
 2600  0.75047 162.86  3.54857 52.298 0.061324 70.175  0.50541 -167.3
 2800  0.74896 160.46  3.29441 47.766 0.065963 69.598  0.51643 -169.5
 3000  0.75462 157.63  3.05660 44.204 0.071156 69.564  0.52481 -172.8
