! Filename: 311bfg410.001
! BFG410W Field B1
! V1=8.707E-001V,V2=3.000E+000V, I1=1.643E-004A, I2=1.099E-002A
# GHz   S   MA   R 50
!                S11              S21              S12              S22
!Freq(GHz)  Mag     Ang      Mag     Ang      Mag     Ang      Mag     Ang 
   0.040    0.625  -2.434   21.519 175.504    0.001  66.184    0.974  -0.768
   0.100    0.631  -7.193   21.125 171.466    0.002  87.363    0.977  -3.323
   0.200    0.619 -14.641   20.639 163.714    0.005  81.234    0.965  -7.469
   0.300    0.601 -21.778   20.088 156.653    0.007  78.181    0.951 -10.988
   0.400    0.580 -28.471   19.408 149.415    0.009  75.425    0.931 -14.472
   0.500    0.554 -35.109   18.617 142.619    0.011  71.684    0.908 -17.449
   0.600    0.529 -41.084   17.758 136.450    0.013  69.886    0.887 -20.217
   0.700    0.502 -46.685   16.861 130.687    0.015  67.644    0.862 -22.799
   0.800    0.475 -52.060   16.012 125.201    0.016  65.806    0.840 -25.039
   0.900    0.448 -56.790   15.192 120.130    0.018  64.373    0.819 -27.188
   1.000    0.423 -61.394   14.391 115.380    0.019  63.079    0.798 -29.139
   1.100    0.400 -65.637   13.650 111.012    0.020  61.910    0.780 -30.919
   1.200    0.378 -69.818   12.958 106.803    0.022  61.075    0.763 -32.683
   1.300    0.358 -73.658   12.304 102.912    0.023  60.324    0.746 -34.251
   1.400    0.340 -77.340   11.716  99.246    0.024  59.589    0.731 -35.756
   1.500    0.321 -81.119   11.157  95.710    0.025  58.944    0.717 -37.207
   1.600    0.305 -84.702   10.650  92.362    0.027  58.452    0.705 -38.657
   1.700    0.289 -88.234   10.175  89.156    0.028  57.852    0.693 -40.079
   1.800    0.274 -91.671    9.737  86.063    0.029  57.247    0.682 -41.488
   1.900    0.261 -94.908    9.335  83.117    0.031  56.715    0.672 -42.932
   2.000    0.249 -98.368    8.958  80.225    0.032  56.214    0.662 -44.356
   2.200    0.227 -105.256    8.284  74.744    0.035  55.010    0.643 -47.173
   2.400    0.206 -112.451    7.698  69.478    0.038  53.853    0.626 -49.983
   2.600    0.189 -120.085    7.184  64.469    0.041  52.476    0.609 -52.885
   2.800    0.174 -128.140    6.730  59.629    0.044  50.982    0.592 -55.745
   3.000    0.162 -136.845    6.330  54.868    0.047  49.392    0.576 -58.724
   3.500    0.142 -161.524    5.501  43.547    0.056  44.706    0.535 -66.283
   4.000    0.139 171.465    4.854  32.576    0.065  39.286    0.492 -74.090
   4.500    0.158 147.225    4.343  21.950    0.074  32.867    0.447 -82.562
   5.000    0.187 126.196    3.902  11.327    0.084  25.940    0.395 -91.115
   5.500    0.227 107.630    3.505   0.419    0.091  17.876    0.331 -99.644
   6.000    0.266  96.871    3.218  -9.291    0.103  11.309    0.287 -110.039
   6.500    0.307  83.888    2.905 -19.342    0.109   3.959    0.225 -118.882
   7.000    0.287  74.780    2.629 -24.384    0.116   8.134    0.231 -115.837
   7.500    0.381  70.158    2.528 -37.314    0.136  -6.920    0.159 -148.456
   8.000    0.446  61.395    2.350 -48.498    0.147 -17.538    0.116 173.070
   8.500    0.512  51.332    2.132 -60.444    0.152 -29.959    0.109 111.160
   9.000    0.562  42.402    1.932 -70.893    0.155 -39.894    0.154  74.989
   9.500    0.600  33.180    1.722 -81.153    0.151 -49.859    0.213  50.329
  10.000    0.652  26.512    1.584 -92.261    0.159 -60.057    0.292  38.620
  10.500    0.692  18.409    1.418 -102.997    0.159 -70.613    0.362  25.910
  11.000    0.731   9.792    1.246 -114.172    0.155 -83.716    0.439  13.502
  11.500    0.750   1.249    1.072 -124.779    0.145 -95.391    0.505   2.133
  12.000    0.767  -7.279    0.908 -135.332    0.134 -108.764    0.567  -9.028
!     DEEMBEDDED NOISE DATA
!FREQUENCY    FMIN    GAMMA OPT        Rn
!  (GHz)      (dB)    Mag    Ang   (NORMALIZED)
