! Filename: 310bfg410.001
! BFG410W Field B1
! V1=8.687E-001V,V2=3.000E+000V, I1=1.481E-004A, I2=1.002E-002A
# GHz   S   MA   R 50
!                S11              S21              S12              S22
!Freq(GHz)  Mag     Ang      Mag     Ang      Mag     Ang      Mag     Ang 
   0.040    0.652  -2.370   20.528 175.644    0.001  56.967    0.976  -0.781
   0.100    0.653  -7.010   20.139 171.729    0.002  87.114    0.979  -3.273
   0.200    0.643 -14.063   19.697 164.236    0.005  81.283    0.967  -7.322
   0.300    0.628 -21.002   19.215 157.426    0.007  78.900    0.955 -10.766
   0.400    0.606 -27.543   18.620 150.368    0.009  75.456    0.936 -14.233
   0.500    0.581 -33.938   17.925 143.734    0.011  71.708    0.914 -17.171
   0.600    0.556 -39.805   17.155 137.677    0.013  69.702    0.893 -19.969
   0.700    0.530 -45.345   16.335 131.979    0.015  67.367    0.870 -22.583
   0.800    0.503 -50.578   15.561 126.541    0.016  65.638    0.848 -24.874
   0.900    0.476 -55.334   14.807 121.492    0.018  64.024    0.827 -27.075
   1.000    0.450 -59.955   14.064 116.730    0.019  62.702    0.807 -29.068
   1.100    0.427 -64.158   13.374 112.343    0.021  61.438    0.788 -30.900
   1.200    0.405 -68.266   12.720 108.124    0.022  60.509    0.771 -32.713
   1.300    0.384 -72.169   12.097 104.201    0.023  59.632    0.754 -34.331
   1.400    0.364 -75.834   11.537 100.507    0.024  58.850    0.739 -35.875
   1.500    0.345 -79.579   11.006  96.920    0.026  58.166    0.725 -37.364
   1.600    0.327 -83.172   10.521  93.533    0.027  57.540    0.712 -38.833
   1.700    0.311 -86.636   10.063  90.274    0.028  56.945    0.700 -40.284
   1.800    0.296 -90.062    9.634  87.160    0.030  56.313    0.688 -41.707
   1.900    0.282 -93.227    9.245  84.183    0.031  55.843    0.678 -43.172
   2.000    0.269 -96.607    8.879  81.253    0.032  55.202    0.668 -44.615
   2.200    0.245 -103.380    8.223  75.706    0.035  54.145    0.648 -47.455
   2.400    0.224 -110.404    7.649  70.374    0.038  52.934    0.630 -50.283
   2.600    0.205 -117.840    7.144  65.310    0.041  51.634    0.613 -53.187
   2.800    0.189 -125.569    6.697  60.439    0.044  50.158    0.596 -56.049
   3.000    0.175 -133.751    6.303  55.607    0.047  48.625    0.580 -59.028
   3.500    0.152 -157.519    5.484  44.183    0.056  44.105    0.538 -66.593
   4.000    0.145 175.984    4.842  33.138    0.064  38.734    0.495 -74.393
   4.500    0.160 151.209    4.335  22.435    0.074  32.433    0.450 -82.863
   5.000    0.187 129.348    3.896  11.751    0.083  25.585    0.397 -91.429
   5.500    0.226 109.941    3.502   0.778    0.090  17.559    0.333 -100.017
   6.000    0.264  98.683    3.216  -8.986    0.102  11.071    0.289 -110.432
   6.500    0.305  85.300    2.903 -19.088    0.108   3.748    0.227 -119.362
   7.000    0.285  76.153    2.628 -24.143    0.115   8.117    0.233 -116.272
   7.500    0.379  71.228    2.527 -37.120    0.135  -6.994    0.161 -148.864
   8.000    0.444  62.190    2.349 -48.341    0.146 -17.624    0.118 173.103
   8.500    0.511  52.066    2.131 -60.322    0.152 -30.096    0.110 112.180
   9.000    0.560  42.987    1.931 -70.813    0.154 -40.015    0.154  75.820
   9.500    0.599  33.676    1.721 -81.094    0.151 -50.012    0.213  50.894
  10.000    0.651  26.924    1.583 -92.239    0.159 -60.214    0.292  39.010
  10.500    0.692  18.747    1.417 -103.011    0.159 -70.800    0.362  26.177
  11.000    0.729  10.059    1.245 -114.228    0.155 -83.926    0.439  13.700
  11.500    0.750   1.516    1.071 -124.853    0.144 -95.631    0.505   2.276
  12.000    0.766  -7.035    0.906 -135.442    0.133 -109.084    0.567  -8.928
!     DEEMBEDDED NOISE DATA
!FREQUENCY    FMIN    GAMMA OPT        Rn
!  (GHz)      (dB)    Mag    Ang   (NORMALIZED)
