! Filename: 14bfg425.001
! BFG425W Field C1
! V1=8.281E-001V,V2=1.000E+000V, I1=5.607E-005A, I2=4.000E-003A
# GHz   S   MA   R 50
!                S11              S21              S12              S22
!Freq(GHz)  Mag     Ang      Mag     Ang      Mag     Ang      Mag     Ang 
   0.040    0.811  -4.172   12.394 176.483    0.003  84.692    0.977  -2.154
   0.100    0.816  -9.286   12.142 172.079    0.008  85.101    0.974  -5.846
   0.200    0.805 -18.470   11.921 164.219    0.016  78.566    0.957 -11.949
   0.300    0.788 -27.597   11.688 157.119    0.023  73.132    0.939 -17.636
   0.400    0.766 -36.300   11.357 149.787    0.029  68.015    0.911 -23.157
   0.500    0.742 -44.883   10.985 142.894    0.036  63.293    0.880 -28.152
   0.600    0.716 -53.085   10.525 136.524    0.041  58.905    0.847 -32.939
   0.700    0.690 -60.863   10.056 130.496    0.046  54.620    0.811 -37.497
   0.800    0.662 -68.612    9.620 124.714    0.050  50.993    0.776 -41.605
   0.900    0.635 -75.794    9.186 119.270    0.054  47.670    0.742 -45.508
   1.000    0.610 -82.762    8.739 114.103    0.057  44.607    0.709 -49.064
   1.100    0.586 -89.388    8.319 109.327    0.060  41.860    0.678 -52.395
   1.200    0.565 -95.720    7.917 104.734    0.062  39.345    0.648 -55.565
   1.300    0.545 -101.898    7.541 100.423    0.065  37.092    0.619 -58.526
   1.400    0.527 -107.913    7.194  96.284    0.067  35.023    0.592 -61.294
   1.500    0.510 -113.803    6.862  92.335    0.069  33.170    0.567 -63.919
   1.600    0.494 -119.642    6.556  88.513    0.070  31.451    0.543 -66.429
   1.700    0.481 -125.100    6.268  84.896    0.072  29.902    0.521 -68.878
   1.800    0.469 -130.460    5.995  81.399    0.074  28.431    0.500 -71.210
   1.900    0.459 -135.604    5.744  78.066    0.075  27.084    0.481 -73.536
   2.000    0.450 -140.685    5.508  74.806    0.077  25.844    0.462 -75.800
   2.200    0.435 -150.609    5.083  68.556    0.079  23.534    0.428 -80.215
   2.400    0.424 -160.135    4.713  62.623    0.082  21.434    0.396 -84.550
   2.600    0.418 -169.274    4.383  56.932    0.085  19.463    0.368 -88.951
   2.800    0.414 -178.172    4.092  51.467    0.088  17.547    0.341 -93.365
   3.000    0.414 173.388    3.833  46.135    0.091  15.625    0.316 -97.949
   3.500    0.423 153.718    3.296  33.445    0.099  10.844    0.258 -110.393
   4.000    0.442 136.129    2.869  21.288    0.107   5.651    0.207 -125.371
   4.500    0.470 120.792    2.527   9.744    0.116   0.067    0.164 -144.938
   5.000    0.504 106.309    2.235  -1.862    0.123  -6.851    0.132 -174.020
   5.500    0.530  93.462    1.973 -12.464    0.127 -12.416    0.116 153.378
   6.000    0.566  81.572    1.760 -23.462    0.133 -19.996    0.139 118.554
   6.500    0.579  73.313    1.611 -31.252    0.145 -21.378    0.155 106.499
   7.000    0.611  64.378    1.479 -41.013    0.157 -27.976    0.203  92.132
   7.500    0.659  54.145    1.329 -52.704    0.159 -39.299    0.273  74.117
   8.000    0.688  46.060    1.212 -62.288    0.165 -46.402    0.326  63.436
   8.500    0.719  37.745    1.095 -72.411    0.168 -55.138    0.384  52.490
   9.000    0.740  29.566    0.977 -81.476    0.165 -62.739    0.430  41.980
   9.500    0.762  22.099    0.884 -89.947    0.165 -70.636    0.464  33.682
  10.000    0.784  15.184    0.808 -99.788    0.165 -79.579    0.521  26.571
  10.500    0.801   8.232    0.728 -109.184    0.163 -88.156    0.569  18.594
  11.000    0.813   1.241    0.646 -118.021    0.157 -97.417    0.607   9.865
  11.500    0.822  -5.760    0.579 -127.385    0.151 -107.000    0.645   2.774
  12.000    0.827 -12.692    0.506 -136.484    0.141 -117.099    0.681  -5.360
!     DEEMBEDDED NOISE DATA
!FREQUENCY    FMIN    GAMMA OPT        Rn
!  (GHz)      (dB)    Mag    Ang   (NORMALIZED)
