! Filename BFG424F_2V_3mA.prm
! Simulation_Values
! Created	by	janssen	on	nov	2006			
!	Column ranking S11, S21,S12,S22 both magnitude and phase.								
!	VCE	=	2	V,	IC	=	3	mA	
!	Common	Emitter	S-Parameters						
#	GHZ	S	MA	R	50				
	5.00E-01	0.824	-35.28	9.637	154.02	0.03	71.23	0.935	-18.82
	6.00E-01	0.806	-42	9.39	149.33	0.035	67.49	0.913	-22.18
	7.00E-01	0.785	-48.58	9.156	144.8	0.039	64.67	0.89	-25.34
	8.00E-01	0.763	-54.96	8.888	140.44	0.043	61.71	0.866	-28.35
	9.00E-01	0.744	-61.07	8.571	136.45	0.047	58.95	0.841	-31.26
	1.00E+00	0.724	-66.93	8.283	132.54	0.05	56.76	0.815	-33.89
	1.10E+00	0.705	-72.81	7.998	128.91	0.053	54.58	0.791	-36.39
	1.20E+00	0.684	-78.32	7.709	125.43	0.056	52.7	0.766	-38.73
	1.30E+00	0.665	-83.82	7.439	122.1	0.058	50.81	0.742	-40.97
	1.40E+00	0.647	-89.02	7.163	118.96	0.061	49.32	0.72	-43.1
	1.50E+00	0.631	-94.22	6.918	115.89	0.062	47.78	0.698	-45.1
	1.60E+00	0.615	-99.13	6.675	113.02	0.064	46.44	0.677	-46.98
	1.70E+00	0.599	-103.84	6.429	110.32	0.065	45.41	0.656	-48.83
	1.80E+00	0.585	-108.62	6.192	107.69	0.067	44.49	0.636	-50.53
	1.90E+00	0.574	-113.07	5.975	105.18	0.068	43.66	0.619	-52.18
	2.00E+00	0.565	-117.5	5.778	102.86	0.069	42.9	0.601	-53.82
	2.10E+00	0.554	-121.67	5.58	100.47	0.07	42.36	0.585	-55.42
	2.20E+00	0.544	-125.83	5.391	98.24	0.071	41.75	0.57	-57.03
	2.30E+00	0.536	-130.01	5.206	96.13	0.072	41.36	0.554	-58.53
	2.40E+00	0.531	-133.86	5.044	94.08	0.072	41.01	0.54	-60.03
	2.50E+00	0.527	-137.56	4.882	92.14	0.073	40.9	0.527	-61.52
	2.60E+00	0.519	-141.22	4.737	90.12	0.074	40.53	0.513	-63.06
	2.70E+00	0.513	-145.03	4.593	88.27	0.075	40.38	0.501	-64.61
	2.80E+00	0.51	-148.61	4.453	86.43	0.076	40.49	0.489	-66.1
	2.90E+00	0.509	-151.97	4.322	84.73	0.076	40.48	0.477	-67.64
	3.00E+00	0.506	-155.24	4.199	82.99	0.077	40.55	0.466	-69.12
	3.10E+00	0.504	-158.57	4.086	81.27	0.078	40.48	0.456	-70.66
	3.20E+00	0.502	-161.75	3.972	79.65	0.079	40.69	0.446	-72.23
	3.30E+00	0.502	-164.98	3.861	78.1	0.079	41.16	0.435	-73.79
	3.40E+00	0.504	-167.81	3.759	76.46	0.08	41.1	0.426	-75.49
	3.50E+00	0.504	-170.65	3.658	74.98	0.081	41.29	0.417	-77.15
	3.60E+00	0.502	-173.59	3.566	73.41	0.082	41.63	0.408	-78.85
	3.70E+00	0.503	-176.46	3.483	71.91	0.083	41.83	0.399	-80.65
	3.80E+00	0.506	-179.18	3.395	70.53	0.084	42.22	0.391	-82.46
	3.90E+00	0.508	178.35	3.316	69.14	0.085	42.59	0.383	-84.27
	4.00E+00	0.509	175.68	3.235	67.67	0.086	42.86	0.375	-86.12
	4.10E+00	0.51	173.16	3.157	66.35	0.087	43.14	0.367	-87.97
	4.20E+00	0.512	170.61	3.086	64.91	0.088	43.41	0.36	-90.01
	4.30E+00	0.517	168.24	3.018	63.69	0.089	43.64	0.353	-91.95
	4.40E+00	0.52	166.11	2.951	62.32	0.09	44.03	0.346	-94
	4.50E+00	0.522	164.06	2.886	61.01	0.092	44.45	0.34	-96.04
	4.60E+00	0.523	161.68	2.823	59.79	0.093	44.52	0.334	-98.19
	4.70E+00	0.527	159.32	2.762	58.5	0.095	44.68	0.329	-100.44
	4.80E+00	0.534	157.36	2.71	57.16	0.096	45.05	0.323	-102.82
	4.90E+00	0.537	155.57	2.654	56.08	0.098	45.06	0.317	-105.17
	5.00E+00	0.539	153.8	2.6	54.87	0.099	45.29	0.311	-107.49
	5.10E+00	0.54	151.57	2.553	53.49	0.1	45.59	0.307	-109.74
	5.20E+00	0.545	149.47	2.501	52.44	0.102	45.83	0.303	-112.17
	5.30E+00	0.553	147.92	2.451	51.29	0.104	45.76	0.299	-114.78
	5.40E+00	0.556	146.22	2.41	50.05	0.105	45.78	0.294	-117.45
	5.50E+00	0.558	144.55	2.361	49.04	0.107	46.02	0.29	-120.02
	5.60E+00	0.561	142.64	2.312	47.74	0.109	46.11	0.287	-122.62
	5.70E+00	0.567	141.01	2.275	46.62	0.11	46.08	0.285	-125.22
	5.80E+00	0.573	139.43	2.232	45.66	0.112	46.21	0.283	-128.04
	5.90E+00	0.576	138.01	2.19	44.36	0.114	46.27	0.281	-130.87
	6.00E+00	0.578	136.45	2.158	43.44	0.116	46.19	0.278	-133.65
	6.10E+00	0.582	134.74	2.117	42.46	0.117	46.1	0.276	-136.38
	6.20E+00	0.587	133.12	2.074	41.11	0.119	46.22	0.275	-139.2
	6.30E+00	0.594	131.88	2.045	40.06	0.121	46.26	0.275	-142.21
	6.40E+00	0.595	130.52	2.007	39.15	0.123	46.17	0.275	-145.06
	6.50E+00	0.598	128.99	1.972	38.02	0.125	46.03	0.275	-147.91
	6.60E+00	0.602	127.56	1.939	37.12	0.126	46.08	0.275	-150.58
	6.70E+00	0.607	126.27	1.903	36.2	0.128	45.91	0.275	-153.27
	6.80E+00	0.613	124.95	1.872	34.96	0.13	45.65	0.276	-156.16
	6.90E+00	0.617	123.82	1.847	34.07	0.132	45.54	0.278	-159.02
	7.00E+00	0.618	122.57	1.811	33.21	0.134	45.65	0.28	-161.76
	7.10E+00	0.621	121.16	1.785	32.19	0.136	45.32	0.281	-164.26
	7.20E+00	0.626	119.81	1.757	31.38	0.138	45.03	0.283	-166.51
	7.30E+00	0.632	118.95	1.724	30.41	0.14	44.82	0.287	-168.95
	7.40E+00	0.634	117.85	1.702	29.21	0.142	44.85	0.291	-171.63
	7.50E+00	0.637	116.55	1.677	28.5	0.144	44.38	0.294	-174.66
	7.60E+00	0.641	115.43	1.65	27.56	0.146	44.1	0.296	-177.3
	7.70E+00	0.645	114.44	1.625	26.71	0.147	44.05	0.298	-179.48
	7.80E+00	0.648	113.49	1.603	25.97	0.15	43.85	0.302	178.62
	7.90E+00	0.65	112.15	1.574	24.78	0.151	43.19	0.307	176.5
	8.00E+00	0.655	111.16	1.558	23.88	0.152	43.02	0.312	174.21
	8.10E+00	0.657	110.23	1.533	23.33	0.154	43.26	0.315	171.81
	8.20E+00	0.66	109.25	1.509	22.32	0.157	42.9	0.318	169.81
	8.30E+00	0.665	108.22	1.49	21.4	0.159	42.31	0.324	167.94
	8.40E+00	0.667	107.31	1.466	20.7	0.16	42.06	0.33	166.02
	8.50E+00	0.669	106.34	1.441	19.44	0.162	41.95	0.336	163.88
	8.60E+00	0.672	105.37	1.43	18.68	0.165	41.47	0.34	161.86
	8.70E+00	0.677	104.38	1.403	18.11	0.166	41.11	0.344	160.07
	8.80E+00	0.68	103.75	1.384	17.13	0.168	40.9	0.349	158.44
	8.90E+00	0.681	102.79	1.369	16.4	0.17	40.73	0.355	156.75
	9.00E+00	0.683	101.9	1.344	15.67	0.173	39.97	0.361	154.84
	9.10E+00	0.686	101.05	1.333	14.49	0.174	39.47	0.365	153.05
	9.20E+00	0.69	100.2	1.323	13.94	0.175	39.26	0.37	151.52
	9.30E+00	0.695	99.48	1.295	13.12	0.178	38.81	0.375	150.05
	9.40E+00	0.697	98.55	1.274	11.82	0.18	38.12	0.382	148.49
	9.50E+00	0.699	97.91	1.261	11.08	0.181	37.83	0.388	146.57
	9.60E+00	0.703	97.02	1.236	10.31	0.183	37.59	0.391	144.85
	9.70E+00	0.708	96.02	1.227	9.34	0.186	37.14	0.393	143.51
	9.80E+00	0.711	94.83	1.212	8.53	0.187	36.1	0.396	142.37
	9.90E+00	0.706	94.03	1.18	7.77	0.187	35.61	0.402	141.25
	1.00E+01	0.706	93.53	1.158	6.88	0.188	35.32	0.408	139.74
	1.01E+01	0.709	92.66	1.142	6.77	0.189	34.99	0.413	138.29
	1.02E+01	0.712	92.08	1.12	6.28	0.19	34.65	0.416	137.07
	1.03E+01	0.716	91.57	1.114	5.71	0.192	34.55	0.418	136.19
	1.04E+01	0.716	90.59	1.1	5.46	0.194	34.11	0.424	135.32
	1.05E+01	0.721	89.73	1.084	4.56	0.195	33.38	0.43	133.98
	1.06E+01	0.723	89.01	1.079	3.31	0.196	33.11	0.436	132.67
	1.07E+01	0.724	88.24	1.065	2.95	0.197	33.05	0.439	131.51
	1.08E+01	0.725	87.61	1.046	2.12	0.199	32.3	0.442	130.66
	1.09E+01	0.725	87.09	1.035	1.69	0.199	31.65	0.446	130.07
	1.10E+01	0.726	86.35	1.018	1.24	0.2	31.56	0.453	129.2
	1.11E+01	0.731	85.65	0.996	0.17	0.2	31.1	0.459	128.02
	1.12E+01	0.738	85.04	0.989	-0.51	0.201	30.52	0.464	126.67
	1.13E+01	0.744	84.45	0.974	-0.54	0.2	30.62	0.465	125.63
	1.14E+01	0.744	83.09	0.966	-1.14	0.202	31.01	0.468	125.16
	1.15E+01	0.747	82.34	0.962	-1.88	0.205	30.83	0.475	124.3
	1.16E+01	0.746	80.94	0.952	-2.62	0.209	30.11	0.482	123.55
	1.17E+01	0.741	80	0.939	-3.89	0.209	29.56	0.484	122.28
	1.18E+01	0.749	79.4	0.931	-4.41	0.212	29.27	0.483	121.35
	1.19E+01	0.744	77.93	0.918	-5.07	0.215	28.51	0.485	121.14
	1.20E+01	0.735	77	0.908	-6.35	0.216	27.27	0.498	120.93
	1.21E+01	0.73	76.27	0.891	-7.22	0.216	26.77	0.506	119.19
	1.22E+01	0.723	76.1	0.876	-7.76	0.219	26.05	0.509	118.29
	1.23E+01	0.715	75.54	0.868	-9.32	0.218	24.09	0.514	117
	1.24E+01	0.718	74.92	0.847	-9.72	0.213	23.74	0.514	115.73
	1.25E+01	0.717	74.49	0.827	-10.1	0.211	23.31	0.519	115.34
	1.26E+01	0.713	74.39	0.805	-10.46	0.209	24.68	0.52	113.49
	1.27E+01	0.711	73.77	0.795	-10.61	0.212	24.63	0.518	112.6
	1.28E+01	0.709	73.13	0.779	-11.1	0.212	24.27	0.515	111.85
	1.29E+01	0.711	72.76	0.77	-11.31	0.213	24.5	0.514	111.56
	1.30E+01	0.708	72.35	0.762	-11.15	0.217	24.56	0.516	111.3
	1.31E+01	0.709	71.6	0.75	-11.74	0.218	23.73	0.519	111.31
	1.32E+01	0.707	71.14	0.745	-12.42	0.217	23.4	0.527	110.84
	1.33E+01	0.706	70.79	0.739	-12.44	0.218	23.4	0.531	109.33
	1.34E+01	0.702	70.1	0.73	-13.15	0.221	22.94	0.532	109.16
	1.35E+01	0.705	69.87	0.723	-13.47	0.22	22.58	0.536	108.22
	1.36E+01	0.7	69.31	0.713	-13.5	0.221	22.75	0.539	107.87
	1.37E+01	0.701	68.75	0.702	-14.29	0.224	22.6	0.542	106.99
	1.38E+01	0.703	67.92	0.696	-15.03	0.224	21.86	0.546	105.82
	1.39E+01	0.7	67.81	0.689	-15.2	0.224	21.66	0.543	104.95
	1.40E+01	0.7	67.12	0.679	-15.72	0.226	21.88	0.544	104.62
	1.41E+01	0.696	66.57	0.671	-16.13	0.228	21.34	0.544	104.3
	1.42E+01	0.697	65.94	0.659	-16.61	0.23	20.67	0.547	103.68
	1.43E+01	0.694	65.31	0.648	-17.52	0.23	20.84	0.548	102.84
	1.44E+01	0.695	64.8	0.646	-17.66	0.231	20.65	0.548	102.1
	1.45E+01	0.691	64.29	0.634	-17.81	0.235	19.93	0.548	101.65
	1.46E+01	0.691	63.88	0.625	-18.08	0.235	18.98	0.551	101.29
	1.47E+01	0.687	63.1	0.619	-18.28	0.235	19.04	0.552	100.68
	1.48E+01	0.685	62.53	0.607	-18.82	0.237	18.9	0.552	99.85
	1.49E+01	0.685	61.72	0.597	-19.67	0.241	18.21	0.552	99.23
	1.50E+01	0.684	61.65	0.595	-19.47	0.239	17.46	0.553	98.78
!	Noise	data:							
!	Freq.	Fmin	Gamma-opt	rn					
	0.9	0.81	0.48	17.8	0.27				
	2	1.2	0.43	57.2	0.25
