! Filename: 327bfg425.001
! BFG425W Field C1
! V1=8.531E-001V,V2=3.000E+000V, I1=3.718E-004A, I2=2.752E-002A
# GHz   S   MA   R 50
!                S11              S21              S12              S22
!Freq(GHz)  Mag     Ang      Mag     Ang      Mag     Ang      Mag     Ang 
   0.040    0.325  -8.276   39.672 173.003    0.002  62.758    0.925  -2.782
   0.100    0.333 -21.542   38.709 164.424    0.004  81.655    0.918  -8.848
   0.200    0.315 -41.833   35.920 150.511    0.008  75.794    0.869 -17.669
   0.300    0.295 -59.459   32.264 139.000    0.011  71.870    0.803 -24.604
   0.400    0.276 -75.354   28.717 129.145    0.014  69.018    0.738 -29.790
   0.500    0.260 -89.418   25.523 120.663    0.016  66.718    0.680 -33.662
   0.600    0.246 -101.239   22.767 113.841    0.019  65.237    0.631 -36.594
   0.700    0.236 -111.518   20.443 108.087    0.021  64.223    0.590 -38.871
   0.800    0.229 -121.233   18.481 102.852    0.023  63.569    0.556 -40.744
   0.900    0.222 -129.204   16.822  98.284    0.025  62.842    0.528 -42.437
   1.000    0.218 -136.843   15.399  94.135    0.027  62.225    0.505 -43.948
   1.100    0.215 -143.524   14.186  90.325    0.029  61.570    0.484 -45.399
   1.200    0.214 -149.619   13.138  86.780    0.031  60.865    0.466 -46.809
   1.300    0.213 -155.441   12.217  83.476    0.034  60.211    0.450 -48.122
   1.400    0.213 -160.769   11.416  80.387    0.036  59.532    0.435 -49.429
   1.500    0.214 -166.006   10.710  77.416    0.038  58.699    0.423 -50.697
   1.600    0.215 -170.822   10.081  74.562    0.040  57.934    0.411 -52.075
   1.700    0.217 -175.317    9.515  71.819    0.043  57.033    0.400 -53.442
   1.800    0.219 -179.504    9.011  69.174    0.045  56.157    0.390 -54.827
   1.900    0.221 176.434    8.554  66.598    0.047  55.172    0.381 -56.339
   2.000    0.224 172.595    8.140  64.089    0.050  54.089    0.371 -57.851
   2.200    0.230 165.236    7.417  59.222    0.054  51.952    0.353 -60.938
   2.400    0.238 158.360    6.808  54.511    0.059  49.713    0.335 -64.053
   2.600    0.247 151.923    6.282  49.902    0.064  47.290    0.318 -67.340
   2.800    0.256 145.883    5.829  45.464    0.069  44.798    0.301 -70.688
   3.000    0.267 140.088    5.436  41.078    0.074  42.156    0.283 -74.222
   3.500    0.297 127.024    4.639  30.405    0.086  35.221    0.239 -83.553
   4.000    0.331 114.913    4.025  19.954    0.098  27.875    0.192 -94.103
   4.500    0.368 104.292    3.544   9.755    0.109  20.194    0.144 -107.344
   5.000    0.410  93.699    3.138  -0.731    0.119  11.641    0.091 -128.805
   5.500    0.444  83.288    2.773 -10.311    0.127   4.455    0.047 -162.433
   6.000    0.488  73.882    2.480 -20.613    0.134  -4.519    0.058 113.392
   6.500    0.497  67.400    2.277 -27.555    0.148  -7.966    0.073 101.661
   7.000    0.534  60.510    2.105 -36.773    0.160 -15.731    0.125  87.764
   7.500    0.595  51.588    1.896 -48.266    0.163 -27.613    0.208  68.191
   8.000    0.631  44.416    1.736 -57.608    0.170 -35.585    0.264  58.825
   8.500    0.670  36.651    1.573 -67.553    0.173 -44.994    0.329  48.614
   9.000    0.699  28.715    1.407 -76.511    0.171 -53.281    0.381  38.334
   9.500    0.728  21.576    1.274 -85.139    0.171 -61.641    0.422  29.937
  10.000    0.758  14.872    1.163 -94.962    0.172 -71.025    0.480  23.474
  10.500    0.780   7.933    1.049 -104.463    0.170 -80.151    0.532  15.766
  11.000    0.798   0.764    0.930 -113.343    0.164 -89.817    0.574   7.034
  11.500    0.812  -6.295    0.830 -122.653    0.158 -99.618    0.614  -0.014
  12.000    0.819 -13.461    0.724 -131.621    0.148 -109.908    0.653  -8.168
!     DEEMBEDDED NOISE DATA
!FREQUENCY    FMIN    GAMMA OPT        Rn
!  (GHz)      (dB)    Mag    Ang   (NORMALIZED)
