! Filename: 46bfg403.001
! BFG403W Field A1
! V1=8.879E-001V,V2=4.000E+000V, I1=8.745E-005A, I2=5.990E-003A
# GHz   S   MA   R 50
!                S11              S21              S12              S22
!Freq(GHz)  Mag     Ang      Mag     Ang      Mag     Ang      Mag     Ang 
   0.040    0.806  -1.501   10.444 175.534    0.001  43.736    0.986  -0.229
   0.100    0.810  -3.784   10.250 173.996    0.001  86.097    0.990  -1.789
   0.200    0.806  -7.661   10.182 169.225    0.003  83.064    0.986  -4.269
   0.300    0.797 -11.461   10.101 164.484    0.004  81.278    0.984  -6.420
   0.400    0.787 -15.032   10.005 159.352    0.005  79.699    0.979  -8.676
   0.500    0.773 -19.040    9.863 154.257    0.006  76.354    0.972 -10.684
   0.600    0.759 -22.451    9.669 149.515    0.007  74.794    0.966 -12.702
   0.700    0.742 -25.752    9.440 144.883    0.008  72.872    0.958 -14.767
   0.800    0.725 -29.115    9.227 140.292    0.009  71.456    0.949 -16.670
   0.900    0.706 -32.177    8.997 135.893    0.010  69.774    0.941 -18.582
   1.000    0.686 -35.224    8.754 131.584    0.011  68.463    0.932 -20.416
   1.100    0.667 -38.061    8.509 127.536    0.012  67.060    0.924 -22.091
   1.200    0.648 -40.809    8.266 123.516    0.012  66.189    0.915 -23.870
   1.300    0.629 -43.427    8.012 119.683    0.013  65.465    0.906 -25.537
   1.400    0.611 -45.877    7.780 116.064    0.014  64.451    0.897 -27.138
   1.500    0.590 -48.358    7.544 112.452    0.015  63.841    0.889 -28.710
   1.600    0.572 -50.690    7.322 109.021    0.015  63.345    0.880 -30.259
   1.700    0.554 -52.977    7.101 105.689    0.016  62.809    0.872 -31.786
   1.800    0.537 -55.161    6.888 102.457    0.017  62.269    0.865 -33.319
   1.900    0.521 -57.168    6.683  99.384    0.017  62.060    0.857 -34.834
   2.000    0.504 -59.229    6.488  96.345    0.018  61.846    0.850 -36.327
   2.200    0.474 -63.136    6.125  90.530    0.019  61.402    0.835 -39.272
   2.400    0.445 -66.859    5.790  84.981    0.021  61.133    0.821 -42.158
   2.600    0.418 -70.656    5.485  79.686    0.023  60.802    0.807 -45.058
   2.800    0.393 -74.301    5.207  74.600    0.024  60.396    0.793 -47.893
   3.000    0.369 -77.979    4.958  69.691    0.026  60.012    0.780 -50.796
   3.500    0.314 -87.816    4.425  57.969    0.031  58.141    0.745 -57.980
   4.000    0.267 -98.700    3.999  46.785    0.038  55.480    0.709 -65.359
   4.500    0.227 -112.307    3.656  35.992    0.045  51.171    0.671 -73.034
   5.000    0.192 -129.014    3.366  25.209    0.052  45.780    0.626 -80.916
   5.500    0.162 -149.819    3.097  14.313    0.059  39.868    0.574 -88.618
   6.000    0.158 -176.194    2.910   3.103    0.069  31.035    0.517 -98.624
   6.500    0.158 165.443    2.700  -6.273    0.078  28.940    0.479 -106.457
   7.000    0.133 138.144    2.364 -16.496    0.071  27.117    0.397 -108.110
   7.500    0.210 128.102    2.394 -27.163    0.103  16.096    0.379 -128.869
   8.000    0.265 108.493    2.259 -40.102    0.116   2.340    0.300 -149.126
   8.500    0.306  91.302    2.062 -52.385    0.121  -9.187    0.217 -171.098
   9.000    0.356  78.283    1.912 -64.159    0.132 -19.911    0.183 157.199
   9.500    0.405  64.241    1.737 -76.621    0.136 -33.411    0.182 115.051
  10.000    0.449  52.091    1.569 -89.433    0.140 -46.021    0.235  79.735
  10.500    0.487  39.650    1.384 -102.221    0.139 -60.395    0.307  54.378
  11.000    0.511  27.568    1.191 -114.002    0.131 -74.624    0.378  34.831
  11.500    0.534  16.901    1.024 -126.041    0.124 -88.460    0.449  19.729
  12.000    0.543   5.308    0.844 -136.878    0.107 -104.981    0.505   5.084
!     DEEMBEDDED NOISE DATA
!FREQUENCY    FMIN    GAMMA OPT        Rn
!  (GHz)      (dB)    Mag    Ang   (NORMALIZED)
