! Filename BFG424F_5V_6mA.prm
! Simulation_Values
! Created	by	janssen	on	nov	2006			
!	Column ranking S11, S21,S12,S22 both magnitude and phase.								
!	VCE	=	5	V,	IC	=	6	mA	
!	Common	Emitter	S-Parameters						
#	GHZ	S	MA	R	50				
	5.00E-01	0.735	-43.33	14.969	148.27	0.023	63.13	0.871	-20.34
	6.00E-01	0.709	-51.13	14.387	142.93	0.026	60.46	0.842	-23.54
	7.00E-01	0.680	-58.69	13.790	137.90	0.029	58.81	0.813	-26.41
	8.00E-01	0.650	-65.84	13.164	133.25	0.032	56.83	0.784	-28.98
	9.00E-01	0.627	-72.61	12.527	129.08	0.034	55.06	0.755	-31.41
	1.00E+00	0.603	-78.99	11.930	125.08	0.036	53.78	0.728	-33.50
	1.10E+00	0.580	-85.23	11.355	121.44	0.038	52.62	0.703	-35.43
	1.20E+00	0.557	-90.96	10.804	118.06	0.040	51.62	0.679	-37.15
	1.30E+00	0.538	-96.66	10.307	114.87	0.041	50.81	0.656	-38.78
	1.40E+00	0.521	-102.13	9.822	111.89	0.043	50.32	0.636	-40.24
	1.50E+00	0.506	-107.29	9.389	109.12	0.044	49.72	0.618	-41.52
	1.60E+00	0.491	-112.12	8.984	106.51	0.045	49.46	0.600	-42.93
	1.70E+00	0.478	-116.86	8.591	104.04	0.046	49.30	0.583	-44.14
	1.80E+00	0.467	-121.76	8.217	101.69	0.048	49.24	0.568	-45.33
	1.90E+00	0.457	-126.05	7.880	99.48	0.049	49.34	0.553	-46.48
	2.00E+00	0.449	-130.25	7.575	97.46	0.050	49.37	0.541	-47.61
	2.10E+00	0.442	-134.35	7.284	95.36	0.051	49.49	0.529	-48.84
	2.20E+00	0.436	-138.40	7.009	93.41	0.052	49.42	0.517	-49.91
	2.30E+00	0.430	-142.36	6.742	91.56	0.053	49.84	0.506	-51.04
	2.40E+00	0.427	-145.97	6.511	89.82	0.054	50.15	0.495	-52.19
	2.50E+00	0.425	-149.56	6.282	88.09	0.055	50.75	0.485	-53.36
	2.60E+00	0.422	-152.99	6.079	86.31	0.056	50.86	0.476	-54.63
	2.70E+00	0.418	-156.59	5.878	84.74	0.057	51.20	0.466	-55.79
	2.80E+00	0.418	-159.83	5.690	83.16	0.058	51.67	0.458	-56.84
	2.90E+00	0.418	-162.95	5.513	81.68	0.060	52.10	0.449	-58.12
	3.00E+00	0.418	-165.77	5.348	80.18	0.061	52.39	0.441	-59.34
	3.10E+00	0.418	-169.05	5.198	78.66	0.062	52.50	0.432	-60.64
	3.20E+00	0.418	-171.85	5.048	77.25	0.063	53.04	0.424	-61.87
	3.30E+00	0.419	-174.80	4.901	75.89	0.065	53.59	0.417	-63.24
	3.40E+00	0.422	-177.42	4.767	74.46	0.066	53.72	0.411	-64.79
	3.50E+00	0.425	-179.83	4.635	73.14	0.067	54.20	0.404	-66.32
	3.60E+00	0.424	177.31	4.518	71.74	0.069	54.48	0.396	-67.89
	3.70E+00	0.428	174.63	4.411	70.42	0.070	54.76	0.387	-69.39
	3.80E+00	0.432	172.33	4.297	69.22	0.072	55.10	0.380	-70.83
	3.90E+00	0.436	170.35	4.196	68.00	0.073	55.52	0.374	-72.34
	4.00E+00	0.437	167.82	4.094	66.66	0.075	55.70	0.368	-74.12
	4.10E+00	0.440	165.61	3.996	65.51	0.077	55.84	0.362	-75.99
	4.20E+00	0.443	163.20	3.906	64.20	0.078	56.01	0.355	-77.86
	4.30E+00	0.449	161.12	3.821	63.11	0.080	56.26	0.348	-79.34
	4.40E+00	0.455	159.37	3.733	61.87	0.081	56.54	0.343	-80.93
	4.50E+00	0.455	157.92	3.652	60.69	0.084	56.78	0.339	-82.78
	4.60E+00	0.457	155.38	3.575	59.57	0.086	56.74	0.334	-85.08
	4.70E+00	0.462	153.22	3.497	58.38	0.087	56.67	0.328	-87.33
	4.80E+00	0.471	151.75	3.433	57.15	0.089	56.86	0.322	-89.39
	4.90E+00	0.472	149.97	3.365	56.14	0.091	56.75	0.317	-91.47
	5.00E+00	0.478	148.38	3.294	55.06	0.093	56.77	0.311	-93.39
	5.10E+00	0.480	146.53	3.236	53.83	0.095	56.90	0.306	-95.45
	5.20E+00	0.484	144.83	3.173	52.84	0.097	56.95	0.301	-97.78
	5.30E+00	0.492	142.95	3.113	51.74	0.099	56.66	0.295	-100.17
	5.40E+00	0.497	141.64	3.061	50.57	0.101	56.50	0.290	-102.51
	5.50E+00	0.500	140.16	2.999	49.64	0.102	56.61	0.286	-104.78
	5.60E+00	0.503	138.46	2.938	48.43	0.105	56.51	0.284	-107.41
	5.70E+00	0.512	136.91	2.893	47.38	0.107	56.20	0.281	-110.10
	5.80E+00	0.517	135.76	2.841	46.50	0.109	56.19	0.277	-112.84
	5.90E+00	0.521	134.31	2.790	45.25	0.111	56.05	0.272	-115.55
	6.00E+00	0.524	132.84	2.749	44.37	0.113	55.82	0.269	-118.29
	6.10E+00	0.530	131.33	2.698	43.44	0.115	55.52	0.267	-121.14
	6.20E+00	0.535	129.78	2.645	42.12	0.116	55.34	0.266	-124.39
	6.30E+00	0.544	128.82	2.610	41.11	0.119	55.26	0.263	-127.38
	6.40E+00	0.545	127.71	2.564	40.29	0.121	55.08	0.261	-129.94
	6.50E+00	0.547	126.29	2.522	39.19	0.123	54.72	0.260	-132.47
	6.60E+00	0.553	124.64	2.480	38.27	0.125	54.58	0.259	-135.36
	6.70E+00	0.559	123.64	2.435	37.39	0.127	54.26	0.260	-138.48
	6.80E+00	0.566	122.44	2.398	36.17	0.130	53.83	0.260	-142.02
	6.90E+00	0.570	121.49	2.367	35.34	0.131	53.59	0.259	-144.92
	7.00E+00	0.572	120.41	2.323	34.52	0.133	53.56	0.259	-147.24
	7.10E+00	0.573	118.97	2.290	33.47	0.136	52.99	0.260	-149.69
	7.20E+00	0.581	117.71	2.254	32.67	0.138	52.56	0.262	-152.25
	7.30E+00	0.586	116.79	2.215	31.69	0.140	52.25	0.264	-155.43
	7.40E+00	0.591	115.79	2.187	30.50	0.142	52.10	0.265	-158.78
	7.50E+00	0.595	114.56	2.155	29.81	0.144	51.51	0.267	-161.87
	7.60E+00	0.600	113.81	2.122	28.96	0.146	51.13	0.268	-164.27
	7.70E+00	0.602	112.74	2.093	28.06	0.148	50.95	0.272	-166.57
	7.80E+00	0.606	111.63	2.066	27.25	0.151	50.53	0.275	-169.04
	7.90E+00	0.611	110.28	2.029	26.02	0.153	49.69	0.277	-172.24
	8.00E+00	0.615	109.68	2.008	25.14	0.153	49.47	0.278	-174.95
	8.10E+00	0.618	108.68	1.977	24.65	0.156	49.55	0.281	-176.96
	8.20E+00	0.622	107.88	1.947	23.65	0.159	49.16	0.286	-178.68
	8.30E+00	0.627	106.91	1.924	22.67	0.161	48.42	0.294	179.01
	8.40E+00	0.627	105.88	1.894	21.91	0.162	47.99	0.299	176.35
	8.50E+00	0.633	104.88	1.862	20.59	0.164	47.76	0.302	173.29
	8.60E+00	0.637	104.11	1.848	19.85	0.167	47.20	0.304	171.12
	8.70E+00	0.641	103.32	1.816	19.34	0.168	46.78	0.308	169.44
	8.80E+00	0.644	102.39	1.790	18.30	0.170	46.51	0.316	167.67
	8.90E+00	0.648	101.74	1.772	17.49	0.173	46.15	0.322	165.32
	9.00E+00	0.648	100.84	1.742	16.74	0.176	45.26	0.326	163.15
	9.10E+00	0.652	99.80	1.727	15.52	0.177	44.68	0.327	161.40
	9.20E+00	0.658	99.00	1.714	14.97	0.178	44.37	0.331	160.16
	9.30E+00	0.663	98.60	1.678	14.13	0.181	43.88	0.340	158.58
	9.40E+00	0.665	97.62	1.650	12.77	0.183	43.07	0.349	156.51
	9.50E+00	0.667	96.99	1.636	11.98	0.184	42.63	0.354	153.72
	9.60E+00	0.673	96.21	1.603	11.20	0.186	42.31	0.355	152.04
	9.70E+00	0.678	95.16	1.593	10.18	0.189	41.78	0.355	150.91
	9.80E+00	0.682	93.89	1.573	9.33	0.191	40.69	0.361	149.70
	9.90E+00	0.679	93.09	1.529	8.50	0.191	40.07	0.368	147.89
	1.00E+01	0.680	92.86	1.500	7.65	0.191	39.76	0.373	145.93
	1.01E+01	0.682	92.04	1.483	7.60	0.193	39.43	0.374	144.58
	1.02E+01	0.685	91.37	1.457	7.06	0.194	38.98	0.378	143.98
	1.03E+01	0.690	90.75	1.449	6.38	0.196	38.80	0.384	143.39
	1.04E+01	0.690	89.82	1.431	6.00	0.198	38.19	0.395	142.11
	1.05E+01	0.695	88.86	1.409	5.02	0.199	37.44	0.401	139.89
	1.06E+01	0.700	88.09	1.403	3.68	0.199	37.03	0.404	137.62
	1.07E+01	0.702	87.67	1.385	3.29	0.201	36.95	0.403	136.43
	1.08E+01	0.700	87.04	1.362	2.53	0.203	36.23	0.405	136.38
	1.09E+01	0.701	86.34	1.348	2.01	0.203	35.56	0.412	136.15
	1.10E+01	0.704	85.54	1.325	1.42	0.204	35.35	0.424	134.98
	1.11E+01	0.711	84.99	1.296	0.30	0.205	34.82	0.429	133.11
	1.12E+01	0.720	84.16	1.286	-0.40	0.205	34.26	0.431	131.37
	1.13E+01	0.726	83.82	1.270	-0.41	0.205	34.36	0.430	130.62
	1.14E+01	0.725	82.44	1.262	-1.10	0.208	34.65	0.435	130.68
	1.15E+01	0.727	81.44	1.257	-2.02	0.211	34.32	0.444	129.56
	1.16E+01	0.729	79.95	1.242	-2.92	0.214	33.43	0.452	128.46
	1.17E+01	0.723	79.26	1.225	-4.27	0.215	32.75	0.453	126.81
	1.18E+01	0.730	78.56	1.215	-4.78	0.218	32.47	0.451	126.04
	1.19E+01	0.726	77.01	1.198	-5.47	0.221	31.65	0.453	126.04
	1.20E+01	0.716	76.31	1.184	-6.94	0.221	30.29	0.467	125.62
	1.21E+01	0.708	75.33	1.159	-7.97	0.221	29.71	0.474	123.49
	1.22E+01	0.707	74.81	1.138	-8.51	0.224	28.88	0.475	122.58
	1.23E+01	0.699	74.58	1.134	-10.18	0.224	26.81	0.482	122.00
	1.24E+01	0.695	74.27	1.106	-10.78	0.218	26.53	0.485	120.96
	1.25E+01	0.695	73.29	1.075	-11.20	0.216	26.12	0.495	120.63
	1.26E+01	0.698	73.40	1.046	-11.64	0.214	27.46	0.498	117.93
	1.27E+01	0.693	73.22	1.033	-11.88	0.218	27.32	0.493	116.49
	1.28E+01	0.687	72.16	1.009	-12.53	0.217	26.85	0.488	115.38
	1.29E+01	0.694	71.42	0.997	-12.73	0.218	27.08	0.485	115.60
	1.30E+01	0.694	71.52	0.987	-12.66	0.222	27.04	0.489	115.79
	1.31E+01	0.692	70.99	0.971	-13.40	0.223	26.10	0.496	115.66
	1.32E+01	0.687	70.37	0.964	-14.13	0.223	25.72	0.504	114.83
	1.33E+01	0.688	69.81	0.956	-14.18	0.224	25.76	0.505	112.97
	1.34E+01	0.685	69.29	0.945	-14.89	0.226	25.29	0.505	113.27
	1.35E+01	0.689	69.22	0.936	-15.31	0.226	24.88	0.510	112.66
	1.36E+01	0.684	68.71	0.922	-15.54	0.227	24.86	0.518	112.48
	1.37E+01	0.682	68.16	0.906	-16.42	0.230	24.75	0.522	111.42
	1.38E+01	0.687	67.24	0.900	-17.14	0.231	24.04	0.521	110.15
	1.39E+01	0.685	67.30	0.891	-17.40	0.231	23.84	0.516	109.23
	1.40E+01	0.683	66.63	0.879	-18.04	0.233	23.97	0.518	109.04
	1.41E+01	0.678	65.81	0.866	-18.74	0.234	23.19	0.524	108.78
	1.42E+01	0.680	65.17	0.848	-19.39	0.236	22.38	0.530	107.91
	1.43E+01	0.679	64.59	0.834	-20.36	0.236	22.53	0.534	107.03
	1.44E+01	0.683	64.49	0.832	-20.56	0.238	22.36	0.530	106.46
	1.45E+01	0.673	63.92	0.816	-20.84	0.242	21.53	0.531	106.15
	1.46E+01	0.669	62.99	0.802	-21.13	0.242	20.64	0.533	105.40
	1.47E+01	0.675	61.80	0.789	-21.45	0.240	20.65	0.533	104.15
	1.48E+01	0.677	62.44	0.774	-21.97	0.243	20.63	0.528	103.08
	1.49E+01	0.664	61.54	0.764	-22.97	0.247	19.81	0.527	103.15
	1.50E+01	0.665	60.39	0.761	-23.03	0.245	18.86	0.532	103.78
