! Filename: 16bfg403.001
! BFG403W Field A2
! V1=9.150E-001V,V2=1.000E+000V, I1=1.144E-004A, I2=6.010E-003A
# GHz   S   MA   R 50
!                S11              S21              S12              S22
!Freq(GHz)  Mag     Ang      Mag     Ang      Mag     Ang      Mag     Ang 
   0.040    0.743  -3.204    8.004 176.485    0.001  42.480    0.910  -0.676
   0.100    0.744  -7.545    8.079 172.440    0.003  83.606    0.912  -2.565
   0.200    0.731 -14.847    8.013 164.829    0.005  77.889    0.906  -5.516
   0.300    0.711 -21.958    7.741 157.019    0.008  73.841    0.898  -8.256
   0.400    0.686 -28.438    7.456 150.166    0.010  69.699    0.887 -10.742
   0.500    0.655 -36.506    7.142 143.079    0.012  65.243    0.875 -13.067
   0.600    0.625 -42.385    6.823 136.883    0.013  62.058    0.862 -15.227
   0.700    0.594 -48.036    6.498 131.023    0.015  59.027    0.850 -17.320
   0.800    0.561 -53.793    6.163 125.198    0.016  56.561    0.837 -19.249
   0.900    0.529 -59.189    5.819 119.805    0.017  54.457    0.825 -21.126
   1.000    0.498 -64.289    5.495 114.793    0.018  52.558    0.814 -22.908
   1.100    0.469 -68.988    5.208 110.190    0.019  51.154    0.803 -24.572
   1.200    0.441 -73.489    4.934 105.752    0.020  50.144    0.793 -26.250
   1.300    0.417 -77.881    4.675 101.522    0.021  49.170    0.784 -27.841
   1.400    0.393 -81.967    4.438  97.705    0.021  48.572    0.775 -29.385
   1.500    0.370 -86.253    4.212  93.874    0.022  48.064    0.767 -30.951
   1.600    0.348 -90.345    4.011  90.314    0.023  47.725    0.759 -32.529
   1.700    0.329 -94.252    3.824  86.894    0.024  47.483    0.752 -34.073
   1.800    0.312 -98.096    3.659  83.656    0.024  47.452    0.744 -35.661
   1.900    0.296 -101.684    3.509  80.545    0.025  47.486    0.737 -37.258
   2.000    0.280 -105.406    3.371  77.512    0.026  47.532    0.730 -38.842
   2.200    0.253 -113.113    3.115  71.687    0.027  47.784    0.716 -42.034
   2.400    0.228 -121.170    2.888  66.095    0.029  48.115    0.702 -45.209
   2.600    0.208 -129.355    2.695  60.766    0.031  48.298    0.687 -48.435
   2.800    0.191 -138.056    2.528  55.648    0.033  48.314    0.672 -51.700
   3.000    0.177 -147.272    2.378  50.625    0.036  48.079    0.657 -55.021
   3.500    0.155 -173.159    2.069  38.610    0.043  46.438    0.616 -63.490
   4.000    0.154 160.888    1.828  27.004    0.051  43.544    0.572 -72.147
   4.500    0.172 137.899    1.635  15.769    0.060  38.838    0.524 -81.192
   5.000    0.199 118.341    1.469   4.589    0.068  32.853    0.468 -90.464
   5.500    0.235 102.203    1.326  -6.693    0.076  25.259    0.406 -100.452
   6.000    0.266  91.328    1.219 -16.482    0.089  20.682    0.360 -111.091
   6.500    0.312  80.372    1.123 -27.883    0.101   9.798    0.293 -125.993
   7.000    0.325  67.660    0.971 -35.551    0.098  13.138    0.237 -127.636
   7.500    0.380  62.410    0.948 -46.798    0.124  -1.952    0.197 -157.268
   8.000    0.425  53.266    0.863 -58.078    0.130 -12.809    0.144 170.557
   8.500    0.471  44.780    0.787 -68.887    0.136 -23.928    0.128 128.498
   9.000    0.507  36.980    0.717 -78.589    0.143 -32.938    0.155  92.792
   9.500    0.551  29.319    0.656 -88.915    0.148 -44.078    0.209  69.655
  10.000    0.583  22.142    0.600 -99.397    0.151 -54.972    0.282  52.585
  10.500    0.619  14.605    0.537 -110.524    0.149 -67.756    0.354  37.156
  11.000    0.644   7.086    0.477 -121.111    0.143 -80.476    0.425  23.633
  11.500    0.660   0.568    0.420 -129.683    0.136 -87.828    0.474  12.742
  12.000    0.686  -6.537    0.375 -141.568    0.132 -103.075    0.548   2.901
