! Filename: 38bfg410.001
! BFG410W Field B1
! V1=8.639E-001V,V2=3.000E+000V, I1=1.160E-004A, I2=8.000E-003A
# GHz   S   MA   R 50
!                S11              S21              S12              S22
!Freq(GHz)  Mag     Ang      Mag     Ang      Mag     Ang      Mag     Ang 
   0.040    0.697  -2.045   18.140 175.901    0.001  38.160    0.980  -0.800
   0.100    0.706  -6.371   17.787 172.353    0.003  88.292    0.983  -3.134
   0.200    0.696 -12.865   17.446 165.457    0.005  81.184    0.971  -6.948
   0.300    0.682 -19.240   17.103 159.202    0.007  78.644    0.962 -10.234
   0.400    0.664 -25.383   16.680 152.578    0.010  75.602    0.946 -13.601
   0.500    0.640 -31.336   16.168 146.403    0.012  72.032    0.927 -16.489
   0.600    0.617 -36.925   15.589 140.582    0.014  69.680    0.909 -19.283
   0.700    0.593 -42.283   14.951 135.058    0.016  67.151    0.888 -21.999
   0.800    0.567 -47.413   14.352 129.760    0.017  65.340    0.868 -24.369
   0.900    0.541 -52.117   13.755 124.767    0.019  63.476    0.848 -26.678
   1.000    0.515 -56.646   13.145 120.032    0.020  61.843    0.828 -28.790
   1.100    0.491 -60.927   12.572 115.625    0.022  60.373    0.810 -30.733
   1.200    0.467 -65.037   12.019 111.363    0.023  59.216    0.792 -32.663
   1.300    0.445 -68.898   11.487 107.380    0.024  58.139    0.775 -34.336
   1.400    0.425 -72.632   11.001 103.620    0.026  57.168    0.759 -35.993
   1.500    0.404 -76.392   10.532  99.956    0.027  56.342    0.745 -37.570
   1.600    0.385 -79.999   10.099  96.475    0.028  55.631    0.731 -39.124
   1.700    0.367 -83.381    9.691  93.121    0.029  54.860    0.718 -40.647
   1.800    0.350 -86.825    9.304  89.917    0.031  54.160    0.706 -42.133
   1.900    0.335 -90.054    8.947  86.856    0.032  53.560    0.695 -43.643
   2.000    0.320 -93.312    8.611  83.847    0.033  52.962    0.684 -45.135
   2.200    0.293 -99.973    8.003  78.124    0.036  51.792    0.663 -48.035
   2.400    0.269 -106.649    7.465  72.660    0.038  50.690    0.644 -50.909
   2.600    0.247 -113.639    6.989  67.432    0.041  49.404    0.625 -53.838
   2.800    0.228 -120.794    6.564  62.363    0.044  48.065    0.607 -56.774
   3.000    0.211 -128.446    6.189  57.477    0.047  46.607    0.590 -59.764
   3.500    0.179 -150.163    5.402  45.770    0.055  42.362    0.547 -67.337
   4.000    0.164 -175.018    4.780  34.486    0.064  37.348    0.502 -75.142
   4.500    0.171 160.082    4.284  23.596    0.073  31.287    0.456 -83.610
   5.000    0.192 136.794    3.857  12.743    0.083  24.636    0.404 -92.232
   5.500    0.226 115.746    3.468   1.604    0.090  16.718    0.339 -100.946
   6.000    0.264 103.100    3.187  -8.281    0.101  10.410    0.295 -111.351
   6.500    0.303  88.804    2.878 -18.510    0.107   3.206    0.232 -120.505
   7.000    0.281  79.340    2.602 -23.672    0.114   7.999    0.237 -117.410
   7.500    0.378  73.641    2.505 -36.735    0.134  -7.187    0.167 -149.785
   8.000    0.443  64.049    2.328 -48.027    0.146 -17.837    0.125 173.316
   8.500    0.509  53.533    2.113 -60.109    0.151 -30.354    0.114 114.745
   9.000    0.559  44.173    1.914 -70.686    0.154 -40.320    0.156  78.043
   9.500    0.598  34.688    1.704 -81.033    0.150 -50.349    0.213  52.523
  10.000    0.650  27.820    1.569 -92.252    0.158 -60.541    0.292  40.127
  10.500    0.690  19.430    1.403 -103.086    0.158 -71.156    0.362  27.033
  11.000    0.729  10.745    1.232 -114.342    0.154 -84.388    0.439  14.356
  11.500    0.748   2.073    1.059 -125.055    0.143 -96.153    0.505   2.818
  12.000    0.765  -6.557    0.896 -135.690    0.133 -109.677    0.567  -8.487
!     DEEMBEDDED NOISE DATA
!FREQUENCY    FMIN    GAMMA OPT        Rn
!  (GHz)      (dB)    Mag    Ang   (NORMALIZED)
