! Filename: 213bfg410.001
! BFG410W Field B1
! V1=8.846E-001V,V2=2.000E+000V, I1=2.085E-004A, I2=1.299E-002A
# GHz   S   MA   R 50
!                S11              S21              S12              S22
!Freq(GHz)  Mag     Ang      Mag     Ang      Mag     Ang      Mag     Ang 
   0.040    0.561  -3.099   23.083 175.946    0.001  73.734    0.968  -0.648
   0.100    0.566  -8.527   22.765 171.199    0.003  89.194    0.970  -3.552
   0.200    0.552 -16.862   22.144 162.463    0.005  80.767    0.954  -8.183
   0.300    0.534 -24.832   21.466 154.723    0.007  77.972    0.938 -12.005
   0.400    0.510 -32.439   20.573 146.908    0.009  74.304    0.914 -15.776
   0.500    0.482 -39.789   19.549 139.802    0.011  71.201    0.886 -18.764
   0.600    0.456 -46.375   18.503 133.332    0.013  69.149    0.862 -21.598
   0.700    0.430 -52.484   17.417 127.303    0.015  66.892    0.834 -24.239
   0.800    0.403 -58.304   16.416 121.732    0.016  65.712    0.810 -26.419
   0.900    0.378 -63.493   15.473 116.594    0.018  64.318    0.788 -28.539
   1.000    0.354 -68.429   14.560 111.875    0.019  63.213    0.766 -30.420
   1.100    0.333 -73.115   13.743 107.514    0.021  62.245    0.747 -32.139
   1.200    0.314 -77.590   12.980 103.353    0.022  61.511    0.730 -33.851
   1.300    0.296 -81.918   12.274  99.508    0.023  60.882    0.713 -35.364
   1.400    0.280 -85.954   11.645  95.928    0.025  60.313    0.698 -36.820
   1.500    0.264 -90.305   11.056  92.438    0.026  59.764    0.685 -38.249
   1.600    0.250 -94.326   10.523  89.171    0.027  59.229    0.672 -39.665
   1.700    0.237 -98.370   10.030  86.006    0.029  58.652    0.661 -41.073
   1.800    0.225 -102.347    9.576  82.982    0.030  58.158    0.650 -42.465
   1.900    0.214 -106.207    9.158  80.096    0.032  57.615    0.640 -43.907
   2.000    0.204 -110.194    8.773  77.269    0.033  57.051    0.631 -45.327
   2.200    0.186 -118.515    8.090  71.879    0.036  55.863    0.612 -48.161
   2.400    0.171 -127.310    7.498  66.712    0.039  54.589    0.595 -51.009
   2.600    0.159 -136.545    6.980  61.777    0.042  53.092    0.578 -53.954
   2.800    0.149 -146.107    6.524  56.966    0.046  51.451    0.562 -56.862
   3.000    0.143 -156.273    6.126  52.305    0.049  49.699    0.546 -59.900
   3.500    0.139 177.235    5.305  41.100    0.058  44.567    0.504 -67.629
   4.000    0.153 152.495    4.665  30.232    0.068  38.770    0.460 -75.616
   4.500    0.181 132.767    4.161  19.651    0.078  32.059    0.414 -84.300
   5.000    0.217 115.688    3.730   9.103    0.087  24.906    0.362 -93.102
   5.500    0.260 100.244    3.343  -1.707    0.095  16.742    0.297 -101.894
   6.000    0.299  90.738    3.062 -11.373    0.107   9.868    0.253 -112.942
   6.500    0.340  79.112    2.759 -21.323    0.113   2.440    0.191 -122.529
   7.000    0.323  70.601    2.501 -26.437    0.120   5.899    0.196 -118.771
   7.500    0.412  65.827    2.391 -39.260    0.139  -9.022    0.127 -157.325
   8.000    0.475  57.541    2.216 -50.287    0.150 -19.538    0.100 154.772
   8.500    0.536  48.069    2.006 -62.031    0.154 -31.708    0.122  95.028
   9.000    0.583  39.537    1.816 -72.305    0.157 -41.564    0.175  66.630
   9.500    0.619  30.656    1.619 -82.386    0.153 -51.309    0.237  46.045
  10.000    0.667  24.255    1.488 -93.290    0.161 -61.352    0.314  35.488
  10.500    0.705  16.448    1.333 -103.814    0.160 -71.736    0.381  23.659
  11.000    0.741   8.181    1.174 -114.808    0.156 -84.537    0.456  11.926
  11.500    0.760  -0.030    1.013 -125.245    0.146 -95.872    0.519   1.066
  12.000    0.775  -8.331    0.859 -135.638    0.135 -108.913    0.579  -9.712
!     DEEMBEDDED NOISE DATA
!FREQUENCY    FMIN    GAMMA OPT        Rn
!  (GHz)      (dB)    Mag    Ang   (NORMALIZED)
