! Filename: 43bfg425.001
! BFG425W Field C1
! V1=8.107E-001V,V2=4.000E+000V, I1=2.873E-005A, I2=3.000E-003A
# GHz   S   MA   R 50
!                S11              S21              S12              S22
!Freq(GHz)  Mag     Ang      Mag     Ang      Mag     Ang      Mag     Ang 
   0.040    0.885  -3.079    9.697 176.624    0.002  54.711    0.984  -1.569
   0.100    0.890  -7.075    9.446 173.317    0.006  77.520    0.983  -3.939
   0.200    0.883 -14.131    9.355 167.168    0.011  76.335    0.976  -7.878
   0.300    0.871 -21.195    9.261 161.558    0.016  73.563    0.966 -11.688
   0.400    0.857 -28.101    9.142 155.364    0.021  70.017    0.953 -15.425
   0.500    0.839 -34.937    8.988 149.331    0.026  66.266    0.936 -19.054
   0.600    0.819 -41.568    8.736 143.789    0.031  62.690    0.917 -22.505
   0.700    0.798 -48.027    8.479 138.567    0.035  58.999    0.897 -25.823
   0.800    0.775 -54.527    8.252 133.300    0.038  55.708    0.875 -28.970
   0.900    0.751 -60.633    8.020 128.260    0.042  52.566    0.853 -31.979
   1.000    0.727 -66.783    7.761 123.294    0.045  49.540    0.831 -34.828
   1.100    0.703 -72.592    7.496 118.672    0.048  46.721    0.809 -37.519
   1.200    0.680 -78.311    7.237 114.127    0.050  44.150    0.787 -40.111
   1.300    0.657 -83.873    6.985 109.819    0.052  41.669    0.766 -42.573
   1.400    0.635 -89.359    6.746 105.617    0.054  39.374    0.745 -44.868
   1.500    0.614 -94.790    6.511 101.558    0.056  37.310    0.725 -47.069
   1.600    0.593 -100.214    6.289  97.600    0.057  35.377    0.706 -49.188
   1.700    0.574 -105.337    6.070  93.838    0.059  33.573    0.687 -51.256
   1.800    0.557 -110.347    5.852  90.165    0.060  31.916    0.669 -53.239
   1.900    0.541 -115.258    5.648  86.691    0.062  30.346    0.653 -55.211
   2.000    0.526 -120.118    5.450  83.271    0.063  28.942    0.636 -57.117
   2.200    0.499 -129.795    5.093  76.676    0.065  26.378    0.605 -60.815
   2.400    0.477 -139.298    4.769  70.385    0.067  24.178    0.577 -64.374
   2.600    0.459 -148.588    4.471  64.406    0.069  22.216    0.550 -67.896
   2.800    0.444 -157.723    4.205  58.620    0.071  20.430    0.524 -71.341
   3.000    0.434 -166.684    3.964  53.013    0.073  18.811    0.499 -74.852
   3.500    0.423 171.710    3.452  39.663    0.078  15.051    0.441 -83.677
   4.000    0.427 151.714    3.034  26.908    0.085  11.068    0.384 -92.921
   4.500    0.445 133.972    2.692  14.864    0.092   6.812    0.329 -103.119
   5.000    0.474 117.394    2.398   2.779    0.099   0.788    0.269 -115.373
   5.500    0.497 102.698    2.124  -8.359    0.104  -3.816    0.210 -126.849
   6.000    0.534  89.436    1.903 -19.882    0.111 -10.981    0.152 -146.762
   6.500    0.546  80.329    1.740 -27.917    0.123 -10.400    0.137 -161.052
   7.000    0.582  70.696    1.603 -37.968    0.137 -16.505    0.127 166.766
   7.500    0.634  59.604    1.446 -50.257    0.142 -28.746    0.144 118.697
   8.000    0.666  50.959    1.322 -60.288    0.150 -35.909    0.189  94.165
   8.500    0.702  42.122    1.195 -70.969    0.155 -45.225    0.250  73.938
   9.000    0.726  33.478    1.064 -80.685    0.154 -53.356    0.303  57.585
   9.500    0.751  25.611    0.958 -89.571    0.154 -61.769    0.344  46.404
  10.000    0.777  18.264    0.875 -99.944    0.157 -71.312    0.415  37.779
  10.500    0.795  10.997    0.786 -109.925    0.157 -80.567    0.477  28.093
  11.000    0.809   3.668    0.693 -119.356    0.151 -90.677    0.527  17.593
  11.500    0.820  -3.571    0.616 -129.203    0.145 -101.205    0.577   9.419
  12.000    0.825 -10.696    0.535 -138.846    0.135 -112.230    0.625   0.122
!     DEEMBEDDED NOISE DATA
!FREQUENCY    FMIN    GAMMA OPT        Rn
!  (GHz)      (dB)    Mag    Ang   (NORMALIZED)
