! Filename: 325bfg425.001
! BFG425W Field C1
! V1=8.521E-001V,V2=3.000E+000V, I1=3.334E-004A, I2=2.502E-002A
# GHz   S   MA   R 50
!                S11              S21              S12              S22
!Freq(GHz)  Mag     Ang      Mag     Ang      Mag     Ang      Mag     Ang 
   0.040    0.360  -7.501   38.909 173.090    0.002  74.514    0.933  -2.781
   0.100    0.365 -20.288   37.794 164.777    0.004  82.361    0.926  -8.775
   0.200    0.345 -39.541   35.237 151.244    0.008  76.200    0.878 -17.455
   0.300    0.321 -56.504   31.928 139.822    0.011  72.066    0.814 -24.382
   0.400    0.297 -71.842   28.596 129.968    0.014  69.401    0.749 -29.648
   0.500    0.276 -85.639   25.539 121.424    0.016  66.609    0.691 -33.605
   0.600    0.260 -97.248   22.834 114.537    0.019  64.972    0.641 -36.607
   0.700    0.247 -107.599   20.543 108.702    0.021  63.755    0.600 -38.951
   0.800    0.236 -117.110   18.594 103.396    0.023  62.979    0.565 -40.860
   0.900    0.228 -125.349   16.945  98.769    0.025  62.361    0.536 -42.581
   1.000    0.222 -132.981   15.525  94.589    0.027  61.635    0.512 -44.128
   1.100    0.217 -139.855   14.312  90.742    0.029  61.057    0.491 -45.581
   1.200    0.215 -146.015   13.259  87.171    0.032  60.388    0.473 -47.006
   1.300    0.213 -151.942   12.333  83.849    0.034  59.768    0.456 -48.331
   1.400    0.212 -157.426   11.529  80.738    0.036  59.040    0.441 -49.632
   1.500    0.213 -162.739   10.819  77.746    0.038  58.308    0.428 -50.912
   1.600    0.213 -167.829   10.187  74.867    0.040  57.502    0.416 -52.277
   1.700    0.214 -172.354    9.616  72.133    0.043  56.673    0.405 -53.650
   1.800    0.215 -176.911    9.106  69.480    0.045  55.732    0.395 -55.024
   1.900    0.217 178.977    8.647  66.890    0.047  54.811    0.385 -56.541
   2.000    0.219 175.146    8.228  64.372    0.050  53.764    0.376 -58.052
   2.200    0.225 167.443    7.498  59.496    0.054  51.619    0.357 -61.112
   2.400    0.232 160.240    6.885  54.776    0.059  49.437    0.340 -64.233
   2.600    0.241 153.692    6.354  50.157    0.064  47.062    0.322 -67.511
   2.800    0.250 147.419    5.897  45.700    0.069  44.585    0.305 -70.857
   3.000    0.261 141.632    5.499  41.318    0.074  41.973    0.287 -74.361
   3.500    0.291 128.101    4.693  30.632    0.086  35.097    0.243 -83.701
   4.000    0.325 115.849    4.073  20.177    0.097  27.787    0.195 -94.263
   4.500    0.361 104.978    3.587   9.971    0.109  20.127    0.148 -107.443
   5.000    0.404  94.326    3.177  -0.524    0.119  11.588    0.094 -128.587
   5.500    0.438  83.806    2.808 -10.115    0.126   4.418    0.049 -160.565
   6.000    0.482  74.323    2.511 -20.428    0.134  -4.537    0.057 116.116
   6.500    0.491  67.862    2.306 -27.356    0.147  -7.999    0.072 103.785
   7.000    0.528  60.918    2.132 -36.581    0.160 -15.685    0.123  89.005
   7.500    0.590  51.991    1.920 -48.118    0.163 -27.607    0.207  68.796
   8.000    0.626  44.730    1.759 -57.450    0.170 -35.605    0.263  59.294
   8.500    0.667  37.009    1.593 -67.435    0.173 -45.021    0.328  48.954
   9.000    0.696  29.047    1.424 -76.408    0.171 -53.312    0.381  38.584
   9.500    0.725  21.848    1.291 -85.034    0.170 -61.695    0.421  30.117
  10.000    0.755  15.107    1.177 -94.879    0.172 -71.082    0.479  23.628
  10.500    0.777   8.171    1.061 -104.382    0.170 -80.257    0.531  15.868
  11.000    0.796   0.989    0.940 -113.272    0.163 -89.915    0.573   7.109
  11.500    0.810  -6.197    0.840 -122.616    0.157 -99.763    0.613   0.050
  12.000    0.817 -13.382    0.732 -131.605    0.148 -110.054    0.652  -8.137
!     DEEMBEDDED NOISE DATA
!FREQUENCY    FMIN    GAMMA OPT        Rn
!  (GHz)      (dB)    Mag    Ang   (NORMALIZED)
