! Filename: 211bfg410.001
! BFG410W Field B1
! V1=8.795E-001V,V2=2.000E+000V, I1=1.735E-004A, I2=1.102E-002A
# GHz   S   MA   R 50
!                S11              S21              S12              S22
!Freq(GHz)  Mag     Ang      Mag     Ang      Mag     Ang      Mag     Ang 
   0.040    0.607  -2.795   21.514 176.088    0.001  62.664    0.972  -0.721
   0.100    0.612  -7.836   21.203 171.672    0.003  87.136    0.975  -3.423
   0.200    0.600 -15.504   20.665 163.443    0.005  80.979    0.959  -7.923
   0.300    0.584 -23.024   20.115 156.117    0.007  78.782    0.945 -11.612
   0.400    0.561 -30.076   19.394 148.636    0.010  75.110    0.924 -15.359
   0.500    0.534 -37.081   18.556 141.835    0.012  71.737    0.898 -18.327
   0.600    0.508 -43.230   17.676 135.555    0.014  69.332    0.876 -21.225
   0.700    0.481 -49.196   16.734 129.611    0.015  66.979    0.849 -23.971
   0.800    0.455 -54.804   15.860 124.106    0.017  65.130    0.826 -26.257
   0.900    0.428 -59.835   15.017 118.982    0.018  63.891    0.803 -28.471
   1.000    0.403 -64.622   14.198 114.197    0.020  62.451    0.781 -30.454
   1.100    0.380 -69.158   13.451 109.817    0.021  61.352    0.762 -32.265
   1.200    0.360 -73.512   12.752 105.595    0.023  60.512    0.744 -34.064
   1.300    0.340 -77.640   12.090 101.701    0.024  59.717    0.726 -35.650
   1.400    0.323 -81.571   11.499  98.044    0.025  59.015    0.711 -37.174
   1.500    0.304 -85.680   10.941  94.491    0.027  58.388    0.697 -38.660
   1.600    0.289 -89.580   10.437  91.142    0.028  57.817    0.684 -40.120
   1.700    0.274 -93.357    9.965  87.926    0.029  57.229    0.672 -41.560
   1.800    0.261 -97.102    9.524  84.851    0.031  56.592    0.660 -42.989
   1.900    0.248 -100.695    9.124  81.906    0.032  56.089    0.650 -44.444
   2.000    0.236 -104.437    8.750  79.023    0.033  55.495    0.639 -45.883
   2.200    0.215 -112.132    8.083  73.529    0.036  54.300    0.620 -48.742
   2.400    0.197 -120.055    7.504  68.270    0.039  53.106    0.602 -51.592
   2.600    0.182 -128.547    6.997  63.228    0.043  51.671    0.584 -54.547
   2.800    0.170 -137.333    6.550  58.395    0.046  50.074    0.567 -57.450
   3.000    0.160 -146.715    6.153  53.622    0.049  48.398    0.550 -60.472
   3.500    0.148 -172.447    5.338  42.260    0.058  43.539    0.508 -68.184
   4.000    0.153 161.762    4.701  31.276    0.067  37.884    0.464 -76.156
   4.500    0.177 139.995    4.198  20.604    0.078  31.322    0.417 -84.837
   5.000    0.209 121.088    3.766   9.970    0.087  24.262    0.365 -93.651
   5.500    0.251 104.112    3.376  -0.931    0.094  16.165    0.300 -102.515
   6.000    0.290  93.851    3.095 -10.660    0.106   9.372    0.255 -113.587
   6.500    0.331  81.625    2.789 -20.695    0.112   2.035    0.194 -123.302
   7.000    0.313  72.956    2.529 -25.822    0.119   5.740    0.198 -119.340
   7.500    0.404  67.813    2.419 -38.702    0.139  -9.195    0.131 -157.797
   8.000    0.467  59.246    2.243 -49.801    0.149 -19.741    0.103 155.338
   8.500    0.530  49.418    2.031 -61.609    0.154 -31.978    0.123  96.318
   9.000    0.577  40.664    1.838 -71.937    0.156 -41.818    0.176  67.560
   9.500    0.614  31.713    1.639 -82.059    0.153 -51.616    0.237  46.625
  10.000    0.663  25.135    1.506 -93.045    0.160 -61.687    0.314  35.897
  10.500    0.702  17.173    1.349 -103.643    0.160 -72.106    0.382  23.925
  11.000    0.738   8.858    1.187 -114.667    0.156 -84.942    0.456  12.100
  11.500    0.756   0.444    1.023 -125.124    0.145 -96.346    0.519   1.171
  12.000    0.772  -7.834    0.868 -135.605    0.135 -109.463    0.580  -9.668
!     DEEMBEDDED NOISE DATA
!FREQUENCY    FMIN    GAMMA OPT        Rn
!  (GHz)      (dB)    Mag    Ang   (NORMALIZED)
