! Filename: 26bfg410.001
! BFG410W Field B1
! V1=8.628E-001V,V2=2.000E+000V, I1=8.981E-005A, I2=6.000E-003A
# GHz   S   MA   R 50
!                S11              S21              S12              S22
!Freq(GHz)  Mag     Ang      Mag     Ang      Mag     Ang      Mag     Ang 
   0.040    0.748  -2.503   15.257 176.721    0.001  69.461    0.987  -0.886
   0.100    0.755  -5.876   14.984 173.369    0.003  89.176    0.986  -3.004
   0.200    0.748 -11.901   14.701 166.847    0.006  82.069    0.973  -6.926
   0.300    0.737 -17.854   14.513 161.133    0.008  80.662    0.967 -10.101
   0.400    0.720 -23.527   14.245 154.818    0.011  76.580    0.953 -13.604
   0.500    0.700 -29.153   13.894 149.155    0.013  72.529    0.935 -16.421
   0.600    0.680 -34.562   13.498 143.674    0.016  70.066    0.921 -19.351
   0.700    0.657 -39.810   13.036 138.296    0.018  67.053    0.900 -22.317
   0.800    0.634 -44.877   12.614 133.203    0.020  64.931    0.881 -24.835
   0.900    0.609 -49.559   12.187 128.274    0.021  62.634    0.862 -27.374
   1.000    0.584 -54.149   11.721 123.589    0.023  60.682    0.841 -29.680
   1.100    0.561 -58.558   11.289 119.220    0.025  58.995    0.823 -31.823
   1.200    0.537 -62.733   10.857 114.901    0.026  57.404    0.805 -33.969
   1.300    0.515 -66.759   10.433 110.870    0.028  55.927    0.786 -35.847
   1.400    0.493 -70.671   10.047 107.032    0.029  54.613    0.769 -37.690
   1.500    0.472 -74.565    9.660 103.250    0.030  53.518    0.753 -39.467
   1.600    0.451 -78.350    9.305  99.667    0.032  52.513    0.738 -41.158
   1.700    0.432 -81.988    8.962  96.211    0.033  51.468    0.723 -42.842
   1.800    0.414 -85.530    8.628  92.880    0.034  50.660    0.709 -44.472
   1.900    0.397 -88.920    8.324  89.710    0.035  49.823    0.696 -46.086
   2.000    0.381 -92.313    8.029  86.591    0.037  49.120    0.684 -47.657
   2.200    0.352 -99.167    7.498  80.651    0.039  47.721    0.660 -50.748
   2.400    0.324 -106.102    7.020  74.932    0.042  46.378    0.637 -53.778
   2.600    0.300 -113.196    6.587  69.478    0.045  45.043    0.616 -56.827
   2.800    0.278 -120.409    6.203  64.247    0.047  43.670    0.596 -59.879
   3.000    0.259 -127.863    5.860  59.173    0.050  42.201    0.576 -62.953
   3.500    0.222 -148.588    5.132  47.034    0.058  38.107    0.529 -70.712
   4.000    0.202 -171.755    4.550  35.380    0.067  33.219    0.480 -78.706
   4.500    0.203 164.335    4.080  24.163    0.076  27.396    0.432 -87.399
   5.000    0.219 141.369    3.673  13.049    0.085  20.889    0.377 -96.318
   5.500    0.249 119.943    3.301   1.709    0.092  13.080    0.311 -105.520
   6.000    0.286 106.327    3.030  -8.394    0.104   6.916    0.266 -116.626
   6.500    0.323  91.334    2.734 -18.756    0.110  -0.127    0.204 -126.890
   7.000    0.302  81.872    2.471 -24.149    0.116   4.773    0.204 -122.703
   7.500    0.397  74.609    2.369 -37.259    0.136 -10.377    0.143 -160.664
   8.000    0.461  64.537    2.198 -48.591    0.147 -20.876    0.117 156.309
   8.500    0.523  53.717    1.991 -60.647    0.152 -33.257    0.131 101.247
   9.000    0.571  44.282    1.801 -71.218    0.154 -43.111    0.180  71.523
   9.500    0.608  34.757    1.603 -81.484    0.151 -52.987    0.238  49.648
  10.000    0.657  27.745    1.473 -92.641    0.158 -63.001    0.315  38.025
  10.500    0.696  19.398    1.317 -103.392    0.158 -73.463    0.383  25.592
  11.000    0.732  10.754    1.158 -114.632    0.154 -86.484    0.457  13.405
  11.500    0.750   2.219    0.996 -125.229    0.143 -98.076    0.520   2.256
  12.000    0.766  -6.392    0.844 -135.864    0.132 -111.477    0.580  -8.787
!     DEEMBEDDED NOISE DATA
!FREQUENCY    FMIN    GAMMA OPT        Rn
!  (GHz)      (dB)    Mag    Ang   (NORMALIZED)
