! Filename: 435bfg425.001
! BFG425W Field C1
! V1=8.387E-001V,V2=4.000E+000V, I1=4.655E-004A, I2=3.500E-002A
# GHz   S   MA   R 50
!                S11              S21              S12              S22
!Freq(GHz)  Mag     Ang      Mag     Ang      Mag     Ang      Mag     Ang 
   0.040    0.279  -8.703   37.314 173.040    0.002  45.327    0.858  -2.111
   0.100    0.281 -22.441   36.368 163.945    0.004  63.318    0.855  -8.272
   0.200    0.270 -43.915   33.455 149.842    0.008  65.921    0.808 -16.621
   0.300    0.254 -62.120   29.837 138.545    0.011  65.870    0.749 -22.982
   0.400    0.243 -78.471   26.457 128.991    0.014  64.773    0.691 -27.560
   0.500    0.235 -93.373   23.498 120.826    0.016  63.407    0.643 -30.950
   0.600    0.229 -105.238   20.996 114.268    0.018  62.621    0.602 -33.690
   0.700    0.226 -115.574   18.914 108.723    0.020  62.113    0.567 -35.754
   0.800    0.224 -125.239   17.153 103.581    0.023  61.519    0.539 -37.582
   0.900    0.223 -133.508   15.655  99.023    0.025  61.210    0.514 -39.271
   1.000    0.221 -141.045   14.351  94.904    0.027  60.709    0.494 -40.705
   1.100    0.220 -147.700   13.239  91.102    0.029  60.091    0.476 -42.226
   1.200    0.221 -153.758   12.274  87.564    0.031  59.636    0.460 -43.645
   1.300    0.222 -159.519   11.429  84.247    0.033  59.046    0.446 -44.993
   1.400    0.224 -164.662   10.694  81.125    0.035  58.445    0.432 -46.384
   1.500    0.227 -169.740   10.040  78.098    0.038  57.729    0.421 -47.632
   1.600    0.229 -174.414    9.461  75.194    0.040  57.007    0.410 -49.025
   1.700    0.232 -178.696    8.940  72.403    0.042  56.188    0.400 -50.442
   1.800    0.235 177.169    8.469  69.712    0.045  55.336    0.391 -51.787
   1.900    0.237 173.160    8.043  67.142    0.047  54.382    0.382 -53.328
   2.000    0.240 169.434    7.656  64.612    0.049  53.434    0.373 -54.844
   2.200    0.247 162.317    6.983  59.742    0.054  51.334    0.355 -57.901
   2.400    0.255 155.509    6.409  54.994    0.058  49.178    0.339 -60.959
   2.600    0.265 149.438    5.918  50.309    0.063  46.810    0.321 -64.182
   2.800    0.275 143.451    5.497  45.861    0.068  44.399    0.305 -67.425
   3.000    0.285 137.864    5.128  41.480    0.073  41.829    0.288 -70.772
   3.500    0.315 124.979    4.380  30.765    0.085  35.049    0.244 -79.526
   4.000    0.348 113.196    3.808  20.237    0.096  27.850    0.197 -89.050
   4.500    0.384 102.661    3.353  10.003    0.108  20.302    0.150 -100.588
   5.000    0.426  92.187    2.971  -0.512    0.118  11.863    0.094 -117.593
   5.500    0.458  81.920    2.627 -10.072    0.125   4.757    0.044 -140.337
   6.000    0.501  72.608    2.352 -20.380    0.132  -4.077    0.040 113.163
   6.500    0.510  65.989    2.158 -27.354    0.146  -7.508    0.056  98.923
   7.000    0.545  59.176    1.996 -36.491    0.159 -15.164    0.107  85.401
   7.500    0.603  50.493    1.801 -47.993    0.162 -26.927    0.191  66.615
   8.000    0.638  43.340    1.652 -57.345    0.168 -34.845    0.248  57.763
   8.500    0.678  35.819    1.498 -67.311    0.172 -44.186    0.312  47.926
   9.000    0.705  27.981    1.342 -76.272    0.170 -52.414    0.366  37.813
   9.500    0.733  20.952    1.217 -84.877    0.170 -60.745    0.407  29.589
  10.000    0.762  14.308    1.113 -94.703    0.172 -70.053    0.466  23.413
  10.500    0.784   7.486    1.006 -104.228    0.170 -79.183    0.519  15.844
  11.000    0.802   0.431    0.893 -113.138    0.164 -88.794    0.562   7.195
  11.500    0.815  -6.600    0.799 -122.527    0.158 -98.635    0.604   0.232
  12.000    0.822 -13.695    0.697 -131.595    0.149 -108.881    0.645  -7.888
!     DEEMBEDDED NOISE DATA
!FREQUENCY    FMIN    GAMMA OPT        Rn
!  (GHz)      (dB)    Mag    Ang   (NORMALIZED)
