! Filename: 12bfg403.001
! BFG403W Field A1
! V1=8.680E-001V,V2=1.000E+000V, I1=2.905E-005A, I2=2.000E-003A
# GHz   S   MA   R 50
!                S11              S21              S12              S22
!Freq(GHz)  Mag     Ang      Mag     Ang      Mag     Ang      Mag     Ang 
   0.040    0.911  -1.550    5.494 177.863    0.001  37.533    0.989  -0.737
   0.100    0.915  -2.880    5.412 176.188    0.002  92.869    0.989  -2.032
   0.200    0.913  -5.801    5.405 172.502    0.003  86.019    0.988  -4.237
   0.300    0.911  -8.605    5.391 169.498    0.005  84.379    0.987  -6.380
   0.400    0.909 -11.212    5.395 165.513    0.007  83.135    0.984  -8.540
   0.500    0.902 -14.599    5.383 161.725    0.008  79.127    0.980 -10.609
   0.600    0.897 -17.306    5.334 158.236    0.010  77.022    0.976 -12.683
   0.700    0.893 -20.013    5.281 154.857    0.011  75.287    0.971 -14.831
   0.800    0.886 -22.872    5.243 151.389    0.013  73.400    0.966 -16.836
   0.900    0.878 -25.597    5.206 147.978    0.014  71.819    0.960 -18.921
   1.000    0.869 -28.419    5.165 144.466    0.015  70.063    0.953 -20.942
   1.100    0.861 -31.059    5.115 141.156    0.017  68.209    0.946 -22.919
   1.200    0.851 -33.742    5.065 137.793    0.018  66.684    0.939 -24.915
   1.300    0.843 -36.426    5.002 134.478    0.019  65.003    0.931 -26.873
   1.400    0.833 -38.986    4.956 131.257    0.021  63.500    0.923 -28.768
   1.500    0.821 -41.634    4.900 128.017    0.022  61.879    0.915 -30.635
   1.600    0.810 -44.231    4.849 124.790    0.023  60.580    0.906 -32.498
   1.700    0.799 -46.761    4.790 121.647    0.024  59.158    0.898 -34.328
   1.800    0.788 -49.302    4.721 118.469    0.025  57.706    0.888 -36.165
   1.900    0.777 -51.621    4.654 115.511    0.026  56.592    0.879 -37.965
   2.000    0.766 -54.066    4.583 112.487    0.027  55.438    0.870 -39.751
   2.200    0.742 -58.901    4.456 106.531    0.029  53.285    0.851 -43.245
   2.400    0.717 -63.528    4.330 100.719    0.031  51.366    0.832 -46.655
   2.600    0.694 -68.119    4.198  95.122    0.033  49.644    0.813 -50.019
   2.800    0.670 -72.660    4.072  89.592    0.034  47.996    0.793 -53.280
   3.000    0.647 -77.071    3.952  84.228    0.036  46.680    0.774 -56.568
   3.500    0.587 -88.170    3.674  71.109    0.041  43.489    0.724 -64.557
   4.000    0.530 -99.375    3.417  58.454    0.047  40.372    0.673 -72.546
   4.500    0.479 -111.196    3.194  46.283    0.054  36.610    0.622 -80.717
   5.000    0.425 -124.134    2.989  34.139    0.060  31.771    0.565 -89.076
   5.500    0.371 -138.311    2.778  22.001    0.066  26.272    0.502 -97.208
   6.000    0.332 -155.621    2.622   9.617    0.076  18.248    0.437 -107.899
   6.500    0.298 -170.183    2.433  -0.858    0.084  17.044    0.388 -115.949
   7.000    0.230 171.676    2.135 -11.700    0.074  15.259    0.300 -117.160
   7.500    0.283 151.203    2.154 -23.014    0.108   6.095    0.280 -140.962
   8.000    0.312 126.363    2.024 -36.279    0.121  -7.168    0.211 -166.906
   8.500    0.339 104.761    1.843 -48.761    0.125 -18.191    0.151 160.441
   9.000    0.388  87.528    1.708 -60.726    0.135 -28.139    0.155 122.128
   9.500    0.442  71.004    1.548 -72.990    0.140 -41.080    0.200  86.779
  10.000    0.495  57.274    1.404 -85.784    0.143 -53.185    0.272  62.446
  10.500    0.546  44.294    1.244 -98.624    0.143 -66.983    0.348  44.199
  11.000    0.579  32.010    1.074 -110.572    0.135 -80.956    0.418  28.674
  11.500    0.614  21.344    0.928 -122.657    0.127 -94.764    0.485  15.983
  12.000    0.630  10.165    0.770 -133.928    0.110 -111.448    0.537   3.009
!     DEEMBEDDED NOISE DATA
!FREQUENCY    FMIN    GAMMA OPT        Rn
!  (GHz)      (dB)    Mag    Ang   (NORMALIZED)
