! Filename: 4_4120BFG480.001
! Title: BFG480W
! Bias: Vce=4.4V; Ic=120mA
! Company: Philips Semiconductors NL
! User: Quality&Reliability T&D
! Measure time: 10 Nov 1999 / 12:07:28
#  MHz  S  MA  R 50
! Freq       S11             S21             S12             S22    :
  100  0.46573 -157.6 52.54104 145.79 0.005960 68.135  0.72890 -42.62
  200  0.58714 -162.5 39.73378 124.55 0.009139 60.577  0.57833 -73.95
  300  0.63930 -167.7 30.22472 112.38 0.011247 60.256  0.48417 -94.15
  400  0.66574 -171.5 23.92243 104.39 0.013265 62.405  0.43426 -108.0
  500  0.68109 -174.5 19.66383 98.626 0.015223 64.771  0.40645 -118.0
  600  0.69094 -176.9 16.58110 94.175 0.017199 66.470  0.39025 -125.3
  700  0.69784 -179.1 14.31810 90.574 0.019261 68.787  0.37964 -131.0
  800  0.70400 178.96 12.55177 87.472 0.021408 70.412  0.37335 -135.8
  900  0.71151 177.11 11.14500 84.799 0.023700 72.210  0.37053 -139.9
 1000  0.71754 175.44 10.01756 82.280 0.026090 73.128  0.37092 -143.5
 1200  0.73171 172.55  8.26285 77.544 0.030715 74.609  0.37924 -149.5
 1400  0.74023 170.26  6.99158 72.876 0.035351 75.476  0.39056 -153.9
 1600  0.74577 167.95  6.09607 69.025 0.040756 76.236  0.39809 -157.2
 1800  0.74539 165.39  5.41587 65.606 0.046391 76.662  0.40656 -160.9
 2000  0.75457 163.20  4.79376 62.686 0.051219 77.120  0.41932 -165.2
 2200  0.77400 161.11  4.27777 59.184 0.055805 77.068  0.43941 -168.9
 2400  0.78367 159.35  3.83332 55.488 0.060724 76.474  0.46464 -171.2
 2600  0.78309 157.72  3.50234 52.127 0.066904 75.713  0.48531 -172.7
 2800  0.77906 155.43  3.24673 47.712 0.071668 74.319  0.49572 -174.4
 3000  0.78385 152.76  3.01493 44.295 0.077061 73.507  0.50401 -177.3
