! Filename BFG424F_3V_25mA.prm
! Created	by	janssen	on	nov	2006			
!	Column ranking S11, S21,S12,S22 both magnitude and phase.								
!	VCE	=	3	V,	IC	=	25	mA	
!	Common	Emitter	S-Parameters						
#	GHZ	S	MA	R	50				
	5.00E-01	0.348	-92.49	27.032	127.76	0.016	66.41	0.696	-32.44
	6.00E-01	0.34	-103.98	24.262	121.78	0.018	64.84	0.643	-35.18
	7.00E-01	0.333	-113.97	21.889	116.76	0.02	64.8	0.598	-37.16
	8.00E-01	0.327	-122.61	19.848	112.55	0.021	64.84	0.561	-38.57
	9.00E-01	0.327	-129.99	18.142	108.91	0.023	64.96	0.529	-39.82
	1.00E+00	0.325	-136.4	16.663	105.62	0.025	65.13	0.503	-40.77
	1.10E+00	0.324	-142.04	15.373	102.77	0.026	65.65	0.481	-41.65
	1.20E+00	0.323	-147.22	14.246	100.25	0.028	66.29	0.461	-42.38
	1.30E+00	0.324	-151.85	13.292	97.93	0.03	66.69	0.444	-43.16
	1.40E+00	0.325	-156.28	12.435	95.75	0.032	67.26	0.429	-43.88
	1.50E+00	0.327	-159.92	11.686	93.76	0.033	67.64	0.417	-44.48
	1.60E+00	0.326	-163.4	11.021	91.87	0.035	67.91	0.404	-45.4
	1.70E+00	0.328	-166.86	10.419	90.07	0.037	68.59	0.393	-46.11
	1.80E+00	0.331	-170.29	9.868	88.39	0.038	68.86	0.383	-46.93
	1.90E+00	0.334	-173.1	9.376	86.79	0.04	69.19	0.373	-47.79
	2.00E+00	0.338	-175.82	8.94	85.36	0.042	69.52	0.366	-48.64
	2.10E+00	0.339	-178.52	8.532	83.82	0.044	69.52	0.358	-49.77
	2.20E+00	0.343	178.92	8.158	82.35	0.046	69.47	0.35	-50.67
	2.30E+00	0.346	176.24	7.807	81	0.048	69.76	0.342	-51.74
	2.40E+00	0.351	174.36	7.5	79.74	0.05	70.08	0.335	-52.8
	2.50E+00	0.356	172.44	7.206	78.44	0.052	70.25	0.327	-53.98
	2.60E+00	0.358	170.18	6.942	77.07	0.054	69.97	0.321	-55.31
	2.70E+00	0.36	167.81	6.688	75.86	0.056	70	0.313	-56.6
	2.80E+00	0.367	165.96	6.454	74.68	0.058	69.97	0.307	-57.71
	2.90E+00	0.371	164.29	6.232	73.53	0.06	69.76	0.3	-59.13
	3.00E+00	0.375	162.58	6.031	72.39	0.062	69.8	0.294	-60.4
	3.10E+00	0.379	160.57	5.844	71.2	0.064	69.47	0.287	-61.96
	3.20E+00	0.382	158.83	5.661	70.07	0.066	69.38	0.281	-63.27
	3.30E+00	0.388	156.98	5.484	69	0.068	69.45	0.275	-64.87
	3.40E+00	0.394	155.58	5.324	67.89	0.07	69.1	0.269	-66.67
	3.50E+00	0.399	154.09	5.169	66.86	0.072	68.84	0.264	-68.48
	3.60E+00	0.401	152.13	5.027	65.74	0.075	68.77	0.257	-70.39
	3.70E+00	0.408	150.54	4.898	64.66	0.077	68.42	0.25	-72.25
	3.80E+00	0.414	149.16	4.766	63.68	0.079	68.31	0.243	-74.08
	3.90E+00	0.418	147.92	4.645	62.68	0.081	68.12	0.238	-75.9
	4.00E+00	0.423	146.21	4.528	61.61	0.083	67.87	0.233	-78.02
	4.10E+00	0.427	144.76	4.415	60.68	0.086	67.51	0.228	-80.36
	4.20E+00	0.433	143.15	4.309	59.61	0.088	67.2	0.221	-82.8
	4.30E+00	0.44	141.84	4.212	58.71	0.09	66.93	0.216	-84.77
	4.40E+00	0.446	140.83	4.113	57.64	0.092	66.66	0.211	-86.84
	4.50E+00	0.447	139.75	4.019	56.64	0.095	66.37	0.207	-89.24
	4.60E+00	0.451	137.91	3.931	55.75	0.097	65.81	0.203	-92.31
	4.70E+00	0.458	136.41	3.843	54.74	0.099	65.4	0.198	-95.38
	4.80E+00	0.467	135.52	3.768	53.7	0.101	65.13	0.193	-98.24
	4.90E+00	0.47	134.33	3.689	52.85	0.103	64.6	0.189	-101.06
	5.00E+00	0.475	133.27	3.609	51.91	0.105	64.23	0.184	-103.77
	5.10E+00	0.478	131.84	3.541	50.85	0.107	63.99	0.18	-106.66
	5.20E+00	0.484	130.49	3.471	50.03	0.11	63.58	0.177	-109.92
	5.30E+00	0.493	129.42	3.401	49.08	0.112	62.93	0.174	-113.49
	5.40E+00	0.498	128.47	3.341	48.08	0.114	62.45	0.17	-117
	5.50E+00	0.501	127.33	3.273	47.3	0.116	62.18	0.168	-120.29
	5.60E+00	0.505	126.06	3.204	46.28	0.119	61.76	0.167	-123.87
	5.70E+00	0.514	125.03	3.155	45.39	0.121	61.27	0.166	-127.49
	5.80E+00	0.519	124	3.095	44.63	0.123	60.87	0.165	-131.43
	5.90E+00	0.524	123	3.036	43.52	0.125	60.44	0.163	-135.46
	6.00E+00	0.527	121.88	2.99	42.78	0.127	59.88	0.162	-139.25
	6.10E+00	0.532	120.68	2.935	41.99	0.129	59.38	0.163	-143.02
	6.20E+00	0.538	119.45	2.877	40.89	0.131	59.04	0.165	-147.04
	6.30E+00	0.547	118.8	2.838	40.01	0.133	58.71	0.166	-151.01
	6.40E+00	0.549	117.85	2.785	39.28	0.136	58.25	0.167	-154.37
	6.50E+00	0.552	116.73	2.737	38.28	0.138	57.62	0.168	-157.72
	6.60E+00	0.557	115.47	2.693	37.55	0.14	57.3	0.17	-161.13
	6.70E+00	0.563	114.68	2.644	36.8	0.142	56.81	0.174	-164.57
	6.80E+00	0.57	113.66	2.602	35.72	0.144	56.23	0.178	-168.51
	6.90E+00	0.574	112.91	2.568	34.98	0.146	55.8	0.181	-171.87
	7.00E+00	0.576	112.04	2.519	34.25	0.148	55.55	0.183	-174.57
	7.10E+00	0.578	110.78	2.483	33.28	0.15	54.86	0.186	-176.99
	7.20E+00	0.585	109.78	2.445	32.62	0.152	54.28	0.19	-179.42
	7.30E+00	0.591	109.18	2.401	31.79	0.154	53.81	0.196	177.74
	7.40E+00	0.595	108.33	2.369	30.74	0.156	53.56	0.202	174.45
	7.50E+00	0.599	107.27	2.334	30.15	0.158	52.86	0.207	171.28
	7.60E+00	0.604	106.58	2.297	29.33	0.16	52.29	0.21	168.81
	7.70E+00	0.607	105.73	2.267	28.57	0.161	52	0.215	166.89
	7.80E+00	0.61	104.86	2.237	27.9	0.164	51.47	0.22	164.99
	7.90E+00	0.614	103.73	2.195	26.85	0.166	50.62	0.226	162.38
	8.00E+00	0.62	103.13	2.173	26.04	0.166	50.3	0.231	159.96
	8.10E+00	0.622	102.36	2.14	25.59	0.169	50.24	0.235	158.02
	8.20E+00	0.625	101.6	2.108	24.68	0.171	49.76	0.24	156.69
	8.30E+00	0.63	100.74	2.084	23.87	0.173	48.94	0.248	155.19
	8.40E+00	0.632	99.92	2.05	23.25	0.175	48.48	0.256	153.2
	8.50E+00	0.636	99.12	2.014	22.07	0.177	48.2	0.262	150.74
	8.60E+00	0.64	98.4	1.999	21.42	0.179	47.59	0.265	148.82
	8.70E+00	0.644	97.72	1.964	20.95	0.18	47.06	0.27	147.44
	8.80E+00	0.648	97.05	1.939	20.03	0.182	46.75	0.278	146.35
	8.90E+00	0.65	96.35	1.919	19.4	0.184	46.38	0.285	144.71
	9.00E+00	0.651	95.55	1.884	18.77	0.187	45.46	0.291	143
	9.10E+00	0.655	94.82	1.868	17.64	0.187	44.87	0.293	141.46
	9.20E+00	0.66	94.09	1.856	17.15	0.189	44.52	0.298	140.4
	9.30E+00	0.664	93.65	1.819	16.45	0.192	43.99	0.306	139.36
	9.40E+00	0.667	92.88	1.791	15.25	0.193	43.17	0.315	137.98
	9.50E+00	0.669	92.32	1.774	14.55	0.194	42.7	0.322	135.78
	9.60E+00	0.675	91.65	1.74	13.85	0.196	42.36	0.324	134.33
	9.70E+00	0.68	90.75	1.73	12.91	0.199	41.78	0.325	133.4
	9.80E+00	0.685	89.62	1.711	12.11	0.2	40.65	0.33	132.63
	9.90E+00	0.681	88.89	1.666	11.37	0.2	40.03	0.338	131.41
	1.00E+01	0.682	88.58	1.635	10.57	0.2	39.69	0.343	129.9
	1.01E+01	0.685	87.8	1.616	10.58	0.202	39.28	0.346	128.76
	1.02E+01	0.688	87.27	1.587	10.09	0.202	38.87	0.35	128.21
	1.03E+01	0.692	86.81	1.581	9.51	0.204	38.7	0.353	127.82
	1.04E+01	0.692	85.88	1.563	9.26	0.205	38.15	0.362	127.08
	1.05E+01	0.699	85.04	1.541	8.39	0.206	37.41	0.369	125.44
	1.06E+01	0.702	84.38	1.534	7.13	0.207	37.01	0.374	123.75
	1.07E+01	0.704	83.89	1.517	6.75	0.208	36.88	0.375	122.73
	1.08E+01	0.702	83.29	1.491	5.96	0.21	36.11	0.376	122.67
	1.09E+01	0.703	82.78	1.477	5.52	0.21	35.46	0.382	122.63
	1.10E+01	0.705	82.07	1.454	5.04	0.21	35.28	0.391	121.98
	1.11E+01	0.712	81.55	1.422	4.02	0.21	34.84	0.398	120.63
	1.12E+01	0.722	80.94	1.411	3.44	0.21	34.32	0.402	119.13
	1.13E+01	0.728	80.45	1.395	3.42	0.21	34.48	0.402	118.27
	1.14E+01	0.728	79.06	1.388	2.78	0.213	34.84	0.405	118.36
	1.15E+01	0.731	78.19	1.384	1.97	0.216	34.63	0.412	117.54
	1.16E+01	0.732	76.73	1.37	1.18	0.219	33.83	0.419	116.85
	1.17E+01	0.725	75.92	1.352	-0.17	0.22	33.11	0.421	115.5
	1.18E+01	0.734	75.33	1.342	-0.74	0.223	32.76	0.419	114.71
	1.19E+01	0.729	73.81	1.325	-1.4	0.226	31.99	0.42	114.81
	1.20E+01	0.718	72.98	1.311	-2.85	0.226	30.65	0.432	114.85
	1.21E+01	0.712	72.13	1.284	-3.77	0.226	30.07	0.439	113.19
	1.22E+01	0.709	71.91	1.262	-4.24	0.229	29.38	0.441	112.65
	1.23E+01	0.699	71.42	1.257	-5.84	0.229	27.42	0.448	112.08
	1.24E+01	0.697	71.09	1.227	-6.48	0.223	26.94	0.449	110.82
	1.25E+01	0.697	70.5	1.195	-6.89	0.221	26.52	0.455	110.82
	1.26E+01	0.698	70.61	1.166	-7.25	0.219	27.91	0.46	108.67
	1.27E+01	0.693	70.16	1.151	-7.5	0.222	27.76	0.457	107.59
	1.28E+01	0.69	69.27	1.126	-8.11	0.222	27.32	0.454	106.7
	1.29E+01	0.695	68.81	1.113	-8.32	0.222	27.52	0.451	106.76
	1.30E+01	0.693	68.72	1.103	-8.22	0.226	27.53	0.454	106.91
	1.31E+01	0.692	68.11	1.086	-8.9	0.227	26.58	0.458	107.07
	1.32E+01	0.688	67.63	1.079	-9.63	0.227	26.2	0.466	106.57
	1.33E+01	0.688	67.22	1.071	-9.72	0.228	26.22	0.468	104.95
	1.34E+01	0.685	66.66	1.058	-10.43	0.23	25.73	0.468	105.18
	1.35E+01	0.688	66.61	1.05	-10.82	0.23	25.38	0.473	104.59
	1.36E+01	0.683	66.08	1.036	-11.01	0.231	25.39	0.478	104.62
	1.37E+01	0.682	65.57	1.019	-11.86	0.233	25.25	0.481	103.78
	1.38E+01	0.686	64.73	1.012	-12.66	0.234	24.55	0.482	102.64
	1.39E+01	0.684	64.8	1.002	-12.94	0.234	24.28	0.479	101.82
	1.40E+01	0.682	64.11	0.99	-13.59	0.236	24.43	0.48	101.72
	1.41E+01	0.677	63.44	0.977	-14.17	0.237	23.8	0.484	101.63
	1.42E+01	0.68	62.98	0.958	-14.8	0.239	22.99	0.488	101.03
	1.43E+01	0.677	62.33	0.944	-15.79	0.239	23.15	0.491	100.39
	1.44E+01	0.68	62.14	0.941	-16.09	0.241	22.92	0.489	99.82
	1.45E+01	0.672	61.54	0.923	-16.36	0.245	22.16	0.489	99.62
	1.46E+01	0.671	60.91	0.91	-16.73	0.245	21.19	0.492	99.12
	1.47E+01	0.673	59.98	0.897	-17.03	0.243	21.23	0.493	98.18
	1.48E+01	0.672	60.18	0.881	-17.6	0.246	21.13	0.49	97.26
	1.49E+01	0.664	59.23	0.869	-18.63	0.25	20.35	0.489	97.33
	1.50E+01	0.665	58.72	0.867	-18.72	0.248	19.44	0.493	97.74
