! Filename: 315bfg410.001
! BFG410W Field B1
! V1=8.769E-001V,V2=3.000E+000V, I1=2.312E-004A, I2=1.500E-002A
# GHz   S   MA   R 50
!                S11              S21              S12              S22
!Freq(GHz)  Mag     Ang      Mag     Ang      Mag     Ang      Mag     Ang 
   0.040    0.544  -2.867   24.443 175.282    0.001  73.522    0.966  -0.548
   0.100    0.548  -8.308   24.040 170.660    0.002  86.547    0.970  -3.457
   0.200    0.534 -16.821   23.411 162.022    0.005  80.887    0.956  -7.914
   0.300    0.516 -24.779   22.612 154.152    0.007  78.172    0.939 -11.665
   0.400    0.491 -32.192   21.626 146.323    0.009  74.513    0.915 -15.217
   0.500    0.464 -39.530   20.505 139.020    0.011  71.701    0.888 -18.194
   0.600    0.437 -45.982   19.346 132.537    0.012  69.933    0.863 -20.868
   0.700    0.411 -51.873   18.176 126.590    0.014  68.077    0.837 -23.290
   0.800    0.384 -57.505   17.092 121.014    0.015  66.705    0.814 -25.354
   0.900    0.360 -62.508   16.073 115.940    0.017  65.552    0.792 -27.335
   1.000    0.337 -67.206   15.107 111.242    0.018  64.589    0.772 -29.112
   1.100    0.316 -71.663   14.235 106.929    0.019  63.709    0.754 -30.743
   1.200    0.297 -75.898   13.431 102.830    0.020  63.171    0.738 -32.366
   1.300    0.280 -80.019   12.685  99.040    0.022  62.531    0.722 -33.805
   1.400    0.264 -83.893   12.023  95.507    0.023  62.033    0.708 -35.198
   1.500    0.248 -87.950   11.404  92.093    0.024  61.602    0.696 -36.561
   1.600    0.235 -91.723   10.849  88.848    0.026  61.106    0.685 -37.939
   1.700    0.222 -95.484   10.333  85.761    0.027  60.547    0.674 -39.301
   1.800    0.210 -99.356    9.861  82.789    0.028  60.011    0.665 -40.661
   1.900    0.199 -102.967    9.431  79.944    0.030  59.581    0.655 -42.073
   2.000    0.189 -106.767    9.032  77.150    0.031  58.948    0.646 -43.468
   2.200    0.172 -114.707    8.324  71.859    0.034  57.765    0.629 -46.259
   2.400    0.157 -122.981    7.712  66.791    0.037  56.499    0.613 -49.055
   2.600    0.144 -132.226    7.179  61.907    0.040  55.008    0.598 -51.953
   2.800    0.134 -141.835    6.713  57.227    0.044  53.398    0.582 -54.816
   3.000    0.127 -152.245    6.303  52.584    0.047  51.560    0.567 -57.797
   3.500    0.122 -179.711    5.459  41.526    0.056  46.577    0.528 -65.374
   4.000    0.134 153.898    4.805  30.798    0.065  40.759    0.485 -73.205
   4.500    0.162 133.168    4.290  20.345    0.075  34.077    0.441 -81.670
   5.000    0.198 115.798    3.850   9.887    0.085  26.991    0.389 -90.171
   5.500    0.242 100.126    3.454  -0.857    0.092  18.836    0.325 -98.556
   6.000    0.281  90.919    3.169 -10.446    0.104  12.038    0.281 -108.903
   6.500    0.323  79.234    2.859 -20.370    0.110   4.635    0.220 -117.505
   7.000    0.304  70.523    2.590 -25.386    0.117   8.304    0.226 -114.709
   7.500    0.394  66.619    2.486 -38.181    0.137  -6.672    0.152 -147.199
   8.000    0.458  58.422    2.308 -49.235    0.148 -17.250    0.108 173.196
   8.500    0.522  48.901    2.094 -61.032    0.153 -29.592    0.104 108.335
   9.000    0.571  40.257    1.898 -71.353    0.155 -39.448    0.151  72.577
   9.500    0.609  31.347    1.694 -81.553    0.152 -49.327    0.212  48.697
  10.000    0.660  24.975    1.559 -92.530    0.160 -59.517    0.291  37.519
  10.500    0.699  17.030    1.396 -103.167    0.160 -70.007    0.361  25.135
  11.000    0.737   8.638    1.229 -114.269    0.156 -82.997    0.438  12.979
  11.500    0.756   0.277    1.059 -124.798    0.146 -94.555    0.504   1.750
  12.000    0.773  -8.097    0.898 -135.255    0.135 -107.778    0.567  -9.279
!     DEEMBEDDED NOISE DATA
!FREQUENCY    FMIN    GAMMA OPT        Rn
!  (GHz)      (dB)    Mag    Ang   (NORMALIZED)
