! Filename: 3_6100BFG480.001
! Title: BFG480W
! Bias: Vce=3.6V; Ic=100mA
! Company: Philips Semiconductors NL
! User: Quality&Reliability T&D
! Measure time: 10 Nov 1999 / 12:01:00
#  MHz  S  MA  R 50
! Freq       S11             S21             S12             S22    :
  100  0.45252 -156.9 52.39324 146.40 0.006093 69.466  0.75672 -42.59
  200  0.57722 -161.7 39.84322 125.33 0.009498 60.597  0.60688 -74.06
  300  0.63203 -167.0 30.41836 113.13 0.011737 59.769  0.51099 -94.61
  400  0.65977 -170.9 24.13891 105.08 0.013693 61.509  0.45917 -108.8
  500  0.67583 -174.0 19.86895 99.272 0.015708 63.591  0.43027 -119.0
  600  0.68630 -176.5 16.77113 94.776 0.017692 65.622  0.41292 -126.6
  700  0.69359 -178.7 14.49226 91.166 0.019749 67.837  0.40145 -132.5
  800  0.69995 179.28 12.71101 88.045 0.021937 69.279  0.39429 -137.4
  900  0.70747 177.42 11.29005 85.383 0.024148 71.214  0.39070 -141.6
 1000  0.71456 175.74 10.15086 82.865 0.026568 72.062  0.39053 -145.4
 1200  0.72729 172.76  8.37823 78.135 0.031246 73.634  0.39739 -151.4
 1400  0.73694 170.49  7.09066 73.477 0.035853 74.504  0.40761 -155.9
 1600  0.74156 168.17  6.18499 69.659 0.041157 75.167  0.41385 -159.4
 1800  0.74129 165.59  5.49787 66.293 0.046881 75.669  0.42128 -163.0
 2000  0.75171 163.39  4.86716 63.402 0.051736 76.257  0.43294 -167.3
 2200  0.77049 161.30  4.34317 59.921 0.056193 76.143  0.45230 -170.9
 2400  0.78076 159.56  3.89143 56.282 0.061030 75.543  0.47638 -173.2
 2600  0.78014 157.89  3.55841 52.959 0.067245 74.873  0.49525 -174.7
 2800  0.77563 155.63  3.29850 48.565 0.071966 73.440  0.50419 -176.5
 3000  0.78044 152.98  3.06357 45.194 0.077322 72.649  0.51188 -179.3
