! Filename: 3_2150BFG480.001
! Title: BFG480W
! Bias: Vce=3.2V; Ic=150mA
! Company: Philips Semiconductors NL
! User: Quality&Reliability T&D
! Measure time: 10 Nov 1999 / 11:58:59
#  MHz  S  MA  R 50
! Freq       S11             S21             S12             S22    :
  100  0.61003 -165.3 35.21952 141.73 0.006005 64.686  0.53114 -52.81
  200  0.70596 -169.4 25.86630 120.76 0.008999 58.707  0.44060 -88.93
  300  0.74013 -173.4 19.85482 109.36 0.011032 60.166  0.39417 -110.2
  400  0.75599 -176.3 15.81568 101.87 0.013029 62.955  0.37506 -123.4
  500  0.76471 -178.8 13.13312 96.533 0.015128 65.493  0.36743 -132.2
  600  0.77034 179.20 11.13093 92.348 0.017233 67.659  0.36386 -138.3
  700  0.77396 177.34  9.67253 88.947 0.019484 69.951  0.36235 -142.9
  800  0.77790 175.60  8.50227 85.989 0.021730 71.452  0.36287 -146.7
  900  0.78265 173.97  7.56208 83.449 0.024107 73.319  0.36536 -149.9
 1000  0.78771 172.42  6.81807 80.987 0.026626 74.153  0.37043 -152.8
 1200  0.79642 169.69  5.63530 76.368 0.031508 75.400  0.38475 -157.3
 1400  0.80211 167.47  4.77031 71.765 0.036315 76.050  0.39977 -160.7
 1600  0.80407 165.11  4.16728 67.899 0.041895 76.588  0.41023 -163.5
 1800  0.80214 162.56  3.71131 64.477 0.047825 76.785  0.42171 -166.6
 2000  0.81068 160.51  3.28811 61.589 0.052795 77.277  0.43733 -170.4
 2200  0.82658 158.50  2.93305 58.083 0.057389 77.009  0.45962 -173.4
 2400  0.83110 156.70  2.62474 54.399 0.062475 76.321  0.48457 -175.5
 2600  0.82615 154.85  2.39785 51.048 0.068856 75.423  0.50430 -176.9
 2800  0.82076 152.42  2.22252 46.551 0.073621 73.906  0.51520 -178.6
 3000  0.82513 149.74  2.06448 43.078 0.079133 72.991  0.52496 178.64
