! Filename BFG424F_5V_10mA.prm
! Simulation_Values
! Created	by	janssen	on	nov	2006			
!	Column ranking S11, S21,S12,S22 both magnitude and phase.								
!	VCE	=	5	V,	IC	=	10	mA	
!	Common	Emitter	S-Parameters						
#	GHZ	S	MA	R	50				
	5.00E-01	0.588	-54.02	19.635	142.08	0.020	60.91	0.807	-23.66
	6.00E-01	0.561	-63.12	18.486	136.28	0.023	58.42	0.770	-26.91
	7.00E-01	0.533	-71.70	17.358	131.02	0.025	57.72	0.735	-29.66
	8.00E-01	0.506	-79.58	16.266	126.32	0.027	56.21	0.702	-31.95
	9.00E-01	0.487	-87.04	15.265	122.16	0.029	55.56	0.671	-34.07
	1.00E+00	0.467	-93.89	14.333	118.27	0.031	54.71	0.643	-35.84
	1.10E+00	0.449	-100.44	13.471	114.81	0.032	54.38	0.617	-37.42
	1.20E+00	0.432	-106.46	12.675	111.67	0.034	54.20	0.594	-38.77
	1.30E+00	0.420	-112.27	11.980	108.75	0.035	54.20	0.573	-40.08
	1.40E+00	0.409	-117.83	11.328	106.02	0.037	54.35	0.554	-41.25
	1.50E+00	0.400	-122.90	10.746	103.51	0.038	54.37	0.538	-42.20
	1.60E+00	0.391	-127.60	10.215	101.17	0.039	54.63	0.522	-43.39
	1.70E+00	0.384	-132.34	9.720	98.92	0.041	55.02	0.506	-44.36
	1.80E+00	0.378	-137.14	9.256	96.82	0.042	55.24	0.494	-45.35
	1.90E+00	0.374	-141.17	8.839	94.85	0.043	56.00	0.481	-46.32
	2.00E+00	0.371	-145.15	8.465	93.06	0.044	56.27	0.471	-47.26
	2.10E+00	0.368	-149.08	8.114	91.19	0.046	56.47	0.461	-48.39
	2.20E+00	0.366	-152.81	7.785	89.43	0.047	56.84	0.451	-49.34
	2.30E+00	0.364	-156.53	7.472	87.79	0.049	57.28	0.441	-50.41
	2.40E+00	0.365	-159.73	7.199	86.23	0.050	57.76	0.432	-51.44
	2.50E+00	0.367	-162.92	6.933	84.68	0.052	58.27	0.424	-52.57
	2.60E+00	0.366	-166.03	6.695	83.07	0.053	58.50	0.415	-53.80
	2.70E+00	0.365	-169.31	6.466	81.65	0.055	58.87	0.407	-54.90
	2.80E+00	0.368	-172.09	6.249	80.24	0.056	59.19	0.400	-55.94
	2.90E+00	0.371	-174.91	6.048	78.91	0.058	59.64	0.392	-57.21
	3.00E+00	0.373	-177.34	5.861	77.55	0.059	59.86	0.385	-58.40
	3.10E+00	0.375	179.71	5.689	76.17	0.061	59.88	0.377	-59.72
	3.20E+00	0.376	177.36	5.518	74.88	0.062	60.32	0.370	-60.87
	3.30E+00	0.380	174.63	5.353	73.66	0.064	60.73	0.364	-62.27
	3.40E+00	0.385	172.47	5.204	72.36	0.066	60.61	0.358	-63.83
	3.50E+00	0.389	170.33	5.058	71.16	0.068	60.77	0.352	-65.48
	3.60E+00	0.389	167.81	4.925	69.88	0.069	61.02	0.344	-67.12
	3.70E+00	0.395	165.49	4.804	68.67	0.071	61.09	0.336	-68.63
	3.80E+00	0.401	163.54	4.679	67.58	0.073	61.28	0.329	-70.11
	3.90E+00	0.404	161.91	4.567	66.48	0.075	61.42	0.323	-71.61
	4.00E+00	0.407	159.70	4.455	65.23	0.077	61.44	0.318	-73.52
	4.10E+00	0.411	157.77	4.347	64.17	0.079	61.34	0.312	-75.44
	4.20E+00	0.416	155.59	4.247	62.97	0.081	61.28	0.305	-77.44
	4.30E+00	0.422	153.78	4.153	61.97	0.082	61.33	0.299	-78.98
	4.40E+00	0.429	152.36	4.058	60.81	0.084	61.37	0.294	-80.58
	4.50E+00	0.429	151.10	3.969	59.70	0.087	61.43	0.291	-82.51
	4.60E+00	0.432	148.79	3.884	58.66	0.089	61.15	0.286	-85.03
	4.70E+00	0.438	146.89	3.799	57.56	0.090	60.99	0.280	-87.45
	4.80E+00	0.447	145.68	3.727	56.42	0.092	60.96	0.274	-89.65
	4.90E+00	0.449	144.11	3.653	55.48	0.095	60.66	0.270	-91.88
	5.00E+00	0.455	142.70	3.576	54.46	0.097	60.50	0.264	-93.90
	5.10E+00	0.458	141.10	3.511	53.30	0.098	60.44	0.259	-96.12
	5.20E+00	0.462	139.55	3.443	52.38	0.101	60.32	0.255	-98.63
	5.30E+00	0.471	137.82	3.376	51.33	0.103	59.84	0.249	-101.23
	5.40E+00	0.477	136.76	3.320	50.24	0.105	59.55	0.243	-103.74
	5.50E+00	0.480	135.45	3.253	49.38	0.107	59.45	0.241	-106.20
	5.60E+00	0.484	133.91	3.186	48.26	0.109	59.27	0.239	-109.07
	5.70E+00	0.493	132.47	3.138	47.25	0.111	58.87	0.236	-112.09
	5.80E+00	0.498	131.51	3.080	46.43	0.113	58.64	0.232	-115.20
	5.90E+00	0.503	130.23	3.025	45.24	0.115	58.41	0.228	-118.13
	6.00E+00	0.506	128.87	2.980	44.41	0.118	57.98	0.225	-121.21
	6.10E+00	0.512	127.48	2.925	43.56	0.119	57.62	0.224	-124.30
	6.20E+00	0.517	126.02	2.869	42.33	0.121	57.39	0.223	-127.94
	6.30E+00	0.527	125.27	2.830	41.39	0.124	57.16	0.221	-131.24
	6.40E+00	0.528	124.24	2.780	40.59	0.126	56.85	0.219	-134.00
	6.50E+00	0.531	122.98	2.734	39.53	0.128	56.36	0.219	-136.68
	6.60E+00	0.537	121.35	2.690	38.68	0.130	56.11	0.219	-139.86
	6.70E+00	0.543	120.51	2.641	37.84	0.132	55.73	0.220	-143.28
	6.80E+00	0.550	119.41	2.600	36.69	0.134	55.24	0.221	-147.17
	6.90E+00	0.554	118.57	2.567	35.89	0.136	54.86	0.221	-150.26
	7.00E+00	0.556	117.57	2.520	35.11	0.138	54.78	0.221	-152.70
	7.10E+00	0.558	116.20	2.485	34.08	0.141	54.15	0.223	-155.17
	7.20E+00	0.565	115.02	2.446	33.32	0.143	53.68	0.225	-157.91
	7.30E+00	0.571	114.20	2.403	32.40	0.145	53.30	0.229	-161.29
	7.40E+00	0.576	113.27	2.372	31.25	0.147	53.07	0.231	-164.92
	7.50E+00	0.581	112.13	2.338	30.61	0.149	52.43	0.234	-168.07
	7.60E+00	0.585	111.47	2.302	29.77	0.151	51.94	0.235	-170.46
	7.70E+00	0.588	110.40	2.272	28.92	0.153	51.71	0.240	-172.72
	7.80E+00	0.592	109.41	2.242	28.15	0.155	51.22	0.243	-175.29
	7.90E+00	0.597	108.09	2.202	26.96	0.157	50.38	0.247	-178.70
	8.00E+00	0.602	107.61	2.180	26.12	0.158	50.13	0.249	178.49
	8.10E+00	0.604	106.62	2.145	25.65	0.160	50.19	0.251	176.62
	8.20E+00	0.609	105.86	2.115	24.68	0.163	49.69	0.257	175.15
	8.30E+00	0.613	104.99	2.090	23.76	0.165	48.98	0.266	172.99
	8.40E+00	0.614	103.90	2.057	23.03	0.166	48.46	0.272	170.23
	8.50E+00	0.621	103.02	2.022	21.77	0.169	48.20	0.275	167.09
	8.60E+00	0.625	102.30	2.008	21.05	0.171	47.59	0.277	164.95
	8.70E+00	0.628	101.60	1.973	20.56	0.172	47.17	0.282	163.41
	8.80E+00	0.632	100.68	1.945	19.56	0.174	46.86	0.291	161.88
	8.90E+00	0.635	100.11	1.926	18.81	0.177	46.49	0.297	159.55
	9.00E+00	0.635	99.22	1.892	18.09	0.180	45.57	0.301	157.46
	9.10E+00	0.639	98.23	1.877	16.90	0.180	44.95	0.302	155.77
	9.20E+00	0.646	97.48	1.864	16.37	0.182	44.64	0.306	154.67
	9.30E+00	0.651	97.15	1.825	15.59	0.185	44.17	0.316	153.29
	9.40E+00	0.653	96.22	1.796	14.28	0.186	43.34	0.326	151.37
	9.50E+00	0.655	95.62	1.780	13.50	0.187	42.87	0.331	148.55
	9.60E+00	0.661	94.92	1.746	12.75	0.189	42.52	0.332	146.92
	9.70E+00	0.666	93.89	1.735	11.75	0.193	42.00	0.332	145.89
	9.80E+00	0.671	92.63	1.715	10.90	0.194	40.85	0.338	144.82
	9.90E+00	0.669	91.84	1.667	10.09	0.194	40.28	0.347	143.06
	1.00E+01	0.669	91.66	1.636	9.28	0.194	39.92	0.351	141.17
	1.01E+01	0.671	90.88	1.617	9.27	0.196	39.54	0.352	139.90
	1.02E+01	0.674	90.22	1.590	8.74	0.197	39.14	0.356	139.52
	1.03E+01	0.679	89.63	1.583	8.07	0.198	38.97	0.362	139.13
	1.04E+01	0.679	88.74	1.564	7.70	0.200	38.35	0.374	137.95
	1.05E+01	0.685	87.76	1.541	6.75	0.201	37.58	0.381	135.70
	1.06E+01	0.690	87.04	1.533	5.43	0.202	37.14	0.383	133.37
	1.07E+01	0.693	86.66	1.515	5.04	0.203	37.07	0.382	132.22
	1.08E+01	0.690	86.10	1.490	4.27	0.205	36.36	0.384	132.40
	1.09E+01	0.691	85.38	1.475	3.76	0.205	35.67	0.390	132.38
	1.10E+01	0.694	84.59	1.451	3.19	0.206	35.48	0.403	131.34
	1.11E+01	0.701	84.06	1.419	2.08	0.206	34.99	0.409	129.45
	1.12E+01	0.711	83.29	1.409	1.43	0.207	34.40	0.411	127.68
	1.13E+01	0.718	82.95	1.393	1.43	0.207	34.56	0.410	127.01
	1.14E+01	0.717	81.57	1.385	0.74	0.209	34.87	0.415	127.26
	1.15E+01	0.719	80.50	1.380	-0.18	0.213	34.57	0.423	126.20
	1.16E+01	0.721	79.07	1.365	-1.08	0.216	33.67	0.432	125.14
	1.17E+01	0.715	78.37	1.345	-2.44	0.216	32.97	0.433	123.46
	1.18E+01	0.721	77.66	1.335	-2.96	0.219	32.69	0.430	122.74
	1.19E+01	0.719	76.11	1.318	-3.64	0.223	31.87	0.432	122.88
	1.20E+01	0.708	75.46	1.303	-5.16	0.223	30.51	0.445	122.62
	1.21E+01	0.699	74.44	1.275	-6.20	0.222	29.91	0.452	120.52
	1.22E+01	0.699	73.89	1.252	-6.72	0.225	29.15	0.453	119.68
	1.23E+01	0.692	73.72	1.250	-8.37	0.225	27.13	0.460	119.35
	1.24E+01	0.686	73.46	1.220	-9.04	0.220	26.78	0.463	118.38
	1.25E+01	0.686	72.54	1.184	-9.49	0.218	26.33	0.474	118.19
	1.26E+01	0.690	72.63	1.153	-9.92	0.215	27.69	0.478	115.41
	1.27E+01	0.685	72.49	1.139	-10.16	0.219	27.53	0.473	113.94
	1.28E+01	0.678	71.38	1.113	-10.81	0.219	27.06	0.468	112.83
	1.29E+01	0.685	70.65	1.100	-11.02	0.219	27.30	0.464	113.14
	1.30E+01	0.686	70.77	1.089	-10.96	0.223	27.29	0.468	113.47
	1.31E+01	0.683	70.30	1.071	-11.72	0.224	26.29	0.476	113.38
	1.32E+01	0.678	69.67	1.064	-12.44	0.224	25.96	0.484	112.61
	1.33E+01	0.680	69.15	1.055	-12.52	0.225	25.99	0.485	110.75
	1.34E+01	0.677	68.68	1.044	-13.23	0.228	25.54	0.484	111.18
	1.35E+01	0.680	68.62	1.035	-13.65	0.227	25.13	0.489	110.67
	1.36E+01	0.676	68.16	1.020	-13.92	0.229	25.10	0.497	110.58
	1.37E+01	0.674	67.57	1.002	-14.77	0.231	24.98	0.501	109.55
	1.38E+01	0.679	66.71	0.996	-15.56	0.232	24.29	0.500	108.29
	1.39E+01	0.678	66.84	0.986	-15.81	0.232	24.07	0.496	107.42
	1.40E+01	0.675	66.13	0.973	-16.50	0.234	24.17	0.497	107.31
	1.41E+01	0.669	65.33	0.959	-17.24	0.235	23.46	0.504	107.14
	1.42E+01	0.672	64.65	0.939	-17.90	0.237	22.63	0.510	106.33
	1.43E+01	0.671	64.11	0.924	-18.91	0.237	22.79	0.514	105.52
	1.44E+01	0.675	64.08	0.923	-19.13	0.239	22.58	0.510	104.93
	1.45E+01	0.665	63.53	0.904	-19.49	0.243	21.74	0.511	104.69
	1.46E+01	0.661	62.58	0.889	-19.82	0.243	20.85	0.514	103.94
	1.47E+01	0.669	61.39	0.875	-20.14	0.241	20.88	0.514	102.69
	1.48E+01	0.669	62.09	0.859	-20.67	0.244	20.84	0.508	101.66
	1.49E+01	0.655	61.25	0.848	-21.71	0.248	20.00	0.506	101.88
	1.50E+01	0.656	60.04	0.846	-21.79	0.247	19.05	0.512	102.66
