! Filename: 3_250BFG480.001
! Title: BFG480W
! Bias: Vce=3.2V; Ic=50mA
! Company: Philips Semiconductors NL
! User: Quality&Reliability T&D
! Measure time: 10 Nov 1999 / 11:56:58
#  MHz  S  MA  R 50
! Freq       S11             S21             S12             S22    :
  100  0.31547 -130.7 47.83482 149.93 0.007790 68.132  0.81624 -38.11
  200  0.49004 -145.2 37.82520 129.46 0.012327 56.831  0.67143 -67.23
  300  0.57090 -155.0 29.64283 116.70 0.015002 52.945  0.56711 -87.28
  400  0.61218 -161.5 23.83548 108.09 0.016853 52.662  0.50553 -101.6
  500  0.63638 -166.2 19.78205 101.81 0.018518 53.772  0.46853 -112.3
  600  0.65130 -169.9 16.77747 96.947 0.020122 55.536  0.44541 -120.5
  700  0.66149 -172.9 14.53817 93.050 0.021789 57.559  0.42987 -126.9
  800  0.66953 -175.6 12.77410 89.698 0.023582 59.562  0.41931 -132.2
  900  0.67844 -177.9 11.35695 86.855 0.025456 61.726  0.41312 -136.8
 1000  0.68610 179.96 10.22334 84.194 0.027485 63.286  0.41064 -140.9
 1200  0.70205 176.34  8.44924 79.208 0.031471 65.944  0.41449 -147.7
 1400  0.71416 173.65  7.16137 74.368 0.035651 67.834  0.42289 -152.8
 1600  0.72015 171.06  6.24649 70.433 0.040454 69.537  0.42857 -156.7
 1800  0.72125 168.28  5.55543 67.006 0.045831 70.901  0.43482 -160.6
 2000  0.73193 165.83  4.91739 63.979 0.050397 72.020  0.44523 -165.2
 2200  0.75146 163.52  4.38956 60.418 0.054639 72.496  0.46370 -169.1
 2400  0.76354 161.60  3.93513 56.701 0.059364 72.417  0.48748 -171.7
 2600  0.76417 159.89  3.59935 53.362 0.065293 72.082  0.50603 -173.4
 2800  0.76120 157.59  3.33777 48.930 0.069969 71.061  0.51475 -175.4
 3000  0.76612 154.87  3.09907 45.514 0.075254 70.501  0.52218 -178.4
