! Filename: 28bfg425.001
! BFG425W Field C1
! V1=8.411E-001V,V2=2.000E+000V, I1=1.071E-004A, I2=8.000E-003A
# GHz   S   MA   R 50
!                S11              S21              S12              S22
!Freq(GHz)  Mag     Ang      Mag     Ang      Mag     Ang      Mag     Ang 
   0.040    0.685  -4.730   21.152 175.319    0.002  81.733    0.969  -2.507
   0.100    0.689 -11.612   20.678 169.792    0.006  84.718    0.964  -6.682
   0.200    0.671 -23.117   20.090 160.309    0.011  77.500    0.941 -13.370
   0.300    0.645 -34.061   19.280 151.675    0.016  72.274    0.909 -19.493
   0.400    0.614 -44.604   18.325 143.332    0.021  67.164    0.869 -25.054
   0.500    0.581 -54.462   17.303 135.452    0.025  63.024    0.826 -29.971
   0.600    0.549 -63.708   16.194 128.618    0.028  59.526    0.783 -34.322
   0.700    0.519 -72.213   15.144 122.444    0.031  56.251    0.741 -38.148
   0.800    0.489 -80.434   14.166 116.554    0.034  53.784    0.702 -41.495
   0.900    0.461 -87.970   13.254 111.242    0.036  51.651    0.667 -44.525
   1.000    0.437 -95.115   12.399 106.332    0.038  49.757    0.634 -47.250
   1.100    0.416 -101.861   11.631 101.808    0.040  48.186    0.605 -49.729
   1.200    0.398 -108.240   10.929  97.558    0.042  46.845    0.578 -52.040
   1.300    0.382 -114.395   10.289  93.595    0.044  45.701    0.553 -54.157
   1.400    0.368 -120.380    9.715  89.871    0.046  44.666    0.530 -56.104
   1.500    0.356 -126.295    9.187  86.315    0.048  43.735    0.510 -57.963
   1.600    0.345 -131.945    8.713  82.894    0.049  42.842    0.491 -59.802
   1.700    0.336 -137.299    8.272  79.670    0.051  42.060    0.474 -61.570
   1.800    0.330 -142.576    7.876  76.519    0.053  41.239    0.457 -63.291
   1.900    0.323 -147.666    7.509  73.542    0.055  40.433    0.442 -65.071
   2.000    0.318 -152.565    7.170  70.614    0.057  39.666    0.428 -66.816
   2.200    0.311 -162.227    6.572  65.037    0.061  38.070    0.402 -70.273
   2.400    0.307 -171.461    6.059  59.618    0.065  36.452    0.377 -73.722
   2.600    0.307 179.827    5.614  54.473    0.069  34.713    0.354 -77.314
   2.800    0.309 171.429    5.225  49.514    0.073  32.878    0.332 -80.932
   3.000    0.314 163.520    4.882  44.661    0.077  30.903    0.311 -84.741
   3.500    0.333 145.376    4.182  32.983    0.088  25.456    0.260 -95.021
   4.000    0.361 129.361    3.635  21.687    0.098  19.299    0.210 -107.100
   4.500    0.394 115.597    3.202  10.814    0.109  12.623    0.163 -122.597
   5.000    0.434 102.490    2.835  -0.240    0.118   4.758    0.115 -147.372
   5.500    0.464  90.351    2.505 -10.326    0.125  -1.766    0.080 179.532
   6.000    0.507  79.421    2.236 -21.032    0.132 -10.233    0.089 126.576
   6.500    0.518  72.056    2.050 -28.385    0.145 -12.749    0.103 112.950
   7.000    0.554  64.058    1.890 -37.912    0.158 -20.076    0.152  95.546
   7.500    0.612  54.279    1.700 -49.602    0.161 -31.942    0.228  74.153
   8.000    0.646  46.454    1.553 -59.141    0.167 -39.605    0.284  63.341
   8.500    0.683  38.323    1.405 -69.284    0.170 -48.855    0.346  52.163
   9.000    0.709  30.135    1.254 -78.360    0.168 -57.004    0.396  41.359
   9.500    0.735  22.719    1.134 -87.006    0.168 -65.228    0.434  32.727
  10.000    0.763  15.776    1.035 -96.954    0.169 -74.586    0.492  25.784
  10.500    0.783   8.780    0.931 -106.500    0.167 -83.622    0.543  17.789
  11.000    0.800   1.583    0.825 -115.480    0.160 -93.196    0.584   8.915
  11.500    0.811  -5.482    0.737 -124.873    0.154 -103.010    0.623   1.737
  12.000    0.818 -12.657    0.642 -134.031    0.144 -113.384    0.661  -6.490
!     DEEMBEDDED NOISE DATA
!FREQUENCY    FMIN    GAMMA OPT        Rn
!  (GHz)      (dB)    Mag    Ang   (NORMALIZED)
