! Filename: 49bfg425.001
! BFG425W Field C1
! V1=8.315E-001V,V2=4.000E+000V, I1=9.911E-005A, I2=8.990E-003A
# GHz   S   MA   R 50
!                S11              S21              S12              S22
!Freq(GHz)  Mag     Ang      Mag     Ang      Mag     Ang      Mag     Ang 
   0.040    0.675  -4.431   22.597 174.736    0.003  46.284    0.951  -2.284
   0.100    0.678 -11.191   22.000 169.474    0.005  70.306    0.947  -6.000
   0.200    0.662 -22.433   21.398 160.191    0.010  71.036    0.928 -11.950
   0.300    0.634 -33.066   20.497 151.741    0.014  68.830    0.898 -17.415
   0.400    0.603 -43.300   19.482 143.491    0.018  64.862    0.862 -22.303
   0.500    0.569 -52.939   18.388 135.541    0.021  61.600    0.823 -26.637
   0.600    0.536 -61.788   17.205 128.769    0.024  58.852    0.784 -30.391
   0.700    0.505 -70.036   16.093 122.711    0.026  56.173    0.747 -33.665
   0.800    0.474 -77.914   15.047 116.878    0.029  54.158    0.712 -36.524
   0.900    0.445 -85.121   14.078 111.644    0.031  52.434    0.681 -39.104
   1.000    0.420 -92.081   13.174 106.774    0.033  51.031    0.652 -41.411
   1.100    0.398 -98.563   12.357 102.301    0.035  49.682    0.627 -43.521
   1.200    0.379 -104.795   11.612  98.105    0.036  48.628    0.603 -45.493
   1.300    0.362 -110.743   10.935  94.202    0.038  47.701    0.581 -47.296
   1.400    0.347 -116.611   10.325  90.522    0.040  46.913    0.562 -48.976
   1.500    0.334 -122.350    9.770  87.028    0.042  46.110    0.544 -50.570
   1.600    0.322 -127.943    9.265  83.661    0.043  45.458    0.528 -52.164
   1.700    0.312 -133.274    8.800  80.458    0.045  44.765    0.513 -53.710
   1.800    0.304 -138.605    8.378  77.385    0.047  44.067    0.499 -55.224
   1.900    0.296 -143.568    7.993  74.418    0.049  43.420    0.486 -56.806
   2.000    0.291 -148.519    7.635  71.538    0.050  42.697    0.474 -58.376
   2.200    0.283 -158.228    7.006  66.024    0.054  41.307    0.450 -61.475
   2.400    0.277 -167.780    6.466  60.736    0.058  39.862    0.428 -64.572
   2.600    0.276 -176.694    5.993  55.603    0.062  38.253    0.408 -67.765
   2.800    0.277 174.734    5.582  50.699    0.066  36.492    0.388 -70.989
   3.000    0.281 166.494    5.221  45.897    0.070  34.622    0.368 -74.348
   3.500    0.299 147.760    4.482  34.351    0.080  29.355    0.320 -83.139
   4.000    0.326 131.200    3.905  23.140    0.091  23.343    0.270 -92.774
   4.500    0.359 117.183    3.447  12.367    0.101  16.828    0.220 -103.940
   5.000    0.400 103.909    3.061   1.324    0.111   8.973    0.162 -118.778
   5.500    0.432  91.570    2.708  -8.768    0.118   2.487    0.109 -133.597
   6.000    0.476  80.613    2.424 -19.506    0.125  -6.012    0.063 -176.039
   6.500    0.486  73.369    2.224 -26.803    0.138  -8.275    0.063 161.107
   7.000    0.525  65.570    2.056 -36.329    0.152 -15.528    0.094 119.903
   7.500    0.587  55.690    1.853 -48.213    0.155 -27.690    0.165  83.327
   8.000    0.623  47.950    1.698 -57.872    0.162 -35.453    0.222  69.806
   8.500    0.664  39.742    1.536 -68.172    0.167 -44.935    0.288  56.720
   9.000    0.692  31.462    1.372 -77.494    0.165 -53.248    0.343  44.538
   9.500    0.722  24.001    1.240 -86.294    0.165 -61.745    0.385  35.238
  10.000    0.753  17.014    1.131 -96.416    0.167 -71.284    0.448  28.223
  10.500    0.774   9.863    1.018 -106.215    0.165 -80.517    0.504  19.884
  11.000    0.792   2.557    0.899 -115.380    0.159 -90.410    0.550  10.545
  11.500    0.806  -4.719    0.801 -124.953    0.153 -100.583    0.593   3.148
  12.000    0.813 -11.975    0.696 -134.279    0.143 -111.282    0.636  -5.419
!     DEEMBEDDED NOISE DATA
!FREQUENCY    FMIN    GAMMA OPT        Rn
!  (GHz)      (dB)    Mag    Ang   (NORMALIZED)
