! Filename: 33bfg403.001
! BFG403W Field A1
! V1=8.743E-001V,V2=3.000E+000V, I1=4.126E-005A, I2=3.000E-003A
# GHz   S   MA   R 50
!                S11              S21              S12              S22
!Freq(GHz)  Mag     Ang      Mag     Ang      Mag     Ang      Mag     Ang 
   0.040    0.882  -1.346    7.235 176.545    0.000  -3.618    0.991  -0.542
   0.100    0.888  -3.098    7.088 175.025    0.001  93.223    0.994  -1.915
   0.200    0.885  -6.132    7.054 171.148    0.003  85.241    0.992  -4.075
   0.300    0.881  -9.202    7.016 167.577    0.004  84.340    0.991  -6.139
   0.400    0.874 -12.049    6.994 163.279    0.005  81.040    0.987  -8.230
   0.500    0.866 -15.421    6.954 159.055    0.006  78.336    0.983 -10.210
   0.600    0.857 -18.367    6.869 155.150    0.008  76.641    0.979 -12.194
   0.700    0.847 -21.226    6.772 151.326    0.009  74.897    0.973 -14.226
   0.800    0.836 -24.157    6.690 147.431    0.010  73.065    0.967 -16.142
   0.900    0.823 -26.926    6.603 143.642    0.011  71.185    0.961 -18.096
   1.000    0.809 -29.737    6.508 139.803    0.012  69.660    0.954 -20.001
   1.100    0.794 -32.391    6.402 136.173    0.013  68.064    0.946 -21.810
   1.200    0.780 -35.049    6.298 132.515    0.014  66.784    0.939 -23.673
   1.300    0.764 -37.584    6.174 128.940    0.015  65.431    0.931 -25.462
   1.400    0.749 -40.070    6.069 125.499    0.016  64.064    0.923 -27.207
   1.500    0.731 -42.619    5.956 122.069    0.017  62.923    0.916 -28.912
   1.600    0.715 -45.066    5.848 118.711    0.017  61.814    0.907 -30.603
   1.700    0.698 -47.431    5.729 115.446    0.018  60.716    0.900 -32.262
   1.800    0.682 -49.745    5.612 112.220    0.019  59.733    0.891 -33.923
   1.900    0.667 -51.905    5.496 109.186    0.020  59.026    0.883 -35.559
   2.000    0.651 -54.140    5.381 106.130    0.020  58.188    0.875 -37.187
   2.200    0.620 -58.432    5.164 100.204    0.022  57.030    0.858 -40.336
   2.400    0.589 -62.595    4.957  94.471    0.023  56.065    0.843 -43.445
   2.600    0.559 -66.683    4.755  89.006    0.025  55.166    0.826 -46.507
   2.800    0.531 -70.791    4.566  83.678    0.026  54.333    0.811 -49.517
   3.000    0.504 -74.832    4.393  78.540    0.028  53.732    0.795 -52.533
   3.500    0.440 -85.052    4.006  66.164    0.032  52.150    0.754 -59.956
   4.000    0.384 -95.978    3.679  54.346    0.038  49.974    0.713 -67.465
   4.500    0.337 -108.451    3.410  42.993    0.044  46.597    0.671 -75.222
   5.000    0.294 -122.758    3.174  31.665    0.051  41.881    0.623 -83.185
   5.500    0.255 -139.287    2.948  20.198    0.057  36.517    0.568 -90.982
   6.000    0.238 -159.909    2.790   8.473    0.067  28.206    0.510 -101.117
   6.500    0.226 -175.429    2.600  -1.451    0.076  27.108    0.469 -108.897
   7.000    0.182 164.031    2.286 -12.204    0.068  25.901    0.383 -110.618
   7.500    0.253 147.407    2.329 -23.154    0.101  15.306    0.369 -131.501
   8.000    0.294 125.412    2.207 -36.556    0.115   1.347    0.292 -152.669
   8.500    0.324 106.309    2.019 -49.354    0.119 -10.301    0.212 -175.896
   9.000    0.368  90.870    1.876 -61.646    0.131 -21.014    0.185 151.748
   9.500    0.409  74.821    1.701 -74.488    0.136 -34.763    0.192 110.947
  10.000    0.445  61.122    1.534 -87.782    0.139 -47.651    0.248  77.739
  10.500    0.477  47.258    1.349 -101.023    0.138 -62.268    0.320  53.482
  11.000    0.496  33.924    1.157 -113.062    0.130 -76.801    0.390  34.437
  11.500    0.521  22.144    0.993 -125.271    0.122 -91.041    0.460  19.563
  12.000    0.530   9.768    0.818 -136.298    0.104 -107.986    0.514   5.092
!     DEEMBEDDED NOISE DATA
!FREQUENCY    FMIN    GAMMA OPT        Rn
!  (GHz)      (dB)    Mag    Ang   (NORMALIZED)
