! Filename: 4110BFG480.001
! Title: BFG480W
! Bias: Vce=4V; Ic=110mA
! Company: Philips Semiconductors NL
! User: Quality&Reliability T&D
! Measure time: 10 Nov 1999 / 12:04:13
#  MHz  S  MA  R 50
! Freq       S11             S21             S12             S22    :
  100  0.45910 -157.5 52.81705 146.12 0.005990 68.941  0.74608 -42.57
  200  0.58152 -162.2 40.04380 124.97 0.009324 60.571  0.59506 -73.97
  300  0.63517 -167.4 30.49560 112.77 0.011434 60.131  0.49937 -94.36
  400  0.66209 -171.3 24.16190 104.75 0.013469 62.259  0.44803 -108.4
  500  0.67783 -174.3 19.87345 98.962 0.015417 64.427  0.41958 -118.5
  600  0.68797 -176.7 16.76255 94.498 0.017396 66.279  0.40256 -126.0
  700  0.69501 -178.9 14.47731 90.885 0.019533 68.327  0.39142 -131.8
  800  0.70113 179.11 12.69648 87.787 0.021748 70.079  0.38448 -136.6
  900  0.70881 177.28 11.27612 85.126 0.023909 71.815  0.38117 -140.8
 1000  0.71491 175.57 10.13789 82.611 0.026336 72.683  0.38112 -144.5
 1200  0.72836 172.63  8.36261 77.866 0.030946 74.206  0.38861 -150.5
 1400  0.73790 170.39  7.07829 73.233 0.035643 75.021  0.39945 -155.0
 1600  0.74257 168.07  6.17247 69.382 0.040979 75.719  0.40609 -158.4
 1800  0.74233 165.49  5.48567 65.989 0.046699 76.249  0.41399 -162.0
 2000  0.75241 163.31  4.85524 63.092 0.051506 76.666  0.42623 -166.3
 2200  0.77240 161.22  4.33297 59.589 0.055975 76.634  0.44571 -170.0
 2400  0.78176 159.47  3.88332 55.937 0.060943 76.040  0.47031 -172.3
 2600  0.78133 157.82  3.54893 52.600 0.067117 75.319  0.49000 -173.7
 2800  0.77744 155.55  3.29035 48.200 0.071827 73.918  0.49955 -175.5
 3000  0.78220 152.89  3.05512 44.790 0.077224 73.123  0.50763 -178.3
