! Filename BFG424W_3V_3mA.prm
! Simulation_Values
!	! Created	by	janssen	on	Thu	Sep	15	10:02:03	WETDST	2005
!	Column ranking S11, S21,S12,S22 both magnitude and phase.									
!	VCE	=	3	V,	IC	=	3	mA		
!	Common	Emitter	S-Parameters							
#	GHz	S	MA	R	50					
1.00E-01	0.864	-7.365	10.318	173.612	0.007	89.433	0.987	-4.045		
2.00E-01	0.856	-14.851	10.197	167.452	0.013	81.882	0.978	-8.189		
3.00E-01	0.842	-22.069	9.959	161.451	0.019	76.835	0.964	-12.142		
4.00E-01	0.826	-29.219	9.747	155.780	0.025	72.779	0.946	-15.955		
5.00E-01	0.805	-36.223	9.481	150.186	0.030	69.057	0.925	-19.586		
6.00E-01	0.781	-42.977	9.185	144.963	0.035	65.570	0.901	-23.052		
7.00E-01	0.757	-49.594	8.852	140.034	0.039	62.430	0.874	-26.262		
8.00E-01	0.731	-56.038	8.544	135.328	0.043	59.737	0.849	-29.254		
9.00E-01	0.705	-62.278	8.215	130.834	0.047	57.002	0.821	-32.067		
1.00E+00	0.681	-68.188	7.876	126.692	0.049	55.024	0.794	-34.671		
1.10E+00	0.655	-74.087	7.562	122.648	0.052	52.930	0.768	-37.112		
1.20E+00	0.632	-79.723	7.253	118.933	0.054	51.161	0.743	-39.366
1.30E+00	0.609	-85.211	6.960	115.349	0.056	49.472	0.718	-41.541
1.40E+00	0.587	-90.667	6.668	111.924	0.058	48.167	0.695	-43.510
1.50E+00	0.568	-95.936	6.404	108.701	0.060	46.908	0.674	-45.480
1.60E+00	0.549	-101.117	6.143	105.629	0.061	45.996	0.652	-47.283
1.70E+00	0.533	-106.071	5.895	102.705	0.062	45.257	0.633	-49.057
1.80E+00	0.518	-111.039	5.665	99.912	0.064	44.547	0.614	-50.754
1.90E+00	0.504	-115.849	5.446	97.283	0.065	43.984	0.596	-52.395
2.00E+00	0.491	-120.583	5.236	94.698	0.066	43.630	0.578	-54.017
2.10E+00	0.481	-125.160	5.044	92.258	0.066	43.450	0.563	-55.604
2.20E+00	0.471	-129.755	4.860	89.854	0.067	43.201	0.547	-57.179
2.30E+00	0.463	-134.166	4.684	87.540	0.068	43.192	0.533	-58.731
2.40E+00	0.455	-138.557	4.520	85.382	0.069	42.938	0.519	-60.272
2.50E+00	0.450	-142.765	4.367	83.310	0.070	43.192	0.505	-61.766
2.60E+00	0.445	-146.884	4.220	81.238	0.071	43.272	0.492	-63.371
2.70E+00	0.441	-151.002	4.085	79.230	0.072	43.868	0.480	-64.921
2.80E+00	0.438	-154.949	3.949	77.290	0.073	43.836	0.469	-66.542
2.90E+00	0.435	-158.798	3.827	75.322	0.074	44.162	0.457	-68.142
3.00E+00	0.435	-162.568	3.712	73.516	0.075	44.505	0.446	-69.833
3.10E+00	0.434	-166.215	3.599	71.702	0.076	44.884	0.436	-71.527
3.20E+00	0.434	-169.846	3.494	69.911	0.077	45.124	0.426	-73.295
3.30E+00	0.436	-173.365	3.395	68.183	0.079	45.457	0.416	-75.080
3.40E+00	0.437	-176.749	3.298	66.442	0.080	45.796	0.407	-76.913
3.50E+00	0.440	-179.929	3.210	64.737	0.082	46.115	0.398	-78.900
3.60E+00	0.442	176.710	3.122	63.086	0.083	46.296	0.388	-80.952
3.70E+00	0.445	173.692	3.034	61.476	0.084	46.587	0.379	-82.910
3.80E+00	0.449	170.709	2.959	59.884	0.086	46.977	0.371	-85.028
3.90E+00	0.453	167.898	2.882	58.322	0.088	47.177	0.363	-87.235
4.00E+00	0.457	164.895	2.803	56.746	0.089	47.295	0.355	-89.483
4.10E+00	0.463	162.218	2.740	55.225	0.091	47.561	0.347	-91.807
4.20E+00	0.467	159.583	2.670	53.826	0.093	47.893	0.339	-94.239
4.30E+00	0.473	156.988	2.603	52.301	0.094	47.875	0.332	-96.751
4.40E+00	0.478	154.381	2.542	50.877	0.096	47.970	0.325	-99.253
4.50E+00	0.483	152.107	2.483	49.576	0.098	48.387	0.319	-101.813
4.60E+00	0.489	149.756	2.423	48.066	0.100	48.400	0.312	-104.594
4.70E+00	0.495	147.429	2.371	46.761	0.102	48.203	0.306	-107.457
4.80E+00	0.501	145.166	2.315	45.509	0.104	48.439	0.300	-110.310
4.90E+00	0.507	143.124	2.264	44.051	0.106	48.568	0.296	-113.295
5.00E+00	0.512	140.908	2.220	42.856	0.109	48.300	0.290	-116.416
5.10E+00	0.518	138.788	2.168	41.703	0.110	48.147	0.286	-119.533
5.20E+00	0.525	136.878	2.124	40.297	0.112	48.350	0.282	-122.611
5.30E+00	0.531	135.046	2.088	39.073	0.115	48.189	0.279	-125.975
5.40E+00	0.536	133.021	2.040	37.923	0.117	47.704	0.275	-129.435
5.50E+00	0.543	131.203	2.000	36.536	0.119	47.616	0.272	-132.638
5.60E+00	0.550	129.543	1.967	35.378	0.121	47.675	0.270	-136.041
5.70E+00	0.555	127.800	1.926	34.282	0.124	47.286	0.269	-139.633
5.80E+00	0.563	126.002	1.890	32.909	0.126	46.795	0.268	-143.134
5.90E+00	0.568	124.306	1.857	31.788	0.128	46.732	0.266	-146.577
6.00E+00	0.575	122.798	1.818	30.713	0.131	46.565	0.266	-150.074
6.10E+00	0.581	121.273	1.787	29.465	0.133	46.030	0.267	-153.527
6.20E+00	0.587	119.766	1.759	28.480	0.135	45.598	0.267	-156.972
6.30E+00	0.593	118.205	1.723	27.380	0.137	45.587	0.269	-160.411
6.40E+00	0.598	116.847	1.697	26.124	0.140	45.312	0.271	-163.723
6.50E+00	0.604	115.383	1.671	25.161	0.142	44.710	0.273	-167.007
6.60E+00	0.610	113.875	1.639	24.064	0.144	44.338	0.276	-170.248
6.70E+00	0.616	112.588	1.614	22.831	0.146	44.381	0.279	-173.409
6.80E+00	0.621	111.269	1.590	21.908	0.150	43.802	0.283	-176.637
6.90E+00	0.627	109.747	1.560	20.827	0.151	43.027	0.286	-179.770
7.00E+00	0.633	108.507	1.537	19.650	0.153	42.795	0.291	177.275
7.10E+00	0.637	107.296	1.515	18.741	0.156	42.726	0.295	174.325
7.20E+00	0.642	106.011	1.488	17.691	0.159	42.021	0.299	171.702
7.30E+00	0.647	104.783	1.468	16.621	0.161	41.414	0.305	168.971
7.40E+00	0.652	103.643	1.447	15.728	0.163	41.288	0.311	166.395
7.50E+00	0.657	102.463	1.423	14.626	0.166	40.758	0.316	163.658
7.60E+00	0.662	101.208	1.404	13.595	0.169	39.878	0.322	161.178
7.70E+00	0.666	100.092	1.383	12.774	0.170	39.397	0.328	158.707
7.80E+00	0.671	99.036	1.359	11.685	0.172	39.249	0.334	156.444
7.90E+00	0.675	97.977	1.345	10.760	0.176	38.440	0.340	154.154
8.00E+00	0.678	96.736	1.325	10.004	0.177	37.744	0.346	152.029
8.10E+00	0.682	95.725	1.305	8.874	0.178	37.372	0.353	149.936
8.20E+00	0.686	94.784	1.292	7.953	0.182	37.223	0.359	147.915
8.30E+00	0.689	93.759	1.273	7.220	0.185	36.267	0.366	145.888
8.40E+00	0.693	92.745	1.256	6.131	0.186	35.577	0.373	144.022
8.50E+00	0.697	91.931	1.243	5.250	0.188	35.395	0.380	142.223
8.60E+00	0.700	90.974	1.225	4.466	0.192	34.887	0.387	140.384
8.70E+00	0.704	89.943	1.210	3.353	0.194	33.906	0.393	138.761
8.80E+00	0.707	89.080	1.198	2.576	0.195	33.430	0.400	137.034
8.90E+00	0.710	88.301	1.178	1.845	0.198	33.282	0.407	135.316
9.00E+00	0.714	87.399	1.166	0.715	0.202	32.230	0.414	133.591
9.10E+00	0.717	86.592	1.156	-0.028	0.203	31.356	0.421	132.024
9.20E+00	0.721	85.867	1.137	-0.712	0.204	31.005	0.428	130.375
9.30E+00	0.725	85.225	1.125	-1.763	0.208	30.499	0.435	128.748
9.40E+00	0.729	84.392	1.118	-2.507	0.210	29.461	0.440	127.125
9.50E+00	0.733	83.469	1.100	-3.147	0.210	28.862	0.446	125.609
9.60E+00	0.740	82.818	1.091	-4.181	0.213	28.704	0.450	124.012
9.70E+00	0.745	81.861	1.085	-5.025	0.216	28.026	0.454	122.695
9.80E+00	0.748	80.411	1.069	-5.903	0.218	26.971	0.459	121.438
9.90E+00	0.747	79.451	1.059	-6.963	0.219	26.547	0.464	120.227
1.00E+01	0.745	78.877	1.050	-7.654	0.222	26.175	0.469	118.987
1.01E+01	0.746	78.215	1.033	-8.545	0.225	25.240	0.474	117.881
1.02E+01	0.751	77.448	1.025	-9.607	0.226	24.297	0.478	116.726
1.03E+01	0.754	76.722	1.016	-10.203	0.227	23.828	0.483	115.629
1.04E+01	0.756	75.997	1.001	-11.042	0.230	23.354	0.488	114.595
1.05E+01	0.759	75.085	0.993	-12.073	0.232	22.450	0.492	113.422
1.06E+01	0.761	74.226	0.986	-12.588	0.233	21.684	0.496	112.519
1.07E+01	0.763	73.483	0.972	-13.526	0.234	21.235	0.501	111.669
1.08E+01	0.765	72.888	0.964	-14.641	0.237	20.477	0.506	110.764
1.09E+01	0.766	72.227	0.954	-15.166	0.238	19.532	0.511	109.896
1.10E+01	0.770	71.588	0.940	-15.919	0.238	18.955	0.516	109.026
1.11E+01	0.777	70.957	0.934	-16.702	0.239	18.851	0.521	108.018
1.12E+01	0.781	70.003	0.928	-17.162	0.244	18.282	0.525	107.060
1.13E+01	0.784	68.849	0.920	-18.108	0.245	17.234	0.529	106.236
1.14E+01	0.783	67.760	0.915	-19.221	0.246	16.548	0.533	105.546
1.15E+01	0.780	67.139	0.907	-19.837	0.249	15.994	0.538	104.739
1.16E+01	0.778	66.199	0.896	-20.871	0.251	14.891	0.544	104.187
1.17E+01	0.774	65.574	0.888	-21.831	0.250	13.980	0.549	103.213
1.18E+01	0.779	65.094	0.877	-22.319	0.250	13.835	0.553	102.425
1.19E+01	0.779	63.868	0.866	-23.231	0.252	13.556	0.559	101.730
1.20E+01	0.773	62.863	0.863	-23.858	0.254	12.783	0.569	100.931
1.21E+01	0.769	62.097	0.855	-24.552	0.255	12.293	0.574	99.539
1.22E+01	0.765	61.349	0.844	-25.531	0.258	12.371	0.579	98.624
1.23E+01	0.758	61.252	0.837	-26.421	0.263	10.968	0.584	97.326
1.24E+01	0.760	60.680	0.826	-26.803	0.261	10.108	0.587	96.372
1.25E+01	0.758	59.878	0.820	-27.671	0.263	9.586	0.590	95.170
1.26E+01	0.755	59.685	0.812	-28.236	0.262	9.556	0.586	93.547
1.27E+01	0.753	59.203	0.805	-28.871	0.266	8.841	0.582	92.933
1.28E+01	0.753	58.606	0.797	-29.838	0.267	8.013	0.580	92.439
1.29E+01	0.753	58.242	0.790	-30.399	0.268	7.845	0.578	92.153
1.30E+01	0.753	57.921	0.782	-30.855	0.271	7.553	0.580	91.859
1.31E+01	0.751	57.261	0.776	-31.819	0.274	6.458	0.580	91.460
1.32E+01	0.751	56.573	0.771	-32.460	0.275	5.650	0.586	91.141
1.33E+01	0.749	56.125	0.762	-32.944	0.276	5.308	0.589	90.171
1.34E+01	0.749	55.839	0.756	-33.721	0.278	4.727	0.591	90.225
1.35E+01	0.747	55.149	0.754	-34.170	0.281	3.733	0.600	89.396
1.36E+01	0.747	54.658	0.743	-34.965	0.279	3.006	0.604	88.714
1.37E+01	0.748	54.312	0.737	-35.467	0.279	3.329	0.606	87.868
1.38E+01	0.748	53.827	0.736	-35.823	0.283	2.543	0.610	87.108
1.39E+01	0.747	53.114	0.727	-36.662	0.284	1.530	0.610	86.209
1.40E+01	0.749	52.662	0.722	-37.407	0.282	1.716	0.612	85.539
1.41E+01	0.749	52.327	0.720	-37.620	0.287	2.080	0.613	84.797
1.42E+01	0.746	51.729	0.712	-38.467	0.292	0.699	0.614	84.211
1.43E+01	0.746	51.084	0.707	-39.437	0.292	0.013	0.615	83.660
1.44E+01	0.746	50.645	0.703	-39.642	0.294	0.245	0.617	83.050
1.45E+01	0.745	50.172	0.693	-40.526	0.301	-0.807	0.617	82.347
1.46E+01	0.743	49.528	0.688	-41.338	0.302	-2.292	0.617	81.775
1.47E+01	0.743	48.853	0.682	-41.438	0.300	-2.578	0.619	81.154
1.48E+01	0.741	48.381	0.674	-42.105	0.304	-2.639	0.620	80.457
1.49E+01	0.740	47.825	0.670	-43.016	0.309	-3.984	0.620	79.865
1.50E+01	0.738	47.091	0.665	-43.199	0.308	-5.034	0.623	79.346
