! Filename: 3_680BFG480.001
! Title: BFG480W
! Bias: Vce=3.6V; Ic=80mA
! Company: Philips Semiconductors NL
! User: Quality&Reliability T&D
! Measure time: 10 Nov 1999 / 12:00:33
#  MHz  S  MA  R 50
! Freq       S11             S21             S12             S22    :
  100  0.40089 -151.4 52.52027 147.75 0.006522 69.130  0.78348 -41.03
  200  0.54350 -157.5 40.29183 126.80 0.010201 59.875  0.63249 -71.63
  300  0.60784 -163.7 30.96867 114.35 0.012530 57.754  0.53209 -92.00
  400  0.64016 -168.3 24.65967 106.10 0.014484 59.261  0.47602 -106.3
  500  0.65901 -171.8 20.33973 100.15 0.016352 60.903  0.44375 -116.6
  600  0.67092 -174.6 17.19042 95.532 0.018251 62.853  0.42411 -124.4
  700  0.67915 -177.0 14.86321 91.849 0.020210 65.000  0.41108 -130.5
  800  0.68610 -179.2 13.04352 88.677 0.022218 66.733  0.40258 -135.6
  900  0.69442 178.82 11.58986 85.958 0.024403 68.683  0.39803 -140.0
 1000  0.70098 176.99 10.42348 83.404 0.026702 69.792  0.39692 -143.9
 1200  0.71545 173.85  8.60642 78.613 0.031227 71.677  0.40251 -150.2
 1400  0.72584 171.48  7.28777 73.928 0.035735 72.807  0.41189 -154.9
 1600  0.73104 169.09  6.35804 70.077 0.040926 73.801  0.41767 -158.5
 1800  0.73128 166.47  5.65404 66.717 0.046517 74.489  0.42460 -162.3
 2000  0.74190 164.20  5.00636 63.792 0.051246 75.163  0.43569 -166.7
 2200  0.76087 162.03  4.46677 60.310 0.055696 75.199  0.45470 -170.4
 2400  0.77214 160.28  4.00472 56.649 0.060577 74.739  0.47866 -172.8
 2600  0.77239 158.60  3.66297 53.355 0.066654 74.168  0.49721 -174.3
 2800  0.76799 156.35  3.39625 48.970 0.071378 72.794  0.50598 -176.1
 3000  0.77274 153.68  3.15383 45.577 0.076790 72.112  0.51332 -179.0
