! Filename: 31bfg403.001
! BFG403W Field A1
! V1=8.434E-001V,V2=3.000E+000V, I1=1.250E-005A, I2=1.000E-003A
# GHz   S   MA   R 50
!                S11              S21              S12              S22
!Freq(GHz)  Mag     Ang      Mag     Ang      Mag     Ang      Mag     Ang 
   0.040    0.952  -0.737    3.129 177.579    0.001  36.583    0.996  -0.626
   0.100    0.960  -2.360    3.065 176.445    0.001  90.576    0.997  -1.826
   0.200    0.959  -4.717    3.058 173.493    0.003  85.452    0.996  -3.734
   0.300    0.957  -7.055    3.054 171.502    0.004  85.389    0.996  -5.598
   0.400    0.954  -9.118    3.064 167.689    0.005  82.302    0.994  -7.519
   0.500    0.950 -11.893    3.068 164.569    0.007  79.642    0.992  -9.341
   0.600    0.947 -14.187    3.046 161.575    0.008  77.988    0.989 -11.173
   0.700    0.943 -16.459    3.026 158.674    0.009  76.796    0.987 -13.081
   0.800    0.939 -18.858    3.015 155.765    0.011  75.092    0.984 -14.910
   0.900    0.933 -21.117    3.007 152.886    0.012  73.145    0.980 -16.777
   1.000    0.926 -23.496    2.999 149.825    0.013  71.697    0.976 -18.630
   1.100    0.919 -25.749    2.985 146.974    0.014  69.872    0.972 -20.415
   1.200    0.912 -28.040    2.973 144.021    0.015  68.581    0.967 -22.256
   1.300    0.905 -30.340    2.955 141.345    0.017  66.907    0.963 -24.056
   1.400    0.897 -32.568    2.941 138.307    0.018  65.274    0.957 -25.830
   1.500    0.888 -34.897    2.930 135.514    0.019  63.689    0.952 -27.601
   1.600    0.878 -37.203    2.915 132.543    0.020  62.282    0.947 -29.357
   1.700    0.869 -39.450    2.899 129.732    0.021  60.760    0.941 -31.124
   1.800    0.859 -41.728    2.873 126.856    0.022  59.307    0.935 -32.890
   1.900    0.849 -43.872    2.848 124.156    0.023  57.988    0.929 -34.634
   2.000    0.839 -46.059    2.822 121.381    0.024  56.741    0.922 -36.369
   2.200    0.818 -50.448    2.779 115.902    0.025  54.289    0.908 -39.797
   2.400    0.794 -54.875    2.737 110.517    0.027  52.129    0.893 -43.184
   2.600    0.772 -59.239    2.688 105.282    0.028  49.967    0.878 -46.546
   2.800    0.748 -63.509    2.637 100.072    0.030  48.030    0.862 -49.845
   3.000    0.725 -67.830    2.592  94.985    0.031  46.389    0.845 -53.171
   3.500    0.664 -78.870    2.482  82.320    0.035  42.887    0.802 -61.319
   4.000    0.608 -90.152    2.375  69.954    0.039  40.139    0.756 -69.471
   4.500    0.556 -102.314    2.288  57.914    0.044  37.464    0.707 -77.730
   5.000    0.506 -115.558    2.205  45.646    0.049  33.804    0.653 -86.163
   5.500    0.457 -129.894    2.105  33.093    0.053  29.453    0.591 -94.506
   6.000    0.426 -146.264    2.038  20.313    0.062  22.717    0.531 -104.793
   6.500    0.397 -160.386    1.930   9.218    0.069  24.455    0.480 -112.852
   7.000    0.335 -176.918    1.723  -2.897    0.058  25.593    0.384 -116.494
   7.500    0.383 165.601    1.772 -14.465    0.095  15.687    0.373 -135.457
   8.000    0.401 144.467    1.698 -28.775    0.109   1.212    0.303 -156.443
   8.500    0.411 124.646    1.565 -42.537    0.114 -10.589    0.227 -179.858
   9.000    0.438 106.704    1.460 -55.817    0.126 -21.456    0.203 149.819
   9.500    0.465  88.797    1.325 -69.140    0.131 -35.726    0.211 112.592
  10.000    0.492  72.948    1.206 -83.202    0.135 -49.099    0.264  80.952
  10.500    0.518  57.582    1.062 -97.243    0.134 -64.371    0.333  56.957
  11.000    0.528  43.217    0.905 -110.341    0.124 -79.473    0.403  37.699
  11.500    0.545  30.497    0.773 -123.051    0.116 -94.281    0.473  22.497
  12.000    0.547  17.589    0.634 -134.983    0.096 -112.539    0.528   7.762
!     DEEMBEDDED NOISE DATA
!FREQUENCY    FMIN    GAMMA OPT        Rn
!  (GHz)      (dB)    Mag    Ang   (NORMALIZED)
