! Filename: 3_6130BFG480.001
! Title: BFG480W
! Bias: Vce=3.6V; Ic=130mA
! Company: Philips Semiconductors NL
! User: Quality&Reliability T&D
! Measure time: 10 Nov 1999 / 12:01:36
#  MHz  S  MA  R 50
! Freq       S11             S21             S12             S22    :
  100  0.52979 -161.7 46.26819 144.20 0.005785 68.406  0.69144 -45.01
  200  0.63294 -166.0 35.39870 123.30 0.008912 61.164  0.55195 -77.80
  300  0.67386 -170.5 27.34810 111.47 0.011052 61.515  0.46841 -98.53
  400  0.69609 -173.8 21.75956 103.64 0.013058 63.656  0.42607 -112.5
  500  0.70727 -176.4 17.95780 97.996 0.015080 66.038  0.40356 -122.3
  600  0.71627 -178.6 15.16731 93.610 0.017169 68.161  0.39056 -129.5
  700  0.72141 179.40 13.11720 90.068 0.019285 70.013  0.38234 -135.0
  800  0.72670 177.56 11.50538 87.013 0.021617 71.533  0.37761 -139.6
  900  0.73364 175.82 10.21955 84.379 0.023911 73.195  0.37608 -143.5
 1000  0.73972 174.27  9.18990 81.875 0.026391 74.051  0.37761 -147.0
 1200  0.75116 171.44  7.58018 77.160 0.031173 75.348  0.38723 -152.6
 1400  0.75996 169.23  6.41066 72.509 0.035912 75.990  0.39915 -156.7
 1600  0.76396 166.92  5.59012 68.645 0.041381 76.600  0.40701 -159.9
 1800  0.76341 164.41  4.96885 65.231 0.047176 76.805  0.41600 -163.5
 2000  0.77229 162.25  4.39589 62.313 0.052091 77.369  0.42916 -167.5
 2200  0.79094 160.24  3.92134 58.823 0.056646 77.089  0.44968 -171.0
 2400  0.79927 158.49  3.51155 55.145 0.061594 76.465  0.47437 -173.3
 2600  0.79729 156.76  3.20727 51.795 0.067837 75.635  0.49412 -174.7
 2800  0.79278 154.44  2.97076 47.351 0.072593 74.170  0.50428 -176.4
 3000  0.79761 151.80  2.75855 43.940 0.077998 73.267  0.51277 -179.2
