! Filename: 37bfg410.001
! BFG410W Field B1
! V1=8.610E-001V,V2=3.000E+000V, I1=1.010E-004A, I2=6.990E-003A
# GHz   S   MA   R 50
!                S11              S21              S12              S22
!Freq(GHz)  Mag     Ang      Mag     Ang      Mag     Ang      Mag     Ang 
   0.040    0.723  -2.109   16.801 176.044    0.001  53.693    0.984  -0.901
   0.100    0.733  -6.066   16.458 172.716    0.003  85.508    0.984  -3.017
   0.200    0.724 -12.264   16.161 166.171    0.005  81.297    0.974  -6.745
   0.300    0.711 -18.353   15.888 160.199    0.008  78.316    0.966  -9.925
   0.400    0.694 -24.115   15.551 153.803    0.010  75.913    0.952 -13.246
   0.500    0.673 -29.975   15.131 147.854    0.012  72.245    0.934 -16.064
   0.600    0.651 -35.433   14.644 142.207    0.014  69.910    0.918 -18.871
   0.700    0.627 -40.630   14.099 136.831    0.016  67.315    0.898 -21.597
   0.800    0.603 -45.706   13.591 131.626    0.018  65.278    0.878 -24.010
   0.900    0.577 -50.350   13.078 126.685    0.019  63.325    0.859 -26.363
   1.000    0.551 -54.843   12.545 121.970    0.021  61.464    0.840 -28.538
   1.100    0.527 -59.093   12.038 117.595    0.022  59.863    0.822 -30.543
   1.200    0.504 -63.207   11.544 113.315    0.024  58.577    0.805 -32.533
   1.300    0.481 -67.131   11.064 109.311    0.025  57.397    0.788 -34.275
   1.400    0.460 -70.916   10.624 105.507    0.026  56.283    0.772 -35.963
   1.500    0.439 -74.660   10.197 101.791    0.028  55.322    0.757 -37.626
   1.600    0.418 -78.305    9.800  98.260    0.029  54.552    0.743 -39.239
   1.700    0.400 -81.788    9.423  94.873    0.030  53.688    0.730 -40.795
   1.800    0.383 -85.160    9.058  91.622    0.031  52.946    0.717 -42.317
   1.900    0.366 -88.387    8.725  88.506    0.032  52.354    0.705 -43.870
   2.000    0.351 -91.714    8.405  85.469    0.034  51.644    0.694 -45.384
   2.200    0.322 -98.297    7.831  79.631    0.036  50.426    0.672 -48.353
   2.400    0.296 -104.901    7.321  74.059    0.039  49.324    0.652 -51.261
   2.600    0.273 -111.821    6.862  68.710    0.041  47.999    0.633 -54.230
   2.800    0.252 -118.726    6.454  63.605    0.044  46.744    0.614 -57.170
   3.000    0.234 -126.121    6.093  58.638    0.047  45.317    0.597 -60.176
   3.500    0.198 -146.836    5.329  46.755    0.055  41.266    0.552 -67.764
   4.000    0.179 -170.619    4.723  35.320    0.064  36.391    0.507 -75.576
   4.500    0.181 164.723    4.237  24.292    0.073  30.533    0.461 -84.057
   5.000    0.198 140.857    3.817  13.331    0.082  24.012    0.408 -92.685
   5.500    0.229 119.100    3.435   2.109    0.089  16.168    0.343 -101.460
   6.000    0.266 105.779    3.157  -7.880    0.101  10.009    0.298 -111.877
   6.500    0.304  90.824    2.851 -18.185    0.107   2.887    0.236 -121.106
   7.000    0.282  81.381    2.577 -23.408    0.113   7.962    0.239 -118.072
   7.500    0.379  74.967    2.481 -36.520    0.134  -7.332    0.171 -150.248
   8.000    0.444  65.071    2.306 -47.870    0.145 -17.952    0.129 173.540
   8.500    0.509  54.354    2.092 -60.007    0.150 -30.512    0.117 116.351
   9.000    0.559  44.841    1.895 -70.631    0.153 -40.478    0.156  79.473
   9.500    0.598  35.191    1.687 -81.019    0.150 -50.513    0.213  53.568
  10.000    0.650  28.260    1.553 -92.261    0.158 -60.729    0.292  40.846
  10.500    0.691  19.915    1.388 -103.130    0.158 -71.365    0.362  27.606
  11.000    0.728  11.136    1.219 -114.466    0.154 -84.583    0.439  14.824
  11.500    0.748   2.406    1.048 -125.213    0.143 -96.395    0.504   3.197
  12.000    0.764  -6.251    0.886 -135.872    0.132 -109.999    0.567  -8.170
!     DEEMBEDDED NOISE DATA
!FREQUENCY    FMIN    GAMMA OPT        Rn
!  (GHz)      (dB)    Mag    Ang   (NORMALIZED)
