! Filename: 410bfg425.001
! BFG425W Field C1
! V1=8.334E-001V,V2=4.000E+000V, I1=1.119E-004A, I2=1.001E-002A
# GHz   S   MA   R 50
!                S11              S21              S12              S22
!Freq(GHz)  Mag     Ang      Mag     Ang      Mag     Ang      Mag     Ang 
   0.040    0.644  -4.523   24.177 174.525    0.002  47.840    0.946  -2.218
   0.100    0.650 -11.757   23.541 169.029    0.005  71.099    0.943  -6.214
   0.200    0.632 -23.536   22.827 159.370    0.009  70.753    0.921 -12.399
   0.300    0.604 -34.586   21.764 150.622    0.013  68.235    0.889 -18.008
   0.400    0.571 -45.268   20.577 142.164    0.017  64.698    0.850 -22.967
   0.500    0.536 -55.149   19.318 134.102    0.020  61.521    0.809 -27.330
   0.600    0.504 -64.175   17.990 127.264    0.023  58.863    0.769 -31.053
   0.700    0.472 -72.604   16.755 121.177    0.026  56.422    0.731 -34.236
   0.800    0.442 -80.630   15.605 115.374    0.028  54.637    0.696 -37.013
   0.900    0.415 -87.883   14.553 110.173    0.030  53.099    0.664 -39.502
   1.000    0.392 -94.918   13.581 105.363    0.032  51.860    0.636 -41.720
   1.100    0.371 -101.498   12.708 100.953    0.034  50.620    0.610 -43.751
   1.200    0.354 -107.768   11.917  96.836    0.036  49.710    0.588 -45.656
   1.300    0.338 -113.791   11.205  92.982    0.037  48.904    0.566 -47.385
   1.400    0.324 -119.665   10.565  89.374    0.039  48.183    0.547 -48.998
   1.500    0.313 -125.496    9.986  85.923    0.041  47.450    0.530 -50.534
   1.600    0.302 -131.067    9.462  82.609    0.043  46.839    0.514 -52.091
   1.700    0.294 -136.380    8.978  79.492    0.044  46.198    0.500 -53.611
   1.800    0.287 -141.753    8.542  76.443    0.046  45.491    0.486 -55.102
   1.900    0.280 -146.709    8.141  73.545    0.048  44.848    0.474 -56.661
   2.000    0.275 -151.656    7.774  70.713    0.050  44.167    0.462 -58.201
   2.200    0.269 -161.395    7.126  65.267    0.054  42.704    0.439 -61.274
   2.400    0.265 -170.736    6.570  60.089    0.058  41.172    0.418 -64.351
   2.600    0.265 -179.595    6.088  55.008    0.062  39.518    0.398 -67.562
   2.800    0.268 171.899    5.668  50.163    0.066  37.702    0.378 -70.761
   3.000    0.272 163.878    5.300  45.428    0.070  35.733    0.359 -74.128
   3.500    0.292 145.586    4.545  34.002    0.081  30.290    0.311 -82.936
   4.000    0.321 129.577    3.958  22.902    0.091  24.105    0.262 -92.622
   4.500    0.355 115.825    3.494  12.183    0.102  17.370    0.212 -103.906
   5.000    0.396 102.866    3.101   1.247    0.112   9.467    0.155 -119.033
   5.500    0.429  90.785    2.744  -8.774    0.119   2.878    0.102 -134.410
   6.000    0.473  79.934    2.456 -19.481    0.126  -5.730    0.058 179.028
   6.500    0.483  72.834    2.254 -26.722    0.139  -8.113    0.060 155.572
   7.000    0.522  65.164    2.084 -36.208    0.153 -15.422    0.095 116.014
   7.500    0.584  55.427    1.879 -48.052    0.156 -27.587    0.168  81.348
   8.000    0.621  47.695    1.721 -57.687    0.163 -35.372    0.225  68.424
   8.500    0.662  39.563    1.558 -67.951    0.167 -44.866    0.291  55.715
   9.000    0.691  31.244    1.391 -77.239    0.166 -53.226    0.346  43.772
   9.500    0.720  23.900    1.258 -86.015    0.166 -61.696    0.388  34.572
  10.000    0.751  16.843    1.148 -96.122    0.167 -71.233    0.451  27.625
  10.500    0.774   9.759    1.032 -105.897    0.166 -80.482    0.507  19.358
  11.000    0.791   2.419    0.913 -115.051    0.159 -90.385    0.552  10.097
  11.500    0.806  -4.830    0.813 -124.581    0.153 -100.498    0.595   2.725
  12.000    0.812 -12.069    0.706 -133.875    0.144 -111.142    0.637  -5.801
!     DEEMBEDDED NOISE DATA
!FREQUENCY    FMIN    GAMMA OPT        Rn
!  (GHz)      (dB)    Mag    Ang   (NORMALIZED)
