! Filename: 420BFG480.001
! Title: BFG480W
! Bias: Vce=4V; Ic=20mA
! Company: Philips Semiconductors NL
! User: Quality&Reliability T&D
! Measure time: 10 Nov 1999 / 12:02:24
#  MHz  S  MA  R 50
! Freq       S11             S21             S12             S22    :
  100  0.40461 -50.52 31.98656 156.48 0.010799 63.819  0.85834 -28.00
  200  0.46088 -90.68 28.11143 138.26 0.018121 53.556  0.74491 -51.38
  300  0.51700 -116.6 23.98230 124.73 0.022428 46.482  0.64199 -68.87
  400  0.55954 -131.4 20.08051 115.01 0.024923 42.227  0.57049 -82.27
  500  0.58787 -142.3 17.18361 107.50 0.026458 40.137  0.52095 -92.87
  600  0.60574 -149.9 14.84129 101.56 0.027542 39.377  0.48702 -101.2
  700  0.61845 -155.6 12.99187 96.803 0.028379 39.880  0.46299 -108.0
  800  0.62849 -160.3 11.49669 92.705 0.029214 40.804  0.44585 -113.8
  900  0.63788 -164.1 10.24311 89.232 0.029950 42.543  0.43440 -118.9
 1000  0.64786 -167.7  9.25240 86.054 0.030969 44.202  0.42767 -123.6
 1200  0.66765 -173.3  7.68452 80.173 0.032861 47.840  0.42561 -131.7
 1400  0.68425 -177.4  6.53941 74.602 0.035007 51.490  0.43206 -138.0
 1600  0.69422 179.18  5.69822 70.156 0.038115 55.461  0.43845 -142.9
 1800  0.69779 175.71  5.06009 66.375 0.041989 59.067  0.44469 -147.6
 2000  0.70873 172.59  4.47437 62.811 0.045406 62.343  0.45335 -152.9
 2200  0.72970 169.60  3.99518 58.764 0.048812 64.384  0.47209 -157.9
 2400  0.74453 167.15  3.58045 54.612 0.052991 65.946  0.49815 -161.6
 2600  0.75007 165.05  3.26653 50.946 0.058405 67.131  0.52059 -164.0
 2800  0.74981 162.50  3.03345 46.314 0.062923 67.110  0.53265 -166.5
 3000  0.75569 159.58  2.81279 42.631 0.068054 67.500  0.54152 -170.0
