! Filename: 42bfg410.001
! BFG410W Field B1
! V1=8.279E-001V,V2=4.000E+000V, I1=2.180E-005A, I2=2.000E-003A
# GHz   S   MA   R 50
!                S11              S21              S12              S22
!Freq(GHz)  Mag     Ang      Mag     Ang      Mag     Ang      Mag     Ang 
   0.040    0.916  -1.677    6.417 177.410    0.001  52.973    0.994  -0.739
   0.100    0.920  -3.946    6.255 175.480    0.003  77.386    0.994  -2.282
   0.200    0.918  -7.775    6.209 171.323    0.006  78.638    0.988  -4.900
   0.300    0.913 -11.839    6.206 168.152    0.008  77.881    0.987  -7.195
   0.400    0.908 -15.460    6.209 163.502    0.011  75.927    0.983  -9.728
   0.500    0.900 -19.492    6.187 159.440    0.014  73.563    0.977 -12.009
   0.600    0.893 -23.359    6.120 155.509    0.016  71.773    0.972 -14.330
   0.700    0.884 -27.123    6.037 151.665    0.019  69.240    0.964 -16.746
   0.800    0.875 -30.966    5.981 147.875    0.021  67.072    0.956 -19.015
   0.900    0.863 -34.630    5.934 144.064    0.023  64.788    0.948 -21.320
   1.000    0.849 -38.473    5.872 140.168    0.025  62.616    0.938 -23.545
   1.100    0.837 -42.097    5.799 136.509    0.028  60.393    0.929 -25.654
   1.200    0.823 -45.794    5.726 132.776    0.030  58.254    0.920 -27.858
   1.300    0.809 -49.430    5.646 129.221    0.031  56.188    0.908 -29.957
   1.400    0.794 -52.985    5.576 125.606    0.033  54.101    0.898 -32.014
   1.500    0.778 -56.631    5.499 122.035    0.035  52.116    0.887 -34.031
   1.600    0.760 -60.312    5.425 118.484    0.037  50.275    0.875 -35.997
   1.700    0.745 -63.772    5.343 115.052    0.038  48.459    0.864 -37.961
   1.800    0.728 -67.247    5.248 111.591    0.040  46.646    0.852 -39.902
   1.900    0.713 -70.596    5.154 108.371    0.041  45.076    0.841 -41.809
   2.000    0.697 -73.924    5.054 105.117    0.042  43.498    0.829 -43.693
   2.200    0.665 -80.700    4.881  98.673    0.044  40.514    0.806 -47.337
   2.400    0.632 -87.470    4.710  92.402    0.047  37.835    0.783 -50.893
   2.600    0.601 -94.076    4.533  86.396    0.049  35.470    0.760 -54.381
   2.800    0.570 -100.778    4.365  80.483    0.050  33.254    0.737 -57.758
   3.000    0.541 -107.466    4.206  74.745    0.052  31.309    0.715 -61.176
   3.500    0.473 -124.867    3.841  60.766    0.057  27.045    0.660 -69.520
   4.000    0.417 -143.318    3.508  47.309    0.062  23.188    0.606 -77.773
   4.500    0.378 -163.173    3.218  34.520    0.068  19.288    0.553 -86.398
   5.000    0.353 175.485    2.949  21.897    0.074  14.596    0.495 -95.263
   5.500    0.343 152.725    2.686   9.118    0.079   8.023    0.428 -104.528
   6.000    0.356 134.264    2.481  -2.305    0.089   4.542    0.380 -114.504
   6.500    0.372 115.150    2.248 -13.869    0.094  -1.215    0.316 -124.465
   7.000    0.348 104.045    2.025 -20.320    0.099   9.197    0.301 -123.884
   7.500    0.438  90.259    1.952 -34.073    0.122  -7.335    0.243 -150.121
   8.000    0.495  76.845    1.814 -46.118    0.134 -18.017    0.198 -176.317
   8.500    0.549  63.721    1.647 -58.875    0.140 -30.934    0.157 143.895
   9.000    0.592  52.560    1.491 -70.223    0.144 -40.842    0.163 106.427
   9.500    0.627  41.742    1.321 -81.074    0.140 -51.011    0.199  74.149
  10.000    0.674  33.512    1.220 -92.756    0.149 -61.183    0.274  55.089
  10.500    0.709  24.321    1.087 -104.110    0.149 -71.971    0.343  38.665
  11.000    0.741  15.094    0.952 -116.136    0.146 -85.890    0.421  23.574
  11.500    0.758   6.093    0.816 -127.398    0.134 -98.405    0.490  10.474
  12.000    0.771  -2.651    0.689 -138.739    0.123 -112.836    0.557  -2.103
!     DEEMBEDDED NOISE DATA
!FREQUENCY    FMIN    GAMMA OPT        Rn
!  (GHz)      (dB)    Mag    Ang   (NORMALIZED)
