! Filename: 3_6150BFG480.001
! Title: BFG480W
! Bias: Vce=3.6V; Ic=150mA
! Company: Philips Semiconductors NL
! User: Quality&Reliability T&D
! Measure time: 10 Nov 1999 / 12:02:00
#  MHz  S  MA  R 50
! Freq       S11             S21             S12             S22    :
  100  0.58325 -164.1 38.81975 142.52 0.005897 65.223  0.58149 -49.00
  200  0.68257 -168.3 28.88923 121.53 0.008865 59.570  0.46930 -83.43
  300  0.71903 -172.4 22.21338 109.97 0.010894 60.536  0.40794 -104.4
  400  0.73666 -175.5 17.68372 102.37 0.012867 63.293  0.38032 -117.8
  500  0.74643 -178.0 14.65158 96.918 0.014889 65.727  0.36760 -127.0
  600  0.75272 179.89 12.40339 92.649 0.016949 68.006  0.36098 -133.5
  700  0.75657 177.99 10.75793 89.183 0.019163 70.214  0.35745 -138.4
  800  0.76164 176.22  9.44973 86.178 0.021460 71.927  0.35646 -142.4
  900  0.76669 174.56  8.40148 83.600 0.023709 73.538  0.35801 -145.9
 1000  0.77221 173.03  7.56587 81.116 0.026282 74.493  0.36207 -149.0
 1200  0.78212 170.30  6.24670 76.447 0.031043 75.853  0.37581 -154.0
 1400  0.78811 168.04  5.28790 71.803 0.035836 76.456  0.39064 -157.6
 1600  0.79078 165.70  4.61538 67.911 0.041393 77.005  0.40127 -160.5
 1800  0.78927 163.15  4.10551 64.468 0.047265 77.257  0.41240 -163.9
 2000  0.79770 161.07  3.63579 61.552 0.052232 77.819  0.42776 -167.8
 2200  0.81465 159.07  3.24249 58.015 0.056879 77.501  0.45018 -171.1
 2400  0.82081 157.26  2.90291 54.309 0.061882 76.870  0.47589 -173.3
 2600  0.81675 155.46  2.65121 50.922 0.068237 75.965  0.49674 -174.7
 2800  0.81078 153.07  2.45673 46.427 0.073029 74.423  0.50821 -176.5
 3000  0.81613 150.40  2.28175 42.967 0.078557 73.537  0.51789 -179.3
