! Filename:       BFG541L.S2P       Version:   3.0
! Philips part #: BFG541                                     Date: Feb 1992
! Bias condition: Vce=8V, Ic=50mA
! 
#  MHz  S  MA  R  50
! Freq       S11            S21            S12            S22     !GUM [dB]
   40    .399  -54.3  59.171  145.2    .009   72.8    .744  -28.3 !    39.7
  100    .322 -105.0  37.203  119.1    .018   68.0    .481  -46.6 !    33.0
  200    .293 -141.7  21.045  102.9    .029   70.9    .297  -52.5 !    27.3
  300    .291 -158.9  14.501   95.2    .041   73.2    .225  -52.5 !    23.8
  400    .293 -169.2  11.008   90.1    .053   73.8    .189  -51.8 !    21.4
  500    .295 -176.7   8.883   86.2    .065   73.9    .166  -51.5 !    19.5
  600    .296  177.4   7.457   82.6    .077   73.6    .150  -51.7 !    17.9
  700    .297  171.9   6.437   79.6    .089   73.1    .138  -52.1 !    16.7
  800    .299  166.3   5.668   76.6    .100   72.2    .126  -52.6 !    15.5
  900    .302  161.0   5.060   73.8    .112   71.2    .114  -54.0 !    14.6
 1000    .313  156.2   4.568   71.2    .124   70.3    .103  -56.3 !    13.7
 1200    .334  148.3   3.841   66.2    .147   67.9    .082  -64.4 !    12.2
 1400    .354  142.6   3.330   61.2    .169   65.4    .068  -77.1 !    11.0
 1600    .363  136.8   2.939   56.4    .192   63.3    .053  -89.9 !    10.0
 1800    .377  129.8   2.656   51.9    .216   59.9    .034 -111.7 !     9.2
 2000    .404  122.5   2.427   47.4    .236   57.6    .031 -173.9 !     8.5
 2200    .441  117.6   2.237   43.1    .255   54.9    .061  156.5 !     7.9
 2400    .467  114.6   2.053   39.2    .270   53.1    .090  151.4 !     7.4
 2600    .475  111.1   1.915   34.7    .295   49.5    .106  144.0 !     6.8
 2800    .479  104.8   1.786   29.9    .310   45.4    .115  129.3 !     6.2
 3000    .507   97.2   1.706   25.7    .328   43.4    .143  114.4 !     6.0
