! Filename:       BFG590J.S2P          Version:   4.0
! Philips part #: BFG590                                     Date: Jun 1994
! Bias condition: Vce=8V; Ic=20mA
! 
#  MHz  S  MA  R  50
! Freq       S11            S21            S12            S22     !GUM [dB]
   40    .804  -32.4  28.448  159.6    .016   74.0    .928  -17.4 !    42.2
  100    .724  -72.4  23.000  136.9    .032   57.1    .749  -36.7 !    34.0
  200    .641 -113.2  15.469  115.5    .043   45.4    .515  -52.3 !    27.4
  300    .611 -135.5  11.197  104.0    .049   43.0    .389  -58.7 !    23.7
  400    .601 -148.9   8.685   96.6    .054   43.8    .319  -61.8 !    21.2
  500    .599 -158.0   7.086   90.9    .058   45.2    .277  -63.7 !    19.3
  600    .598 -164.7   5.968   86.4    .063   47.6    .250  -65.1 !    17.7
  700    .596 -170.0   5.165   82.4    .068   49.8    .232  -66.5 !    16.4
  800    .595 -174.7   4.551   78.9    .073   51.8    .219  -67.9 !    15.3
  900    .594 -178.8   4.072   75.7    .078   53.7    .210  -69.8 !    14.3
 1000    .594  177.4   3.686   72.6    .084   55.0    .202  -71.8 !    13.4
 1200    .601  170.6   3.100   66.9    .095   57.3    .195  -77.4 !    11.9
 1400    .610  164.9   2.680   61.6    .108   59.2    .197  -83.4 !    10.8
 1600    .618  159.8   2.364   56.3    .121   60.2    .202  -88.8 !     9.7
 1800    .628  155.0   2.121   51.6    .134   61.0    .206  -94.0 !     8.9
 2000    .642  150.6   1.928   47.1    .149   61.4    .212 -100.7 !     8.2
 2200    .657  146.9   1.762   42.8    .163   61.6    .223 -108.1 !     7.6
 2400    .664  143.5   1.630   38.3    .178   60.8    .246 -114.2 !     7.0
 2600    .668  139.7   1.519   33.7    .192   59.7    .270 -118.5 !     6.5
 2800    .680  135.4   1.436   29.9    .208   59.0    .286 -121.9 !     6.2
 3000    .703  131.3   1.354   26.3    .225   57.7    .297 -126.6 !     6.0
