! Filename:       BFG591C.S2P                                Version:   4.0
! Philips part #: BFG591                                     Date: Jun 1994
! Bias condition: Vce=12V; Ic=30mA
! 
#  MHz  S  MA  R  50
! Freq       S11            S21            S12            S22     !GUM [dB]
   40    .639  -35.1  31.958  156.8    .013   75.0    .912  -18.2 !    40.1
  100    .540  -76.1  24.350  132.6    .027   62.5    .711  -36.0 !    32.3
  200    .450 -117.2  15.613  111.9    .039   57.7    .483  -47.2 !    26.0
  300    .419 -140.2  11.142  101.0    .048   59.1    .372  -50.3 !    22.4
  400    .409 -155.0   8.583   93.9    .058   61.1    .313  -51.2 !    19.9
  500    .405 -165.5   6.977   88.7    .068   63.0    .278  -52.1 !    18.0
  600    .404 -174.0   5.901   84.2    .079   64.0    .253  -53.0 !    16.5
  700    .404  179.0   5.111   80.2    .089   65.0    .235  -54.3 !    15.2
  800    .406  172.3   4.518   76.4    .100   65.5    .220  -56.0 !    14.1
  900    .409  166.0   4.042   73.0    .110   66.0    .208  -58.3 !    13.1
 1000    .417  160.3   3.661   69.9    .121   65.9    .196  -61.3 !    12.3
 1200    .440  151.1   3.098   63.9    .144   65.2    .176  -69.0 !    10.9
 1400    .461  143.5   2.706   57.9    .164   63.9    .162  -78.1 !     9.8
 1600    .470  136.6   2.396   52.1    .189   63.3    .147  -87.8 !     8.8
 1800    .485  128.3   2.177   46.8    .213   60.5    .130  -99.7 !     8.0
 2000    .514  120.2   1.996   41.7    .233   59.1    .117 -120.5 !     7.4
 2200    .554  114.9   1.853   37.0    .253   57.1    .123 -143.7 !     7.0
 2400    .578  111.2   1.698   32.2    .272   56.3    .145 -159.8 !     6.5
 2600    .588  106.4   1.590   27.8    .302   52.9    .160 -172.1 !     6.0
 2800    .595   99.7   1.497   22.1    .319   49.0    .166  173.5 !     5.5
 3000    .630   92.1   1.431   17.5    .343   47.6    .183  155.3 !     5.5
