! Filename:       BFG540I.S2P       Version:   3.0
! Philips part #: BFG540                                     Date: Feb 1992
! Bias condition: Vce=8V, Ic=20mA
! IN LINE PINNING: same data as with cross emitter pinning.
!
#  MHz  S  MA  R  50
! Freq       S11            S21            S12            S22     !GUM [dB]
   40    .754  -31.1  37.624  160.6    .012   73.4    .904  -19.0 !    42.6
  100    .707  -71.0  31.376  140.0    .024   57.2    .738  -41.5 !    36.4
  200    .661 -114.2  22.110  118.9    .033   45.2    .508  -62.8 !    30.7
  300    .648 -136.6  16.188  107.9    .038   42.1    .381  -74.5 !    27.2
  400    .645 -149.9  12.606  101.1    .041   42.1    .308  -82.0 !    24.8
  500    .643 -158.7  10.292   96.2    .044   43.2    .263  -87.2 !    22.9
  600    .640 -165.4   8.698   92.4    .048   45.4    .232  -91.0 !    21.3
  700    .637 -170.7   7.518   89.2    .051   47.5    .209  -94.0 !    20.0
  800    .633 -175.4   6.617   86.5    .054   49.3    .191  -96.9 !    18.8
  900    .629 -179.8   5.894   84.1    .057   51.4    .177 -100.1 !    17.7
 1000    .629  176.1   5.320   82.0    .061   53.3    .167 -103.6 !    16.8
 1200    .633  169.3   4.445   78.0    .069   55.7    .160 -110.5 !    15.3
 1400    .640  163.7   3.812   73.9    .076   57.2    .163 -114.5 !    14.0
 1600    .641  158.8   3.338   70.2    .084   59.7    .163 -115.7 !    12.9
 1800    .639  153.2   3.004   67.0    .095   60.0    .155 -117.3 !    11.9
 2000    .650  147.5   2.730   64.1    .103   61.4    .148 -124.0 !    11.2
 2200    .668  143.0   2.482   61.1    .110   61.9    .156 -133.5 !    10.6
 2400    .679  139.9   2.236   58.3    .115   62.9    .179 -138.6 !     9.8
 2600    .678  136.7   2.073   55.6    .127   62.4    .203 -138.4 !     9.2
 2800    .673  132.4   1.935   51.8    .136   60.5    .213 -136.3 !     8.6
 3000    .685  127.2   1.818   49.5    .144   61.3    .207 -137.7 !     8.1
! Noise data:
! Freq.     Fmin        Gamma-opt         rn
  900       1.50     .232    140.0       .14
 2000       2.20     .490   -163.0       .11
