! Filename:       BFG520WJ.S2P    Version:   4.0
! Philips part #: BFG520                                     Date: Jun 1994
! Bias condition: Vce=6.0V, Ic=15mA
! IN LINE PINNING: same data as with cross emitter pinning.
!
#  MHz  S  MA  R  50
! Freq       S11            S21            S12            S22     !GUM [dB]
   40    .637  -18.0  29.651  167.5    .008   80.9    .960   -9.0 !    42.8
  100    .596  -43.3  26.833  151.5    .016   72.5    .880  -20.6 !    36.9
  200    .513  -76.6  21.130  132.1    .028   63.2    .713  -33.1 !    30.9
  300    .458 -101.0  16.642  119.7    .034   59.4    .585  -39.1 !    27.3
  400    .426 -117.8  13.406  111.6    .041   60.0    .500  -41.6 !    24.7
  500    .409 -130.2  11.187  105.8    .045   60.4    .442  -42.5 !    22.7
  600    .394 -139.6   9.562  101.4    .050   61.7    .403  -42.4 !    21.1
  700    .384 -146.8   8.333   97.7    .055   63.3    .375  -41.8 !    19.8
  800    .373 -153.6   7.371   94.6    .061   64.9    .354  -41.2 !    18.6
  900    .365 -159.9   6.586   92.0    .067   66.7    .335  -40.8 !    17.5
 1000    .360 -165.5   5.965   89.8    .072   68.0    .321  -40.7 !    16.6
 1200    .360 -175.5   5.013   85.6    .083   69.5    .299  -41.5 !    15.0
 1400    .365  177.6   4.345   81.6    .093   70.9    .291  -43.4 !    13.8
 1600    .364  172.0   3.813   78.3    .106   72.5    .288  -44.2 !    12.6
 1800    .359  165.1   3.420   75.4    .119   72.2    .283  -43.9 !    11.6
 2000    .361  157.9   3.104   72.8    .131   72.8    .266  -44.3 !    10.8
 2200    .377  152.0   2.848   70.2    .143   72.6    .248  -47.9 !    10.0
 2400    .395  148.9   2.607   67.3    .155   73.7    .241  -54.7 !     9.3
 2600    .399  146.5   2.417   65.1    .171   73.7    .253  -60.3 !     8.7
 2800    .392  142.8   2.281   62.5    .182   73.2    .266  -61.7 !     8.2
 3000    .397  137.1   2.137   60.2    .193   73.3    .261  -61.8 !     7.6
