! Filename:       BFG505F.S2P        Version:   3.0
! Philips part #: BFG505                                     Date: Feb 1992
! Bias condition: Vce=3V, Ic=7.5mA
! IN LINE PINNING: same data as with cross emitter pinning.
!
#  MHz  S  MA  R  50
! Freq       S11            S21            S12            S22     !GUM [dB]
   40    .849   -7.5  16.291  172.7    .005   82.9    .980   -3.6 !    43.7
  100    .823  -18.5  15.705  163.4    .011   79.6    .960   -8.9 !    39.9
  200    .759  -35.7  14.603  150.4    .021   71.1    .899  -16.3 !    34.2
  300    .685  -51.3  13.379  139.3    .029   65.4    .830  -21.5 !    30.4
  400    .616  -65.3  12.060  130.3    .035   61.1    .768  -25.0 !    27.6
  500    .555  -77.2  10.805  123.0    .039   58.6    .716  -27.4 !    25.4
  600    .502  -87.6   9.721  116.8    .043   57.8    .675  -28.8 !    23.7
  700    .456  -96.7   8.776  111.7    .047   57.1    .643  -29.7 !    22.2
  800    .416 -104.6   7.948  107.1    .049   57.1    .616  -30.3 !    20.9
  900    .381 -112.0   7.201  103.1    .052   57.1    .592  -30.9 !    19.7
 1000    .351 -119.8   6.584   99.8    .055   57.9    .573  -31.5 !    18.7
 1200    .311 -134.9   5.626   93.9    .062   59.0    .546  -33.3 !    17.0
 1400    .294 -147.8   4.947   88.9    .068   59.8    .534  -35.5 !    15.7
 1600    .281 -157.6   4.360   84.4    .074   61.4    .530  -36.8 !    14.6
 1800    .262 -167.8   3.893   81.2    .081   62.4    .522  -37.5 !    13.5
 2000    .253  179.3   3.516   77.6    .087   62.9    .503  -38.8 !    12.5
 2200    .265  167.9   3.232   74.5    .094   63.0    .484  -41.8 !    11.7
 2400    .283  161.3   2.984   70.4    .099   63.8    .476  -46.3 !    11.0
 2600    .292  156.9   2.733   68.1    .108   64.6    .490  -50.5 !    10.3
 2800    .284  151.0   2.593   65.5    .116   64.5    .507  -52.6 !     9.9
 3000    .291  142.0   2.400   62.4    .121   65.0    .507  -53.3 !     9.3
