! Filename:       BFG590C.S2P        Version:   4.0
! Philips part #: BFG590                                     Date: Jun 1994
! Bias condition: Vce=4V; Ic=30mA
! 
#  MHz  S  MA  R  50
! Freq       S11            S21            S12            S22     !GUM [dB]
   40    .724  -41.7  34.209  155.6    .017   71.4    .896  -23.6 !    40.9
  100    .660  -87.7  25.580  130.9    .032   53.6    .672  -47.9 !    33.3
  200    .615 -127.3  16.025  110.7    .042   44.7    .430  -67.7 !    27.0
  300    .604 -146.7  11.322  100.5    .048   44.8    .315  -77.7 !    23.5
  400    .603 -157.8   8.696   93.9    .053   46.9    .253  -84.3 !    21.0
  500    .605 -165.5   7.054   88.8    .058   49.1    .217  -89.3 !    19.2
  600    .606 -171.1   5.926   84.7    .065   51.6    .194  -93.2 !    17.6
  700    .606 -175.6   5.120   81.0    .071   53.8    .179  -96.6 !    16.3
  800    .605 -179.7   4.510   77.7    .078   55.4    .168  -99.9 !    15.2
  900    .604  176.6   4.033   74.7    .084   56.8    .161 -103.2 !    14.2
 1000    .606  173.3   3.649   71.8    .091   57.7    .156 -106.7 !    13.3
 1200    .612  167.0   3.064   66.5    .105   59.3    .155 -113.6 !    11.9
 1400    .621  161.9   2.653   61.4    .120   60.1    .162 -119.1 !    10.7
 1600    .629  157.0   2.342   56.4    .134   60.1    .170 -123.4 !     9.7
 1800    .639  152.5   2.103   51.9    .149   60.2    .177 -127.7 !     8.9
 2000    .652  148.3   1.913   47.6    .164   59.9    .188 -133.3 !     8.2
 2200    .665  144.7   1.752   43.5    .179   59.3    .205 -138.7 !     7.6
 2400    .673  141.5   1.620   39.0    .194   58.1    .229 -141.8 !     7.0
 2600    .674  137.9   1.513   34.5    .208   56.6    .251 -143.6 !     6.5
 2800    .685  133.6   1.433   30.9    .224   55.4    .265 -145.4 !     6.2
 3000    .707  129.7   1.356   27.4    .241   54.0    .276 -149.1 !     6.0
