! Filename:       BFG520WA.S2P     Version:   4.0
! Philips part #: BFG520                                     Date: Jun 1994
! Bias condition: Vce=3.0V, Ic=2.0mA
! IN LINE PINNING: same data as with cross emitter pinning.
!
#  MHz  S  MA  R  50
! Freq       S11            S21            S12            S22     !GUM [dB]
   40    .903   -6.6   6.675  175.1    .009   85.5    .997   -2.8 !    46.1
  100    .892  -16.3   6.576  168.0    .022   81.5    .987   -7.2 !    39.1
  200    .863  -32.0   6.281  157.3    .042   72.5    .952  -13.7 !    32.2
  300    .824  -47.0   5.957  147.4    .059   65.8    .909  -19.2 !    28.0
  400    .783  -60.3   5.509  138.6    .073   59.9    .862  -23.9 !    24.8
  500    .748  -72.4   5.083  131.3    .083   55.1    .815  -27.6 !    22.4
  600    .712  -83.0   4.689  124.8    .092   51.1    .770  -30.5 !    20.4
  700    .682  -92.4   4.328  119.0    .097   48.1    .730  -32.8 !    18.7
  800    .648 -100.8   3.991  113.8    .102   46.1    .698  -34.6 !    17.3
  900    .615 -108.9   3.670  108.9    .105   44.5    .667  -36.3 !    15.9
 1000    .590 -116.2   3.396  104.9    .108   43.5    .641  -37.8 !    14.8
 1200    .552 -130.5   2.959   97.4    .112   42.6    .599  -40.6 !    12.9
 1400    .535 -142.4   2.651   90.6    .115   42.1    .575  -43.4 !    11.7
 1600    .525 -152.0   2.363   85.0    .116   44.2    .563  -45.4 !    10.5
 1800    .508 -160.9   2.137   80.8    .121   45.7    .547  -47.0 !     9.4
 2000    .495 -169.9   1.950   76.6    .122   48.2    .523  -49.1 !     8.4
 2200    .496 -178.6   1.804   72.8    .127   50.6    .500  -52.9 !     7.6
 2400    .509  174.7   1.662   67.9    .130   54.8    .497  -58.2 !     6.9
 2600    .516  169.3   1.540   65.1    .139   58.2    .509  -62.3 !     6.4
 2800    .511  164.1   1.477   61.7    .144   60.3    .520  -64.2 !     6.1
 3000    .512  157.4   1.378   58.6    .153   63.4    .511  -66.1 !     5.4
