! Filename:       BFG590E.S2P                                Version:   4.0
! Philips part #: BFG590                                     Date: Jun 1994
! Bias condition: Vce=4V; Ic=50mA
! 
#  MHz  S  MA  R  50
! Freq       S11            S21            S12            S22     !GUM [dB]
   40    .696  -47.8  38.810  152.7    .016   69.5    .867  -27.3 !    40.7
  100    .638  -96.3  27.420  127.1    .030   51.8    .619  -53.7 !    33.1
  200    .605 -134.0  16.520  108.0    .039   45.2    .385  -74.9 !    27.0
  300    .600 -151.6  11.537   98.6    .045   46.8    .280  -86.2 !    23.5
  400    .600 -161.7   8.821   92.4    .051   49.5    .227  -94.1 !    21.1
  500    .603 -168.6   7.137   87.7    .057   52.3    .196 -100.2 !    19.2
  600    .604 -173.7   5.988   83.7    .064   54.7    .177 -105.0 !    17.7
  700    .603 -177.9   5.170   80.2    .071   56.6    .165 -109.3 !    16.4
  800    .603  178.3   4.554   77.1    .078   58.1    .156 -113.1 !    15.2
  900    .603  174.8   4.070   74.2    .086   59.2    .151 -116.8 !    14.3
 1000    .604  171.6   3.684   71.3    .093   59.9    .148 -120.6 !    13.4
 1200    .611  165.6   3.095   66.3    .108   60.8    .150 -127.3 !    11.9
 1400    .620  160.6   2.677   61.3    .124   61.2    .158 -132.0 !    10.8
 1600    .628  155.9   2.364   56.3    .138   60.8    .167 -135.6 !     9.8
 1800    .636  151.4   2.122   51.9    .154   60.6    .174 -139.4 !     8.9
 2000    .651  147.4   1.931   47.7    .169   60.0    .186 -144.2 !     8.3
 2200    .664  143.9   1.767   43.6    .184   59.1    .204 -148.5 !     7.7
 2400    .670  140.8   1.638   39.2    .199   57.7    .226 -150.6 !     7.1
 2600    .672  137.2   1.526   34.8    .213   55.9    .246 -151.8 !     6.6
 2800    .682  133.0   1.449   31.2    .229   54.6    .259 -153.1 !     6.2
 3000    .703  129.1   1.374   27.7    .245   53.0    .270 -156.3 !     6.0
