! Filename:       BFG541J.S2P        Version:   3.0
! Philips part #: BFG541                                     Date: Feb 1992
! Bias condition: Vce=8V, Ic=30mA
!
#  MHz  S  MA  R  50
! Freq       S11            S21            S12            S22     !GUM [dB]
   40    .522  -40.8  48.316  150.9    .010   73.6    .820  -23.8 !    39.9
  100    .403  -86.7  34.010  125.2    .020   65.9    .574  -42.6 !    33.1
  200    .328 -127.3  20.288  106.7    .031   66.7    .365  -51.0 !    27.3
  300    .310 -148.1  14.166   97.8    .042   69.2    .276  -52.2 !    23.8
  400    .305 -161.0  10.806   92.1    .053   70.6    .230  -52.0 !    21.3
  500    .304 -170.1   8.740   87.8    .065   71.1    .203  -51.9 !    19.4
  600    .304 -177.1   7.354   84.0    .076   71.4    .183  -52.1 !    17.9
  700    .303  176.6   6.350   80.7    .087   70.9    .168  -52.4 !    16.6
  800    .304  170.5   5.594   77.5    .098   70.5    .155  -53.0 !    15.5
  900    .308  164.7   4.996   74.7    .110   69.9    .142  -54.2 !    14.5
 1000    .317  159.2   4.507   72.0    .122   69.0    .129  -56.2 !    13.6
 1200    .337  150.7   3.797   66.8    .144   67.1    .107  -63.0 !    12.2
 1400    .357  144.6   3.297   61.7    .165   64.9    .093  -72.6 !    11.0
 1600    .367  138.4   2.907   56.7    .188   63.1    .076  -81.9 !     9.9
 1800    .379  130.8   2.628   52.1    .211   60.0    .056  -93.8 !     9.1
 2000    .405  123.4   2.402   47.6    .231   57.7    .038 -131.5 !     8.4
 2200    .443  118.5   2.216   43.3    .249   55.1    .053 -179.3 !     7.9
 2400    .468  115.4   2.033   39.2    .264   53.5    .080  167.5 !     7.3
 2600    .476  111.7   1.897   34.8    .290   50.1    .094  157.4 !     6.7
 2800    .481  105.2   1.774   29.9    .305   46.0    .100  140.9 !     6.2
 3000    .508   97.6   1.692   25.7    .323   44.1    .125  122.2 !     5.9
! Noise data:
! Freq.     Fmin        Gamma-opt         rn
  900       1.70     .342    180.0       .09
 2000       2.40     .533   -139.0       .17
