! Filename:       BFG520A.S2P       Version:   2.1
! Philips part #: BFG520                                     Date: Feb 1992
! Bias condition: Vce=3V, Ic=2mA
! IN LINE PINNING: same data as with cross emitter pinning.
#  MHz  S  MA  R  50
! Freq       S11            S21            S12            S22     !GUM [dB]
   40    .903   -6.4   6.678  175.4    .008   85.5    .997   -2.7 !    46.7
  100    .895  -15.9   6.594  168.8    .020   81.6    .989   -7.0 !    40.1
  200    .873  -31.3   6.344  158.7    .039   72.5    .960  -13.4 !    33.4
  300    .845  -46.3   6.077  149.2    .055   65.5    .924  -19.0 !    29.5
  400    .814  -59.7   5.679  140.6    .069   59.1    .883  -24.0 !    26.4
  500    .788  -72.0   5.290  133.3    .079   53.5    .840  -28.1 !    24.0
  600    .760  -83.0   4.922  126.7    .088   48.5    .798  -31.5 !    22.0
  700    .736  -92.7   4.575  120.8    .094   44.5    .760  -34.3 !    20.4
  800    .707 -101.6   4.242  115.3    .099   41.4    .728  -36.6 !    18.8
  900    .677 -110.1   3.916  110.1    .102   38.5    .697  -38.8 !    17.4
 1000    .654 -117.9   3.633  105.8    .105   36.3    .670  -40.8 !    16.2
 1200    .621 -132.9   3.176   97.6    .109   32.8    .627  -44.5 !    14.3
 1400    .609 -145.6   2.850   90.1    .111   29.6    .602  -48.1 !    13.1
 1600    .601 -155.8   2.536   83.9    .110   29.1    .589  -50.7 !    11.9
 1800    .586 -165.2   2.287   79.1    .112   28.5    .572  -52.9 !    10.7
 2000    .574 -174.6   2.078   74.3    .109   28.4    .547  -55.5 !     9.6
 2200    .579  176.3   1.913   69.9    .108   28.2    .525  -60.0 !     8.8
 2400    .594  169.1   1.748   64.2    .105   29.7    .525  -65.5 !     8.1
 2600    .602  163.4   1.607   60.8    .107   31.9    .541  -69.7 !     7.6
 2800    .600  157.6   1.535   56.7    .107   32.9    .553  -71.8 !     7.2
 3000    .601  150.6   1.420   53.0    .106   36.2    .545  -73.9 !     6.5
