! Filename:       BFG540A.S2P       Version:   3.0
! Philips part #: BFG540                                     Date: Feb 1992
! Bias condition: Vce=4V, Ic=4mA
! IN LINE PINNING: same data as with cross emitter pinning.
!
#  MHz  S  MA  R  50
! Freq       S11            S21            S12            S22     !GUM [dB]
   40    .909  -14.0  10.705  169.8    .014   82.2    .981   -7.1 !    42.4
  100    .881  -33.9  10.082  157.2    .033   70.3    .934  -17.0 !    35.5
  200    .832  -64.7   9.138  140.4    .056   55.2    .814  -29.9 !    29.1
  300    .790  -90.1   8.025  126.9    .070   44.9    .704  -38.1 !    25.3
  400    .767 -109.2   6.901  116.9    .078   38.0    .618  -43.4 !    22.7
  500    .751 -123.9   5.996  109.2    .083   33.6    .555  -47.0 !    20.8
  600    .737 -135.2   5.269  102.9    .086   30.7    .510  -49.3 !    19.1
  700    .726 -144.2   4.673   97.8    .088   28.5    .476  -51.0 !    17.8
  800    .716 -151.7   4.177   93.3    .088   27.1    .450  -52.5 !    16.5
  900    .707 -158.1   3.748   89.4    .089   26.4    .428  -54.0 !    15.4
 1000    .701 -164.1   3.400   86.1    .089   26.3    .411  -55.7 !    14.4
 1200    .697 -174.2   2.867   80.0    .089   26.6    .391  -60.0 !    12.8
 1400    .703  177.8   2.492   74.1    .089   27.0    .386  -64.4 !    11.6
 1600    .704  170.9   2.181   68.9    .089   30.0    .387  -67.6 !    10.5
 1800    .705  164.4   1.959   65.0    .091   32.1    .383  -70.4 !     9.5
 2000    .713  157.9   1.771   61.1    .091   35.5    .371  -74.9 !     8.7
 2200    .727  152.3   1.617   57.2    .092   38.6    .366  -81.6 !     8.1
 2400    .739  148.0   1.458   52.8    .092   42.6    .379  -88.8 !     7.4
 2600    .739  143.9   1.339   49.9    .098   45.9    .406  -94.1 !     6.7
 2800    .736  138.9   1.262   45.7    .103   47.8    .427  -96.9 !     6.3
 3000    .750  133.3   1.168   42.8    .108   52.2    .427  -99.8 !     5.8
