! Filename:       BFG540D.S2P        Version:   3.0
! Philips part #: BFG540                                     Date: Feb 1992
! Bias condition: Vce=4V, Ic=30mA
! IN LINE PINNING: same data as with cross emitter pinning.
!
#  MHz  S  MA  R  50
! Freq       S11            S21            S12            S22     !GUM [dB]
   40    .610  -46.5  49.003  155.3    .011   69.0    .863  -25.9 !    41.8
  100    .618  -96.6  37.160  131.4    .020   53.2    .640  -52.9 !    35.8
  200    .635 -135.8  23.444  111.8    .027   45.2    .410  -76.1 !    30.4
  300    .645 -152.8  16.534  102.6    .031   44.8    .304  -89.0 !    27.1
  400    .651 -162.5  12.684   96.9    .034   47.7    .248  -97.6 !    24.7
  500    .654 -169.1  10.280   92.8    .038   50.2    .216 -103.9 !    22.9
  600    .653 -174.2   8.647   89.6    .042   53.4    .194 -108.7 !    21.3
  700    .651 -178.5   7.455   86.8    .046   55.3    .178 -112.6 !    20.0
  800    .649  177.7   6.554   84.4    .050   57.2    .166 -116.4 !    18.8
  900    .647  174.1   5.835   82.2    .054   59.3    .157 -120.6 !    17.8
 1000    .647  170.6   5.261   80.4    .058   60.7    .152 -124.5 !    16.9
 1200    .653  164.6   4.395   76.7    .067   62.8    .152 -131.2 !    15.4
 1400    .660  159.9   3.760   72.8    .075   63.6    .158 -133.9 !    14.1
 1600    .660  155.3   3.293   69.3    .085   65.3    .158 -134.7 !    12.9
 1800    .660  150.1   2.973   66.2    .097   65.2    .151 -137.1 !    12.0
 2000    .671  144.7   2.697   63.5    .105   65.9    .149 -144.2 !    11.3
 2200    .690  140.6   2.452   60.5    .114   65.8    .163 -151.7 !    10.7
 2400    .699  137.7   2.207   58.0    .119   66.5    .188 -154.4 !     9.9
 2600    .697  134.6   2.052   55.3    .132   65.5    .209 -152.5 !     9.3
 2800    .690  130.4   1.908   51.6    .141   63.3    .214 -150.0 !     8.6
 3000    .703  125.3   1.796   49.3    .149   63.9    .207 -151.7 !     8.2
! Noise data:
! Freq.     Fmin        Gamma-opt         rn
  900       1.70     .312    171.0       .11
 2000       2.40     .543   -155.0       .12
