! Filename:       BFG505K.S2P        Version:   3.0
! Philips part #: BFG505                                     Date: Feb 1992
! Bias condition: Vce=6V, Ic=5mA
! IN LINE PINNING: same data as with cross emitter pinning.
!
#  MHz  S  MA  R  50
! Freq       S11            S21            S12            S22     !GUM [dB]
   40    .913   -5.0  11.799  174.6    .005   84.5    .987   -2.7 !    45.1
  100    .899  -12.2  11.563  167.8    .011   82.1    .976   -6.8 !    41.7
  200    .859  -24.1  11.087  157.7    .022   76.1    .943  -13.1 !    36.2
  300    .809  -35.4  10.563  148.6    .031   70.3    .897  -18.3 !    32.2
  400    .753  -46.1   9.951  140.7    .039   65.6    .850  -22.4 !    29.2
  500    .700  -55.6   9.248  134.0    .045   62.1    .804  -25.9 !    26.8
  600    .647  -64.3   8.624  128.0    .050   60.4    .762  -28.3 !    24.9
  700    .595  -72.4   8.048  122.4    .055   58.5    .724  -30.1 !    23.2
  800    .544  -79.6   7.469  117.3    .058   57.0    .691  -31.5 !    21.8
  900    .496  -86.0   6.901  112.7    .062   55.9    .661  -32.8 !    20.5
 1000    .452  -92.8   6.394  108.7    .065   55.7    .635  -33.9 !    19.4
 1200    .381 -106.3   5.598  101.8    .072   55.4    .597  -36.4 !    17.6
 1400    .340 -119.2   5.009   95.8    .078   55.4    .575  -38.7 !    16.3
 1600    .309 -129.2   4.452   90.7    .083   56.4    .563  -40.1 !    15.1
 1800    .273 -138.7   3.996   87.1    .089   57.5    .548  -40.7 !    13.9
 2000    .240 -151.8   3.621   83.0    .094   57.6    .524  -41.9 !    12.8
 2200    .233 -166.5   3.345   79.5    .101   57.2    .501  -44.8 !    12.0
 2400    .245 -177.3   3.098   75.0    .105   57.8    .491  -49.0 !    11.3
 2600    .252  176.1   2.847   72.5    .114   58.9    .503  -53.0 !    10.6
 2800    .241  169.5   2.709   69.7    .122   59.0    .518  -54.8 !    10.3
 3000    .239  158.4   2.512   66.5    .126   59.7    .515  -55.3 !     9.6
! Noise data:
! Freq.     Fmin        Gamma-opt         rn
  900       1.60     .546     17.0       .69
 2000       2.20     .442     44.0       .54
