! Filename:       BFG520G.S2P         Version:   2.1
! Philips part #: BFG520                                     Date: Feb 1992
! Bias condition: Vce=6V, Ic=2mA
! IN LINE PINNING: same data as with cross emitter pinning.
#  MHz  S  MA  R  50
! Freq       S11            S21            S12            S22     !GUM [dB]
   40    .910   -6.1   6.548  175.5    .008   84.5    .994   -2.6 !    43.5
  100    .903  -15.2   6.463  169.3    .019   81.8    .987   -6.5 !    39.6
  200    .881  -30.0   6.260  159.5    .037   73.5    .963  -12.6 !    33.8
  300    .853  -44.4   6.009  150.0    .053   66.4    .929  -18.1 !    29.8
  400    .824  -57.5   5.629  141.9    .066   60.2    .890  -22.8 !    26.7
  500    .797  -69.6   5.286  134.6    .076   54.4    .850  -26.9 !    24.4
  600    .768  -80.4   4.922  128.0    .085   49.7    .811  -30.3 !    22.4
  700    .745  -89.9   4.589  122.3    .092   45.7    .774  -33.1 !    20.7
  800    .714  -98.9   4.268  116.6    .097   42.3    .742  -35.5 !    19.2
  900    .684 -107.1   3.941  111.4    .100   39.5    .711  -37.6 !    17.7
 1000    .661 -115.0   3.672  107.1    .103   37.2    .684  -39.6 !    16.5
 1200    .623 -130.0   3.213   98.9    .107   33.3    .641  -43.4 !    14.6
 1400    .609 -143.0   2.888   91.3    .109   30.1    .617  -47.0 !    13.3
 1600    .601 -153.4   2.576   85.0    .109   29.7    .602  -49.6 !    12.1
 1800    .585 -162.9   2.326   80.2    .110   29.2    .585  -51.7 !    11.0
 2000    .570 -172.4   2.111   75.5    .108   28.8    .559  -54.3 !     9.8
 2200    .574  178.1   1.944   71.0    .107   28.8    .538  -58.7 !     9.0
 2400    .589  170.7   1.781   65.2    .103   29.7    .537  -64.0 !     8.3
 2600    .597  164.7   1.640   61.8    .106   31.9    .553  -68.2 !     7.8
 2800    .594  158.8   1.567   57.8    .106   33.1    .564  -70.4 !     7.5
 3000    .595  151.9   1.448   54.0    .104   36.6    .558  -72.4 !     6.7
