! Filename:       BFG540K.S2P      Version:   3.0
! Philips part #: BFG540                                     Date: Feb 1992
! Bias condition: Vce=8V, Ic=40mA
! IN LINE PINNING: same data as with cross emitter pinning.
!
#  MHz  S  MA  R  50
! Freq       S11            S21            S12            S22     !GUM [dB]
   40    .687  -44.2  52.655  154.8    .011   69.5    .834  -25.9 !    42.4
  100    .650  -92.4  39.166  130.8    .020   53.2    .617  -52.9 !    36.3
  200    .632 -132.0  24.429  111.5    .027   45.1    .394  -75.9 !    30.7
  300    .629 -149.9  17.180  102.4    .031   45.1    .291  -88.6 !    27.3
  400    .631 -160.2  13.173   96.8    .034   48.1    .237  -97.2 !    24.8
  500    .632 -167.2  10.670   92.8    .038   50.7    .206 -103.3 !    23.0
  600    .630 -172.5   8.971   89.5    .042   53.6    .185 -108.0 !    21.4
  700    .627 -177.0   7.733   86.8    .046   55.8    .169 -111.9 !    20.1
  800    .624  179.0   6.793   84.3    .050   57.6    .157 -115.6 !    18.9
  900    .621  175.3   6.051   82.2    .055   59.2    .148 -119.7 !    17.9
 1000    .622  171.6   5.458   80.4    .059   60.9    .142 -123.8 !    17.0
 1200    .627  165.4   4.559   76.7    .069   62.8    .143 -130.7 !    15.4
 1400    .634  160.5   3.902   72.8    .077   63.5    .149 -133.5 !    14.2
 1600    .634  155.9   3.417   69.4    .087   65.1    .148 -134.0 !    13.0
 1800    .634  150.7   3.078   66.2    .098   64.7    .141 -136.2 !    12.1
 2000    .645  145.1   2.796   63.5    .107   65.4    .137 -143.6 !    11.4
 2200    .662  141.0   2.542   60.6    .116   65.2    .151 -151.9 !    10.7
 2400    .675  138.1   2.293   58.1    .121   65.6    .176 -154.3 !    10.0
 2600    .673  135.0   2.127   55.3    .134   64.6    .196 -152.1 !     9.3
 2800    .666  130.8   1.981   51.7    .143   62.3    .201 -149.2 !     8.7
 3000    .677  125.7   1.864   49.4    .150   62.8    .193 -150.8 !     8.2
! Noise data:
! Freq.     Fmin        Gamma-opt         rn
  900       1.90     .263    155.0       .14
 2000       2.60     .494   -162.0       .13
