! Filename:       BFG541D.S2P        Version:   3.0
! Philips part #: BFG541                                     Date: Feb 1992
! Bias condition: Vce=4V, Ic=30mA
!
#  MHz  S  MA  R  50
! Freq       S11            S21            S12            S22     !GUM [dB]
   40    .457  -46.4  47.782  150.0    .010   75.0    .826  -25.3 !    39.6
  100    .376  -96.6  33.018  123.9    .020   66.3    .565  -44.5 !    32.7
  200    .335 -136.3  19.468  105.7    .031   67.5    .354  -53.1 !    26.9
  300    .330 -155.1  13.548   97.0    .042   69.5    .265  -54.5 !    23.5
  400    .331 -166.6  10.321   91.3    .053   70.9    .220  -54.4 !    21.0
  500    .332 -174.6   8.344   87.0    .065   71.5    .192  -54.4 !    19.1
  600    .333  179.1   7.019   83.2    .077   71.5    .172  -54.8 !    17.6
  700    .334  173.1   6.060   79.9    .088   71.4    .157  -55.4 !    16.3
  800    .335  167.5   5.339   76.7    .100   70.7    .144  -56.0 !    15.2
  900    .340  162.0   4.768   73.8    .111   70.0    .131  -57.5 !    14.2
 1000    .349  157.1   4.307   71.1    .123   69.3    .119  -59.9 !    13.3
 1200    .368  149.0   3.622   65.9    .146   67.2    .097  -67.4 !    11.9
 1400    .387  143.0   3.143   60.6    .167   64.9    .084  -79.1 !    10.7
 1600    .397  136.9   2.776   55.6    .190   63.2    .068  -90.8 !     9.6
 1800    .409  129.6   2.509   51.0    .214   59.8    .050 -107.7 !     8.8
 2000    .437  122.5   2.294   46.4    .234   57.6    .040 -151.8 !     8.1
 2200    .473  117.4   2.115   42.1    .253   54.9    .063  171.6 !     7.6
 2400    .497  114.3   1.940   37.9    .268   53.4    .091  161.5 !     7.0
 2600    .503  110.5   1.813   33.4    .294   49.8    .106  152.7 !     6.5
 2800    .507  103.9   1.692   28.5    .309   45.8    .114  137.5 !     5.9
 3000    .536   96.4   1.615   24.2    .327   43.8    .141  120.8 !     5.7
! Noise data:
! Freq.     Fmin        Gamma-opt         rn
  900       1.70     .402   -172.0       .08
 2000       2.40     .581   -134.0       .21
