! Filename:       BFG590B.S2P        Version:   4.0
! Philips part #: BFG590                                     Date: Jun 1994
! Bias condition: Vce=4V; Ic=20mA
! 
#  MHz  S  MA  R  50
! Freq       S11            S21            S12            S22     !GUM [dB]
   40    .757  -36.8  29.217  157.9    .017   72.4    .917  -20.5 !    41.0
  100    .691  -80.3  22.944  134.2    .033   54.9    .715  -42.4 !    33.1
  200    .635 -121.2  14.977  113.1    .045   44.1    .474  -60.5 !    26.9
  300    .619 -141.9  10.715  102.2    .051   42.5    .351  -69.1 !    23.3
  400    .615 -154.1   8.269   95.1    .056   43.6    .283  -74.2 !    20.8
  500    .616 -162.4   6.730   89.7    .060   45.7    .244  -77.8 !    18.9
  600    .616 -168.5   5.663   85.2    .066   48.0    .218  -80.6 !    17.3
  700    .616 -173.4   4.895   81.4    .071   50.2    .201  -83.2 !    16.0
  800    .615 -177.8   4.313   77.9    .077   52.2    .189  -85.6 !    14.9
  900    .614  178.4   3.860   74.8    .083   53.8    .181  -88.3 !    13.9
 1000    .616  174.9   3.495   71.7    .089   55.2    .175  -91.2 !    13.1
 1200    .622  168.4   2.935   66.2    .101   57.2    .171  -97.8 !    11.6
 1400    .630  163.0   2.540   60.9    .115   58.7    .177 -103.8 !    10.4
 1600    .639  158.0   2.241   55.7    .129   59.4    .185 -108.9 !     9.4
 1800    .649  153.4   2.013   51.1    .143   59.9    .192 -113.8 !     8.6
 2000    .663  149.1   1.830   46.6    .158   60.0    .202 -120.1 !     7.9
 2200    .676  145.4   1.674   42.4    .172   59.8    .218 -126.5 !     7.3
 2400    .683  142.1   1.548   37.9    .188   58.9    .243 -131.0 !     6.8
 2600    .686  138.4   1.445   33.4    .202   57.6    .267 -133.9 !     6.3
 2800    .697  134.0   1.367   29.7    .218   56.7    .283 -136.5 !     6.0
 3000    .719  130.1   1.293   26.2    .236   55.3    .295 -140.6 !     5.8
