! Filename:       BFG540B.S2P        Version:   3.0
! Philips part #: BFG540                                     Date: Feb 1992
! Bias condition: Vce=4V, Ic=10mA
! IN LINE PINNING: same data as with cross emitter pinning.
!
#  MHz  S  MA  R  50
! Freq       S11            S21            S12            S22     !GUM [dB]
   40    .799  -23.1  23.640  164.6    .013   77.3    .950  -13.6 !    42.0
  100    .760  -54.5  21.010  147.6    .028   61.7    .835  -31.1 !    35.4
  200    .711  -96.6  16.834  126.9    .042   47.0    .628  -49.4 !    29.8
  300    .690 -122.6  13.109  114.0    .049   39.9    .490  -59.5 !    26.3
  400    .683 -138.5  10.481  105.8    .052   37.6    .403  -65.4 !    23.9
  500    .680 -149.5   8.682   99.9    .055   36.6    .347  -69.3 !    22.0
  600    .675 -157.5   7.399   95.2    .057   37.0    .309  -71.9 !    20.5
  700    .671 -163.9   6.429   91.5    .059   38.0    .280  -73.7 !    19.1
  800    .667 -169.4   5.671   88.2    .061   39.1    .259  -75.3 !    17.9
  900    .662 -174.3   5.060   85.4    .064   40.7    .241  -77.2 !    16.9
 1000    .661 -178.9   4.569   82.9    .066   42.4    .227  -79.4 !    15.9
 1200    .663  173.4   3.823   78.3    .071   45.6    .214  -84.7 !    14.4
 1400    .669  167.3   3.288   73.6    .076   47.6    .215  -89.1 !    13.1
 1600    .671  161.9   2.878   69.5    .082   51.0    .216  -91.2 !    12.0
 1800    .672  156.1   2.589   66.0    .090   52.6    .211  -92.9 !    11.1
 2000    .682  150.2   2.349   62.8    .096   54.9    .201  -97.9 !    10.3
 2200    .699  145.5   2.138   59.5    .102   56.4    .202 -106.6 !     9.7
 2400    .709  142.1   1.926   56.2    .106   58.3    .221 -114.1 !     8.9
 2600    .708  138.6   1.780   53.5    .117   59.0    .249 -117.2 !     8.3
 2800    .703  134.1   1.667   49.5    .125   58.1    .265 -117.5 !     7.7
 3000    .716  128.9   1.558   47.0    .132   59.9    .263 -119.1 !     7.3
! Noise data:
! Freq.     Fmin        Gamma-opt         rn
  900       1.30     .298    143.0       .10
 2000       2.10     .537   -162.0       .09
