! Filename:       BFG591G.S2P                                Version:   4.0
! Philips part #: BFG591                                     Date: Jun 1994
! Bias condition: Vce=12V; Ic=70mA
! 
#  MHz  S  MA  R  50
! Freq       S11            S21            S12            S22     !GUM [dB]
   40    .590  -40.5  38.426  153.5    .013   72.6    .880  -21.9 !    40.0
  100    .488  -84.4  27.439  128.1    .025   62.0    .645  -41.3 !    32.3
  200    .411 -124.8  16.773  108.6    .037   60.2    .417  -52.6 !    26.1
  300    .390 -146.2  11.791   98.7    .048   62.3    .313  -55.7 !    22.6
  400    .383 -159.7   9.034   92.2    .059   64.5    .257  -56.6 !    20.1
  500    .382 -169.5   7.319   87.4    .070   66.0    .225  -57.6 !    18.2
  600    .381 -177.2   6.178   83.2    .082   66.5    .202  -58.6 !    16.7
  700    .383  176.2   5.341   79.4    .093   67.0    .184  -60.0 !    15.4
  800    .385  170.0   4.718   75.9    .105   67.0    .170  -61.8 !    14.3
  900    .390  163.9   4.217   72.6    .116   67.0    .157  -64.3 !    13.3
 1000    .397  158.4   3.822   69.7    .128   66.6    .146  -67.8 !    12.5
 1200    .421  149.5   3.229   63.8    .152   65.2    .127  -77.3 !    11.1
 1400    .443  142.6   2.814   58.0    .173   63.4    .114  -88.4 !    10.0
 1600    .452  135.9   2.492   52.5    .198   62.2    .099 -101.0 !     9.0
 1800    .467  127.7   2.264   47.3    .223   59.1    .086 -118.0 !     8.2
 2000    .496  119.8   2.074   42.3    .243   57.3    .085 -147.4 !     7.6
 2200    .537  114.6   1.920   37.8    .263   55.1    .104 -171.6 !     7.2
 2400    .562  111.1   1.764   33.2    .281   54.1    .131  176.7 !     6.7
 2600    .572  106.4   1.651   28.6    .309   50.4    .149  166.2 !     6.2
 2800    .580   99.6   1.550   23.2    .325   46.5    .161  152.7 !     5.7
 3000    .614   92.1   1.485   18.6    .348   45.0    .184  137.1 !     5.6
