! Filename:       BFG520L.S2P       Version:   2.1
! Philips part #: BFG520                                     Date: Feb 1992
! Bias condition: Vce=6V, Ic=30mA
! IN LINE PINNING: same data as with cross emitter pinning.
#  MHz  S  MA  R  50
! Freq       S11            S21            S12            S22     !GUM [dB]
   40    .532  -26.6  39.491  165.1    .006   76.9    .932  -11.1 !    42.2
  100    .520  -61.8  34.496  146.9    .014   67.5    .828  -25.0 !    37.1
  200    .505 -101.9  25.639  126.7    .022   56.6    .638  -38.4 !    31.7
  300    .502 -126.0  19.503  114.5    .026   53.0    .511  -44.1 !    28.4
  400    .502 -140.6  15.434  107.0    .030   53.5    .433  -46.4 !    25.9
  500    .504 -150.7  12.756  101.5    .033   54.3    .383  -47.2 !    24.1
  600    .501 -158.4  10.828   97.2    .036   55.9    .350  -47.2 !    22.5
  700    .498 -164.2   9.398   93.8    .039   57.7    .326  -46.9 !    21.2
  800    .495 -169.8   8.287   90.7    .042   59.8    .309  -46.5 !    20.0
  900    .492 -175.0   7.386   88.1    .046   61.4    .294  -46.5 !    19.0
 1000    .491 -179.7   6.680   85.9    .050   62.7    .281  -47.0 !    18.1
 1200    .499  172.3   5.587   81.6    .057   64.3    .266  -49.2 !    16.5
 1400    .507  166.4   4.820   77.4    .064   65.5    .261  -52.3 !    15.3
 1600    .508  161.2   4.210   73.7    .071   67.8    .263  -53.7 !    14.1
 1800    .504  155.0   3.763   70.5    .080   67.7    .260  -54.2 !    13.1
 2000    .511  148.6   3.403   67.6    .087   68.8    .244  -55.9 !    12.2
 2200    .532  143.3   3.110   64.8    .095   68.7    .229  -61.7 !    11.5
 2400    .551  140.2   2.826   61.5    .100   69.8    .231  -70.1 !    10.8
 2600    .554  137.6   2.602   59.0    .111   69.6    .252  -75.9 !    10.2
 2800    .546  133.5   2.442   55.9    .119   68.1    .269  -77.2 !     9.6
 3000    .554  128.0   2.274   53.1    .125   68.9    .266  -77.8 !     9.0
