! Filename:       BFG541B.S2P         Version:   3.0
! Philips part #: BFG541                                     Date: Feb 1992
! Bias condition: Vce=4V, Ic=10mA
!
#  MHz  S  MA  R  50
! Freq       S11            S21            S12            S22     !GUM [dB]
   40    .753  -23.0  23.482  161.5    .013   77.8    .938  -14.1 !    40.2
  100    .661  -54.2  20.228  141.8    .027   65.3    .789  -30.0 !    32.8
  200    .519  -95.4  15.119  119.7    .041   57.3    .572  -42.8 !    26.7
  300    .450 -121.8  11.361  107.0    .050   56.0    .447  -47.5 !    23.1
  400    .420 -139.5   8.914   98.8    .058   57.3    .376  -49.4 !    20.5
  500    .406 -152.4   7.317   92.9    .067   58.6    .331  -50.4 !    18.6
  600    .397 -162.3   6.218   88.0    .076   59.9    .299  -51.2 !    17.0
  700    .390 -170.7   5.397   83.7    .085   60.9    .277  -52.1 !    15.7
  800    .388 -178.3   4.770   79.9    .094   61.6    .258  -52.9 !    14.6
  900    .387  174.5   4.271   76.3    .103   62.3    .241  -54.3 !    13.6
 1000    .393  168.1   3.859   73.1    .113   62.4    .226  -56.1 !    12.7
 1200    .409  157.5   3.260   67.1    .132   62.3    .202  -61.4 !    11.2
 1400    .427  149.5   2.843   61.3    .150   61.5    .185  -68.4 !    10.1
 1600    .435  142.1   2.509   55.6    .171   61.3    .169  -75.2 !     9.0
 1800    .448  133.7   2.275   50.8    .192   59.1    .147  -82.6 !     8.2
 2000    .474  125.9   2.082   45.8    .211   57.8    .122  -95.6 !     7.5
 2200    .508  120.2   1.932   41.1    .230   55.9    .110 -117.1 !     7.1
 2400    .530  116.3   1.768   36.3    .245   55.1    .119 -137.1 !     6.4
 2600    .534  111.8   1.648   32.0    .272   52.2    .124 -150.7 !     5.9
 2800    .539  104.9   1.551   26.7    .288   48.5    .117 -165.6 !     5.4
 3000    .567   97.2   1.477   22.3    .308   47.1    .118  170.4 !     5.1
! Noise data:
! Freq.     Fmin        Gamma-opt         rn
  900       1.30     .301    158.0       .09
 2000       2.10     .525   -146.0       .14
