! Filename:       BFG520WC.S2P      Version:   4.0
! Philips part #: BFG520                                     Date: Jun 1994
! Bias condition: Vce=3.0V, Ic=10.0mA
! IN LINE PINNING: same data as with cross emitter pinning.
!
#  MHz  S  MA  R  50
! Freq       S11            S21            S12            S22     !GUM [dB]
   40    .665  -15.8  23.791  169.1    .008   81.9    .974   -7.7 !    43.0
  100    .630  -38.4  22.004  154.8    .018   73.7    .911  -18.3 !    36.7
  200    .559  -69.6  18.103  136.4    .031   63.3    .767  -30.5 !    30.6
  300    .504  -93.6  14.717  123.6    .039   58.6    .644  -37.3 !    27.0
  400    .470 -110.9  12.067  115.0    .045   57.4    .554  -40.7 !    24.3
  500    .449 -124.0  10.169  108.7    .049   56.9    .492  -42.3 !    22.3
  600    .432 -133.9   8.753  103.8    .055   57.7    .446  -42.6 !    20.7
  700    .420 -141.6   7.664   99.7    .059   59.2    .413  -42.6 !    19.3
  800    .408 -148.7   6.797   96.4    .064   60.6    .389  -42.4 !    18.1
  900    .399 -155.4   6.087   93.4    .068   62.3    .368  -42.4 !    17.1
 1000    .391 -161.2   5.518   91.0    .074   63.7    .351  -42.4 !    16.1
 1200    .390 -171.6   4.648   86.4    .084   65.5    .327  -43.4 !    14.6
 1400    .394 -179.2   4.037   82.1    .094   67.1    .316  -45.3 !    13.3
 1600    .394  174.8   3.547   78.5    .106   69.5    .312  -46.2 !    12.2
 1800    .389  168.1   3.182   75.4    .118   69.8    .306  -46.3 !    11.2
 2000    .388  160.8   2.891   72.6    .129   70.8    .288  -46.8 !    10.3
 2200    .404  154.7   2.655   69.9    .142   70.9    .267  -50.6 !     9.6
 2400    .421  151.3   2.429   66.8    .153   72.2    .263  -57.4 !     8.9
 2600    .426  148.6   2.252   64.6    .168   72.6    .276  -62.4 !     8.3
 2800    .418  145.0   2.129   61.8    .180   72.2    .288  -63.8 !     7.8
 3000    .423  139.1   1.994   59.3    .191   72.4    .282  -64.4 !     7.2
