! Filename:       BFG541G.S2P         Version:   3.0
! Philips part #: BFG541                                     Date: Feb 1992
! Bias condition: Vce=8V, Ic=4mA
! 
#  MHz  S  MA  R  50
! Freq       S11            S21            S12            S22     !GUM [dB]
   40    .903  -13.6  10.689  168.4    .014   81.9    .978   -7.2 !    41.5
  100    .858  -32.8   9.976  154.5    .032   71.0    .923  -17.0 !    34.1
  200    .759  -62.7   8.866  136.4    .053   58.5    .791  -28.7 !    26.9
  300    .664  -87.9   7.670  121.9    .066   51.0    .678  -35.5 !    22.9
  400    .598 -107.8   6.490  111.2    .074   47.2    .596  -39.7 !    20.1
  500    .554 -124.0   5.583  103.2    .080   45.6    .537  -42.5 !    18.0
  600    .524 -137.2   4.890   96.4    .085   45.2    .494  -44.5 !    16.4
  700    .501 -148.3   4.327   90.8    .090   45.5    .463  -46.2 !    15.0
  800    .485 -158.3   3.871   85.6    .093   46.3    .437  -47.8 !    13.8
  900    .476 -167.2   3.483   81.1    .098   47.8    .416  -49.7 !    12.8
 1000    .473 -175.6   3.165   77.1    .103   49.1    .398  -51.7 !    11.9
 1200    .479  170.5   2.698   69.8    .114   51.6    .369  -56.9 !    10.4
 1400    .490  159.7   2.382   62.8    .125   53.7    .351  -62.9 !     9.3
 1600    .497  150.1   2.105   56.3    .139   56.7    .334  -69.0 !     8.2
 1800    .506  140.4   1.913   51.2    .157   57.2    .314  -75.5 !     7.4
 2000    .530  131.5   1.756   45.7    .174   58.4    .290  -84.5 !     6.7
 2200    .561  124.6   1.643   40.5    .191   58.3    .274  -96.8 !     6.3
 2400    .580  119.5   1.495   34.5    .207   59.1    .275 -109.5 !     5.6
 2600    .581  114.0   1.391   30.7    .237   57.5    .276 -120.0 !     5.0
 2800    .584  106.4   1.324   24.9    .257   54.8    .263 -129.9 !     4.6
 3000    .612   98.2   1.252   20.6    .281   54.2    .244 -144.4 !     4.3
