! Filename:       BFG520D.S2P          Version:   2.1
! Philips part #: BFG520                                     Date: Feb 1992
! Bias condition: Vce=3V, Ic=15mA
! IN LINE PINNING: same data as with cross emitter pinning.
#  MHz  S  MA  R  50
! Freq       S11            S21            S12            S22     !GUM [dB]
   40    .570  -20.7  30.262  168.2    .007   80.6    .964   -9.0 !    42.8
  100    .557  -49.3  27.641  152.7    .015   71.7    .890  -21.4 !    37.3
  200    .535  -86.5  22.173  133.7    .026   58.7    .731  -35.3 !    31.7
  300    .527 -111.9  17.699  120.8    .032   52.8    .601  -43.0 !    28.3
  400    .522 -128.6  14.354  112.3    .036   50.8    .511  -47.1 !    25.8
  500    .523 -140.5  12.018  106.0    .039   49.8    .449  -49.3 !    24.0
  600    .519 -149.3  10.302  101.2    .042   50.4    .404  -50.3 !    22.4
  700    .516 -156.1   8.995   97.2    .045   51.4    .372  -50.8 !    21.1
  800    .511 -162.5   7.959   93.8    .048   52.8    .347  -51.0 !    19.9
  900    .507 -168.4   7.116   90.8    .050   54.8    .327  -51.4 !    18.8
 1000    .504 -173.5   6.441   88.4    .054   56.2    .311  -52.0 !    17.9
 1200    .510  177.4   5.404   83.7    .060   57.9    .289  -54.2 !    16.3
 1400    .518  170.7   4.671   79.1    .066   59.6    .280  -57.0 !    15.1
 1600    .519  165.2   4.085   75.2    .073   62.1    .279  -58.4 !    13.9
 1800    .516  158.6   3.653   71.8    .081   62.6    .274  -58.9 !    12.9
 2000    .520  151.8   3.308   68.7    .087   64.3    .255  -60.3 !    12.1
 2200    .541  146.3   3.024   65.8    .094   64.3    .238  -66.3 !    11.4
 2400    .560  142.7   2.747   62.4    .100   65.9    .242  -74.5 !    10.7
 2600    .564  139.8   2.528   59.8    .110   66.1    .264  -79.5 !    10.0
 2800    .557  135.8   2.377   56.5    .118   65.0    .278  -80.4 !     9.5
 3000    .562  130.1   2.212   53.7    .124   66.2    .273  -81.2 !     8.9
! Noise data:
! Freq.     Fmin        Gamma-opt         rn
  500       1.30     .161     31.0       .210
  900       1.45     .155     63.0       .200
 1000       1.50     .160     67.0       .230
 2000       2.05     .230    165.0       .140
