! Filename:       BFG505L.S2P         Version:   3.0
! Philips part #: BFG505                                     Date: Feb 1992
! Bias condition: Vce=6V, Ic=7.5mA
! IN LINE PINNING: same data as with cross emitter pinning.
!
#  MHz  S  MA  R  50
! Freq       S11            S21            S12            S22     !GUM [dB]
   40    .875   -6.5  16.129  173.3    .005   85.2    .982   -3.3 !    44.9
  100    .855  -15.9  15.632  165.1    .011   80.2    .964   -8.4 !    41.1
  200    .798  -31.0  14.708  153.0    .021   73.4    .911  -15.7 !    35.4
  300    .727  -45.0  13.645  142.3    .029   67.1    .849  -21.1 !    31.5
  400    .659  -57.7  12.428  133.6    .035   63.3    .788  -25.0 !    28.6
  500    .595  -68.7  11.252  126.3    .040   60.2    .736  -27.8 !    26.3
  600    .537  -78.2  10.194  120.1    .045   59.2    .692  -29.6 !    24.5
  700    .488  -86.6   9.265  114.9    .048   58.5    .656  -30.7 !    23.0
  800    .441  -94.1   8.432  110.1    .051   57.8    .627  -31.6 !    21.6
  900    .400 -100.8   7.661  106.1    .055   57.7    .600  -32.3 !    20.4
 1000    .364 -108.0   7.027  102.6    .058   58.2    .578  -33.0 !    19.3
 1200    .311 -122.3   6.027   96.5    .064   58.7    .546  -35.0 !    17.6
 1400    .285 -135.5   5.317   91.2    .071   59.2    .531  -37.1 !    16.3
 1600    .265 -145.8   4.694   86.7    .077   61.1    .524  -38.3 !    15.1
 1800    .239 -156.0   4.195   83.5    .084   61.6    .515  -38.8 !    14.0
 2000    .221 -170.0   3.789   79.8    .089   62.0    .494  -39.9 !    13.0
 2200    .227  176.2   3.487   76.6    .097   61.9    .473  -42.7 !    12.2
 2400    .246  167.8   3.219   72.5    .102   62.5    .464  -47.2 !    11.5
 2600    .254  162.9   2.956   70.2    .112   63.1    .477  -51.4 !    10.8
 2800    .247  157.0   2.803   67.7    .119   63.1    .493  -53.4 !    10.4
 3000    .248  146.6   2.596   64.6    .124   63.7    .492  -53.9 !     9.8
