! Filename:       BFG520WD.S2P      Version:   4.0
! Philips part #: BFG520                                     Date: Jun 1994
! Bias condition: Vce=3.0V, Ic=15.0mA
! IN LINE PINNING: same data as with cross emitter pinning.
!
#  MHz  S  MA  R  50
! Freq       S11            S21            S12            S22     !GUM [dB]
   40    .565  -20.8  30.092  166.7    .008   80.8    .959   -9.6 !    42.2
  100    .531  -49.3  26.873  149.8    .016   72.6    .869  -22.2 !    36.1
  200    .472  -85.7  20.708  130.2    .028   62.4    .692  -34.8 !    30.2
  300    .439 -110.5  16.102  117.7    .034   59.5    .562  -40.3 !    26.7
  400    .421 -126.9  12.879  109.9    .040   60.0    .479  -42.4 !    24.2
  500    .413 -138.6  10.695  104.2    .045   60.8    .424  -43.0 !    22.3
  600    .404 -147.1   9.123   99.9    .050   62.5    .386  -42.7 !    20.7
  700    .398 -153.7   7.942   96.3    .055   64.0    .360  -42.1 !    19.4
  800    .391 -159.9   7.017   93.3    .061   65.6    .340  -41.5 !    18.2
  900    .386 -165.7   6.272   90.7    .065   67.6    .324  -41.1 !    17.1
 1000    .382 -170.8   5.677   88.6    .072   68.7    .310  -41.0 !    16.2
 1200    .385 -179.7   4.769   84.5    .083   70.1    .291  -42.0 !    14.6
 1400    .390  174.0   4.130   80.5    .094   71.5    .283  -43.9 !    13.4
 1600    .391  169.0   3.625   77.1    .107   73.1    .282  -45.0 !    12.3
 1800    .387  162.6   3.251   74.2    .119   73.0    .277  -45.1 !    11.3
 2000    .389  155.8   2.954   71.5    .131   73.6    .260  -45.3 !    10.4
 2200    .406  150.5   2.712   69.0    .144   73.2    .240  -49.4 !     9.7
 2400    .424  147.5   2.482   66.1    .157   74.3    .236  -56.7 !     9.0
 2600    .427  145.2   2.299   63.9    .172   74.4    .249  -62.2 !     8.4
 2800    .419  141.8   2.172   61.2    .184   73.5    .261  -63.5 !     7.9
 3000    .423  136.2   2.034   58.9    .196   73.7    .256  -64.0 !     7.3
