! Filename:       BFG541C.S2P        Version:   3.0
! Philips part #:BFG541                                     Date: Feb 1992
! Bias condition: Vce=4V, Ic=20mA
!
#  MHz  S  MA  R  50
! Freq       S11            S21            S12            S22     !GUM [dB]
   40    .578  -35.3  38.335  154.7    .011   75.1    .875  -21.0 !    39.7
  100    .468  -79.1  29.219  130.0    .022   64.9    .647  -39.8 !    32.7
  200    .380 -121.9  18.421  109.8    .033   62.7    .422  -50.2 !    26.8
  300    .356 -144.2  13.039   99.8    .044   64.8    .319  -52.7 !    23.4
  400    .350 -158.1   9.996   93.4    .054   66.9    .265  -53.1 !    20.9
  500    .347 -167.7   8.107   88.7    .065   67.9    .232  -53.4 !    19.0
  600    .347 -175.3   6.834   84.6    .076   68.6    .208  -53.7 !    17.4
  700    .345  178.0   5.906   81.0    .087   68.7    .191  -54.3 !    16.1
  800    .346  171.7   5.209   77.6    .097   68.5    .176  -54.9 !    15.0
  900    .349  165.8   4.654   74.6    .109   68.1    .163  -56.3 !    14.0
 1000    .358  160.3   4.201   71.7    .120   67.5    .150  -58.4 !    13.2
 1200    .377  151.5   3.540   66.3    .142   66.1    .127  -64.7 !    11.7
 1400    .396  145.0   3.076   60.9    .163   64.1    .112  -74.0 !    10.6
 1600    .404  138.4   2.714   55.7    .185   62.7    .096  -82.8 !     9.5
 1800    .418  130.9   2.455   51.1    .208   59.6    .076  -93.7 !     8.7
 2000    .445  123.4   2.248   46.3    .228   57.7    .055 -120.2 !     8.0
 2200    .480  118.3   2.076   41.9    .246   55.2    .062 -160.2 !     7.5
 2400    .503  115.0   1.902   37.6    .261   53.8    .085 -178.5 !     6.9
 2600    .510  110.9   1.776   33.2    .287   50.5    .098  169.6 !     6.3
 2800    .514  104.3   1.660   28.1    .303   46.5    .102  152.6 !     5.8
 3000    .542   96.8   1.585   23.8    .322   44.7    .123  132.1 !     5.6
! Noise data:
! Freq.     Fmin        Gamma-opt         rn
  900       1.50     .330    179.0       .09
 2000       2.20     .533   -140.0       .19
