! Filename:       BFG590G.S2P                                Version:   4.0
! Philips part #: BFG590                                     Date: Jun 1994
! Bias condition: Vce=4V; Ic=70mA
! 
#  MHz  S  MA  R  50
! Freq       S11            S21            S12            S22     !GUM [dB]
   40    .682  -53.6  39.981  150.1    .017   67.3    .836  -29.9 !    40.0
  100    .634 -103.4  27.076  124.2    .029   49.6    .575  -57.2 !    32.6
  200    .612 -139.2  15.925  105.9    .038   44.7    .350  -78.2 !    26.6
  300    .610 -155.5  11.036   97.0    .044   47.2    .255  -89.6 !    23.2
  400    .612 -164.7   8.415   91.1    .050   50.4    .208  -97.6 !    20.7
  500    .615 -171.0   6.798   86.5    .056   53.1    .181 -103.8 !    18.9
  600    .616 -175.8   5.697   82.6    .063   55.6    .165 -108.7 !    17.3
  700    .616 -179.8   4.920   79.2    .071   57.5    .155 -112.9 !    16.0
  800    .616  176.6   4.329   76.1    .078   59.1    .149 -116.6 !    14.9
  900    .616  173.3   3.871   73.2    .086   60.1    .145 -120.3 !    13.9
 1000    .617  170.2   3.502   70.4    .093   60.8    .143 -124.1 !    13.1
 1200    .624  164.4   2.942   65.3    .108   61.7    .147 -130.4 !    11.6
 1400    .633  159.5   2.547   60.3    .124   61.9    .157 -134.7 !    10.4
 1600    .640  155.0   2.247   55.3    .140   61.3    .166 -138.1 !     9.4
 1800    .650  150.6   2.019   50.9    .155   60.9    .175 -141.7 !     8.6
 2000    .663  146.6   1.837   46.7    .171   60.2    .188 -146.3 !     8.0
 2200    .676  143.1   1.682   42.6    .186   59.5    .206 -150.3 !     7.4
 2400    .682  140.0   1.558   38.2    .201   57.9    .229 -152.3 !     6.8
 2600    .684  136.4   1.452   33.7    .215   56.1    .250 -153.3 !     6.3
 2800    .694  132.2   1.379   30.1    .231   54.7    .263 -154.5 !     6.0
 3000    .716  128.4   1.307   26.8    .248   53.1    .273 -157.8 !     5.8
