! Filename:       BFG591I.S2P                                Version:   4.0
! Philips part #: BFG591                                     Date: Jun 1994
! Bias condition: Vce=12V; Ic=90mA
! 
#  MHz  S  MA  R  50
! Freq       S11            S21            S12            S22     !GUM [dB]
   40    .587  -42.1  39.365  152.6    .013   72.3    .869  -22.7 !    39.8
  100    .484  -87.0  27.639  127.0    .025   61.7    .628  -42.3 !    32.2
  200    .411 -127.1  16.716  107.7    .037   60.4    .401  -53.2 !    26.0
  300    .392 -148.1  11.711   98.0    .048   62.7    .301  -56.1 !    22.5
  400    .386 -161.3   8.960   91.7    .059   64.4    .247  -56.9 !    20.0
  500    .385 -170.7   7.254   86.9    .070   66.3    .216  -57.8 !    18.1
  600    .386 -178.2   6.120   82.8    .082   66.6    .194  -58.9 !    16.6
  700    .388  175.3   5.294   79.0    .094   67.1    .176  -60.3 !    15.3
  800    .390  169.2   4.673   75.5    .105   67.2    .163  -62.1 !    14.2
  900    .394  163.2   4.182   72.2    .117   67.0    .151  -64.7 !    13.3
 1000    .402  157.8   3.785   69.3    .129   66.7    .139  -68.4 !    12.4
 1200    .425  149.1   3.197   63.5    .153   65.2    .121  -78.2 !    11.0
 1400    .448  142.1   2.788   57.7    .174   63.4    .108  -90.0 !     9.9
 1600    .458  135.5   2.468   52.1    .200   62.1    .094 -103.4 !     8.9
 1800    .471  127.4   2.242   46.9    .224   59.0    .082 -121.2 !     8.1
 2000    .502  119.5   2.053   41.9    .245   57.1    .083 -151.5 !     7.5
 2200    .542  114.3   1.900   37.4    .264   54.9    .104 -175.1 !     7.1
 2400    .566  110.7   1.747   32.9    .281   53.9    .132  173.8 !     6.6
 2600    .576  106.1   1.635   28.3    .310   50.2    .150  163.7 !     6.1
 2800    .583   99.4   1.534   22.8    .326   46.2    .163  150.4 !     5.6
 3000    .618   91.9   1.471   18.3    .349   44.7    .188  135.2 !     5.6
