! Filename:       BFG591A.S2P                                Version:  4.0
! Philips part #: BFG591                                     Date: Jun 1994
! Bias condition: Vce=12V; Ic=10mA
! 
#  MHz  S  MA  R  50
! Freq       S11            S21            S12            S22     !GUM [dB]
   40    .776  -26.3  19.065  162.1    .015   77.2    .955  -12.2 !    40.2
  100    .694  -60.9  16.283  141.2    .031   62.9    .822  -25.8 !    32.0
  200    .580 -102.0  11.832  118.9    .045   52.4    .625  -36.3 !    25.4
  300    .529 -127.7   8.836  106.0    .053   50.2    .513  -39.8 !    21.7
  400    .505 -144.9   6.933   97.4    .060   51.0    .450  -41.3 !    19.1
  500    .495 -157.3   5.685   91.1    .066   53.2    .413  -42.6 !    17.1
  600    .489 -167.2   4.842   85.9    .073   55.1    .388  -44.1 !    15.6
  700    .487 -175.4   4.213   81.2    .080   57.3    .369  -45.9 !    14.3
  800    .487  177.2   3.737   76.8    .087   59.2    .355  -48.0 !    13.2
  900    .490  170.3   3.347   72.8    .095   61.1    .343  -50.6 !    12.2
 1000    .496  164.1   3.029   69.4    .104   62.5    .332  -53.6 !    11.4
 1200    .516  153.7   2.572   62.7    .122   64.4    .314  -60.7 !    10.0
 1400    .534  145.2   2.262   56.0    .140   65.3    .302  -68.8 !     9.0
 1600    .543  137.3   1.999   49.5    .163   66.8    .288  -77.5 !     7.9
 1800    .558  128.4   1.821   44.3    .188   65.3    .272  -87.0 !     7.2
 2000    .588  120.2   1.670   38.6    .210   65.0    .256 -100.4 !     6.6
 2200    .625  114.5   1.560   33.6    .232   63.6    .252 -116.1 !     6.3
 2400    .645  110.3   1.419   28.0    .255   63.5    .266 -130.7 !     5.7
 2600    .651  104.9   1.323   24.1    .291   60.0    .277 -143.2 !     5.2
 2800    .657   97.5   1.253   18.0    .313   56.1    .277 -156.3 !     4.8
 3000    .693   89.7   1.189   13.6    .344   54.8    .280 -172.8 !     4.7
