! Filename:       BFG505D.S2P        Version:   3.0
! Philips part #: BFG505                                     Date: Feb 1992
! Bias condition: Vce=3V, Ic=3.75mA
! IN LINE PINNING: same data as with cross emitter pinning.
!
#  MHz  S  MA  R  50
! Freq       S11            S21            S12            S22     !GUM [dB]
   40    .924   -4.5   9.431  175.1    .005   86.0    .990   -2.4 !    45.0
  100    .912  -11.2   9.265  168.8    .012   82.7    .982   -6.0 !    41.5
  200    .879  -21.9   8.937  159.4    .023   76.7    .955  -11.8 !    36.0
  300    .836  -32.5   8.617  150.8    .033   71.2    .917  -16.7 !    31.9
  400    .789  -42.5   8.214  143.5    .042   66.3    .877  -20.8 !    28.9
  500    .742  -51.6   7.716  137.0    .048   62.4    .837  -24.2 !    26.5
  600    .695  -60.1   7.289  131.1    .054   59.9    .797  -26.9 !    24.5
  700    .647  -68.2   6.897  125.7    .059   57.6    .761  -28.9 !    22.9
  800    .598  -75.6   6.479  120.4    .063   56.1    .729  -30.6 !    21.4
  900    .551  -82.2   6.039  115.6    .067   54.6    .699  -32.0 !    20.1
 1000    .506  -89.1   5.633  111.4    .070   53.9    .672  -33.4 !    18.9
 1200    .432 -102.9   4.992  104.0    .076   53.0    .631  -36.2 !    17.1
 1400    .386 -115.8   4.511   97.6    .082   52.3    .608  -38.7 !    15.8
 1600    .353 -126.1   4.029   92.1    .087   53.1    .595  -40.3 !    14.6
 1800    .315 -136.0   3.630   88.2    .093   54.0    .578  -41.1 !    13.4
 2000    .278 -148.2   3.300   83.8    .097   54.0    .553  -42.5 !    12.3
 2200    .267 -162.5   3.055   80.0    .103   54.0    .528  -45.4 !    11.4
 2400    .276 -173.4   2.834   75.2    .107   54.7    .519  -49.6 !    10.8
 2600    .281  179.6   2.608   72.5    .115   55.8    .531  -53.5 !    10.1
 2800    .270  172.9   2.488   69.6    .122   56.2    .544  -55.3 !     9.8
 3000    .266  162.0   2.305   66.2    .126   57.0    .541  -56.0 !     9.1
! Noise data:
! Freq.     Fmin        Gamma-opt         rn
  900       1.40     .563     17.0       .62
 2000       2.00     .433     46.0       .48
