! Filename:       BFG540G.S2P         Version:   3.0
! Philips part #: BFG540                                     Date: Feb 1992
! Bias condition: Vce=8V, Ic=4mA
! IN LINE PINNING: same data as with cross emitter pinning.
!
#  MHz  S  MA  R  50
! Freq       S11            S21            S12            S22     !GUM [dB]
   40    .921  -13.3  10.695  170.2    .013   81.1    .980   -6.7 !    42.9
  100    .894  -32.4  10.108  158.0    .032   70.9    .938  -16.2 !    36.3
  200    .843  -61.9   9.196  141.5    .054   56.4    .825  -28.6 !    29.6
  300    .799  -86.8   8.142  128.3    .069   46.1    .718  -36.8 !    25.8
  400    .771 -105.9   7.047  118.2    .077   39.3    .633  -42.1 !    23.1
  500    .751 -120.5   6.137  110.5    .082   34.5    .571  -45.7 !    21.1
  600    .735 -132.1   5.419  104.2    .085   31.7    .525  -48.0 !    19.5
  700    .722 -141.3   4.813   98.9    .087   29.5    .490  -49.7 !    18.0
  800    .711 -149.0   4.306   94.5    .088   27.8    .462  -51.2 !    16.8
  900    .701 -155.7   3.871   90.5    .088   27.3    .440  -52.7 !    15.6
 1000    .693 -161.9   3.511   87.1    .089   26.9    .422  -54.3 !    14.6
 1200    .688 -172.3   2.966   80.9    .089   27.0    .401  -58.4 !    13.0
 1400    .693  179.5   2.580   75.1    .089   27.4    .395  -62.6 !    11.8
 1600    .695  172.5   2.258   69.8    .089   30.5    .395  -65.8 !    10.7
 1800    .693  165.7   2.028   65.9    .092   32.4    .390  -68.4 !     9.7
 2000    .702  158.9   1.834   62.0    .091   35.5    .377  -72.6 !     8.9
 2200    .717  153.3   1.676   58.1    .092   38.5    .371  -79.1 !     8.3
 2400    .727  148.9   1.512   53.7    .092   42.3    .382  -86.3 !     7.5
 2600    .728  144.8   1.387   50.8    .098   45.5    .408  -91.6 !     6.9
 2800    .725  139.7   1.307   46.6    .103   47.4    .429  -94.4 !     6.5
 3000    .738  134.1   1.211   43.7    .107   51.7    .429  -97.1 !     6.0
