! Filename:       BFG540WJ.S2P    Version:   4.0
! Philips part #: BFG540                                     Date: Jun 1994
! Bias condition: Vce=8.0V, Ic=30.0mA
! IN LINE PINNING: same data as with croos emitter pinning.
!
#  MHz  S  MA  R  50
! Freq       S11            S21            S12            S22     !GUM [dB]
   40    .694  -39.1  46.197  155.2    .012   71.3    .852  -23.8 !    41.8
  100    .608  -84.3  34.715  131.4    .022   57.2    .628  -48.0 !    35.0
  200    .543 -125.1  21.829  111.9    .030   52.8    .395  -66.2 !    29.0
  300    .527 -144.4  15.392  102.9    .037   55.2    .285  -74.7 !    25.5
  400    .521 -155.6  11.808   97.5    .043   58.3    .226  -79.5 !    23.0
  500    .517 -163.0   9.569   93.5    .050   61.4    .191  -82.7 !    21.1
  600    .514 -168.4   8.051   90.5    .057   64.0    .168  -84.7 !    19.6
  700    .510 -173.1   6.945   87.8    .063   65.9    .149  -86.2 !    18.2
  800    .506 -177.1   6.110   85.6    .070   67.2    .135  -87.6 !    17.1
  900    .503  179.1   5.447   83.6    .077   68.4    .123  -89.8 !    16.1
 1000    .502  175.4   4.918   81.9    .086   69.1    .113  -92.7 !    15.2
 1200    .508  169.4   4.120   78.5    .100   70.4    .105 -100.1 !    13.6
 1400    .513  164.9   3.545   75.0    .115   70.8    .107 -104.6 !    12.4
 1600    .512  160.6   3.117   72.0    .131   71.5    .106 -105.1 !    11.2
 1800    .509  155.6   2.819   69.2    .147   70.7    .098 -105.4 !    10.3
 2000    .518  150.2   2.569   66.8    .162   70.6    .088 -113.7 !     9.6
 2200    .534  146.4   2.350   64.2    .178   69.9    .091 -128.0 !     8.9
 2400    .546  143.8   2.137   61.9    .190   70.1    .110 -136.8 !     8.2
 2600    .543  141.3   1.997   59.6    .209   69.3    .130 -136.1 !     7.6
 2800    .537  137.6   1.875   56.4    .221   67.7    .137 -132.9 !     7.0
 3000    .545  132.6   1.774   54.5    .235   67.4    .129 -134.3 !     6.6
! Noise data:
! Freq.     Fmin        Gamma-opt         rn
  900       1.70     .241    149.0       .150
 2000       2.40     .479   -163.0       .120
