! Filename:       BFG540WD.S2P     Version:   4.0
! Philips part #: BFG540                                     Date: Jun 1994
! Bias condition: Vce=4.0V, Ic=30.0mA
! IN LINE PINNING: same data as with cross emitter pinning.
!
#  MHz  S  MA  R  50
! Freq       S11            S21            S12            S22     !GUM [dB]
   40    .591  -46.7  48.117  153.1    .011   69.6    .847  -26.5 !    41.0
  100    .554  -96.7  35.006  128.5    .020   57.0    .600  -51.9 !    34.4
  200    .537 -135.6  21.419  109.8    .029   54.3    .368  -70.4 !    28.7
  300    .536 -152.3  14.971  101.3    .035   56.8    .265  -79.3 !    25.3
  400    .537 -161.7  11.447   96.2    .041   61.0    .210  -84.6 !    22.8
  500    .538 -168.1   9.265   92.5    .049   63.6    .179  -88.3 !    21.0
  600    .535 -172.9   7.789   89.6    .056   66.3    .156  -90.8 !    19.4
  700    .533 -176.9   6.717   87.0    .063   67.7    .140  -92.8 !    18.1
  800    .530  179.5   5.908   84.9    .070   68.9    .127  -94.9 !    16.9
  900    .528  176.1   5.266   82.9    .078   70.2    .116  -97.9 !    15.9
 1000    .527  172.7   4.754   81.3    .085   70.9    .109 -101.3 !    15.0
 1200    .532  167.1   3.984   77.9    .101   71.8    .103 -109.0 !    13.5
 1400    .538  163.0   3.423   74.5    .115   72.1    .107 -113.2 !    12.2
 1600    .538  158.8   3.012   71.4    .131   72.6    .107 -114.1 !    11.1
 1800    .536  154.0   2.728   68.6    .149   71.8    .098 -115.4 !    10.2
 2000    .544  148.9   2.486   66.3    .163   71.4    .091 -124.4 !     9.5
 2200    .561  145.2   2.274   63.6    .179   70.7    .098 -137.3 !     8.8
 2400    .570  142.7   2.066   61.4    .192   70.9    .119 -144.2 !     8.1
 2600    .567  140.1   1.933   59.1    .211   70.1    .138 -142.8 !     7.5
 2800    .561  136.5   1.812   56.0    .225   68.4    .145 -139.5 !     6.9
 3000    .571  131.6   1.716   54.0    .238   68.0    .137 -141.5 !     6.5
! Noise data:
! Freq.     Fmin        Gamma-opt         rn
  900       1.70     .312    171.0       .110
 2000       2.40     .543   -155.0       .120
