! Filename:       BFG590A.S2P       Version:   4.0
! Philips part #: BFG590                                     Date: Jun 1994
! Bias condition: Vce=4V; Ic=10mA
! 
#  MHz  S  MA  R  50
! Freq       S11            S21            S12            S22     !GUM [dB]
   40    .829  -28.8  19.813  161.8    .018   75.4    .947  -14.9 !    40.9
  100    .767  -66.0  16.870  140.7    .037   57.8    .797  -32.2 !    32.8
  200    .692 -107.7  12.156  118.5    .053   43.5    .575  -47.1 !    26.3
  300    .661 -131.4   9.016  105.9    .059   38.6    .447  -53.3 !    22.6
  400    .652 -145.7   7.062   97.7    .063   37.5    .374  -56.5 !    20.0
  500    .649 -155.5   5.793   91.5    .066   37.8    .330  -58.4 !    18.1
  600    .647 -162.7   4.897   86.4    .070   39.6    .303  -59.9 !    16.6
  700    .647 -168.4   4.245   82.1    .073   41.4    .285  -61.5 !    15.3
  800    .645 -173.3   3.745   78.2    .076   43.7    .272  -63.2 !    14.1
  900    .644 -177.6   3.353   74.6    .080   45.7    .263  -65.3 !    13.1
 1000    .645  178.5   3.038   71.3    .084   47.6    .256  -67.6 !    12.3
 1200    .651  171.5   2.556   65.1    .093   51.5    .251  -73.4 !    10.8
 1400    .660  165.5   2.209   59.4    .104   55.0    .254  -79.7 !     9.7
 1600    .669  160.2   1.952   53.8    .115   57.1    .262  -85.6 !     8.7
 1800    .678  155.2   1.749   48.8    .128   59.4    .268  -91.5 !     7.9
 2000    .693  150.6   1.590   44.1    .142   60.8    .276  -98.3 !     7.2
 2200    .706  146.7   1.450   39.6    .157   61.6    .290 -105.9 !     6.6
 2400    .714  143.1   1.341   35.0    .173   61.6    .315 -112.3 !     6.1
 2600    .718  139.0   1.248   30.4    .189   60.8    .342 -117.3 !     5.6
 2800    .729  134.4   1.175   26.7    .207   60.3    .361 -121.4 !     5.3
 3000    .753  130.4   1.107   23.3    .226   59.2    .373 -126.7 !     5.2
