! Filename:       BFG520I.S2P       Version:   2.1
! Philips part #: BFG520                                     Date: Feb 1992
! Bias condition: Vce=6V, Ic=10mA
! IN LINE PINNING: same data as with cross emitter pinning.
#  MHz  S  MA  R  50
! Freq       S11            S21            S12            S22     !GUM [dB]
   40    .711  -14.1  23.473  170.8    .007   82.3    .974   -6.8 !    43.5
  100    .690  -34.5  22.218  158.5    .016   74.0    .931  -16.3 !    38.5
  200    .640  -64.3  19.183  141.5    .029   62.4    .816  -28.8 !    32.7
  300    .597  -88.3  16.207  128.8    .037   54.2    .703  -37.1 !    29.1
  400    .569 -106.1  13.627  119.5    .042   50.9    .613  -42.4 !    26.4
  500    .553 -119.9  11.673  112.5    .046   48.6    .544  -45.7 !    24.5
  600    .538 -130.7  10.152  107.0    .050   47.2    .493  -47.6 !    22.8
  700    .526 -139.2   8.947  102.5    .052   47.1    .453  -48.8 !    21.4
  800    .514 -146.7   7.968   98.6    .055   47.9    .422  -49.5 !    20.2
  900    .503 -154.1   7.148   95.1    .057   48.8    .396  -50.2 !    19.1
 1000    .495 -160.2   6.488   92.4    .059   49.7    .374  -51.1 !    18.1
 1200    .494 -171.7   5.468   87.0    .065   51.3    .344  -53.4 !    16.5
 1400    .500 -131.8   4.748   82.0    .069   52.5    .331  -56.1 !    15.3
 1600    .500  173.3   4.159   77.8    .075   55.2    .326  -57.3 !    14.1
 1800    .494  166.0   3.722   74.3    .082   56.4    .317  -57.9 !    13.1
 2000    .496  158.4   3.368   71.0    .087   58.2    .297  -59.5 !    12.2
 2200    .515  151.9   3.080   67.9    .093   59.0    .279  -64.4 !    11.5
 2400    .535  147.6   2.798   64.2    .097   60.7    .280  -71.4 !    10.8
 2600    .540  144.2   2.579   61.6    .107   61.3    .298  -76.3 !    10.1
 2800    .534  139.8   2.428   58.2    .114   60.9    .313  -77.7 !     9.6
 3000    .541  133.9   2.259   55.3    .120   62.3    .309  -78.3 !     9.0
! Noise data:
! Freq.     Fmin        Gamma-opt         rn
  500       1.10     .330     27.0       .250
  900       1.25     .294     48.0       .260
 1000       1.30     .298     52.0       .270
 2000       1.90     .242    134.0       .160
