! Filename:       BFG520J.S2P       Version:   2.1
! Philips part #: BFG520                                     Date: Feb 1992
! Bias condition: Vce=6V, Ic=15mA
! IN LINE PINNING: same data as with cross emitter pinning.
#  MHz  S  MA  R  50
! Freq       S11            S21            S12            S22     !GUM [dB]
   40    .642  -17.7  29.807  168.9    .007   80.7    .964   -8.4 !    43.3
  100    .620  -43.0  27.554  154.5    .015   71.9    .900  -19.7 !    38.1
  200    .573  -77.3  22.604  135.9    .026   60.1    .753  -33.4 !    32.4
  300    .544 -102.6  18.314  123.1    .032   53.2    .627  -41.5 !    28.9
  400    .526 -120.0  14.988  114.4    .037   51.6    .536  -46.0 !    26.4
  500    .519 -132.7  12.629  108.0    .040   50.0    .471  -48.6 !    24.5
  600    .510 -142.4  10.858  103.0    .043   50.0    .425  -49.9 !    22.9
  700    .503 -149.9   9.497   98.9    .046   50.9    .390  -50.4 !    21.5
  800    .495 -156.9   8.418   95.3    .049   52.3    .364  -50.7 !    20.3
  900    .488 -163.2   7.526   92.3    .052   54.1    .341  -51.1 !    19.2
 1000    .484 -168.8   6.819   89.8    .055   55.5    .323  -51.7 !    18.3
 1200    .487 -178.8   5.725   85.0    .061   57.1    .298  -53.9 !    16.7
 1400    .496  173.9   4.955   80.4    .066   58.6    .289  -56.6 !    15.5
 1600    .495  167.9   4.335   76.5    .073   61.1    .286  -57.8 !    14.3
 1800    .491  160.9   3.877   73.1    .082   61.6    .279  -58.0 !    13.3
 2000    .495  153.8   3.507   70.1    .088   63.2    .260  -59.6 !    12.4
 2200    .515  147.8   3.205   67.1    .094   63.3    .244  -65.0 !    11.7
 2400    .535  144.1   2.913   63.7    .099   64.8    .245  -72.9 !    11.0
 2600    .540  141.1   2.684   61.1    .110   64.9    .266  -78.1 !    10.4
 2800    .533  136.9   2.522   57.9    .117   64.2    .281  -79.1 !     9.8
 3000    .539  131.1   2.348   55.1    .123   65.2    .276  -79.5 !     9.3
! Noise data:
! Freq.     Fmin        Gamma-opt         rn
  500       1.30     .256     27.0       .250
  900       1.45     .228     52.0       .250
 1000       1.50     .233     57.0       .280
 2000       2.05     .215    147.0       .170
