! Filename:       BFG520H.S2P          Version:   2.1
! Philips part #: BFG520                                     Date: Feb 1992
! Bias condition: Vce=6V, Ic=5mA
! IN LINE PINNING: same data as with cross emitter pinning.
#  MHz  S  MA  R  50
! Freq       S11            S21            S12            S22     !GUM [dB]
   40    .816   -9.6  14.372  173.3    .007   84.3    .987   -4.5 !    43.7
  100    .802  -23.7  13.946  164.2    .018   78.1    .966  -11.1 !    39.1
  200    .761  -45.9  12.883  150.6    .033   67.3    .901  -20.8 !    33.2
  300    .716  -65.9  11.658  138.8    .045   59.2    .824  -28.3 !    29.4
  400    .676  -82.4  10.313  129.5    .053   53.4    .750  -34.0 !    26.5
  500    .647  -96.6   9.188  121.9    .059   48.8    .686  -38.2 !    24.4
  600    .621 -108.1   8.202  115.5    .064   45.8    .632  -41.1 !    22.6
  700    .601 -117.8   7.379  110.3    .067   43.2    .587  -43.1 !    21.1
  800    .577 -126.6   6.665  105.5    .070   42.3    .552  -44.7 !    19.8
  900    .557 -134.5   6.028  101.3    .072   41.6    .519  -46.0 !    18.6
 1000    .542 -141.8   5.513   97.9    .074   41.4    .493  -47.3 !    17.6
 1200    .527 -155.4   4.695   91.4    .077   41.0    .455  -50.1 !    15.9
 1400    .527 -166.0   4.116   85.4    .080   41.1    .435  -53.0 !    14.6
 1600    .525 -174.4   3.623   80.5    .083   43.3    .425  -54.6 !    13.4
 1800    .516  177.5   3.250   76.5    .088   44.6    .412  -55.8 !    12.4
 2000    .512  169.1   2.941   72.8    .089   46.6    .390  -57.6 !    11.4
 2200    .526  161.4   2.695   69.2    .093   47.4    .370  -62.1 !    10.7
 2400    .546  155.8   2.454   64.8    .096   49.9    .370  -68.0 !    10.0
 2600    .553  151.7   2.259   61.9    .103   51.8    .387  -72.5 !     9.4
 2800    .548  146.7   2.138   58.3    .108   52.2    .400  -74.2 !     8.9
 3000    .552  140.3   1.982   55.1    .111   54.5    .395  -75.4 !     8.3
! Noise data:
! Freq.     Fmin        Gamma-opt         rn
  500       0.90     .439     29.0       .270
  900       1.10     .395     49.0       .280
 1000       1.15     .400     53.0       .290
 2000       1.85     .312    126.0       .170
