! Filename:       BFG520B.S2P        Version:   2.1
! Philips part #: BFG520                                     Date: Feb 1992
! Bias condition: Vce=3V, Ic=5mA
! IN LINE PINNING: same data as with cross emitter pinning.
#  MHz  S  MA  R  50
! Freq       S11            S21            S12            S22     !GUM [dB]
   40    .799  -10.3  14.524  173.1    .008   84.1    .989   -4.8 !    44.4
  100    .783  -25.3  14.070  163.5    .019   77.0    .965  -11.9 !    38.8
  200    .743  -48.5  12.891  149.4    .034   66.6    .894  -21.9 !    32.7
  300    .700  -69.2  11.585  137.5    .046   58.1    .813  -29.7 !    28.9
  400    .664  -86.3  10.193  128.0    .055   52.3    .736  -35.4 !    26.1
  500    .638 -100.5   9.020  120.4    .060   47.6    .670  -39.5 !    24.0
  600    .615 -112.1   8.033  114.1    .065   44.7    .615  -42.2 !    22.2
  700    .598 -121.7   7.204  108.9    .068   42.6    .571  -44.2 !    20.8
  800    .577 -130.4   6.491  104.2    .070   41.7    .535  -45.8 !    19.5
  900    .560 -138.4   5.868  100.1    .072   41.1    .504  -47.1 !    18.3
 1000    .546 -145.4   5.356   96.7    .074   40.9    .479  -48.4 !    17.2
 1200    .535 -158.4   4.556   90.3    .078   40.6    .442  -51.1 !    15.6
 1400    .536 -168.8   3.989   84.4    .080   41.1    .422  -54.0 !    14.3
 1600    .534 -176.7   3.507   79.5    .083   43.4    .413  -55.8 !    13.2
 1800    .527  175.3   3.144   75.5    .088   44.4    .402  -56.9 !    12.1
 2000    .524  167.1   2.847   71.7    .090   46.6    .380  -58.8 !    11.2
 2200    .540  159.7   2.610   68.2    .094   47.7    .360  -63.5 !    10.4
 2400    .558  154.5   2.372   63.8    .096   50.1    .360  -69.8 !     9.7
 2600    .565  150.3   2.183   60.9    .104   51.9    .380  -74.2 !     9.1
 2800    .559  145.5   2.065   57.2    .109   52.4    .392  -75.7 !     8.7
 3000    .565  139.3   1.918   54.1    .113   54.8    .386  -77.1 !     8.0
! Noise data:
! Freq.     Fmin        Gamma-opt         rn
  500       0.90     .396     29.0       .240
  900       1.10     .334     50.0       .260
 1000       1.15     .355     55.0       .260
 2000       1.85     .275    130.0       .160
