! Filename:       BFG505I.S2P         Version:   3.0
! Philips part #: BFG505                                     Date: Feb 1992
! Bias condition: Vce=6V, Ic=2.5mA
! IN LINE PINNING: same data as with cross emitter pinning.
!
#  MHz  S  MA  R  50
! Freq       S11            S21            S12            S22     !GUM [dB]
   40    .955   -3.3   6.467  176.2    .005   86.3    .993   -1.9 !    45.2
  100    .948   -8.1   6.385  171.3    .012   84.9    .988   -4.7 !    42.4
  200    .929  -16.1   6.243  163.8    .023   80.0    .975   -9.2 !    37.5
  300    .902  -24.0   6.145  156.7    .034   75.0    .953  -13.4 !    33.5
  400    .871  -31.8   5.989  150.5    .044   70.7    .928  -17.0 !    30.3
  500    .839  -38.8   5.729  144.9    .052   67.1    .901  -20.5 !    27.7
  600    .804  -45.4   5.504  139.8    .059   64.2    .871  -23.6 !    25.5
  700    .767  -52.1   5.323  134.9    .066   61.5    .842  -26.1 !    23.7
  800    .725  -58.3   5.124  129.9    .071   58.9    .812  -28.2 !    22.1
  900    .682  -64.1   4.873  125.0    .076   56.8    .783  -30.3 !    20.6
 1000    .638  -69.9   4.633  120.8    .080   55.2    .756  -32.1 !    19.3
 1200    .557  -81.7   4.251  113.0    .088   52.7    .713  -35.9 !    17.3
 1400    .495  -93.5   3.972  105.8    .096   50.9    .685  -38.9 !    16.0
 1600    .449 -103.0   3.615   99.6    .100   50.3    .665  -41.0 !    14.7
 1800    .398 -111.2   3.300   95.1    .105   50.5    .641  -42.3 !    13.4
 2000    .341 -121.4   3.032   90.1    .109   49.5    .610  -44.0 !    12.2
 2200    .305 -134.5   2.837   85.6    .114   48.7    .582  -47.1 !    11.3
 2400    .296 -146.6   2.652   80.2    .118   48.6    .570  -51.2 !    10.6
 2600    .293 -155.5   2.454   77.1    .125   49.7    .579  -55.0 !    10.0
 2800    .276 -162.4   2.360   73.9    .131   50.0    .590  -56.7 !     9.7
 3000    .257 -173.5   2.190   70.2    .134   50.6    .584  -57.4 !     8.9
! Noise data:
! Freq.     Fmin        Gamma-opt         rn
  900       1.30     .619     17.0       .74
 2000       1.90     .526     44.0       .59
