! Filename:       BFG541F.S2P          Version:   3.0
! Philips part #: BFG541                                     Date: Feb 1992
! Bias condition: Vce=4V, Ic=50mA
! 
#  MHz  S  MA  R  50
! Freq       S11            S21            S12            S22     !GUM [dB]
   40    .319  -67.1  57.333  144.2    .009   74.3    .753  -30.0 !    39.3
  100    .310 -120.1  35.488  118.0    .017   70.1    .475  -48.9 !    32.6
  200    .315 -152.0  19.920  102.1    .029   72.3    .289  -55.3 !    26.8
  300    .322 -166.1  13.699   94.5    .041   74.0    .215  -55.7 !    23.4
  400    .328 -174.9  10.392   89.4    .053   74.6    .178  -55.2 !    21.0
  500    .331  178.7   8.379   85.4    .066   74.5    .156  -55.2 !    19.1
  600    .333  173.5   7.042   81.8    .078   74.2    .140  -55.6 !    17.5
  700    .335  168.5   6.073   78.7    .090   73.4    .127  -56.2 !    16.3
  800    .338  163.3   5.348   75.6    .102   72.5    .115  -57.0 !    15.1
  900    .343  158.5   4.777   72.9    .114   71.6    .103  -58.8 !    14.2
 1000    .352  153.9   4.312   70.3    .126   70.6    .091  -61.8 !    13.3
 1200    .373  146.7   3.628   65.1    .150   68.1    .071  -71.9 !    11.9
 1400    .391  141.1   3.143   60.1    .172   65.5    .059  -87.4 !    10.7
 1600    .401  135.3   2.775   55.1    .195   63.4    .047 -105.8 !     9.6
 1800    .413  128.3   2.507   50.5    .219   60.0    .034 -136.8 !     8.8
 2000    .441  121.3   2.293   45.9    .240   57.6    .043  171.2 !     8.2
 2200    .477  116.5   2.111   41.6    .258   54.7    .076  151.8 !     7.6
 2400    .501  113.4   1.937   37.7    .273   53.1    .105  148.0 !     7.0
 2600    .507  109.6   1.809   33.1    .299   49.4    .120  141.0 !     6.5
 2800    .511  103.1   1.684   28.3    .314   45.2    .131  127.8 !     5.9
 3000    .540   95.8   1.611   24.0    .333   43.2    .161  113.7 !     5.8
