! Filename:       BFG540J.S2P     Version:   3.0
! Philips part #: BFG540                                     Date: Feb 1992
! Bias condition: Vce=8V, Ic=30mA
! IN LINE PINNING: same data as with cross emitter pinning.
!
#  MHz  S  MA  R  50
! Freq       S11            S21            S12            S22     !GUM [dB]
   40    .711  -38.6  46.953  157.3    .011   71.0    .866  -23.2 !    42.5
  100    .668  -84.2  36.734  134.4    .022   54.4    .667  -48.7 !    36.4
  200    .639 -125.6  23.900  114.2    .029   44.8    .437  -71.4 !    30.8
  300    .635 -145.2  17.038  104.4    .033   43.9    .324  -83.9 !    27.3
  400    .635 -156.7  13.125   98.4    .037   45.6    .262  -92.2 !    24.9
  500    .634 -164.3  10.656   94.0    .040   48.0    .226  -98.2 !    23.0
  600    .632 -170.0   8.973   90.6    .044   50.8    .202 -102.7 !    21.5
  700    .629 -174.9   7.740   87.7    .047   53.0    .183 -106.5 !    20.1
  800    .626 -179.1   6.807   85.2    .051   54.8    .169 -110.0 !    18.9
  900    .623  176.9   6.063   83.0    .055   56.6    .158 -113.9 !    17.9
 1000    .623  173.1   5.468   81.1    .060   58.2    .151 -118.0 !    17.0
 1200    .630  166.7   4.567   77.3    .068   60.5    .149 -125.2 !    15.5
 1400    .636  161.7   3.913   73.4    .076   61.4    .154 -128.4 !    14.2
 1600    .635  156.9   3.425   69.9    .086   63.3    .153 -129.1 !    13.0
 1800    .634  151.5   3.088   66.7    .097   63.3    .145 -131.1 !    12.1
 2000    .646  145.9   2.803   64.0    .105   64.2    .141 -138.6 !    11.4
 2200    .664  141.7   2.549   61.1    .114   64.1    .153 -147.1 !    10.8
 2400    .676  138.7   2.297   58.4    .119   64.7    .177 -150.5 !    10.0
 2600    .674  135.6   2.133   55.7    .132   63.8    .199 -148.7 !     9.4
 2800    .668  131.3   1.988   52.0    .140   61.7    .204 -146.2 !     8.7
 3000    .679  126.2   1.869   49.7    .148   62.4    .197 -147.6 !     8.3
! Noise data:
! Freq.     Fmin        Gamma-opt         rn
  900       1.70     .241    149.0       .15
 2000       2.40     .479   -163.0       .12
