! Filename:       BFG540WH.S2P     Version:   4.0
! Philips part #: BFG540                                     Date: Jun 1994
! Bias condition: Vce=8.0V, Ic=10.0mA
! IN LINE PINNING: same data as with cross emitter pinning.
!
#  MHz  S  MA  R  50
! Freq       S11            S21            S12            S22     !GUM [dB]
   40    .832  -21.5  22.984  164.4    .014   77.7    .944  -13.0 !    42.0
  100    .769  -50.7  20.265  147.1    .029   63.9    .829  -29.3 !    35.1
  200    .669  -90.3  15.969  126.4    .043   51.6    .618  -45.7 !    28.7
  300    .615 -116.0  12.385  113.9    .051   47.3    .481  -53.5 !    25.1
  400    .590 -132.4   9.885  105.9    .056   46.6    .395  -57.4 !    22.5
  500    .576 -143.8   8.182  100.3    .060   48.1    .341  -59.5 !    20.5
  600    .566 -152.1   6.971   95.9    .065   49.8    .305  -60.6 !    19.0
  700    .557 -158.7   6.060   92.4    .070   51.7    .277  -61.0 !    17.6
  800    .551 -164.2   5.351   89.4    .074   53.4    .257  -61.3 !    16.4
  900    .545 -169.1   4.778   86.8    .079   55.4    .239  -61.9 !    15.4
 1000    .542 -173.8   4.320   84.4    .084   57.2    .225  -62.9 !    14.4
 1200    .541  178.3   3.629   80.2    .096   60.2    .209  -66.5 !    12.9
 1400    .547  172.6   3.137   76.0    .107   62.3    .204  -70.3 !    11.7
 1600    .547  167.2   2.759   72.4    .120   64.7    .204  -72.2 !    10.5
 1800    .545  161.8   2.491   69.3    .134   65.4    .197  -73.0 !     9.6
 2000    .552  155.9   2.269   66.5    .146   66.6    .182  -76.6 !     8.8
 2200    .567  151.6   2.081   63.6    .160   67.1    .174  -84.9 !     8.2
 2400    .579  148.4   1.894   60.7    .172   68.4    .182  -94.5 !     7.5
 2600    .577  145.3   1.765   58.3    .189   68.6    .204  -99.8 !     6.9
 2800    .572  141.4   1.665   55.1    .202   67.9    .217 -100.8 !     6.4
 3000    .582  136.3   1.570   53.0    .216   68.3    .213 -102.3 !     5.9
! Noise data:
! Freq.     Fmin        Gamma-opt         rn
  900       1.30     .284    125.0       .130
 1000       1.40     .290    134.0       .120
 2000       2.10     .505   -167.0       .110
