! Filename:       BFG541E.S2P         Version:   3.0
! Philips part #: BFG541                                     Date: Feb 1992
! Bias condition: Vce=4V, Ic=40mA
!
#  MHz  S  MA  R  50
! Freq       S11            S21            S12            S22     !GUM [dB]
   40    .375  -56.7  53.699  146.7    .010   74.5    .786  -28.1 !    39.4
  100    .331 -109.6  34.743  120.3    .018   68.1    .513  -47.2 !    32.6
  200    .320 -145.6  19.848  103.5    .030   70.4    .315  -54.5 !    26.9
  300    .322 -161.7  13.707   95.4    .041   72.3    .235  -55.3 !    23.5
  400    .325 -171.6  10.415   90.1    .053   73.4    .195  -55.0 !    21.0
  500    .329 -178.6   8.409   86.1    .065   73.4    .170  -54.9 !    19.1
  600    .331  175.7   7.065   82.4    .077   73.4    .152  -55.3 !    17.6
  700    .332  170.3   6.097   79.2    .089   72.6    .139  -55.9 !    16.3
  800    .334  165.0   5.368   76.1    .101   71.8    .126  -56.6 !    15.2
  900    .339  160.0   4.799   73.3    .113   71.1    .114  -58.2 !    14.2
 1000    .349  155.1   4.329   70.6    .125   70.1    .102  -61.0 !    13.3
 1200    .368  147.5   3.646   65.5    .148   67.8    .081  -69.8 !    11.9
 1400    .388  142.0   3.160   60.4    .170   65.2    .069  -83.6 !    10.7
 1600    .397  136.0   2.788   55.4    .193   63.3    .055  -98.4 !     9.7
 1800    .410  128.9   2.519   50.8    .217   59.9    .039 -122.5 !     8.8
 2000    .437  121.8   2.305   46.2    .238   57.5    .040 -175.2 !     8.2
 2200    .474  116.8   2.123   41.9    .256   54.9    .070  158.3 !     7.7
 2400    .497  113.8   1.946   37.9    .271   53.2    .099  152.7 !     7.1
 2600    .504  110.1   1.819   33.4    .297   49.6    .114  145.1 !     6.5
 2800    .508  103.5   1.694   28.4    .312   45.4    .124  131.0 !     5.9
 3000    .537   96.2   1.619   24.2    .330   43.4    .153  116.2 !     5.8
! Noise data:
! Freq.     Fmin        Gamma-opt         rn
  900       1.90     .455   -168.0       .08
 2000       2.60     .590   -134.0       .25
