! Filename:       BFG590F.S2P                                Version:   4.0
! Philips part #: BFG590                                     Date: Jun 1994
! Bias condition: Vce=4V; Ic=60mA
! 
#  MHz  S  MA  R  50
! Freq       S11            S21            S12            S22     !GUM [dB]
   40    .690  -50.5  39.700  151.4    .016   67.8    .853  -28.5 !    40.4
  100    .635  -99.7  27.454  125.7    .030   50.7    .597  -55.6 !    32.9
  200    .608 -136.6  16.335  106.9    .038   44.9    .367  -76.8 !    26.9
  300    .603 -153.5  11.360   97.8    .044   46.9    .268  -88.3 !    23.4
  400    .604 -163.1   8.672   91.8    .050   50.3    .217  -96.3 !    20.9
  500    .607 -169.8   7.014   87.1    .057   52.7    .189 -102.5 !    19.1
  600    .609 -174.7   5.882   83.2    .064   55.2    .171 -107.5 !    17.5
  700    .608 -178.9   5.077   79.8    .071   57.2    .160 -111.8 !    16.2
  800    .608  177.5   4.469   76.6    .078   58.7    .153 -115.4 !    15.1
  900    .607  174.1   3.999   73.7    .086   59.8    .148 -119.4 !    14.1
 1000    .609  170.9   3.616   70.9    .093   60.5    .146 -123.1 !    13.3
 1200    .616  165.1   3.040   65.9    .108   61.3    .149 -129.6 !    11.8
 1400    .624  160.1   2.629   60.9    .124   61.5    .158 -134.1 !    10.6
 1600    .633  155.5   2.320   55.9    .139   61.1    .166 -137.5 !     9.7
 1800    .641  151.1   2.082   51.5    .154   60.8    .175 -141.2 !     8.8
 2000    .656  146.9   1.895   47.3    .170   60.1    .187 -145.9 !     8.1
 2200    .668  143.6   1.736   43.3    .185   59.3    .204 -150.1 !     7.5
 2400    .674  140.4   1.607   38.8    .200   57.8    .227 -151.9 !     7.0
 2600    .676  136.8   1.499   34.4    .214   55.9    .247 -152.9 !     6.4
 2800    .687  132.7   1.423   30.8    .230   54.6    .260 -154.2 !     6.1
 3000    .709  128.8   1.349   27.3    .247   53.0    .271 -157.4 !     6.0
