! Filename:       BFG540X.S2P        Version:   3.0
! Philips part #: BFG540                                     Date: Feb 1992
! Bias condition: Vce=4V, Ic=50mA
! IN LINE PINNING: same data as with cross emitter pinning.
!
#  MHz  S  MA  R  50
! Freq       S11            S21            S12            S22     !GUM [dB]
   40    .534  -64.6  59.745  149.6    .010   65.9    .792  -32.4 !    41.3
  100    .597 -116.5  40.618  124.2    .017   50.6    .538  -62.4 !    35.6
  200    .636 -148.3  23.837  106.9    .022   47.2    .332  -86.3 !    30.3
  300    .649 -161.6  16.497   99.1    .026   49.4    .249 -100.0 !    27.0
  400    .656 -169.2  12.559   94.2    .030   53.3    .208 -109.3 !    24.6
  500    .658 -174.6  10.137   90.6    .034   56.2    .186 -115.8 !    22.7
  600    .658 -178.8   8.509   87.6    .039   59.4    .171 -120.7 !    21.2
  700    .656  177.6   7.325   85.1    .043   61.4    .159 -124.9 !    19.9
  800    .654  174.2   6.434   82.9    .048   62.9    .151 -128.7 !    18.7
  900    .653  170.9   5.729   80.9    .052   64.7    .146 -132.8 !    17.7
 1000    .654  167.7   5.164   79.1    .057   65.9    .144 -136.8 !    16.8
 1200    .661  162.3   4.312   75.6    .067   67.2    .148 -142.5 !    15.3
 1400    .667  157.9   3.685   71.8    .076   67.4    .156 -144.0 !    14.0
 1600    .666  153.5   3.229   68.5    .086   68.6    .156 -144.2 !    12.8
 1800    .666  148.5   2.912   65.4    .098   68.1    .150 -146.8 !    11.9
 2000    .679  143.3   2.647   62.8    .107   68.5    .150 -153.7 !    11.2
 2200    .696  139.4   2.405   59.8    .116   68.0    .167 -160.2 !    10.6
 2400    .706  136.5   2.166   57.4    .122   68.4    .192 -161.4 !     9.9
 2600    .703  133.7   2.011   54.7    .135   67.1    .211 -158.7 !     9.2
 2800    .696  129.3   1.869   51.0    .144   64.6    .214 -156.1 !     8.5
 3000    .709  124.4   1.763   48.7    .153   64.9    .207 -158.1 !     8.1
