! Filename:       BFG540E.S2P         Version:   3.0
! Philips part #: BFG540                                     Date: Feb 1992
! Bias condition: Vce=4V, Ic=40mA
! IN LINE PINNING: same data as with cross emitter pinning.
!
#  MHz  S  MA  R  50
! Freq       S11            S21            S12            S22     !GUM [dB]
   40    .565  -56.1  55.755  152.1    .010   68.6    .826  -29.6 !    41.6
  100    .602 -108.2  39.714  127.2    .018   51.9    .583  -58.5 !    35.7
  200    .633 -143.2  23.954  108.9    .024   46.1    .364  -82.3 !    30.4
  300    .646 -158.1  16.688  100.5    .028   47.3    .272  -95.8 !    27.1
  400    .652 -166.5  12.742   95.3    .032   51.0    .225 -104.9 !    24.7
  500    .654 -172.3  10.301   91.5    .036   53.9    .198 -111.5 !    22.9
  600    .654 -177.0   8.651   88.4    .040   56.7    .181 -116.4 !    21.3
  700    .652  179.1   7.453   85.8    .044   59.0    .167 -120.7 !    20.0
  800    .650  175.6   6.547   83.5    .048   60.9    .158 -124.6 !    18.8
  900    .649  172.2   5.831   81.5    .053   62.5    .151 -128.8 !    17.8
 1000    .650  168.8   5.261   79.7    .058   63.9    .147 -132.8 !    16.9
 1200    .656  163.2   4.390   76.1    .067   65.5    .150 -139.0 !    15.4
 1400    .663  158.6   3.756   72.3    .076   65.8    .158 -141.1 !    14.1
 1600    .662  154.2   3.288   69.0    .086   67.5    .158 -141.5 !    13.0
 1800    .661  149.2   2.967   65.9    .098   66.9    .151 -144.0 !    12.0
 2000    .674  143.9   2.696   63.2    .107   67.5    .150 -151.1 !    11.3
 2200    .691  139.8   2.449   60.3    .115   67.2    .166 -158.0 !    10.7
 2400    .702  136.9   2.205   57.8    .121   67.7    .191 -159.6 !    10.0
 2600    .698  134.0   2.049   55.1    .134   66.5    .210 -157.1 !     9.3
 2800    .692  129.8   1.907   51.4    .143   64.0    .214 -154.6 !     8.6
 3000    .704  124.8   1.796   49.2    .152   64.5    .207 -156.5 !     8.3
! Noise data:
! Freq.     Fmin        Gamma-opt         rn
  900       1.90     .351    179.0       .11
 2000       2.60     .543   -150.0       .17
