! Filename:       BFG591B.S2P                                Version:   4.0
! Philips part #: BFG591                                     Date: Jun 1994
! Bias condition: Vce=12V; Ic=20mA
! 
#  MHz  S  MA  R  50
! Freq       S11            S21            S12            S22     !GUM [dB]
   40    .683  -32.0  27.549  158.7    .014   75.1    .928  -16.1 !    40.1
  100    .587  -71.0  21.852  135.3    .028   62.6    .749  -32.6 !    32.2
  200    .487 -112.4  14.517  114.0    .041   55.9    .528  -43.5 !    25.8
  300    .450 -136.3  10.482  102.5    .050   56.1    .415  -46.7 !    22.2
  400    .436 -151.9   8.113   94.9    .058   58.1    .354  -47.7 !    19.7
  500    .430 -163.0   6.606   89.4    .067   60.2    .318  -48.6 !    17.7
  600    .428 -171.9   5.598   84.7    .077   61.7    .293  -49.6 !    16.2
  700    .428 -179.3   4.855   80.5    .086   63.1    .274  -51.0 !    14.9
  800    .428  173.8   4.294   76.6    .096   63.9    .260  -52.8 !    13.8
  900    .432  167.3   3.845   72.9    .106   64.7    .247  -55.1 !    12.9
 1000    .439  161.4   3.480   69.8    .116   65.1    .236  -57.9 !    12.0
 1200    .461  151.8   2.948   63.6    .137   65.1    .216  -65.2 !    10.6
 1400    .482  144.1   2.581   57.4    .157   64.3    .203  -73.6 !     9.6
 1600    .491  136.9   2.285   51.4    .181   64.2    .188  -82.6 !     8.5
 1800    .506  128.4   2.077   46.1    .205   61.7    .171  -93.0 !     7.8
 2000    .535  120.3   1.904   40.8    .226   60.6    .155 -109.9 !     7.2
 2200    .574  114.9   1.772   36.1    .246   58.8    .154 -129.9 !     6.8
 2400    .598  111.1   1.622   30.9    .266   58.3    .173 -146.1 !     6.3
 2600    .607  106.1   1.517   26.6    .297   54.9    .186 -159.0 !     5.8
 2800    .613   99.1   1.431   20.8    .316   51.0    .188 -173.1 !     5.3
 3000    .649   91.5   1.365   16.3    .342   49.8    .199  168.7 !     5.2
