! Filename:       BFG590I.S2P         Version:   4.0
! Philips part #: BFG590                                     Date: Jun 1994
! Bias condition: Vce=8V; Ic=10mA
! 
#  MHz  S  MA  R  50
! Freq       S11            S21            S12            S22     !GUM [dB]
   40    .861  -25.8  19.182  163.1    .016   76.7    .955  -12.7 !    42.1
  100    .796  -60.1  16.645  143.1    .034   60.1    .826  -27.7 !    33.8
  200    .706 -100.6  12.336  121.0    .050   45.2    .619  -40.9 !    26.9
  300    .664 -125.0   9.286  108.0    .056   39.8    .493  -46.1 !    23.1
  400    .646 -140.4   7.322   99.4    .060   38.2    .421  -48.3 !    20.5
  500    .640 -151.0   6.031   93.0    .063   38.2    .377  -49.6 !    18.6
  600    .637 -158.8   5.108   87.7    .066   39.6    .349  -50.7 !    17.0
  700    .634 -164.9   4.433   83.3    .069   41.4    .331  -51.8 !    15.7
  800    .631 -170.2   3.910   79.3    .072   43.3    .318  -53.1 !    14.5
  900    .630 -174.9   3.502   75.7    .075   45.9    .308  -54.8 !    13.5
 1000    .631 -179.0   3.174   72.3    .079   47.8    .301  -56.8 !    12.6
 1200    .636  173.6   2.669   66.0    .087   51.9    .293  -61.8 !    11.2
 1400    .644  167.3   2.310   60.2    .097   55.8    .293  -67.6 !    10.0
 1600    .654  161.9   2.039   54.5    .107   58.6    .298  -73.4 !     9.0
 1800    .663  156.7   1.829   49.5    .119   61.1    .302  -79.0 !     8.2
 2000    .678  152.0   1.659   44.7    .133   62.8    .306  -85.6 !     7.5
 2200    .693  147.8   1.513   40.1    .148   64.0    .315  -93.2 !     6.9
 2400    .701  144.3   1.397   35.5    .163   64.1    .337 -100.1 !     6.4
 2600    .705  140.2   1.301   30.8    .180   63.5    .362 -105.8 !     5.9
 2800    .717  135.6   1.224   27.0    .197   63.2    .379 -110.4 !     5.6
 3000    .742  131.4   1.150   23.5    .217   62.2    .389 -115.8 !     5.4
