! Filename:       BFG520WG.S2P       Version:   4.0
! Philips part #: BFG520                                     Date: Jun 1994
! Bias condition: Vce=6.0V, Ic=2.0mA
! IN LINE PINNING: same data as with cross emitter pinning.
!
#  MHz  S  MA  R  50
! Freq       S11            S21            S12            S22     !GUM [dB]
   40    .910   -6.3   6.545  175.2    .009   84.6    .994   -2.7 !    43.2
  100    .900  -15.6   6.446  168.5    .021   81.7    .985   -6.7 !    38.7
  200    .871  -30.7   6.201  158.1    .040   73.5    .956  -12.9 !    32.7
  300    .833  -45.1   5.894  148.2    .057   66.6    .915  -18.3 !    28.4
  400    .794  -58.2   5.467  139.9    .070   61.0    .870  -22.8 !    25.2
  500    .758  -70.0   5.083  132.5    .080   55.9    .825  -26.5 !    22.8
  600    .721  -80.5   4.693  126.0    .089   52.1    .783  -29.4 !    20.7
  700    .691  -89.7   4.344  120.4    .096   49.1    .744  -31.7 !    19.1
  800    .655  -98.2   4.016  115.0    .100   46.8    .711  -33.6 !    17.6
  900    .623 -105.9   3.693  110.1    .103   45.2    .681  -35.2 !    16.2
 1000    .597 -113.4   3.430  106.1    .106   44.1    .654  -36.7 !    15.0
 1200    .554 -127.6   2.991   98.6    .110   42.9    .612  -39.6 !    13.1
 1400    .535 -139.9   2.682   91.7    .113   42.3    .589  -42.4 !    11.9
 1600    .524 -149.7   2.396   86.0    .115   44.5    .575  -44.4 !    10.7
 1800    .507 -158.7   2.169   81.8    .119   46.2    .559  -45.9 !     9.6
 2000    .490 -167.7   1.976   77.7    .121   48.4    .534  -47.9 !     8.6
 2200    .491 -176.8   1.829   73.8    .125   51.0    .512  -51.7 !     7.8
 2400    .504  176.3   1.688   68.8    .127   54.9    .509  -56.7 !     7.1
 2600    .510  170.6   1.566   66.0    .136   58.2    .521  -60.8 !     6.6
 2800    .504  165.3   1.502   62.7    .142   60.5    .530  -62.8 !     6.2
 3000    .505  158.7   1.401   59.6    .150   64.0    .524  -64.6 !     5.6
