! Filename:       BFG505J.S2P        Version:   3.0
! Philips part #: BFG505                                     Date: Feb 1992
! Bias condition: Vce=6V, Ic=3.75mA
! IN LINE PINNING: same data as with cross emitter pinning.
!
#  MHz  S  MA  R  50
! Freq       S11            S21            S12            S22     !GUM [dB]
   40    .934   -4.1   9.293  175.3    .005   86.2    .990   -2.3 !    45.2
  100    .922  -10.3   9.137  169.4    .012   83.4    .983   -5.8 !    42.2
  200    .893  -20.3   8.842  160.5    .023   77.5    .959  -11.3 !    36.8
  300    .853  -30.0   8.572  152.2    .033   72.3    .925  -16.1 !    32.7
  400    .809  -39.4   8.208  145.1    .041   67.6    .886  -20.2 !    29.6
  500    .764  -47.9   7.737  138.8    .048   64.1    .848  -23.8 !    27.1
  600    .719  -55.7   7.327  133.2    .054   61.5    .810  -26.7 !    25.1
  700    .671  -63.4   6.960  127.8    .059   59.3    .775  -28.8 !    23.4
  800    .621  -70.3   6.569  122.6    .064   57.4    .742  -30.6 !    21.9
  900    .574  -76.4   6.135  117.8    .067   55.7    .711  -32.2 !    20.5
 1000    .527  -82.8   5.745  113.6    .071   54.9    .683  -33.6 !    19.3
 1200    .448  -95.7   5.121  106.1    .078   53.6    .641  -36.6 !    17.5
 1400    .396 -108.0   4.652   99.6    .084   53.1    .616  -39.2 !    16.2
 1600    .357 -118.1   4.165   94.1    .089   53.7    .601  -40.8 !    14.9
 1800    .314 -127.1   3.760   90.1    .095   54.2    .582  -41.7 !    13.8
 2000    .271 -138.7   3.424   85.7    .099   54.0    .555  -43.0 !    12.6
 2200    .252 -153.5   3.175   81.8    .105   53.8    .529  -45.9 !    11.7
 2400    .257 -165.2   2.948   76.9    .109   54.2    .518  -50.1 !    11.0
 2600    .260 -172.8   2.715   74.2    .117   55.2    .529  -54.0 !    10.4
 2800    .248 -179.7   2.591   71.3    .124   55.6    .543  -55.8 !    10.1
 3000    .239  168.8   2.403   67.9    .128   56.1    .539  -56.3 !     9.4
! Noise data:
! Freq.     Fmin        Gamma-opt         rn
  900       1.40     .579     17.0       .71
 2000       2.00     .491     43.0       .55
