! Filename:       BFG590D.S2P         Version:   4.0
! Philips part #: BFG590                                     Date: Jun 1994
! Bias condition: Vce=4V; Ic=40mA
! 
#  MHz  S  MA  R  50
! Freq       S11            S21            S12            S22     !GUM [dB]
   40    .706  -45.1  37.111  153.9    .017   70.1    .881  -25.7 !    40.9
  100    .646  -92.6  26.865  128.7    .031   52.6    .643  -51.3 !    33.2
  200    .608 -131.1  16.447  109.1    .040   45.0    .404  -72.1 !    27.1
  300    .600 -149.5  11.539   99.4    .046   46.0    .295  -83.0 !    23.6
  400    .599 -160.0   8.839   93.1    .052   48.5    .237  -90.4 !    21.1
  500    .602 -167.2   7.158   88.2    .058   51.1    .204  -96.1 !    19.2
  600    .603 -172.6   6.008   84.2    .064   53.5    .184 -100.7 !    17.7
  700    .602 -177.0   5.190   80.6    .071   55.5    .170 -104.7 !    16.4
  800    .603  179.1   4.571   77.5    .078   57.1    .160 -108.3 !    15.3
  900    .601  175.6   4.089   74.5    .085   58.3    .154 -112.0 !    14.3
 1000    .603  172.3   3.695   71.6    .092   59.1    .151 -115.6 !    13.4
 1200    .610  166.2   3.105   66.5    .107   60.3    .151 -122.6 !    12.0
 1400    .618  161.2   2.688   61.4    .122   60.8    .159 -127.6 !    10.8
 1600    .626  156.4   2.374   56.5    .137   60.5    .167 -131.3 !     9.8
 1800    .636  151.9   2.129   52.1    .152   60.4    .174 -135.4 !     9.0
 2000    .650  147.8   1.938   47.8    .168   59.9    .186 -140.5 !     8.3
 2200    .662  144.3   1.774   43.7    .182   59.2    .203 -145.1 !     7.7
 2400    .669  141.1   1.643   39.3    .197   57.9    .226 -147.6 !     7.1
 2600    .671  137.6   1.531   34.9    .211   56.1    .247 -149.0 !     6.6
 2800    .682  133.2   1.454   31.3    .227   54.8    .260 -150.4 !     6.3
 3000    .704  129.4   1.377   27.8    .244   53.3    .271 -153.8 !     6.1
