! Filename:       BFG520F.S2P           Version:   2.1
! Philips part #: BFG520                                     Date: Feb 1992
! Bias condition: Vce=3V, Ic=30mA
! IN LINE PINNING: same data as with cross emitter pinning.
#  MHz  S  MA  R  50
! Freq       S11            S21            S12            S22     !GUM [dB]
   40    .405  -37.6  38.295  163.1    .007   75.3    .907  -12.4 !    40.0
  100    .445  -80.9  32.269  142.8    .013   64.8    .781  -27.2 !    35.2
  200    .494 -120.9  22.824  122.3    .021   54.9    .583  -39.4 !    30.2
  300    .523 -141.4  16.960  110.8    .024   52.4    .465  -43.3 !    27.0
  400    .534 -153.3  13.272  103.6    .027   54.0    .399  -44.2 !    24.7
  500    .541 -161.4  10.877   98.4    .031   55.0    .357  -44.3 !    22.8
  600    .544 -167.4   9.206   94.4    .034   57.2    .331  -43.7 !    21.3
  700    .542 -172.3   7.970   91.1    .037   59.0    .314  -43.5 !    20.0
  800    .541 -177.1   7.019   88.2    .041   61.1    .300  -43.2 !    18.8
  900    .541  178.5   6.255   85.6    .044   63.2    .290  -43.4 !    17.8
 1000    .541  174.6   5.650   83.4    .048   64.8    .280  -44.1 !    16.9
 1200    .551  167.7   4.721   79.1    .055   66.4    .269  -46.6 !    15.4
 1400    .558  162.5   4.070   74.9    .062   67.7    .266  -50.1 !    14.1
 1600    .558  157.8   3.553   71.2    .070   69.7    .270  -52.3 !    13.0
 1800    .555  152.0   3.172   67.8    .079   69.5    .270  -53.4 !    12.0
 2000    .564  146.1   2.871   64.8    .086   70.9    .256  -55.5 !    11.1
 2200    .584  141.4   2.622   61.9    .094   71.0    .241  -61.8 !    10.4
 2400    .602  138.4   2.383   58.5    .100   72.0    .245  -70.4 !     9.8
 2600    .602  135.8   2.189   56.0    .111   71.6    .269  -76.2 !     9.1
 2800    .595  131.8   2.055   52.6    .119   69.8    .285  -77.6 !     8.5
 3000    .602  126.5   1.912   49.8    .126   70.8    .281  -78.9 !     7.9
