! Filename:       BFG540L.S2P       Version:   3.0
! Philips part #: BFG540                                     Date: Feb 1992
! Bias condition: Vce=8V, Ic=50mA
! IN LINE PINNING: same data as with cross emitter pinning.
!
#  MHz  S  MA  R  50
! Freq       S11            S21            S12            S22     !GUM [dB]
   40    .668  -49.0  56.198  152.8    .011   68.1    .805  -27.9 !    42.1
  100    .638  -98.7  40.134  128.1    .020   51.1    .576  -55.6 !    36.1
  200    .628 -136.4  24.336  109.6    .025   45.6    .361  -78.3 !    30.5
  300    .629 -153.2  16.979  101.0    .029   46.7    .267  -90.7 !    27.1
  400    .630 -162.7  12.976   95.7    .033   49.8    .218  -99.0 !    24.7
  500    .631 -169.2  10.494   91.8    .037   52.5    .190 -104.9 !    22.8
  600    .629 -174.2   8.814   88.7    .041   55.7    .171 -109.5 !    21.2
  700    .627 -178.5   7.593   86.0    .046   57.7    .157 -113.2 !    19.9
  800    .625  177.7   6.670   83.7    .050   59.5    .146 -116.8 !    18.7
  900    .622  174.1   5.941   81.6    .054   61.2    .139 -120.9 !    17.7
 1000    .624  170.6   5.357   79.8    .059   62.5    .134 -124.9 !    16.8
 1200    .628  164.6   4.474   76.1    .068   64.1    .136 -131.6 !    15.3
 1400    .635  159.8   3.829   72.3    .077   64.6    .143 -134.1 !    14.0
 1600    .635  155.3   3.350   68.9    .087   66.1    .143 -134.2 !    12.8
 1800    .634  150.1   3.020   65.6    .099   65.7    .136 -136.3 !    11.9
 2000    .646  144.7   2.745   62.9    .107   66.1    .133 -143.6 !    11.2
 2200    .663  140.5   2.495   60.0    .116   65.6    .147 -151.8 !    10.6
 2400    .676  137.6   2.247   57.4    .122   66.2    .172 -154.3 !     9.8
 2600    .675  134.7   2.086   54.7    .135   65.1    .193 -151.8 !     9.2
 2800    .667  130.4   1.944   51.0    .144   62.9    .198 -148.9 !     8.5
 3000    .678  125.4   1.827   48.7    .152   63.3    .191 -150.3 !     8.1
