! Filename:       BFG520E.S2P           Version:   2.1
! Philips part #: BFG520                                     Date: Feb 1992
! Bias condition: Vce=3V, Ic=20mA
! IN LINE PINNING: same data as with cross emitter pinning.
#  MHz  S  MA  R  50
! Freq       S11            S21            S12            S22     !GUM [dB]
   40    .503  -25.2  34.613  166.5    .006   78.4    .950  -10.3 !    42.1
  100    .501  -59.1  30.839  149.3    .014   68.8    .858  -23.8 !    36.8
  200    .501  -98.9  23.669  129.5    .023   57.2    .679  -37.9 !    31.4
  300    .508 -123.2  18.370  117.0    .028   53.0    .547  -44.6 !    28.1
  400    .513 -138.4  14.678  109.0    .032   52.7    .463  -47.8 !    25.7
  500    .516 -148.9  12.176  103.2    .035   52.1    .406  -49.3 !    23.8
  600    .517 -156.7  10.381   98.7    .039   53.2    .368  -49.6 !    22.3
  700    .515 -162.8   9.027   95.0    .041   54.8    .340  -49.8 !    21.0
  800    .512 -168.5   7.974   91.8    .044   56.8    .319  -49.7 !    19.8
  900    .509 -173.8   7.115   89.0    .048   59.0    .303  -49.8 !    18.8
 1000    .508 -178.5   6.434   86.7    .051   59.8    .289  -50.4 !    17.8
 1200    .516  173.3   5.390   82.2    .058   62.2    .270  -52.6 !    16.3
 1400    .525  167.2   4.652   77.9    .064   63.3    .264  -55.5 !    15.1
 1600    .525  162.0   4.064   74.1    .072   65.7    .264  -57.0 !    13.9
 1800    .523  155.7   3.634   70.8    .080   65.8    .261  -57.4 !    12.9
 2000    .528  149.4   3.289   67.8    .087   67.1    .244  -59.1 !    12.0
 2200    .550  144.1   3.006   64.9    .095   67.2    .228  -65.1 !    11.4
 2400    .566  140.9   2.729   61.6    .101   68.4    .232  -73.7 !    10.6
 2600    .570  138.0   2.511   59.0    .111   68.4    .254  -79.0 !    10.0
 2800    .564  134.1   2.359   55.8    .119   67.2    .270  -80.0 !     9.4
 3000    .570  128.4   2.196   53.0    .125   67.9    .265  -80.8 !     8.8
! Noise data:
! Freq.     Fmin        Gamma-opt         rn
  500       1.45     .103     38.0       .210
  900       1.60     .104     84.0       .220
 1000       1.65     .118     84.0       .240
 2000       2.20     .231   -177.0       .160
