! Filename:       BFG520WI.S2P    Version:   4.0
! Philips part #: BFG520                                     Date: Jun 1994
! Bias condition: Vce=6.0V, Ic=10.0mA
! IN LINE PINNING: same data as with cross emitter pinning.
!
#  MHz  S  MA  R  50
! Freq       S11            S21            S12            S22     !GUM [dB]
   40    .708  -14.4  23.393  169.7    .008   82.4    .971   -7.3 !    42.8
  100    .673  -35.0  21.817  156.0    .017   74.3    .916  -17.1 !    37.3
  200    .592  -64.3  18.217  138.0    .031   64.2    .782  -29.1 !    31.2
  300    .525  -87.4  14.967  125.3    .039   58.4    .662  -35.9 !    27.4
  400    .481 -104.4  12.359  116.5    .045   57.5    .573  -39.6 !    24.7
  500    .454 -117.6  10.462  110.0    .050   57.3    .509  -41.3 !    22.7
  600    .432 -128.0   9.030  105.0    .055   57.4    .464  -41.9 !    21.1
  700    .415 -136.1   7.920  101.0    .059   58.7    .429  -42.0 !    19.7
  800    .401 -143.3   7.032   97.5    .064   60.3    .403  -41.7 !    18.5
  900    .388 -150.5   6.300   94.5    .069   61.8    .382  -41.6 !    17.4
 1000    .378 -156.6   5.714   92.1    .073   63.2    .363  -41.8 !    16.4
 1200    .373 -168.0   4.816   87.4    .084   65.1    .337  -42.8 !    14.8
 1400    .413 -123.0   4.173   82.9    .089   67.0    .326  -44.6 !    13.7
 1600    .375  177.7   3.678   79.4    .105   68.8    .322  -45.3 !    12.4
 1800    .368  170.6   3.300   76.4    .117   69.4    .315  -45.3 !    11.5
 2000    .368  162.9   2.997   73.6    .128   70.3    .296  -45.9 !    10.6
 2200    .383  156.5   2.751   70.9    .140   70.6    .277  -49.3 !     9.8
 2400    .401  152.7   2.518   67.7    .150   72.0    .271  -55.5 !     9.1
 2600    .405  149.8   2.335   65.6    .166   72.3    .282  -60.5 !     8.5
 2800    .398  146.0   2.208   62.8    .177   71.9    .294  -62.2 !     8.0
 3000    .404  140.2   2.068   60.4    .189   72.3    .290  -62.5 !     7.5
