! Filename:       BFG520WH.S2P       Version:   4.0
! Philips part #: BFG520                                     Date: Jun 1994
! Bias condition: Vce=6.0V, Ic=5.0mA
! IN LINE PINNING: same data as with cross emitter pinning.
!
#  MHz  S  MA  R  50
! Freq       S11            S21            S12            S22     !GUM [dB]
   40    .815   -9.9  14.350  172.6    .008   84.3    .986   -4.8 !    43.4
  100    .794  -24.3  13.829  162.6    .020   78.0    .959  -11.7 !    38.1
  200    .734  -46.6  12.533  147.9    .036   67.8    .880  -21.4 !    31.8
  300    .669  -66.2  11.099  135.7    .048   60.8    .792  -28.3 !    27.8
  400    .613  -82.1   9.649  126.5    .056   56.6    .713  -33.1 !    24.8
  500    .572  -95.7   8.480  119.2    .062   53.8    .648  -36.3 !    22.7
  600    .538 -106.6   7.495  113.2    .067   52.4    .596  -38.2 !    20.9
  700    .512 -115.7   6.695  108.3    .071   51.5    .553  -39.3 !    19.4
  800    .484 -124.0   6.017  104.0    .075   52.0    .522  -40.1 !    18.1
  900    .462 -131.5   5.427  100.2    .079   52.6    .492  -40.6 !    16.9
 1000    .445 -138.5   4.954   97.1    .082   53.6    .469  -41.2 !    15.9
 1200    .425 -151.6   4.213   91.4    .089   55.4    .435  -42.8 !    14.3
 1400    .421 -161.8   3.692   86.1    .096   57.1    .418  -44.8 !    13.0
 1600    .417 -169.7   3.258   81.8    .104   60.1    .409  -45.8 !    11.9
 1800    .406 -177.5   2.930   78.3    .114   61.5    .398  -46.4 !    10.9
 2000    .400  174.2   2.661   75.1    .122   63.6    .377  -47.4 !     9.9
 2200    .411  166.6   2.449   72.0    .132   64.6    .356  -50.9 !     9.2
 2400    .428  161.5   2.246   68.3    .142   67.0    .352  -56.3 !     8.5
 2600    .434  157.8   2.082   65.9    .155   68.5    .363  -60.8 !     7.9
 2800    .427  153.3   1.978   62.9    .165   68.8    .374  -62.4 !     7.5
 3000    .431  147.1   1.848   60.2    .175   70.0    .368  -63.4 !     6.9
