! Filename:       BFG540WI.S2P     Version:   4.0
! Philips part #: BFG540                                     Date: Jun 1994
! Bias condition: Vce=8.0V, Ic=20.0mA
! IN LINE PINNING: same data as with cross emitter pinning.
!
#  MHz  S  MA  R  50
! Freq       S11            S21            S12            S22     !GUM [dB]
   40    .743  -31.6  37.206  158.9    .013   73.5    .894  -19.6 !    41.9
  100    .661  -71.4  30.032  137.1    .025   58.9    .705  -41.5 !    35.0
  200    .575 -113.8  20.390  116.4    .034   51.5    .467  -59.3 !    29.0
  300    .546 -135.8  14.720  106.2    .041   51.8    .344  -67.5 !    25.4
  400    .536 -148.8  11.396  100.0    .046   54.2    .275  -72.0 !    22.9
  500    .531 -157.4   9.279   95.5    .052   56.7    .233  -74.5 !    21.0
  600    .526 -163.8   7.832   92.1    .059   59.2    .204  -75.9 !    19.5
  700    .521 -168.8   6.767   89.2    .065   61.4    .183  -76.8 !    18.1
  800    .517 -173.3   5.958   86.8    .071   63.1    .165  -77.7 !    17.0
  900    .512 -177.6   5.311   84.6    .077   64.8    .151  -79.1 !    15.9
 1000    .511  178.5   4.799   82.7    .085   66.1    .140  -81.1 !    15.0
 1200    .514  172.1   4.022   79.2    .099   67.6    .128  -86.8 !    13.5
 1400    .520  166.9   3.463   75.5    .113   68.5    .128  -91.3 !    12.2
 1600    .521  162.5   3.046   72.2    .127   69.8    .127  -92.4 !    11.1
 1800    .517  157.3   2.751   69.4    .143   69.2    .119  -92.4 !    10.2
 2000    .525  151.9   2.510   66.9    .158   69.4    .107  -98.2 !     9.4
 2200    .541  147.7   2.297   64.3    .172   69.2    .105 -111.1 !     8.8
 2400    .552  145.1   2.088   61.8    .185   69.7    .120 -121.6 !     8.0
 2600    .550  142.4   1.949   59.5    .203   69.2    .141 -123.6 !     7.4
 2800    .545  138.7   1.833   56.3    .217   67.7    .152 -121.5 !     6.9
 3000    .554  133.7   1.733   54.4    .230   67.4    .145 -122.8 !     6.5
! Noise data:
! Freq.     Fmin        Gamma-opt         rn
  900       1.50     .232    140.0       .140
 2000       2.20     .490   -163.0       .110
