! Filename:       BFG541K.S2P      Version:   3.0
! Philips part #: BFG541                                     Date: Feb 1992
! Bias condition: Vce=8V, Ic=40mA
!
#  MHz  S  MA  R  50
! Freq       S11            S21            S12            S22     !GUM [dB]
   40    .449  -48.1  54.881  147.6    .010   73.6    .778  -26.5 !    39.8
  100    .351  -97.1  36.115  121.5    .018   67.0    .519  -45.1 !    33.1
  200    .304 -135.7  20.825  104.4    .030   69.2    .324  -52.1 !    27.3
  300    .296 -154.6  14.414   96.2    .041   71.4    .245  -52.6 !    23.8
  400    .296 -166.0  10.964   90.9    .053   72.6    .205  -52.1 !    21.4
  500    .296 -174.1   8.852   86.8    .065   72.9    .180  -51.9 !    19.5
  600    .297  179.5   7.438   83.2    .076   72.6    .163  -52.1 !    17.9
  700    .298  173.6   6.422   80.0    .088   72.4    .149  -52.5 !    16.7
  800    .299  168.0   5.654   76.9    .100   71.6    .137  -52.9 !    15.5
  900    .303  162.5   5.052   74.2    .112   70.7    .125  -54.3 !    14.6
 1000    .313  157.3   4.558   71.5    .123   69.8    .113  -56.4 !    13.7
 1200    .334  149.2   3.835   66.5    .146   67.6    .091  -64.0 !    12.2
 1400    .353  143.4   3.326   61.5    .168   65.2    .077  -75.2 !    11.0
 1600    .364  137.6   2.936   56.6    .191   63.2    .061  -86.6 !    10.0
 1800    .376  130.2   2.653   52.1    .214   60.0    .042 -102.8 !     9.1
 2000    .402  122.8   2.425   47.6    .234   57.6    .032 -156.4 !     8.5
 2200    .440  117.9   2.236   43.3    .253   55.0    .057  164.5 !     7.9
 2400    .466  114.9   2.049   39.2    .268   53.2    .086  156.7 !     7.3
 2600    .474  111.4   1.913   34.8    .293   49.7    .101  148.5 !     6.8
 2800    .477  105.0   1.786   30.0    .308   45.7    .109  133.1 !     6.2
 3000    .506   97.4   1.705   25.7    .326   43.6    .137  116.9 !     6.0
! Noise data:
! Freq.     Fmin        Gamma-opt         rn
  900       1.90     .397   -174.0       .08
 2000       2.60     .530   -138.0       .21
