! Filename:       BFG520WF.S2P         Version:   4.0
! Philips part #: BFG520                                     Date: Jun 1994
! Bias condition: Vce=3.0V, Ic=30.0mA
! IN LINE PINNING: same data as with cross emitter pinning.
!
#  MHz  S  MA  R  50
! Freq       S11            S21            S12            S22     !GUM [dB]
   40    .395  -37.1  37.912  161.3    .008   76.0    .899  -13.1 !    39.5
  100    .404  -80.3  30.923  139.8    .014   67.5    .755  -27.5 !    34.2
  200    .415 -120.6  21.049  119.5    .023   61.6    .553  -37.2 !    28.9
  300    .426 -141.0  15.378  108.8    .027   62.5    .445  -38.8 !    25.6
  400    .429 -152.7  11.947  102.2    .033   65.5    .388  -38.2 !    23.1
  500    .432 -160.5   9.754   97.5    .039   67.0    .353  -37.2 !    21.3
  600    .432 -166.2   8.240   94.0    .044   69.2    .332  -35.9 !    19.7
  700    .429 -170.8   7.128   91.0    .050   70.8    .318  -35.2 !    18.4
  800    .427 -175.4   6.276   88.4    .056   72.3    .307  -34.5 !    17.3
  900    .426 -179.6   5.597   86.1    .062   73.8    .299  -34.3 !    16.2
 1000    .425  176.6   5.059   84.2    .068   74.8    .290  -34.5 !    15.3
 1200    .433  170.1   4.238   80.4    .080   75.8    .280  -36.2 !    13.8
 1400    .439  165.4   3.665   76.7    .093   76.6    .275  -38.9 !    12.6
 1600    .439  161.2   3.213   73.5    .106   77.7    .278  -40.8 !    11.4
 1800    .435  155.7   2.880   70.5    .119   77.1    .277  -41.6 !    10.4
 2000    .442  150.0   2.617   67.9    .132   77.5    .263  -42.7 !     9.6
 2200    .459  145.6   2.402   65.4    .146   77.1    .245  -47.3 !     8.9
 2400    .476  143.2   2.201   62.5    .158   77.8    .241  -55.1 !     8.2
 2600    .476  141.1   2.036   60.4    .175   77.6    .256  -61.3 !     7.6
 2800    .468  137.7   1.922   57.6    .187   76.4    .269  -63.0 !     7.1
 3000    .474  132.6   1.801   55.3    .199   76.4    .264  -64.0 !     6.5
