! Filename:       BFG591D.S2P                                Version:   4.0
! Philips part #: BFG591                                     Date: Jun 1994
! Bias condition: Vce=12V; Ic=40mA
! 
#  MHz  S  MA  R  50
! Freq       S11            S21            S12            S22     !GUM [dB]
   40    .615  -37.0  34.619  155.5    .013   74.4    .901  -19.6 !    40.1
  100    .515  -79.2  25.732  130.9    .026   62.9    .686  -38.0 !    32.3
  200    .430 -120.1  16.185  110.6    .038   59.0    .457  -49.4 !    26.1
  300    .404 -142.5  11.478  100.1    .048   60.7    .348  -52.6 !    22.5
  400    .396 -156.9   8.825   93.3    .058   62.5    .290  -53.5 !    20.0
  500    .393 -167.1   7.163   88.2    .069   64.4    .255  -54.4 !    18.1
  600    .392 -175.2   6.053   83.9    .080   65.2    .231  -55.4 !    16.6
  700    .393  177.9   5.241   80.0    .091   65.9    .213  -56.6 !    15.3
  800    .394  171.4   4.627   76.3    .102   66.2    .199  -58.3 !    14.2
  900    .398  165.2   4.142   73.0    .113   66.4    .186  -60.7 !    13.2
 1000    .406  159.6   3.748   69.9    .124   66.3    .174  -63.8 !    12.4
 1200    .429  150.4   3.171   64.0    .147   65.3    .154  -72.0 !    11.0
 1400    .451  143.2   2.767   58.1    .168   63.7    .141  -81.8 !     9.9
 1600    .460  136.4   2.450   52.4    .193   62.8    .126  -92.5 !     8.9
 1800    .475  128.2   2.226   47.2    .217   59.9    .110 -105.6 !     8.1
 2000    .504  120.1   2.040   42.1    .238   58.3    .100 -129.9 !     7.5
 2200    .545  114.9   1.892   37.5    .257   56.2    .111 -154.8 !     7.1
 2400    .568  111.3   1.736   32.8    .275   55.3    .136 -169.5 !     6.6
 2600    .579  106.6   1.626   28.3    .304   51.8    .152  178.8 !     6.1
 2800    .585   99.7   1.528   22.8    .322   47.9    .160  164.4 !     5.6
 3000    .620   92.2   1.463   18.2    .345   46.5    .180  147.2 !     5.6
