! Filename:       BFG505B.S2P        Version:   3.0
! Philips part #: BFG505                                     Date: Feb 1992
! Bias condition: Vce=3V, Ic=1.25mA
! IN LINE PINNING: same data as with cross emitter pinning.
!
#  MHz  S  MA  R  50
! Freq       S11            S21            S12            S22     !GUM [dB]
   40    .975   -2.4   3.440  177.1    .005   86.8    .996   -1.4 !    44.5
  100    .971   -6.1   3.404  173.4    .012   86.1    .995   -3.4 !    43.0
  200    .961  -12.0   3.359  167.5    .025   82.1    .988   -6.8 !    38.0
  300    .948  -18.1   3.363  161.6    .036   78.2    .978  -10.1 !    34.2
  400    .930  -24.2   3.329  156.4    .047   74.4    .966  -13.2 !    30.8
  500    .911  -29.8   3.238  151.7    .058   70.9    .952  -16.1 !    28.2
  600    .892  -34.9   3.125  147.2    .067   68.3    .936  -19.0 !    25.9
  700    .871  -40.3   3.069  143.2    .076   65.3    .918  -21.4 !    23.9
  800    .843  -45.5   3.021  138.5    .083   62.2    .897  -23.8 !    22.1
  900    .812  -50.3   2.917  133.8    .090   59.6    .877  -26.0 !    20.3
 1000    .780  -55.4   2.821  129.8    .096   57.1    .856  -28.2 !    18.8
 1200    .714  -65.8   2.685  122.2    .108   53.1    .821  -32.6 !    16.6
 1400    .658  -76.5   2.621  114.7    .118   49.8    .795  -36.3 !    15.2
 1600    .610  -86.0   2.478  107.8    .124   47.8    .775  -39.2 !    13.9
 1800    .560  -93.6   2.305  102.9    .129   46.5    .747  -41.4 !    12.4
 2000    .492 -102.5   2.167   96.9    .132   44.1    .713  -43.8 !    11.0
 2200    .440 -113.9   2.074   91.6    .137   41.8    .684  -47.4 !    10.0
 2400    .415 -125.2   1.975   84.8    .140   40.2    .671  -51.7 !     9.3
 2600    .403 -134.2   1.845   81.3    .146   40.6    .679  -55.3 !     8.8
 2800    .380 -141.2   1.800   77.5    .151   40.5    .687  -57.2 !     8.6
 3000    .348 -150.4   1.677   73.2    .151   40.5    .676  -58.4 !     7.7
! Noise data:
! Freq.     Fmin        Gamma-opt         rn
  900       1.20     .652     20.0       .81
 2000       1.90     .546     48.0       .59
