! Filename:       BFG541A.S2P       Version:   3.0
! Philips part #: BFG541                                     Date: Feb 1992
! Bias condition: Vce=4V, Ic=4mA
! 
#  MHz  S  MA  R  50
! Freq       S11            S21            S12            S22     !GUM [dB]
   40    .891  -14.3  10.848  168.0    .014   81.7    .977   -7.6 !    41.0
  100    .844  -34.5  10.107  153.7    .033   70.1    .918  -18.0 !    33.5
  200    .742  -65.7   8.907  135.0    .054   57.6    .777  -30.2 !    26.5
  300    .652  -91.7   7.631  120.5    .067   50.2    .661  -37.0 !    22.5
  400    .591 -111.9   6.419  109.9    .075   46.4    .578  -41.2 !    19.8
  500    .552 -128.0   5.492  101.9    .081   45.0    .519  -43.9 !    17.7
  600    .525 -141.0   4.800   95.2    .086   44.9    .476  -45.9 !    16.1
  700    .506 -152.0   4.237   89.6    .091   45.4    .445  -47.7 !    14.8
  800    .493 -161.6   3.786   84.6    .095   46.2    .420  -49.3 !    13.6
  900    .485 -170.2   3.411   80.1    .100   47.6    .399  -51.2 !    12.6
 1000    .485 -178.3   3.094   76.1    .105   48.9    .381  -53.4 !    11.7
 1200    .491  168.3   2.637   68.9    .116   51.6    .353  -58.6 !    10.2
 1400    .504  157.9   2.325   61.8    .128   53.6    .335  -65.0 !     9.1
 1600    .510  148.5   2.053   55.3    .143   56.6    .318  -71.4 !     8.0
 1800    .521  139.0   1.866   50.2    .161   56.9    .298  -78.3 !     7.2
 2000    .545  130.2   1.713   44.6    .178   58.0    .274  -88.0 !     6.5
 2200    .576  123.5   1.600   39.4    .196   57.8    .260 -101.0 !     6.1
 2400    .594  118.6   1.456   33.6    .212   58.6    .262 -114.2 !     5.5
 2600    .595  113.1   1.356   29.7    .242   56.8    .264 -125.1 !     4.9
 2800    .597  105.4   1.289   23.8    .262   53.9    .253 -135.7 !     4.4
 3000    .626   97.3   1.220   19.5    .287   53.2    .237 -151.2 !     4.1
