! Filename:       BFG505G.S2P       Version:   3.0
! Philips part #: BFG505                                     Date: Feb 1992
! Bias condition: Vce=6V, Ic=0.50mA
! IN LINE PINNING: same data as with cross emitter pinning.
!
#  MHz  S  MA  R  50
! Freq       S11            S21            S12            S22     !GUM [dB]
   40    .992   -1.7   1.318  178.0    .005   88.3    .998   -1.0 !    44.1
  100    .989   -4.1   1.305  175.2    .012   86.6    .997   -2.4 !    41.3
  200    .985   -8.3   1.297  170.6    .024   84.4    .995   -4.8 !    37.8
  300    .982  -12.4   1.313  166.1    .036   81.4    .993   -7.1 !    35.2
  400    .974  -16.7   1.317  161.9    .048   78.7    .989   -9.5 !    31.9
  500    .967  -20.7   1.301  158.0    .059   76.1    .985  -11.7 !    29.4
  600    .960  -24.4   1.259  154.2    .070   74.0    .980  -13.9 !    27.0
  700    .951  -28.3   1.248  150.6    .080   71.3    .974  -16.1 !    24.9
  800    .938  -32.1   1.250  146.6    .089   68.8    .964  -18.2 !    22.7
  900    .921  -35.8   1.228  142.2    .099   66.0    .955  -20.2 !    20.5
 1000    .902  -39.6   1.206  138.3    .107   63.7    .944  -22.3 !    18.6
 1200    .864  -47.5   1.186  131.0    .124   59.4    .929  -26.7 !    16.1
 1400    .831  -55.7   1.199  124.1    .141   55.6    .915  -30.6 !    14.5
 1600    .801  -63.6   1.190  117.2    .151   52.0    .904  -34.0 !    13.3
 1800    .763  -69.8   1.127  112.1    .159   49.7    .882  -36.8 !    11.4
 2000    .703  -77.1   1.100  105.6    .166   45.4    .852  -40.1 !     9.4
 2200    .649  -85.8   1.086   99.9    .176   41.6    .828  -44.2 !     8.1
 2400    .613  -95.4   1.079   92.0    .183   37.8    .821  -48.7 !     7.6
 2600    .598 -103.5   1.028   87.9    .190   37.1    .831  -52.5 !     7.3
 2800    .574 -109.9   1.033   83.9    .198   36.1    .838  -54.7 !     7.3
 3000    .529 -116.9    .980   78.8    .196   34.1    .823  -56.6 !     6.2
