! Filename:       BFG590K.S2P           Version:   4.0
! Philips part #: BFG590                                     Date: Jun 1994
! Bias condition: Vce=8V; Ic=30mA
! 
#  MHz  S  MA  R  50
! Freq       S11            S21            S12            S22     !GUM [dB]
   40    .785  -36.0  33.080  157.6    .015   72.8    .910  -20.0 !    42.2
  100    .698  -78.3  25.655  133.8    .030   55.5    .709  -41.1 !    34.1
  200    .619 -118.6  16.574  113.0    .041   45.8    .469  -57.9 !    27.6
  300    .594 -139.7  11.830  102.3    .047   44.7    .348  -65.1 !    23.9
  400    .587 -152.3   9.126   95.3    .051   46.3    .281  -69.0 !    21.4
  500    .586 -160.8   7.420   90.0    .057   48.4    .241  -71.6 !    19.5
  600    .584 -167.0   6.240   85.7    .062   50.7    .216  -73.6 !    17.9
  700    .583 -172.1   5.395   81.9    .068   52.9    .198  -75.5 !    16.6
  800    .582 -176.5   4.753   78.6    .074   54.6    .186  -77.2 !    15.5
  900    .581  179.6   4.249   75.4    .080   56.2    .177  -79.4 !    14.5
 1000    .582  176.0   3.845   72.5    .086   57.3    .170  -82.0 !    13.6
 1200    .589  169.3   3.231   67.1    .099   59.1    .164  -88.0 !    12.2
 1400    .597  163.8   2.793   61.8    .113   60.2    .167  -94.1 !    11.0
 1600    .606  158.8   2.466   56.8    .127   60.6    .173  -99.3 !    10.0
 1800    .615  154.2   2.213   52.1    .140   61.1    .178 -104.4 !     9.1
 2000    .630  149.9   2.013   47.8    .155   61.0    .184 -111.0 !     8.4
 2200    .643  146.2   1.840   43.5    .169   60.7    .197 -118.1 !     7.8
 2400    .652  143.0   1.703   39.0    .184   59.7    .220 -123.2 !     7.2
 2600    .655  139.4   1.589   34.5    .198   58.3    .243 -126.7 !     6.7
 2800    .667  135.0   1.502   30.8    .213   57.4    .259 -129.3 !     6.4
 3000    .689  131.1   1.420   27.2    .230   56.1    .269 -133.5 !     6.2
