! Filename:       BFG540WE.S2P       Version:   4.0
! Philips part #: BFG540                                     Date: Jun 1994
! Bias condition: Vce=4.0V, Ic=40.0mA
! IN LINE PINNING: same data as with cross emitter pinning.
!
#  MHz  S  MA  R  50
! Freq       S11            S21            S12            S22     !GUM [dB]
   40    .541  -56.2  54.477  149.7    .010   69.5    .806  -30.2 !    40.8
  100    .529 -108.3  37.127  124.4    .019   56.9    .541  -56.7 !    34.3
  200    .530 -143.1  21.809  107.1    .026   56.5    .322  -75.3 !    28.7
  300    .535 -157.7  15.086   99.4    .033   60.0    .232  -84.6 !    25.3
  400    .537 -165.8  11.490   94.7    .040   64.0    .185  -90.5 !    22.8
  500    .537 -171.3   9.280   91.3    .048   66.6    .157  -94.6 !    20.9
  600    .536 -175.7   7.792   88.5    .055   68.8    .139  -97.6 !    19.4
  700    .533 -179.4   6.715   86.1    .062   70.3    .124 -100.1 !    18.1
  800    .531  177.4   5.903   84.1    .069   71.5    .114 -102.9 !    16.9
  900    .529  174.2   5.263   82.3    .078   72.2    .105 -106.3 !    15.9
 1000    .530  170.9   4.754   80.6    .086   72.7    .098 -110.3 !    15.0
 1200    .535  165.7   3.980   77.4    .102   73.3    .096 -118.5 !    13.5
 1400    .541  161.6   3.421   74.0    .117   73.1    .102 -122.5 !    12.2
 1600    .540  157.7   3.008   71.1    .133   73.7    .101 -122.9 !    11.1
 1800    .537  153.1   2.723   68.3    .151   72.5    .093 -124.7 !    10.2
 2000    .547  148.1   2.485   66.0    .166   72.1    .087 -134.6 !     9.5
 2200    .562  144.4   2.272   63.4    .181   71.3    .098 -147.0 !     8.8
 2400    .573  141.9   2.065   61.2    .194   71.3    .120 -151.8 !     8.1
 2600    .568  139.5   1.931   58.9    .213   70.3    .137 -149.1 !     7.5
 2800    .563  135.9   1.811   55.8    .227   68.5    .143 -145.7 !     6.9
 3000    .571  131.1   1.716   53.9    .241   68.0    .135 -148.1 !     6.5
! Noise data:
! Freq.     Fmin        Gamma-opt         rn
  900       1.90     .351    179.0       .110
 2000       2.60     .543   -150.0       .170
