! Filename:       BFG540WA.S2P    Version:   4.0
! Philips part #: BFG540                                     Date: Jun 1994
! Bias condition: Vce=4.0V, Ic=4.0mA
! IN LINE PINNING: same data as with cross emitter pinning.
!
#  MHz  S  MA  R  50
! Freq       S11            S21            S12            S22     !GUM [dB]
   40    .907  -14.2  10.687  169.3    .015   82.1    .980   -7.3 !    42.1
  100    .872  -34.4   9.997  156.1    .035   70.3    .927  -17.3 !    34.7
  200    .805  -65.2   8.913  138.7    .058   56.0    .796  -29.9 !    27.9
  300    .745  -90.2   7.707  125.2    .071   47.2    .681  -37.3 !    24.0
  400    .711 -108.9   6.559  115.5    .079   42.0    .595  -41.6 !    21.3
  500    .686 -123.3   5.660  108.2    .084   39.4    .533  -44.3 !    19.3
  600    .667 -134.2   4.953  102.2    .087   38.3    .490  -45.8 !    17.6
  700    .653 -142.8   4.383   97.5    .090   37.8    .459  -46.8 !    16.3
  800    .640 -150.0   3.915   93.3    .091   38.2    .434  -47.7 !    15.0
  900    .630 -156.1   3.514   89.7    .093   39.0    .414  -48.7 !    13.9
 1000    .623 -161.9   3.191   86.7    .095   40.5    .398  -50.0 !    13.0
 1200    .618 -171.5   2.700   81.1    .098   43.8    .378  -53.5 !    11.4
 1400    .622 -179.0   2.357   75.8    .103   46.9    .371  -57.4 !    10.2
 1600    .622  174.6   2.075   71.2    .109   51.6    .371  -60.4 !     9.1
 1800    .621  168.5   1.874   67.8    .117   54.6    .365  -62.8 !     8.2
 2000    .628  162.3   1.706   64.4    .126   58.4    .351  -66.9 !     7.4
 2200    .640  157.1   1.570   61.1    .136   61.6    .341  -73.3 !     6.7
 2400    .652  153.2   1.432   57.3    .147   65.3    .348  -80.9 !     6.1
 2600    .651  149.5   1.328   55.0    .162   67.4    .370  -86.8 !     5.5
 2800    .647  145.0   1.262   51.6    .175   68.4    .388  -89.8 !     5.1
 3000    .659  139.6   1.182   49.3    .191   70.1    .385  -92.9 !     4.6
