! Filename:       BFG540WF.S2P     Version:   4.0
! Philips part #: BFG540                                     Date: Jun 1994
! Bias condition: Vce=4.0V, Ic=50.0mA
! IN LINE PINNING: same data as with cross emitter pinning.
!
#  MHz  S  MA  R  50
! Freq       S11            S21            S12            S22     !GUM [dB]
   40    .506  -64.6  58.165  147.1    .010   67.2    .770  -32.9 !    40.5
  100    .520 -116.8  37.825  121.5    .018   56.5    .497  -60.0 !    34.2
  200    .532 -148.3  21.690  105.3    .025   58.4    .292  -78.3 !    28.6
  300    .538 -161.3  14.924   98.2    .032   62.3    .209  -87.7 !    25.2
  400    .541 -168.5  11.339   93.7    .039   66.1    .167  -93.9 !    22.7
  500    .542 -173.6   9.147   90.5    .046   68.5    .144  -98.3 !    20.8
  600    .541 -177.5   7.677   87.8    .055   70.6    .128 -101.4 !    19.3
  700    .538  179.1   6.612   85.5    .062   71.9    .115 -104.1 !    17.9
  800    .536  175.9   5.812   83.5    .070   72.6    .105 -106.9 !    16.8
  900    .535  172.8   5.181   81.7    .077   73.5    .098 -110.8 !    15.8
 1000    .535  169.8   4.676   80.1    .086   73.9    .093 -115.3 !    14.9
 1200    .541  164.8   3.918   76.9    .102   74.2    .092 -123.4 !    13.4
 1400    .546  160.9   3.364   73.5    .117   74.0    .099 -126.6 !    12.1
 1600    .545  157.0   2.961   70.6    .134   74.2    .099 -126.8 !    11.0
 1800    .543  152.4   2.679   67.9    .151   73.1    .091 -129.0 !    10.1
 2000    .553  147.4   2.446   65.6    .166   72.6    .087 -139.1 !     9.4
 2200    .568  144.0   2.237   62.9    .182   71.6    .099 -150.8 !     8.7
 2400    .578  141.5   2.033   60.8    .196   71.5    .121 -154.7 !     8.0
 2600    .574  139.2   1.901   58.5    .215   70.6    .139 -151.7 !     7.4
 2800    .568  135.4   1.781   55.3    .229   68.7    .143 -148.1 !     6.8
 3000    .578  130.7   1.690   53.4    .243   68.1    .135 -150.6 !     6.4
