! Filename:       BFG520C.S2P         Version:   2.1
! Philips part #: BFG520                                     Date: Feb 1992
! Bias condition: Vce=3V, Ic=10mA
! IN LINE PINNING: same data as with cross emitter pinning.
#  MHz  S  MA  R  50
! Freq       S11            S21            S12            S22     !GUM [dB]
   40    .668  -15.5  23.878  170.3    .007   81.8    .977   -7.2 !    43.5
  100    .648  -38.0  22.433  157.3    .017   73.4    .926  -17.5 !    37.9
  200    .608  -69.8  19.090  139.8    .029   61.1    .801  -30.4 !    32.1
  300    .578  -94.6  15.944  126.9    .037   53.9    .684  -38.7 !    28.6
  400    .559 -112.5  13.292  117.8    .042   50.3    .592  -43.8 !    26.0
  500    .548 -126.0  11.320  110.9    .045   47.5    .524  -46.9 !    24.0
  600    .538 -136.3   9.809  105.5    .049   46.9    .473  -48.6 !    22.4
  700    .530 -144.3   8.626  101.0    .051   47.1    .434  -49.7 !    21.1
  800    .521 -151.7   7.669   97.2    .054   47.8    .405  -50.4 !    19.8
  900    .513 -158.5   6.874   93.9    .056   49.0    .380  -51.1 !    18.7
 1000    .507 -164.4   6.235   91.1    .059   50.2    .360  -51.9 !    17.8
 1200    .509 -174.9   5.249   85.9    .064   51.5    .332  -54.1 !    16.2
 1400    .517  177.1   4.552   80.9    .069   53.0    .320  -56.9 !    15.0
 1600    .517  170.7   3.987   76.8    .075   56.2    .316  -58.3 !    13.8
 1800    .513  163.7   3.566   73.2    .082   57.1    .308  -58.9 !    12.8
 2000    .514  156.4   3.228   70.0    .087   59.0    .289  -60.4 !    11.9
 2200    .534  150.2   2.952   66.8    .094   59.6    .270  -65.9 !    11.2
 2400    .553  146.2   2.680   63.2    .098   61.3    .273  -73.3 !    10.5
 2600    .559  143.0   2.469   60.5    .108   61.9    .294  -78.0 !     9.9
 2800    .551  138.8   2.324   57.2    .115   61.5    .308  -79.1 !     9.3
 3000    .557  132.8   2.162   54.2    .121   62.8    .302  -80.1 !     8.7
! Noise data:
! Freq.     Fmin        Gamma-opt         rn
  500       1.10     .260     27.0       .220
  900       1.25     .231     54.0       .220
 1000       1.30     .240     58.0       .240
 2000       1.90     .245    148.0       .140
