! Filename:       BFG591E.S2P                                Version:   4.0
! Philips part #: BFG591                                     Date: Jun 1994
! Bias condition: Vce=12V; Ic=50mA
! 
#  MHz  S  MA  R  50
! Freq       S11            S21            S12            S22     !GUM [dB]
   40    .602  -38.4  36.340  154.7    .013   74.4    .893  -20.6 !    40.1
  100    .501  -81.3  26.554  129.7    .026   62.7    .670  -39.4 !    32.3
  200    .420 -121.9  16.503  109.8    .038   59.5    .440  -50.9 !    26.1
  300    .397 -144.1  11.661   99.5    .048   61.3    .333  -54.1 !    22.6
  400    .388 -158.0   8.950   92.9    .059   63.3    .275  -55.0 !    20.1
  500    .387 -168.1   7.258   87.9    .070   65.3    .241  -55.9 !    18.2
  600    .386 -176.0   6.129   83.6    .081   65.9    .218  -57.0 !    16.7
  700    .387  177.3   5.304   79.8    .092   66.5    .199  -58.3 !    15.4
  800    .388  170.9   4.683   76.2    .103   66.6    .185  -59.9 !    14.3
  900    .393  164.7   4.193   72.9    .114   66.7    .172  -62.4 !    13.3
 1000    .401  159.1   3.793   69.9    .126   66.5    .161  -65.6 !    12.5
 1200    .423  150.1   3.208   64.0    .149   65.2    .141  -74.4 !    11.1
 1400    .445  143.0   2.797   58.2    .171   63.5    .128  -84.8 !    10.0
 1600    .455  136.0   2.477   52.5    .195   62.5    .113  -96.2 !     8.9
 1800    .470  128.0   2.251   47.3    .220   59.5    .098 -110.9 !     8.2
 2000    .498  120.0   2.063   42.3    .240   57.9    .092 -137.5 !     7.6
 2200    .539  114.8   1.911   37.7    .260   55.6    .106 -162.6 !     7.2
 2400    .564  111.3   1.754   33.2    .278   54.7    .133 -176.2 !     6.6
 2600    .575  106.6   1.644   28.6    .307   51.1    .150  172.8 !     6.2
 2800    .582   99.8   1.544   23.1    .323   47.2    .159  158.7 !     5.7
 3000    .616   92.3   1.479   18.5    .346   45.7    .181  142.2 !     5.6
