! Filename:       BFG505A.S2P        Version:   3.0
! Philips part #: BFG505                                     Date: Feb 1992
! Bias condition: Vce=3V, Ic=.50mA
! IN LINE PINNING: same data as with cross emitter pinning.
!
#  MHz  S  MA  R  50
! Freq       S11            S21            S12            S22     !GUM [dB]
   40    .990   -1.7   1.390  177.9    .005   87.1    .998   -1.0 !    43.7
  100    .988   -4.3   1.380  175.0    .012   87.2    .997   -2.5 !    41.0
  200    .984   -8.6   1.371  170.3    .025   84.3    .995   -4.9 !    38.3
  300    .980  -12.9   1.383  165.7    .037   81.3    .992   -7.4 !    35.0
  400    .972  -17.4   1.385  161.5    .049   78.2    .988   -9.7 !    31.6
  500    .964  -21.5   1.366  157.4    .060   75.7    .984  -12.1 !    29.1
  600    .957  -25.4   1.324  153.5    .072   73.4    .978  -14.4 !    26.8
  700    .947  -29.4   1.311  149.8    .082   70.6    .971  -16.5 !    24.6
  800    .932  -33.4   1.312  145.8    .091   67.9    .961  -18.7 !    22.3
  900    .916  -37.2   1.292  141.4    .101   65.2    .950  -20.7 !    20.3
 1000    .896  -41.1   1.268  137.5    .109   62.7    .939  -22.9 !    18.4
 1200    .855  -49.4   1.245  130.1    .127   58.4    .923  -27.3 !    15.9
 1400    .821  -57.8   1.255  123.0    .143   54.4    .907  -31.3 !    14.4
 1600    .789  -66.0   1.242  116.1    .153   50.8    .896  -34.6 !    13.2
 1800    .751  -72.5   1.176  111.0    .161   48.5    .873  -37.5 !    11.2
 2000    .691  -80.0   1.143  104.5    .168   44.3    .843  -40.7 !     9.3
 2200    .636  -89.1   1.126   98.6    .177   40.5    .819  -44.9 !     8.1
 2400    .602  -99.0   1.113   90.8    .183   36.7    .809  -49.3 !     7.5
 2600    .588 -107.3   1.059   86.6    .190   36.0    .820  -53.1 !     7.2
 2800    .564 -113.7   1.062   82.6    .197   34.9    .826  -55.4 !     7.2
 3000    .520 -121.3   1.008   77.5    .194   33.1    .811  -57.2 !     6.1
