! Filename:       BFG591F.S2P                                Version:   4.0
! Philips part #: BFG591                                     Date: Jun 1994
! Bias condition: Vce=12V; Ic=60mA
! 
#  MHz  S  MA  R  50
! Freq       S11            S21            S12            S22     !GUM [dB]
   40    .594  -39.5  37.544  154.0    .013   73.9    .886  -21.2 !    40.1
  100    .493  -82.9  27.081  128.9    .025   62.1    .656  -40.5 !    32.3
  200    .414 -123.4  16.680  109.2    .037   60.1    .427  -51.8 !    26.1
  300    .392 -145.1  11.753   99.1    .048   62.1    .321  -55.0 !    22.6
  400    .385 -159.0   9.012   92.5    .058   64.0    .265  -56.0 !    20.1
  500    .384 -168.7   7.304   87.6    .070   65.6    .232  -56.9 !    18.2
  600    .383 -176.7   6.167   83.4    .081   66.2    .209  -58.0 !    16.7
  700    .383  176.6   5.336   79.6    .092   66.7    .190  -59.3 !    15.4
  800    .385  170.4   4.711   76.1    .104   66.9    .176  -61.0 !    14.3
  900    .390  164.2   4.213   72.8    .116   66.9    .164  -63.6 !    13.3
 1000    .398  158.7   3.815   69.8    .127   66.5    .152  -66.9 !    12.5
 1200    .421  149.8   3.225   64.0    .151   65.4    .133  -76.0 !    11.1
 1400    .443  142.7   2.811   58.2    .172   63.4    .120  -87.0 !    10.0
 1600    .453  135.9   2.490   52.5    .197   62.3    .105  -98.9 !     9.0
 1800    .468  127.9   2.261   47.3    .221   59.3    .090 -114.9 !     8.2
 2000    .496  119.9   2.073   42.3    .242   57.5    .087 -143.3 !     7.6
 2200    .537  114.7   1.918   37.8    .261   55.3    .104 -168.0 !     7.2
 2400    .562  111.1   1.762   33.3    .279   54.3    .132  179.4 !     6.6
 2600    .573  106.5   1.652   28.7    .308   50.7    .149  168.9 !     6.2
 2800    .580   99.8   1.551   23.2    .324   46.8    .160  155.0 !     5.7
 3000    .614   92.1   1.485   18.6    .347   45.3    .183  139.0 !     5.6
