! Filename:       BFG540C.S2P         Version:   3.0
! Philips part #: BFG540                                     Date: Feb 1992
! Bias condition: Vce=4V, Ic=20mA
! IN LINE PINNING: same data as with cross emitter pinning.
!
#  MHz  S  MA  R  50
! Freq       S11            S21            S12            S22     !GUM [dB]
   40    .680  -35.9  39.017  159.1    .012   73.1    .903  -21.0 !    41.8
  100    .658  -80.2  31.861  137.5    .023   56.1    .716  -44.9 !    35.6
  200    .650 -123.4  21.805  116.5    .032   44.4    .480  -66.6 !    30.3
  300    .652 -143.9  15.757  106.0    .036   41.8    .358  -78.4 !    26.9
  400    .656 -155.6  12.204   99.5    .039   42.9    .289  -86.0 !    24.6
  500    .657 -163.5   9.939   94.9    .042   44.6    .248  -91.4 !    22.7
  600    .656 -169.4   8.383   91.2    .045   47.4    .220  -95.4 !    21.1
  700    .653 -174.4   7.240   88.2    .049   49.2    .199  -98.6 !    19.8
  800    .651 -178.7   6.368   85.5    .052   51.2    .183 -101.7 !    18.6
  900    .648  177.4   5.675   83.2    .056   53.4    .171 -105.2 !    17.6
 1000    .650  173.6   5.117   81.2    .059   55.2    .163 -108.8 !    16.7
 1200    .654  167.1   4.276   77.2    .067   57.7    .158 -115.6 !    15.2
 1400    .661  162.0   3.664   73.2    .075   59.1    .164 -119.4 !    13.9
 1600    .662  157.2   3.206   69.6    .084   61.6    .164 -120.4 !    12.7
 1800    .661  151.9   2.891   66.3    .094   61.9    .157 -122.3 !    11.8
 2000    .672  146.3   2.623   63.5    .102   63.2    .152 -129.0 !    11.1
 2200    .690  142.0   2.385   60.5    .110   63.4    .162 -137.9 !    10.5
 2400    .700  138.9   2.149   57.7    .116   64.5    .186 -142.5 !     9.7
 2600    .698  135.7   1.994   55.0    .128   63.8    .211 -141.9 !     9.1
 2800    .693  131.4   1.857   51.3    .137   61.9    .219 -140.0 !     8.4
 3000    .704  126.3   1.747   48.9    .145   62.8    .214 -141.5 !     8.0
! Noise data:
! Freq.     Fmin        Gamma-opt         rn
  900       1.50     .281    159.0       .11
 2000       2.20     .518   -157.0       .12
