! Filename:       BFG520K.S2P      Version:   2.1
! Philips part #: BFG520                                     Date: Feb 1992
! Bias condition: Vce=6V, Ic=20mA
! IN LINE PINNING: same data as with cross emitter pinning.
#  MHz  S  MA  R  50
! Freq       S11            S21            S12            S22     !GUM [dB]
   40    .592  -20.9  34.283  167.4    .007   78.3    .953   -9.5 !    43.0
  100    .572  -49.9  31.035  151.5    .014   70.8    .874  -22.2 !    37.8
  200    .536  -87.3  24.483  132.1    .024   59.1    .706  -36.1 !    32.2
  300    .518 -112.5  19.296  119.4    .030   53.3    .576  -43.6 !    28.8
  400    .508 -129.0  15.549  111.2    .033   52.2    .488  -47.4 !    26.3
  500    .506 -140.8  12.978  105.2    .036   51.5    .428  -49.4 !    24.4
  600    .500 -149.6  11.093  100.5    .040   52.5    .387  -50.1 !    22.9
  700    .496 -156.3   9.666   96.7    .042   53.6    .356  -50.3 !    21.5
  800    .490 -162.7   8.549   93.4    .045   55.7    .333  -50.3 !    20.3
  900    .485 -168.6   7.631   90.6    .049   57.7    .313  -50.5 !    19.3
 1000    .482 -173.7   6.909   88.2    .052   58.5    .298  -50.9 !    18.3
 1200    .488  177.1   5.790   83.6    .059   60.8    .276  -53.2 !    16.8
 1400    .496  170.4   5.002   79.3    .065   61.9    .269  -56.0 !    15.5
 1600    .497  164.8   4.374   75.5    .072   64.3    .268  -57.0 !    14.4
 1800    .493  158.1   3.910   72.2    .081   64.6    .263  -57.2 !    13.4
 2000    .496  151.4   3.537   69.3    .088   66.0    .245  -58.9 !    12.5
 2200    .519  145.7   3.233   66.4    .095   65.7    .229  -64.6 !    11.8
 2400    .539  142.3   2.936   63.1    .101   67.1    .231  -72.8 !    11.1
 2600    .543  139.4   2.705   60.6    .111   67.1    .252  -78.3 !    10.4
 2800    .535  135.4   2.542   57.5    .118   66.0    .267  -79.3 !     9.9
 3000    .541  129.7   2.367   54.6    .125   66.9    .263  -79.7 !     9.3
! Noise data:
! Freq.     Fmin        Gamma-opt         rn
  500       1.45     .204     28.0       .250
  900       1.60     .183     56.0       .260
 1000       1.65     .190     61.0       .270
 2000       2.20     .216    156.0       .170
