! Filename:       BFG505H.S2P       Version:   3.0
! Philips part #: BFG505                                     Date: Feb 1992
! Bias condition: Vce=6V, Ic=1.25mA
! IN LINE PINNING: same data as with cross emitter pinning.
!
#  MHz  S  MA  R  50
! Freq       S11            S21            S12            S22     !GUM [dB]
   40    .978   -2.4   3.335  177.2    .005   88.0    .996   -1.3 !    45.4
  100    .974   -5.8   3.334  173.6    .012   86.2    .994   -3.3 !    42.8
  200    .965  -11.5   3.289  167.9    .024   82.4    .989   -6.6 !    38.4
  300    .953  -17.2   3.266  162.3    .036   78.6    .980   -9.8 !    34.7
  400    .937  -22.9   3.241  157.3    .046   75.2    .969  -12.7 !    31.4
  500    .919  -28.2   3.152  152.7    .056   71.9    .957  -15.7 !    28.8
  600    .900  -33.3   3.084  148.2    .066   69.3    .942  -18.4 !    26.5
  700    .879  -38.4   3.021  144.2    .074   66.2    .924  -20.9 !    24.4
  800    .853  -43.3   2.963  139.8    .082   63.5    .905  -23.2 !    22.5
  900    .822  -48.2   2.902  135.1    .089   60.8    .885  -25.5 !    20.8
 1000    .791  -53.0   2.807  131.0    .095   58.3    .865  -27.7 !    19.2
 1200    .726  -62.9   2.679  123.5    .107   54.5    .831  -32.3 !    16.9
 1400    .672  -73.1   2.616  116.2    .118   51.2    .804  -35.9 !    15.5
 1600    .625  -82.0   2.471  109.4    .124   48.9    .786  -38.7 !    14.2
 1800    .574  -89.3   2.295  104.6    .130   47.6    .758  -41.0 !    12.7
 2000    .507  -97.6   2.160   98.6    .133   45.0    .723  -43.6 !    11.2
 2200    .452 -108.2   2.071   93.3    .138   42.7    .692  -47.2 !    10.1
 2400    .422 -119.3   1.979   86.5    .141   40.9    .679  -51.4 !     9.5
 2600    .408 -128.3   1.854   82.9    .147   41.3    .686  -55.1 !     8.9
 2800    .382 -135.1   1.818   79.1    .153   41.3    .694  -57.0 !     8.7
 3000    .346 -144.0   1.699   74.8    .153   41.1    .683  -58.1 !     7.9
! Noise data:
! Freq.     Fmin        Gamma-opt         rn
  900       1.20     .664     20.0       .87
 2000       1.90     .550     46.0       .68
