! Filename:       BFG505C.S2P        Version:   3.0
! Philips part #: BFG505                                     Date: Feb 1992
! Bias condition: Vce=3V, Ic=2.5mA
! IN LINE PINNING: same data as with cross emitter pinning.
!
#  MHz  S  MA  R  50
! Freq       S11            S21            S12            S22     !GUM [dB]
   40    .949   -3.5   6.588  176.1    .005   86.6    .993   -2.0 !    45.1
  100    .942   -8.7   6.499  170.9    .012   83.9    .988   -4.9 !    42.0
  200    .920  -17.1   6.337  163.0    .024   79.0    .972   -9.5 !    36.8
  300    .892  -25.6   6.226  155.7    .035   74.1    .949  -13.8 !    32.8
  400    .858  -33.9   6.046  149.3    .045   69.6    .922  -17.6 !    29.6
  500    .823  -41.3   5.771  143.5    .053   65.8    .893  -21.1 !    27.1
  600    .788  -48.4   5.529  138.3    .060   62.9    .862  -24.1 !    25.0
  700    .750  -55.5   5.338  133.3    .066   60.0    .830  -26.5 !    23.2
  800    .706  -62.1   5.126  128.1    .071   57.6    .801  -28.6 !    21.6
  900    .663  -68.1   4.858  123.3    .076   55.6    .772  -30.5 !    20.2
 1000    .619  -74.2   4.605  119.0    .080   53.8    .745  -32.3 !    18.9
 1200    .539  -86.9   4.210  111.0    .088   51.6    .702  -35.9 !    16.9
 1400    .480  -99.2   3.910  103.9    .094   49.9    .675  -38.8 !    15.6
 1600    .436 -109.5   3.550   97.7    .099   49.6    .656  -40.9 !    14.4
 1800    .388 -118.1   3.232   93.3    .104   49.8    .633  -42.1 !    13.1
 2000    .337 -129.1   2.967   88.3    .107   49.2    .604  -43.8 !    11.9
 2200    .307 -142.7   2.770   83.9    .112   48.6    .577  -46.9 !    11.0
 2400    .304 -154.6   2.585   78.5    .115   48.6    .566  -51.0 !    10.3
 2600    .304 -163.0   2.386   75.5    .123   49.7    .576  -54.8 !     9.7
 2800    .288 -170.1   2.291   72.2    .129   50.2    .588  -56.5 !     9.4
 3000    .275  179.0   2.125   68.6    .131   51.1    .582  -57.3 !     8.7
! Noise data:
! Freq.     Fmin        Gamma-opt         rn
  900       1.30     .583     19.0       .69
 2000       1.90     .473     45.0       .55
