! Filename:       BFG540H.S2P        Version:   3.0
! Philips part #: BFG540                                     Date: Feb 1992
! Bias condition: Vce=8V, Ic=10mA
! IN LINE PINNING: same data as with cross emitter pinning.
!
#  MHz  S  MA  R  50
! Freq       S11            S21            S12            S22     !GUM [dB]
   40    .837  -21.1  23.102  165.5    .013   77.7    .949  -12.6 !    42.6
  100    .794  -50.1  20.741  149.2    .028   63.4    .848  -28.9 !    36.2
  200    .729  -90.2  16.884  128.9    .042   48.5    .652  -46.8 !    30.2
  300    .695 -116.5  13.347  115.9    .050   41.2    .514  -56.9 !    26.7
  400    .681 -133.3  10.752  107.4    .054   37.8    .424  -62.9 !    24.2
  500    .673 -145.0   8.943  101.3    .056   37.0    .366  -66.8 !    22.3
  600    .667 -153.6   7.640   96.5    .059   37.2    .326  -69.4 !    20.7
  700    .660 -160.5   6.649   92.6    .061   37.8    .295  -71.2 !    19.3
  800    .655 -166.3   5.872   89.3    .063   38.6    .272  -72.7 !    18.1
  900    .649 -171.4   5.240   86.4    .065   40.0    .253  -74.4 !    17.0
 1000    .647 -176.3   4.732   83.8    .067   41.5    .238  -76.4 !    16.1
 1200    .648  175.5   3.964   79.1    .072   44.3    .223  -81.4 !    14.6
 1400    .655  169.2   3.412   74.4    .077   46.4    .221  -85.8 !    13.3
 1600    .656  163.4   2.987   70.3    .083   49.8    .222  -87.8 !    12.2
 1800    .655  157.6   2.686   66.8    .091   51.4    .216  -89.4 !    11.2
 2000    .665  151.4   2.434   63.6    .096   53.8    .204  -94.2 !    10.4
 2200    .682  146.7   2.218   60.3    .102   55.1    .203 -102.6 !     9.8
 2400    .694  143.1   1.999   56.9    .106   57.1    .220 -110.2 !     9.1
 2600    .693  139.5   1.848   54.1    .117   57.8    .248 -113.6 !     8.5
 2800    .688  135.0   1.731   50.2    .124   57.1    .263 -114.0 !     7.9
 3000    .701  129.7   1.619   47.7    .131   58.9    .261 -115.5 !     7.4
! Noise data:
! Freq.     Fmin        Gamma-opt         rn
  900       1.30     .284    125.0       .13
 1000       1.40     .290    134.0       .12
 2000       2.10     .505   -167.0       .11
