! Filename:       BFG591J.S2P                                Version:   4.0
! Philips part #: BFG591                                     Date: Jun 1994
! Bias condition: Vce=12V; Ic=100mA
! 
#  MHz  S  MA  R  50
! Freq       S11            S21            S12            S22     !GUM [dB]
   40    .586  -43.0  39.594  152.1    .013   71.7    .864  -22.9 !    39.7
  100    .483  -88.3  27.598  126.5    .025   61.5    .620  -42.6 !    32.1
  200    .413 -128.3  16.609  107.3    .037   60.2    .395  -53.3 !    26.0
  300    .395 -149.0  11.619   97.7    .048   62.5    .296  -56.0 !    22.4
  400    .390 -162.0   8.886   91.4    .059   64.8    .244  -56.8 !    20.0
  500    .389 -171.2   7.192   86.6    .070   66.2    .213  -57.6 !    18.1
  600    .390 -178.8   6.069   82.5    .082   66.7    .192  -58.7 !    16.5
  700    .391  174.9   5.246   78.8    .093   67.2    .175  -60.1 !    15.3
  800    .393  168.8   4.631   75.3    .105   67.2    .161  -61.9 !    14.2
  900    .398  162.8   4.145   72.0    .117   67.2    .149  -64.7 !    13.2
 1000    .406  157.6   3.753   69.0    .129   66.7    .138  -68.4 !    12.4
 1200    .430  148.8   3.169   63.3    .153   65.3    .119  -78.3 !    11.0
 1400    .452  141.9   2.760   57.5    .174   63.4    .107  -90.2 !     9.9
 1600    .461  135.2   2.446   51.9    .200   62.1    .094 -103.6 !     8.8
 1800    .476  127.1   2.223   46.7    .224   59.0    .081 -121.9 !     8.1
 2000    .506  119.3   2.037   41.6    .245   57.1    .083 -152.1 !     7.5
 2200    .546  114.0   1.884   37.1    .264   54.9    .104 -175.6 !     7.1
 2400    .570  110.5   1.732   32.6    .282   53.9    .132  173.4 !     6.6
 2600    .581  105.9   1.623   28.0    .311   50.2    .151  163.3 !     6.1
 2800    .587   99.1   1.520   22.5    .327   46.2    .164  150.1 !     5.6
 3000    .622   91.6   1.458   18.0    .350   44.7    .189  135.0 !     5.6
