! Filename:       BFG590H.S2P                                Version:   4.0
! Philips part #: BFG590                                     Date: Jun 1994
! Bias condition: Vce=4V; Ic=80mA
! 
#  MHz  S  MA  R  50
! Freq       S11            S21            S12            S22     !GUM [dB]
   40    .676  -57.9  39.387  148.4    .018   65.4    .814  -31.4 !    39.3
  100    .638 -108.2  26.029  122.3    .030   48.1    .545  -58.9 !    32.1
  200    .622 -142.5  15.116  104.6    .038   43.7    .328  -79.4 !    26.2
  300    .622 -157.8  10.442   96.0    .043   46.6    .239  -90.3 !    22.8
  400    .624 -166.5   7.950   90.2    .049   50.7    .196  -98.2 !    20.3
  500    .627 -172.6   6.418   85.7    .056   53.3    .172 -104.0 !    18.4
  600    .629 -177.1   5.379   81.9    .063   55.7    .158 -108.8 !    16.9
  700    .628  179.0   4.642   78.5    .070   57.6    .149 -112.8 !    15.6
  800    .629  175.5   4.086   75.4    .078   59.2    .144 -116.3 !    14.5
  900    .628  172.3   3.650   72.4    .085   60.3    .141 -120.0 !    13.5
 1000    .629  169.3   3.303   69.6    .093   61.1    .140 -123.6 !    12.7
 1200    .638  163.6   2.777   64.5    .108   61.9    .146 -129.8 !    11.2
 1400    .646  158.7   2.404   59.4    .124   62.1    .157 -134.0 !    10.1
 1600    .654  154.3   2.123   54.5    .140   61.6    .167 -137.3 !     9.1
 1800    .662  149.9   1.908   50.0    .155   61.3    .177 -141.1 !     8.3
 2000    .677  145.9   1.736   45.8    .171   60.5    .190 -145.7 !     7.6
 2200    .688  142.5   1.591   41.6    .186   59.7    .209 -149.7 !     7.0
 2400    .694  139.4   1.473   37.2    .202   58.2    .233 -151.7 !     6.5
 2600    .697  135.8   1.373   32.8    .216   56.2    .254 -152.9 !     5.9
 2800    .706  131.5   1.302   29.2    .232   54.8    .268 -154.4 !     5.6
 3000    .729  127.7   1.236   25.8    .249   53.2    .280 -157.6 !     5.5
