! Filename:       BFG520WE.S2P       Version:   4.0
! Philips part #: BFG520                                     Date: Jun 1994
! Bias condition: Vce=3.0V, Ic=20.0mA
! IN LINE PINNING: same data as with cross emitter pinning.
#  MHz  S  MA  R  50
! Freq       S11            S21            S12            S22     !GUM [dB]
   40    .497  -25.1  34.360  164.8    .007   78.9    .944  -11.0 !    41.6
  100    .469  -58.7  29.784  146.1    .015   70.3    .833  -24.5 !    35.7
  200    .429  -97.9  21.908  126.1    .025   62.2    .640  -36.7 !    30.0
  300    .413 -121.9  16.600  114.2    .031   61.2    .513  -41.0 !    26.5
  400    .406 -136.9  13.110  106.9    .037   62.9    .437  -42.2 !    24.1
  500    .402 -147.3  10.804  101.7    .042   63.8    .388  -42.1 !    22.1
  600    .399 -154.8   9.176   97.7    .048   65.3    .357  -41.2 !    20.6
  700    .394 -160.7   7.962   94.4    .052   67.4    .335  -40.4 !    19.3
  800    .390 -166.2   7.026   91.6    .058   69.1    .318  -39.6 !    18.1
  900    .386 -171.4   6.270   89.1    .065   70.7    .305  -39.1 !    17.1
 1000    .384 -176.1   5.671   87.1    .070   71.4    .294  -39.1 !    16.2
 1200    .389  175.9   4.759   83.2    .083   73.0    .277  -40.1 !    14.6
 1400    .396  170.3   4.117   79.4    .094   73.8    .271  -42.2 !    13.4
 1600    .396  165.6   3.610   76.1    .107   75.2    .270  -43.4 !    12.2
 1800    .393  159.5   3.238   73.3    .119   74.8    .268  -43.4 !    11.3
 2000    .396  153.3   2.941   70.7    .132   75.1    .252  -44.0 !    10.4
 2200    .414  148.2   2.700   68.2    .146   74.7    .233  -48.0 !     9.7
 2400    .429  145.6   2.469   65.4    .158   75.5    .228  -55.6 !     9.0
 2600    .433  143.3   2.287   63.2    .174   75.5    .242  -61.4 !     8.3
 2800    .426  139.9   2.159   60.6    .186   74.6    .255  -62.9 !     7.8
 3000    .431  134.4   2.023   58.3    .197   74.5    .250  -63.4 !     7.3
