! Filename:       BFG520WL.S2P    Version:   4.0
! Philips part #: BFG520                                     Date: Jun 1994
! Bias condition: Vce=6.0V, Ic=30.0mA
! IN LINE PINNING: same data as with cross emitter pinning.
!
#  MHz  S  MA  R  50
! Freq       S11            S21            S12            S22     !GUM [dB]
   40    .524  -26.6  39.127  163.2    .007   77.4    .925  -11.8 !    41.6
  100    .483  -61.4  33.091  143.5    .015   69.2    .800  -25.6 !    36.0
  200    .426 -100.6  23.511  123.2    .024   62.1    .600  -36.7 !    30.2
  300    .401 -124.3  17.480  111.8    .029   61.9    .481  -39.8 !    26.8
  400    .391 -138.7  13.690  105.0    .035   64.0    .413  -40.1 !    24.3
  500    .386 -148.7  11.247  100.1    .040   65.9    .371  -39.4 !    22.4
  600    .380 -156.2   9.516   96.3    .045   67.8    .345  -38.3 !    20.8
  700    .375 -161.8   8.245   93.3    .051   69.6    .326  -37.3 !    19.5
  800    .370 -167.3   7.265   90.6    .056   71.3    .313  -36.4 !    18.3
  900    .367 -172.4   6.476   88.3    .063   72.4    .302  -35.8 !    17.3
 1000    .364 -177.1   5.859   86.4    .070   73.2    .291  -35.7 !    16.4
 1200    .370  175.0   4.909   82.6    .082   74.2    .278  -36.9 !    14.8
 1400    .376  169.6   4.245   79.0    .094   75.0    .272  -39.2 !    13.6
 1600    .377  164.9   3.722   75.8    .106   76.4    .273  -40.4 !    12.4
 1800    .372  158.8   3.337   73.1    .119   75.8    .271  -40.5 !    11.4
 2000    .377  152.5   3.028   70.6    .131   76.0    .256  -41.1 !    10.6
 2200    .395  147.3   2.779   68.2    .145   75.5    .238  -45.0 !     9.9
 2400    .412  144.9   2.544   65.4    .157   76.3    .232  -52.2 !     9.2
 2600    .414  142.9   2.357   63.3    .173   76.2    .244  -58.2 !     8.5
 2800    .406  139.3   2.222   60.7    .185   75.1    .258  -60.0 !     8.0
 3000    .413  133.9   2.083   58.4    .196   75.1    .254  -60.4 !     7.5
