! Filename:       BFG520WK.S2P    Version:   4.0
! Philips part #: BFG520                                     Date: Jun 1994
! Bias condition: Vce=6.0V, Ic=20.0mA
! IN LINE PINNING: same data as with cross emitter pinning.
!
#  MHz  S  MA  R  50
! Freq       S11            S21            S12            S22     !GUM [dB]
   40    .586  -21.1  34.050  165.8    .008   78.7    .947  -10.2 !    42.3
  100    .543  -49.9  30.029  148.2    .015   71.8    .850  -23.1 !    36.6
  200    .467  -86.2  22.662  128.3    .026   63.2    .665  -35.3 !    30.7
  300    .424 -110.6  17.385  116.2    .033   60.5    .537  -40.3 !    27.1
  400    .401 -126.8  13.818  108.7    .037   61.9    .457  -42.0 !    24.6
  500    .390 -138.4  11.440  103.3    .042   62.9    .406  -42.3 !    22.7
  600    .380 -146.9   9.732   99.1    .048   64.5    .372  -41.6 !    21.1
  700    .373 -153.4   8.456   95.8    .053   66.2    .347  -40.8 !    19.8
  800    .365 -159.7   7.468   92.9    .058   68.2    .329  -40.0 !    18.6
  900    .359 -165.6   6.664   90.5    .065   69.6    .313  -39.4 !    17.5
 1000    .355 -170.7   6.033   88.4    .070   70.3    .301  -39.2 !    16.6
 1200    .358 -179.8   5.062   84.4    .083   72.0    .282  -40.2 !    15.0
 1400    .363  173.8   4.381   80.7    .094   72.9    .275  -42.1 !    13.8
 1600    .364  168.7   3.844   77.4    .106   74.3    .275  -42.8 !    12.7
 1800    .359  162.1   3.446   74.6    .119   74.0    .271  -42.6 !    11.7
 2000    .360  155.3   3.128   72.1    .132   74.3    .254  -43.1 !    10.8
 2200    .379  149.8   2.870   69.6    .145   73.8    .236  -46.8 !    10.1
 2400    .397  147.0   2.625   66.8    .157   74.7    .230  -53.8 !     9.4
 2600    .401  144.6   2.434   64.7    .173   74.7    .241  -59.7 !     8.7
 2800    .392  141.2   2.297   62.2    .184   73.9    .254  -61.2 !     8.2
 3000    .397  135.6   2.152   59.8    .196   73.9    .250  -61.3 !     7.7
