! Filename:       BFG541H.S2P        Version:   3.0
! Philips part #: BFG541                                     Date: Feb 1992
! Bias condition: Vce=8V, Ic=10mA
!
#  MHz  S  MA  R  50
! Freq       S11            S21            S12            S22     !GUM [dB]
   40    .781  -21.5  23.444  162.1    .013   78.3    .936  -13.3 !    40.6
  100    .687  -50.7  20.346  142.9    .026   65.5    .797  -28.6 !    33.3
  200    .532  -90.1  15.425  121.0    .040   57.8    .587  -41.2 !    27.0
  300    .451 -116.3  11.691  108.1    .050   56.4    .463  -45.9 !    23.4
  400    .412 -134.5   9.206   99.8    .058   57.3    .390  -47.8 !    20.8
  500    .393 -147.9   7.570   93.9    .066   58.7    .344  -48.8 !    18.9
  600    .382 -158.2   6.438   88.9    .075   60.0    .313  -49.5 !    17.3
  700    .373 -167.2   5.593   84.6    .084   61.0    .290  -50.3 !    16.0
  800    .368 -175.2   4.945   80.7    .092   61.6    .271  -51.1 !    14.8
  900    .367  177.4   4.428   77.2    .102   62.2    .254  -52.4 !    13.8
 1000    .372  170.5   4.001   74.0    .111   62.5    .239  -54.0 !    12.9
 1200    .388  159.4   3.381   68.0    .130   62.3    .214  -59.2 !    11.5
 1400    .405  151.4   2.951   62.2    .148   61.6    .197  -65.5 !    10.3
 1600    .414  143.5   2.604   56.6    .168   61.3    .180  -71.7 !     9.3
 1800    .426  135.1   2.356   51.9    .189   59.3    .159  -78.0 !     8.4
 2000    .452  127.1   2.159   46.9    .208   58.1    .133  -89.5 !     7.8
 2200    .487  121.3   2.003   42.3    .226   56.2    .117 -108.9 !     7.3
 2400    .508  117.4   1.833   37.3    .241   55.3    .121 -128.3 !     6.6
 2600    .513  113.0   1.710   33.1    .267   52.5    .124 -142.0 !     6.1
 2800    .518  106.0   1.609   27.8    .284   49.0    .114 -155.5 !     5.5
 3000    .547   98.3   1.532   23.5    .303   47.6    .109  179.9 !     5.3
! Noise data:
! Freq.     Fmin        Gamma-opt         rn
  900       1.30     .273    144.0       .10
 1000       1.40     .250    150.0       .12
 2000       2.10     .523   -147.0       .12
