! Filename:       BFG540WG.S2P       Version:   4.0
! Philips part #: BFG540                                     Date: Jun 1994
! Bias condition: Vce=8.0V, Ic=4.0mA
! IN LINE PINNING: same data as with cross emitter pinning.
!
#  MHz  S  MA  R  50
! Freq       S11            S21            S12            S22     !GUM [dB]
   40    .919  -13.5  10.678  169.7    .014   81.1    .979   -6.9 !    42.5
  100    .885  -32.9  10.025  156.9    .034   70.9    .931  -16.5 !    35.4
  200    .816  -62.4   8.973  139.8    .056   57.2    .808  -28.6 !    28.4
  300    .755  -87.0   7.820  126.6    .070   48.2    .695  -36.0 !    24.4
  400    .714 -105.7   6.694  116.7    .078   43.1    .609  -40.4 !    21.6
  500    .686 -119.9   5.787  109.4    .083   40.1    .548  -43.1 !    19.6
  600    .664 -131.1   5.086  103.4    .086   39.1    .504  -44.6 !    17.9
  700    .648 -139.9   4.505   98.5    .089   38.6    .472  -45.6 !    16.5
  800    .634 -147.3   4.026   94.4    .090   38.5    .446  -46.5 !    15.3
  900    .623 -153.7   3.620   90.7    .092   39.7    .425  -47.5 !    14.2
 1000    .614 -159.7   3.287   87.6    .094   40.8    .408  -48.6 !    13.2
 1200    .607 -169.6   2.785   82.0    .098   43.9    .387  -52.0 !    11.6
 1400    .610 -177.3   2.431   76.8    .102   47.0    .380  -55.7 !    10.4
 1600    .611  176.2   2.140   72.1    .108   51.8    .379  -58.5 !     9.3
 1800    .608  169.8   1.932   68.6    .117   54.5    .373  -60.7 !     8.4
 2000    .615  163.3   1.759   65.3    .125   58.3    .358  -64.5 !     7.6
 2200    .627  158.1   1.620   61.9    .135   61.4    .347  -70.7 !     6.9
 2400    .638  154.2   1.477   58.2    .145   65.1    .353  -78.2 !     6.2
 2600    .638  150.4   1.369   55.8    .160   67.3    .373  -83.9 !     5.6
 2800    .634  145.8   1.300   52.4    .173   68.3    .391  -87.0 !     5.2
 3000    .645  140.4   1.218   50.1    .187   70.1    .388  -89.8 !     4.8
