! Filename:       BFG591H.S2P                                Version:   4.0
! Philips part #: BFG591                                     Date: Jun 1994
! Bias condition: Vce=12V; Ic=80mA
! 
#  MHz  S  MA  R  50
! Freq       S11            S21            S12            S22     !GUM [dB]
   40    .588  -41.3  38.966  153.0    .013   72.8    .875  -22.3 !    39.9
  100    .485  -85.7  27.587  127.5    .025   62.0    .636  -41.8 !    32.2
  200    .411 -125.9  16.772  108.2    .037   60.1    .409  -53.0 !    26.1
  300    .391 -147.2  11.767   98.3    .048   62.7    .306  -55.9 !    22.6
  400    .384 -160.5   9.010   92.0    .059   64.5    .252  -56.8 !    20.1
  500    .383 -170.0   7.296   87.1    .070   66.1    .220  -57.9 !    18.2
  600    .384 -177.8   6.157   83.0    .082   66.8    .197  -58.9 !    16.7
  700    .384  175.8   5.328   79.2    .093   67.0    .179  -60.3 !    15.4
  800    .387  169.6   4.703   75.7    .105   67.0    .166  -62.1 !    14.3
  900    .391  163.5   4.204   72.4    .117   67.1    .153  -64.7 !    13.3
 1000    .399  158.1   3.808   69.5    .128   66.7    .142  -68.4 !    12.5
 1200    .422  149.3   3.219   63.7    .152   65.2    .123  -77.9 !    11.1
 1400    .444  142.4   2.801   58.0    .174   63.4    .110  -89.5 !    10.0
 1600    .454  135.7   2.483   52.3    .199   62.1    .096 -102.3 !     8.9
 1800    .469  127.4   2.255   47.1    .224   59.1    .083 -120.1 !     8.2
 2000    .498  119.6   2.067   42.1    .244   57.2    .083 -149.9 !     7.6
 2200    .538  114.5   1.912   37.6    .263   55.0    .104 -174.0 !     7.2
 2400    .564  110.9   1.756   33.1    .281   54.0    .131  174.9 !     6.6
 2600    .574  106.3   1.646   28.5    .309   50.3    .150  164.7 !     6.2
 2800    .581   99.5   1.543   23.1    .326   46.3    .162  151.2 !     5.7
 3000    .616   92.0   1.479   18.5    .348   44.8    .186  135.8 !     5.6
