! Filename:       BFG540WK.S2P    Version:   4.0
! Philips part #: BFG540                                     Date: Jun 1994
! Bias condition: Vce=8.0V, Ic=40.0mA
! IN LINE PINNING: same data as with cross emitter pinning.
!
#  MHz  S  MA  R  50
! Freq       S11            S21            S12            S22     !GUM [dB]
   40    .666  -44.6  51.610  152.5    .011   70.0    .817  -26.5 !    41.6
  100    .583  -92.4  36.756  127.8    .021   56.9    .577  -51.6 !    34.9
  200    .532 -131.4  22.231  109.4    .029   54.0    .353  -69.6 !    29.0
  300    .519 -149.1  15.495  101.1    .035   56.9    .253  -77.9 !    25.5
  400    .516 -159.1  11.841   96.0    .041   61.1    .201  -82.9 !    23.0
  500    .515 -165.9   9.578   92.4    .048   63.8    .170  -86.1 !    21.1
  600    .511 -170.9   8.049   89.5    .056   66.2    .149  -88.3 !    19.5
  700    .508 -175.2   6.939   87.0    .063   67.9    .133  -90.0 !    18.2
  800    .504 -179.0   6.099   84.8    .070   69.1    .120  -91.7 !    17.0
  900    .501  177.5   5.438   82.9    .078   69.9    .109  -94.2 !    16.0
 1000    .501  173.9   4.910   81.3    .086   70.8    .101  -97.3 !    15.1
 1200    .505  168.1   4.114   78.0    .102   71.6    .096 -105.3 !    13.6
 1400    .511  163.7   3.537   74.5    .116   71.8    .099 -109.9 !    12.3
 1600    .511  159.6   3.111   71.5    .132   72.3    .098 -110.2 !    11.2
 1800    .509  154.8   2.811   68.7    .149   71.4    .090 -110.9 !    10.3
 2000    .517  149.4   2.564   66.3    .164   71.0    .080 -119.7 !     9.6
 2200    .532  145.7   2.345   63.8    .180   70.3    .086 -134.7 !     8.9
 2400    .545  143.2   2.134   61.6    .192   70.3    .107 -142.1 !     8.2
 2600    .542  140.7   1.993   59.2    .211   69.5    .126 -140.5 !     7.6
 2800    .536  137.1   1.870   56.1    .225   67.8    .132 -136.7 !     7.0
 3000    .544  132.2   1.770   54.2    .237   67.4    .124 -138.4 !     6.6
! Noise data:
! Freq.     Fmin        Gamma-opt         rn
  900       1.90     .263    155.0       .140
 2000       2.60     .494   -162.0       .130
