! Filename:       BFG520WB.S2P      Version:   4.0
! Philips part #: BFG520                                     Date: Jun 1994
! Bias condition: Vce=3.0V, Ic=5.0mA
! IN LINE PINNING: same data as with cross emitter pinning.
!
#  MHz  S  MA  R  50
! Freq       S11            S21            S12            S22     !GUM [dB]
   40    .797  -10.6  14.501  172.4    .009   84.1    .988   -5.1 !    43.8
  100    .774  -25.9  13.946  161.9    .021   77.0    .958  -12.5 !    37.7
  200    .715  -49.1  12.528  146.8    .036   67.2    .873  -22.4 !    31.3
  300    .652  -69.4  11.021  134.5    .048   59.9    .781  -29.6 !    27.3
  400    .601  -85.9   9.533  125.1    .057   55.7    .699  -34.4 !    24.4
  500    .563  -99.5   8.328  117.8    .063   52.9    .633  -37.4 !    22.3
  600    .532 -110.5   7.348  111.9    .068   51.6    .580  -39.1 !    20.5
  700    .509 -119.7   6.546  107.1    .072   51.2    .539  -40.2 !    19.1
  800    .484 -127.9   5.873  102.8    .075   51.8    .507  -41.0 !    17.8
  900    .465 -135.5   5.297   99.1    .079   52.5    .479  -41.5 !    16.7
 1000    .449 -142.2   4.828   96.1    .083   53.5    .457  -42.2 !    15.7
 1200    .434 -154.8   4.102   90.4    .091   55.1    .424  -43.7 !    14.0
 1400    .431 -164.8   3.592   85.2    .097   57.3    .406  -45.7 !    12.8
 1600    .427 -172.2   3.167   80.9    .105   60.3    .398  -46.9 !    11.6
 1800    .419 -179.9   2.847   77.4    .115   61.4    .388  -47.5 !    10.6
 2000    .414  172.1   2.588   74.1    .123   63.6    .368  -48.6 !     9.7
 2200    .426  164.8   2.383   71.1    .134   64.7    .346  -52.2 !     9.0
 2400    .442  160.1   2.183   67.3    .143   67.1    .342  -58.0 !     8.3
 2600    .448  156.3   2.023   64.9    .157   68.5    .355  -62.5 !     7.7
 2800    .441  152.1   1.922   61.9    .167   68.8    .366  -64.0 !     7.2
 3000    .445  146.1   1.798   59.3    .178   70.0    .359  -65.1 !     6.7
