! Filename:       BFG590L.S2P        Version:   4.0
! Philips part #: BFG590                                     Date: Jun 1994
! Bias condition: Vce=8V; Ic=40mA
! 
#  MHz  S  MA  R  50
! Freq       S11            S21            S12            S22     !GUM [dB]
   40    .777  -38.3  35.623  156.3    .015   72.2    .897  -21.6 !    42.1
  100    .686  -82.0  26.887  131.9    .030   55.1    .683  -43.8 !    34.1
  200    .610 -121.8  16.979  111.5    .039   45.6    .442  -60.9 !    27.6
  300    .587 -142.3  12.033  101.2    .045   45.5    .325  -68.5 !    23.9
  400    .581 -154.3   9.254   94.5    .051   47.8    .261  -72.8 !    21.4
  500    .581 -162.4   7.513   89.3    .056   49.9    .224  -75.8 !    19.5
  600    .579 -168.5   6.313   85.1    .062   52.4    .199  -78.1 !    18.0
  700    .578 -173.3   5.452   81.5    .068   54.3    .183  -80.3 !    16.6
  800    .578 -177.5   4.801   78.2    .074   56.1    .171  -82.3 !    15.5
  900    .577  178.6   4.294   75.1    .081   57.6    .163  -84.7 !    14.5
 1000    .577  175.1   3.885   72.2    .088   58.5    .157  -87.6 !    13.7
 1200    .585  168.5   3.263   66.9    .101   60.0    .151  -94.0 !    12.2
 1400    .593  163.2   2.823   61.8    .115   61.0    .155 -100.0 !    11.0
 1600    .602  158.4   2.491   56.7    .129   60.9    .161 -105.1 !    10.0
 1800    .611  153.7   2.236   52.2    .143   61.1    .167 -110.0 !     9.1
 2000    .625  149.4   2.033   47.8    .158   60.8    .174 -116.5 !     8.4
 2200    .639  145.8   1.860   43.6    .172   60.3    .188 -123.3 !     7.8
 2400    .648  142.7   1.722   39.1    .187   59.3    .210 -127.9 !     7.3
 2600    .651  139.1   1.605   34.6    .201   57.8    .233 -130.8 !     6.7
 2800    .662  134.8   1.520   30.9    .216   56.8    .248 -133.1 !     6.4
 3000    .685  130.8   1.437   27.3    .232   55.4    .259 -137.1 !     6.2
