! Filename:       BFG505E.S2P        Version:   3.0
! Philips part #: BFG505                                     Date: Feb 1992
! Bias condition: Vce=3V, Ic=5mA
! IN LINE PINNING: same data as with cross emitter pinning.
!
#  MHz  S  MA  R  50
! Freq       S11            S21            S12            S22     !GUM [dB]
   40    .898   -5.5  12.035  174.3    .005   85.2    .987   -2.9 !    44.5
  100    .882  -13.6  11.746  166.9    .012   82.1    .974   -7.2 !    40.9
  200    .838  -26.6  11.204  156.1    .022   74.2    .936  -13.6 !    35.3
  300    .782  -39.0  10.618  146.5    .032   68.2    .886  -18.9 !    31.3
  400    .725  -50.7   9.930  138.4    .039   64.1    .836  -22.9 !    28.4
  500    .670  -61.1   9.180  131.5    .045   60.6    .788  -26.1 !    26.1
  600    .615  -70.5   8.520  125.3    .050   58.7    .745  -28.4 !    24.2
  700    .564  -79.3   7.901  119.7    .054   57.0    .709  -29.9 !    22.6
  800    .515  -86.9   7.294  114.6    .057   55.9    .677  -31.1 !    21.3
  900    .471  -93.9   6.705  110.1    .060   55.1    .648  -32.2 !    20.0
 1000    .431 -101.2   6.198  106.2    .063   55.0    .624  -33.2 !    18.9
 1200    .368 -115.7   5.387   99.4    .069   55.0    .589  -35.5 !    17.1
 1400    .335 -128.7   4.800   93.6    .075   55.1    .570  -37.8 !    15.8
 1600    .310 -139.4   4.259   88.6    .081   56.6    .560  -39.2 !    14.7
 1800    .281 -149.4   3.815   85.0    .087   57.4    .548  -39.8 !    13.5
 2000    .256 -162.7   3.456   81.1    .092   57.9    .525  -41.1 !    12.5
 2200    .257 -176.3   3.188   77.5    .098   58.0    .503  -44.0 !    11.6
 2400    .272  174.6   2.949   73.1    .103   58.7    .494  -48.3 !    10.9
 2600    .279  168.8   2.707   70.6    .111   59.7    .507  -52.3 !    10.3
 2800    .271  162.3   2.574   67.8    .119   59.9    .522  -54.2 !     9.9
 3000    .271  152.2   2.384   64.6    .123   60.8    .520  -54.9 !     9.2
! Noise data:
! Freq.     Fmin        Gamma-opt         rn
  900       1.60     .508     18.0       .60
 2000       2.20     .370     46.0       .47
