! Filename:       BFG540WC.S2P   Version:   4.0
! Philips part #: BFG540                                     Date: Jun 1994
! Bias condition: Vce=4.0V, Ic=20.0mA
! IN LINE PINNING: same data as with cross emitter pinning.
!
#  MHz  S  MA  R  50
! Freq       S11            S21            S12            S22     !GUM [dB]
   40    .668  -36.3  38.536  157.3    .013   73.3    .892  -21.6 !    41.2
  100    .609  -80.4  30.413  134.7    .024   58.4    .682  -44.7 !    34.4
  200    .562 -123.2  20.100  114.3    .033   51.5    .440  -62.7 !    28.6
  300    .550 -143.4  14.352  104.5    .039   52.4    .322  -70.9 !    25.2
  400    .548 -154.8  11.063   98.6    .045   55.6    .256  -75.4 !    22.7
  500    .545 -162.4   8.991   94.4    .051   58.4    .217  -78.3 !    20.8
  600    .543 -168.0   7.576   91.0    .057   61.4    .191  -80.0 !    19.3
  700    .539 -172.8   6.543   88.3    .064   63.0    .171  -81.1 !    17.9
  800    .536 -176.8   5.758   85.9    .070   64.8    .155  -82.4 !    16.8
  900    .533  179.5   5.136   83.8    .078   66.3    .142  -84.3 !    15.8
 1000    .534  175.8   4.637   82.0    .084   67.6    .132  -86.7 !    14.9
 1200    .537  169.7   3.887   78.4    .099   69.0    .123  -92.8 !    13.3
 1400    .543  165.1   3.345   74.8    .113   69.7    .125  -97.8 !    12.1
 1600    .543  160.8   2.941   71.7    .128   70.9    .124  -98.8 !    11.0
 1800    .540  155.9   2.661   68.8    .144   70.4    .117  -99.4 !    10.1
 2000    .549  150.6   2.426   66.3    .159   70.5    .106 -106.1 !     9.3
 2200    .564  146.7   2.220   63.7    .174   70.0    .107 -119.0 !     8.6
 2400    .575  144.0   2.019   61.2    .188   70.4    .125 -128.4 !     7.9
 2600    .572  141.3   1.886   58.9    .206   69.8    .147 -129.5 !     7.3
 2800    .567  137.5   1.771   55.8    .220   68.3    .156 -127.5 !     6.8
 3000    .575  132.7   1.677   53.8    .233   68.1    .150 -129.1 !     6.3
! Noise data:
! Freq.     Fmin        Gamma-opt         rn
  900       1.50     .281    159.0       .110
 2000       2.20     .518   -157.0       .120
