! Filename:       BFG541I.S2P        Version:   3.0
! Philips part #: BFG541                                     Date: Feb 1992
! Bias condition: Vce=8V, Ic=20mA
!
#  MHz  S  MA  R  50
! Freq       S11            S21            S12            S22     !GUM [dB]
   40    .627  -32.2  38.486  155.4    .011   74.9    .872  -19.8 !    40.1
  100    .501  -72.3  29.773  131.4    .022   64.7    .657  -38.1 !    33.2
  200    .382 -114.1  19.066  110.9    .033   63.0    .435  -48.4 !    27.2
  300    .344 -137.5  13.551  100.7    .043   64.5    .332  -50.7 !    23.7
  400    .331 -152.5  10.409   94.2    .053   66.7    .277  -51.1 !    21.2
  500    .325 -163.0   8.449   89.5    .064   67.6    .243  -51.4 !    19.3
  600    .322 -171.3   7.125   85.3    .075   68.2    .220  -51.5 !    17.7
  700    .320 -178.5   6.163   81.8    .086   68.3    .203  -52.0 !    16.4
  800    .320  174.7   5.431   78.4    .096   68.3    .188  -52.5 !    15.3
  900    .322  168.4   4.852   75.4    .107   67.9    .174  -53.7 !    14.3
 1000    .330  162.7   4.382   72.5    .118   67.4    .161  -55.5 !    13.4
 1200    .349  153.2   3.693   67.2    .140   66.0    .137  -61.3 !    12.0
 1400    .368  146.6   3.208   61.9    .160   64.1    .122  -69.3 !    10.8
 1600    .378  139.8   2.834   56.8    .182   62.7    .105  -76.9 !     9.8
 1800    .391  132.1   2.559   52.2    .205   59.8    .084  -85.2 !     8.9
 2000    .417  124.6   2.343   47.5    .225   57.8    .060 -106.5 !     8.2
 2200    .454  119.2   2.164   43.1    .243   55.4    .057 -146.4 !     7.7
 2400    .478  116.0   1.984   38.7    .258   54.0    .077 -169.5 !     7.1
 2600    .486  112.1   1.852   34.4    .283   50.7    .088  177.2 !     6.6
 2800    .489  105.5   1.735   29.4    .299   46.8    .089  159.1 !     6.0
 3000    .517   97.9   1.654   25.2    .317   45.0    .108  135.4 !     5.8
! Noise data:
! Freq.     Fmin        Gamma-opt         rn
  900       1.50     .277    171.0       .10
 2000       2.20     .514   -144.0       .15
