! Filename:       BFG93AH.S2P                                Version:   2.0
! Philips part #: BFG 93A                                    Date: Jun 1990
! Bias condition: Vce=8V, Ic=30mA
! IN LINE PINNING: same data as with cross emitter pinning.
!
#  MHz  S  MA  R  50
! Freq       S11            S21            S12            S22     !GUM [dB]
   40    .630  -40.2  45.838  157.6    .010   73.9    .905  -19.5 !    42.8
  100    .595  -85.7  34.915  133.8    .019   57.5    .699  -39.6 !    35.7
  200    .578 -125.7  22.478  113.8    .027   48.7    .461  -54.3 !    29.8
  300    .573 -144.9  15.925  103.9    .031   48.5    .345  -59.7 !    26.3
  400    .573 -156.3  12.289   97.8    .035   50.4    .284  -62.5 !    23.9
  500    .573 -163.8   9.980   93.3    .039   52.8    .249  -63.9 !    22.0
  600    .573 -169.2   8.362   89.8    .043   54.7    .229  -65.2 !    20.4
  700    .569 -174.3   7.183   86.7    .047   56.7    .217  -65.2 !    19.0
  800    .569 -177.9   6.311   83.9    .052   58.3    .210  -65.2 !    17.9
  900    .568  178.2   5.637   82.0    .057   59.5    .204  -65.1 !    16.9
 1000    .571  174.7   5.122   79.2    .061   60.3    .198  -65.2 !    16.1
 1200    .578  168.8   4.244   75.1    .070   61.9    .189  -67.4 !    14.5
 1400    .581  163.7   3.636   71.3    .080   62.6    .188  -72.1 !    13.2
 1600    .583  159.9   3.204   67.4    .089   62.7    .198  -74.6 !    12.1
 1800    .577  154.8   2.867   63.6    .098   62.8    .208  -74.7 !    11.1
 2000    .586  149.9   2.593   60.1    .107   63.1    .204  -75.9 !    10.3
 2200    .595  145.3   2.348   57.9    .117   62.6    .194  -80.4 !     9.5
 2400    .603  142.2   2.165   54.5    .124   62.6    .197  -87.7 !     8.8
 2600    .599  138.8   1.992   51.0    .132   62.9    .214  -93.3 !     8.1
 2800    .604  134.6   1.849   47.1    .141   62.8    .231  -95.9 !     7.5
 3000    .611  130.2   1.749   44.6    .150   59.9    .237  -97.6 !     7.1
! Noise data:
! Freq.     Fmin        Gamma-opt         rn
  500       2.10     .123     87.3       .263
 1000       2.60     .216    121.4       .309
 2000       3.60     .444   -169.0       .190
