! Filename:       BFG97B.S2P                                 Version:   2.0
! Philips part #: BFG97                                      Date: Jul 1990
! Bias condition: Vce=5V, Ic=30mA
! 
#  MHz  S  MA  R  50
! Freq       S11            S21            S12            S22     !GUM [dB]
   40    .471  -88.5  42.588  136.2    .016   64.6    .700  -46.7 !    36.6
  100    .502 -139.4  23.774  110.4    .026   57.0    .384  -75.8 !    29.5
  200    .522 -163.6  12.790   96.2    .038   61.4    .215  -98.2 !    23.7
  300    .531 -173.9   8.665   89.1    .051   64.7    .155 -114.1 !    20.3
  400    .538  179.5   6.544   83.7    .065   66.3    .129 -127.2 !    17.9
  500    .541  174.8   5.282   79.1    .079   67.2    .117 -138.9 !    16.0
  600    .544  170.5   4.453   75.3    .092   67.0    .111 -148.3 !    14.6
  700    .544  166.3   3.843   71.4    .105   66.8    .107 -156.7 !    13.3
  800    .545  162.3   3.387   67.9    .120   66.2    .106 -165.6 !    12.2
  900    .552  158.1   3.026   64.6    .132   65.3    .108 -173.8 !    11.2
 1000    .559  154.2   2.752   61.5    .145   64.2    .114  178.2 !    10.5
 1200    .580  147.3   2.315   55.2    .172   61.7    .132  166.4 !     9.1
 1400    .598  141.3   2.003   49.4    .192   58.9    .152  158.8 !     8.1
 1600    .609  136.2   1.770   43.2    .217   57.1    .171  153.2 !     7.1
 1800    .617  129.4   1.617   37.1    .241   52.6    .192  146.6 !     6.4
 2000    .643  122.6   1.486   32.3    .262   50.8    .215  139.7 !     6.0
 2200    .673  116.9   1.355   27.3    .278   47.6    .245  134.3 !     5.5
 2400    .696  112.9   1.245   23.6    .290   46.5    .275  129.8 !     5.1
 2600    .695  107.9   1.165   17.9    .317   42.5    .295  124.5 !     4.6
 2800    .696  101.4   1.069   13.2    .324   38.1    .309  117.5 !     3.9
 3000    .719   94.2   1.022    8.4    .338   36.2    .333  110.1 !     3.9
