! Filename:       BFG93AD.S2P                                Version:   2.0
! Philips part #: BFG 93A                                    Date: Jun 1990
! Bias condition: Vce=5V, Ic=30mA
! IN LINE PINNING: same data as with cross emitter pinning.
!
#  MHz  S  MA  R  50
! Freq       S11            S21            S12            S22     !GUM [dB]
   40    .553  -46.7  47.367  156.3    .010   71.5    .893  -21.8 !    42.0
  100    .560  -95.5  35.212  131.9    .019   56.3    .673  -44.1 !    35.2
  200    .579 -133.8  22.209  112.2    .026   47.9    .433  -60.7 !    29.6
  300    .588 -151.0  15.635  102.7    .030   49.1    .319  -67.8 !    26.2
  400    .589 -161.1  12.005   97.0    .034   51.0    .259  -72.2 !    23.7
  500    .593 -167.8   9.745   92.6    .038   53.6    .225  -74.6 !    21.9
  600    .593 -172.8   8.161   89.1    .043   55.7    .206  -76.5 !    20.3
  700    .591 -177.2   7.024   86.1    .047   57.7    .194  -77.5 !    19.0
  800    .593  179.2   6.160   83.4    .052   59.4    .186  -77.7 !    17.8
  900    .591  175.8   5.499   81.5    .057   60.4    .179  -77.9 !    16.8
 1000    .593  172.7   4.986   78.8    .061   61.4    .172  -78.2 !    16.0
 1200    .603  166.8   4.143   74.7    .071   62.9    .164  -81.1 !    14.4
 1400    .606  162.2   3.561   71.2    .081   63.8    .165  -86.3 !    13.1
 1600    .607  158.5   3.107   67.0    .090   63.7    .175  -88.0 !    12.0
 1800    .600  153.2   2.801   63.3    .099   63.8    .182  -87.1 !    11.0
 2000    .607  148.1   2.522   60.0    .109   64.0    .177  -88.6 !    10.2
 2200    .617  143.8   2.298   57.4    .120   63.3    .169  -94.1 !     9.4
 2400    .623  140.9   2.109   54.4    .127   63.4    .177 -101.7 !     8.8
 2600    .624  137.1   1.944   51.1    .135   63.5    .196 -106.5 !     8.1
 2800    .621  133.3   1.794   47.4    .145   63.1    .213 -108.0 !     7.4
 3000    .620  129.4   1.696   44.9    .154   60.3    .218 -109.5 !     6.9
! Noise data:
! Freq.     Fmin        Gamma-opt         rn
  500       2.10     .137    135.1       .200
 1000       2.60     .242    144.1       .240
 2000       3.40     .480   -161.4       .183
