! Filename:       BFG93AE.S2P                                Version:   2.0
! Philips part #: BFG 93A                                    Date: Jun 1990
! Bias condition: Vce=8V, Ic=5mA
! IN LINE PINNING: same data as with cross emitter pinning.
!
#  MHz  S  MA  R  50
! Freq       S11            S21            S12            S22     !GUM [dB]
   40    .850  -16.2  15.103  169.7    .012   81.6    .981   -7.1 !    43.5
  100    .819  -39.5  14.031  155.2    .027   69.8    .927  -16.9 !    36.3
  200    .760  -72.9  11.891  136.5    .046   55.0    .796  -28.8 !    29.6
  300    .712  -97.6   9.737  123.0    .056   46.1    .680  -35.8 !    25.5
  400    .678 -115.8   8.076  113.4    .062   40.5    .597  -40.0 !    22.7
  500    .662 -128.9   6.840  106.2    .066   37.5    .541  -42.7 !    20.7
  600    .650 -138.9   5.880  100.5    .069   35.9    .504  -44.5 !    19.0
  700    .638 -147.4   5.134   95.6    .071   35.2    .478  -45.7 !    17.6
  800    .633 -154.6   4.548   91.4    .073   35.2    .462  -46.6 !    16.4
  900    .626 -160.7   4.094   88.3    .076   35.2    .449  -47.3 !    15.4
 1000    .625 -166.1   3.736   84.5    .077   35.4    .438  -48.2 !    14.5
 1200    .621 -175.4   3.129   78.3    .080   37.5    .419  -50.7 !    12.9
 1400    .626  177.5   2.686   73.0    .084   39.6    .410  -54.5 !    11.5
 1600    .624  171.3   2.369   68.3    .088   41.4    .417  -57.8 !    10.5
 1800    .620  164.7   2.143   63.8    .091   43.8    .422  -59.9 !     9.6
 2000    .626  158.3   1.933   59.1    .096   46.3    .419  -62.5 !     8.7
 2200    .631  153.2   1.743   56.1    .102   48.0    .405  -66.7 !     7.8
 2400    .638  148.9   1.604   52.5    .105   50.0    .407  -72.2 !     7.2
 2600    .642  144.7   1.482   48.3    .111   52.5    .420  -77.5 !     6.6
 2800    .642  140.1   1.370   43.9    .118   54.0    .437  -81.3 !     6.0
 3000    .642  135.6   1.294   41.6    .125   53.3    .442  -84.1 !     5.5
! Noise data:
! Freq.     Fmin        Gamma-opt         rn
  500       1.20     .308     55.5       .221
 1000       1.90     .304    103.3       .255
 2000       3.00     .484   -174.4       .134
