! Filename:       BFG93AF.S2P                                Version:   2.0
! Philips part #: BFG 93A                                    Date: Jun 1990
! Bias condition: Vce=8V, Ic=10mA
! IN LINE PINNING: same data as with cross emitter pinning.
!
#  MHz  S  MA  R  50
! Freq       S11            S21            S12            S22     !GUM [dB]
   40    .764  -23.0  25.164  166.0    .011   78.5    .963  -11.0 !    43.2
  100    .721  -54.8  22.161  147.7    .024   64.7    .861  -25.1 !    36.0
  200    .665  -93.7  17.007  127.1    .038   50.5    .668  -39.5 !    29.7
  300    .635 -118.3  13.004  114.5    .044   44.2    .535  -46.5 !    26.0
  400    .618 -134.5  10.372  106.2    .048   41.7    .451  -50.1 !    23.4
  500    .612 -145.7   8.575  100.2    .052   41.2    .400  -52.3 !    21.5
  600    .606 -153.9   7.277   95.4    .054   41.6    .367  -53.5 !    19.9
  700    .600 -160.7   6.302   91.5    .057   43.1    .347  -54.3 !    18.5
  800    .597 -166.2   5.550   88.0    .060   44.0    .333  -54.8 !    17.3
  900    .592 -171.1   4.969   85.4    .063   45.6    .323  -55.1 !    16.3
 1000    .595 -175.8   4.524   82.2    .066   46.3    .312  -55.5 !    15.5
 1200    .595  176.3   3.761   77.0    .072   49.4    .298  -57.6 !    13.8
 1400    .603  170.5   3.232   72.8    .079   51.1    .292  -61.4 !    12.5
 1600    .600  165.2   2.851   68.3    .086   52.8    .299  -64.5 !    11.4
 1800    .595  159.8   2.561   64.0    .092   54.3    .306  -65.9 !    10.5
 2000    .600  154.1   2.314   60.3    .101   55.9    .302  -67.6 !     9.6
 2200    .604  149.1   2.094   57.2    .109   56.1    .292  -71.6 !     8.8
 2400    .625  145.1   1.927   54.0    .114   57.5    .292  -77.7 !     8.2
 2600    .617  141.6   1.779   50.3    .121   58.4    .306  -83.2 !     7.5
 2800    .621  137.7   1.634   45.9    .130   59.1    .324  -86.5 !     6.9
 3000    .625  133.1   1.552   43.7    .138   57.2    .329  -88.8 !     6.5
! Noise data:
! Freq.     Fmin        Gamma-opt         rn
  500       1.40     .215     60.2       .206
 1000       2.00     .249    107.9       .250
 2000       3.00     .460   -173.9       .136
