! Filename:       BFG94A.S2P                                 Version:   2.0
! Philips part #: BFG 94                                     Date: May 1990
! Bias condition: Vce=10V, Ic=15mA
! 
#  MHz  S  MA  R  50
! Freq       S11            S21            S12            S22     !GUM [dB]
   40    .609  -29.1  32.100  159.5    .010   76.7    .925  -14.6 !    40.5
  100    .526  -65.4  25.660  136.9    .022   65.5    .758  -30.1 !    33.3
  200    .427 -104.2  17.250  115.9    .033   59.5    .539  -40.5 !    27.1
  300    .385 -128.2  12.430  104.5    .042   60.7    .425  -43.1 !    23.5
  400    .367 -143.8   9.720   96.9    .051   62.2    .360  -43.4 !    21.0
  500    .361 -154.5   7.910   91.4    .059   63.6    .323  -43.7 !    19.0
  600    .359 -163.1   6.660   87.0    .068   64.7    .297  -43.6 !    17.5
  700    .346 -169.8   5.780   83.1    .077   65.6    .280  -43.5 !    16.1
  800    .350 -176.3   5.080   79.8    .087   65.6    .266  -44.1 !    15.0
  900    .348  177.6   4.550   76.4    .096   66.0    .253  -44.7 !    14.0
 1000    .355  171.6   4.130   73.3    .104   65.5    .240  -45.8 !    13.2
 1200    .374  162.4   3.480   67.2    .122   65.6    .219  -49.3 !    11.7
 1400    .394  155.5   2.990   61.7    .142   64.2    .199  -54.9 !    10.4
 1600    .395  150.1   2.650   56.6    .159   63.0    .183  -61.1 !     9.3
 1800    .414  143.3   2.400   51.3    .176   61.8    .166  -66.8 !     8.5
 2000    .430  135.8   2.210   46.5    .197   60.2    .146  -73.9 !     7.9
 2200    .466  130.3   2.030   42.4    .214   57.4    .127  -86.9 !     7.3
 2400    .486  125.5   1.870   37.8    .227   56.1    .117 -104.2 !     6.7
 2600    .508  121.9   1.730   32.9    .245   55.0    .110 -119.0 !     6.1
 2800    .505  117.2   1.610   28.3    .270   52.5    .100 -129.7 !     5.5
 3000    .527  109.4   1.550   24.0    .281   47.7    .090 -144.9 !     5.3
! Noise data:
! Freq.     Fmin        Gamma-opt         rn
  500       1.80     .112     98.1       .211
 1000       2.25     .203    152.1       .210
