! Filename:       BFG93AG.S2P                                Version:   2.0
! Philips part #: BFG 93A                                    Date: Jun 1990
! Bias condition: Vce=8V, Ic=20mA
! IN LINE PINNING: same data as with cross emitter pinning.
!
#  MHz  S  MA  R  50
! Freq       S11            S21            S12            S22     !GUM [dB]
   40    .672  -33.2  38.337  160.9    .010   75.5    .931  -16.3 !    43.0
  100    .630  -74.2  31.025  138.9    .021   60.2    .762  -34.8 !    35.8
  200    .600 -115.4  21.190  118.1    .030   48.4    .531  -50.2 !    29.9
  300    .587 -136.8  15.330  107.2    .034   46.4    .402  -56.4 !    26.3
  400    .583 -150.1  11.920  100.4    .038   46.5    .333  -59.8 !    23.8
  500    .580 -158.7   9.746   95.5    .042   48.4    .291  -61.6 !    21.9
  600    .579 -164.8   8.196   91.6    .046   50.1    .267  -62.7 !    20.4
  700    .576 -170.4   7.051   88.3    .049   52.5    .251  -63.0 !    19.0
  800    .577 -174.7   6.190   85.3    .054   54.1    .241  -63.2 !    17.8
  900    .573 -178.9   5.536   83.1    .058   55.2    .233  -63.2 !    16.8
 1000    .576  177.4   5.023   80.2    .062   56.3    .226  -63.4 !    16.0
 1200    .582  170.8   4.187   76.0    .070   58.6    .215  -65.6 !    14.4
 1400    .586  165.5   3.596   71.9    .079   59.8    .212  -69.8 !    13.1
 1600    .587  161.2   3.151   67.9    .088   60.2    .221  -72.4 !    12.0
 1800    .584  155.7   2.833   63.9    .096   60.7    .230  -72.9 !    11.1
 2000    .585  150.7   2.554   60.4    .106   61.6    .225  -74.1 !    10.2
 2200    .593  146.0   2.319   57.9    .115   61.1    .215  -78.4 !     9.4
 2400    .606  142.6   2.125   54.7    .122   61.5    .217  -85.3 !     8.7
 2600    .602  139.0   1.963   51.1    .129   61.8    .233  -91.1 !     8.1
 2800    .605  135.3   1.812   47.4    .139   62.0    .250  -93.6 !     7.4
 3000    .611  131.3   1.718   44.9    .147   59.1    .256  -95.5 !     7.0
