! Filename:       BFG93AA.S2P                                Version:   2.0
! Philips part #: BFG 93A                                    Date: Jun 1990
! Bias condition: Vce=5V, Ic=5mA
! IN LINE PINNING: same data as with cross emitter pinning.
!
#  MHz  S  MA  R  50
! Freq       S11            S21            S12            S22     !GUM [dB]
   40    .837  -17.1  15.166  169.4    .013   81.8    .982   -7.7 !    43.2
  100    .807  -41.6  14.010  154.4    .029   68.7    .921  -18.3 !    35.7
  200    .750  -75.8  11.777  135.4    .049   54.1    .780  -31.0 !    29.1
  300    .709 -100.8   9.568  121.9    .059   44.9    .660  -38.5 !    25.1
  400    .678 -119.0   7.897  112.3    .065   39.4    .575  -43.0 !    22.4
  500    .666 -131.8   6.664  105.3    .069   36.5    .518  -45.8 !    20.4
  600    .655 -141.6   5.721   99.5    .072   34.8    .480  -47.6 !    18.7
  700    .647 -150.0   4.990   94.9    .074   34.2    .455  -49.1 !    17.3
  800    .641 -156.6   4.418   90.7    .076   34.1    .437  -50.0 !    16.1
  900    .634 -162.5   3.964   87.4    .078   34.4    .424  -50.8 !    15.1
 1000    .635 -167.8   3.630   83.8    .080   34.6    .413  -51.8 !    14.2
 1200    .634 -177.0   3.026   77.7    .083   36.7    .394  -54.3 !    12.6
 1400    .635  175.8   2.606   72.5    .086   38.6    .386  -58.3 !    11.3
 1600    .637  170.0   2.294   67.6    .090   40.3    .393  -61.7 !    10.2
 1800    .632  163.7   2.078   63.0    .094   42.9    .400  -64.1 !     9.3
 2000    .632  157.5   1.871   58.5    .099   45.4    .395  -66.6 !     8.4
 2200    .639  151.9   1.689   55.3    .105   47.2    .383  -70.8 !     7.5
 2400    .653  147.9   1.561   52.0    .108   49.4    .386  -77.0 !     7.0
 2600    .649  144.0   1.442   47.5    .114   51.6    .401  -82.3 !     6.3
 2800    .653  139.6   1.319   43.1    .121   53.4    .418  -86.0 !     5.7
 3000    .654  135.0   1.257   40.6    .129   52.1    .424  -89.0 !     5.3
! Noise data:
! Freq.     Fmin        Gamma-opt         rn
  500       1.20     .290     53.4       .204
 1000       1.90     .307    109.7       .228
 2000       3.00     .484   -174.6       .138
