! Filename:       BFG97E.S2P                                 Version:   2.0
! Philips part #: BFG97                                      Date: Jul 1990
! Bias condition: Vce=10V, Ic=15mA
! 
#  MHz  S  MA  R  50
! Freq       S11            S21            S12            S22     !GUM [dB]
   40    .638  -52.7  29.333  147.6    .018   68.5    .833  -29.0 !    36.8
  100    .560 -106.9  20.230  120.6    .031   53.4    .544  -50.3 !    29.3
  200    .531 -144.7  11.842  101.9    .042   52.1    .324  -60.8 !    23.4
  300    .527 -161.3   8.170   92.7    .052   54.8    .236  -63.6 !    19.9
  400    .530 -170.8   6.218   86.3    .063   57.9    .193  -65.7 !    17.5
  500    .533 -177.5   5.026   81.1    .074   59.5    .166  -67.3 !    15.6
  600    .535  177.0   4.252   76.7    .085   60.7    .150  -69.4 !    14.1
  700    .532  171.9   3.674   72.6    .097   62.1    .137  -72.4 !    12.8
  800    .532  167.0   3.243   68.6    .108   61.9    .127  -75.5 !    11.7
  900    .539  162.4   2.901   65.1    .119   62.0    .116  -79.1 !    10.8
 1000    .548  158.1   2.629   62.0    .130   61.8    .107  -85.7 !    10.0
 1200    .570  150.6   2.222   54.9    .154   60.8    .098 -102.3 !     8.7
 1400    .590  144.1   1.937   48.8    .173   58.7    .099 -121.2 !     7.6
 1600    .598  138.7   1.712   42.0    .195   58.1    .109 -138.4 !     6.6
 1800    .609  131.5   1.559   35.8    .218   54.4    .122 -153.5 !     5.9
 2000    .634  124.7   1.432   30.8    .238   53.5    .140 -169.6 !     5.4
 2200    .669  118.9   1.313   25.3    .256   50.8    .171  177.2 !     5.1
 2400    .688  114.6   1.197   20.6    .271   49.9    .206  166.8 !     4.5
 2600    .691  109.5   1.118   15.4    .298   46.6    .236  158.0 !     4.0
 2800    .691  102.8   1.027    9.8    .310   42.2    .255  148.5 !     3.3
 3000    .722   95.6    .972    5.4    .327   40.6    .282  137.9 !     3.3
