! Filename:       BFG94C.S2P                                 Version:   2.0
! Philips part #: BFG 94                                     Date: May 1990
! Bias condition: Vce=10V, Ic=45mA
! 
#  MHz  S  MA  R  50
! Freq       S11            S21            S12            S22     !GUM [dB]
   40    .404  -48.4  50.030  150.0    .009   74.3    .836  -22.0 !    40.0
  100    .347  -97.6  33.550  124.0    .017   66.9    .587  -38.4 !    32.9
  200    .319 -134.5  19.730  105.9    .027   67.6    .385  -43.0 !    27.1
  300    .316 -152.0  13.620   97.2    .037   70.5    .304  -41.8 !    23.6
  400    .320 -162.4  10.460   91.3    .048   71.4    .262  -40.1 !    21.2
  500    .325 -169.4   8.420   86.8    .058   72.1    .239  -39.2 !    19.2
  600    .328 -175.0   7.070   83.3    .068   72.3    .222  -38.5 !    17.7
  700    .321  179.8   6.100   80.1    .078   72.2    .210  -38.6 !    16.4
  800    .325  175.1   5.370   77.0    .089   71.4    .199  -38.8 !    15.3
  900    .329  170.0   4.810   74.2    .099   70.8    .189  -39.4 !    14.3
 1000    .336  164.9   4.370   71.2    .108   69.9    .178  -40.1 !    13.5
 1200    .364  157.5   3.650   65.7    .129   68.8    .158  -43.1 !    12.0
 1400    .392  152.6   3.150   60.9    .149   66.8    .139  -48.2 !    10.8
 1600    .391  147.8   2.790   55.6    .168   64.9    .120  -54.1 !     9.7
 1800    .407  140.5   2.510   50.4    .186   63.0    .099  -60.5 !     8.8
 2000    .426  133.4   2.310   45.9    .207   60.7    .078  -70.5 !     8.2
 2200    .465  127.8   2.110   41.8    .224   57.7    .057  -92.9 !     7.6
 2400    .491  124.8   1.950   37.8    .238   56.1    .050 -125.7 !     7.0
 2600    .511  121.6   1.790   33.0    .255   54.6    .052 -155.3 !     6.4
 2800    .506  115.7   1.680   27.9    .279   52.0    .054  179.9 !     5.8
 3000    .527  108.7   1.610   23.7    .290   46.8    .066  154.9 !     5.6
! Noise data:
! Freq.     Fmin        Gamma-opt         rn
  500       2.70     .108    159.1       .241
 1000       3.00     .295   -177.3       .204
