! Filename:       BFG97C.S2P                                 Version:   2.0
! Philips part #: BFG97                                      Date: Jul 1990
! Bias condition: Vce=5V, Ic=50mA
! 
#  MHz  S  MA  R  50
! Freq       S11            S21            S12            S22     !GUM [dB]
   40    .420 -113.4  50.610  129.5    .013   63.8    .615  -56.4 !    37.0
  100    .488 -152.8  25.609  106.2    .022   63.3    .321  -88.6 !    29.8
  200    .513 -170.0  13.453   94.0    .036   67.7    .191 -115.8 !    24.1
  300    .523 -178.1   9.075   87.7    .050   69.9    .151 -134.8 !    20.6
  400    .530  176.7   6.846   82.8    .065   71.0    .139 -148.6 !    18.2
  500    .537  172.3   5.506   78.6    .079   70.3    .134 -159.6 !    16.4
  600    .538  168.4   4.647   74.9    .093   70.0    .132 -167.7 !    14.9
  700    .538  164.7   4.000   71.3    .108   69.3    .132 -175.2 !    13.6
  800    .540  160.8   3.525   68.0    .122   67.6    .136  177.7 !    12.5
  900    .546  156.9   3.151   64.7    .135   66.9    .139  171.0 !    11.6
 1000    .552  153.0   2.862   61.8    .149   65.6    .147  164.7 !    10.8
 1200    .577  146.3   2.404   55.7    .176   62.5    .166  155.6 !     9.5
 1400    .596  140.6   2.079   50.0    .197   59.6    .187  149.2 !     8.4
 1600    .604  135.7   1.833   44.1    .221   57.5    .205  144.1 !     7.4
 1800    .614  128.8   1.669   38.1    .247   52.8    .225  138.1 !     6.7
 2000    .638  122.3   1.538   33.6    .267   50.7    .247  132.0 !     6.3
 2200    .670  116.8   1.400   28.7    .283   47.3    .275  126.8 !     5.9
 2400    .691  112.6   1.288   25.2    .295   46.2    .301  122.8 !     5.4
 2600    .692  107.6   1.205   19.6    .320   42.2    .320  117.7 !     4.9
 2800    .692  101.0   1.100   15.0    .328   37.3    .332  111.0 !     4.2
 3000    .715   94.1   1.062   10.7    .340   35.6    .353  104.0 !     4.2
