! Filename:       BFG97H.S2P                                 Version:   2.0
! Philips part #: BFG97                                      Date: Jul 1990
! Bias condition: Vce=10V, Ic=70mA
! 
#  MHz  S  MA  R  50
! Freq       S11            S21            S12            S22     !GUM [dB]
   40    .421 -112.5  57.018  126.8    .011   60.6    .575  -54.9 !    37.7
  100    .470 -152.3  27.744  104.6    .021   61.0    .287  -81.8 !    30.3
  200    .483 -169.6  14.399   94.0    .033   69.8    .157 -103.7 !    24.4
  300    .490 -177.5   9.723   87.6    .048   71.9    .116 -120.3 !    21.0
  400    .490  178.8   7.379   82.3    .063   71.2    .101 -134.4 !    18.6
  500    .495  172.9   5.943   78.7    .078   71.6    .093 -145.7 !    16.7
  600    .507  169.7   4.950   75.6    .091   70.7    .089 -154.2 !    15.2
  700    .508  166.5   4.283   72.1    .104   70.2    .089 -163.4 !    14.0
  800    .506  164.4   3.784   69.2    .118   68.3    .086 -172.8 !    12.9
  900    .512  159.1   3.367   65.8    .131   67.8    .088  178.6 !    11.9
 1000    .535  155.0   3.038   63.1    .144   65.7    .094  171.6 !    11.2
 1200    .545  148.4   2.556   56.4    .169   63.7    .115  159.1 !     9.7
 1400    .577  142.1   2.270   51.5    .190   60.2    .138  153.0 !     9.0
 1600    .569  138.2   1.955   46.1    .215   58.8    .154  147.9 !     7.6
 1800    .592  131.6   1.767   38.9    .239   54.3    .171  141.3 !     6.9
 2000    .626  122.8   1.644   34.7    .258   51.7    .196  135.2 !     6.6
 2200    .641  118.2   1.483   29.7    .276   49.4    .226  129.6 !     5.9
 2400    .678  115.3   1.366   27.3    .289   48.1    .255  125.2 !     5.7
 2600    .684  110.5   1.284   21.1    .314   44.0    .277  120.7 !     5.3
 2800    .673  103.3   1.171   16.3    .321   39.7    .290  114.8 !     4.4
 3000    .702   97.1   1.140   12.1    .336   38.0    .313  107.2 !     4.5
