! Filename:       BFG97A.S2P                                 Version:   2.0
! Philips part #: BFG97                                      Date: Jul 1990
! Bias condition: Vce=5V, Ic=15mA
! 
#  MHz  S  MA  R  50
! Freq       S11            S21            S12            S22     !GUM [dB]
   40    .607  -58.5  29.329  145.9    .020   66.5    .814  -33.1 !    36.1
  100    .558 -114.5  19.634  118.7    .034   51.8    .511  -57.6 !    28.8
  200    .547 -150.0  11.300  100.6    .044   51.3    .293  -72.5 !    23.0
  300    .550 -164.7   7.769   91.7    .054   54.5    .206  -79.7 !    19.6
  400    .555 -173.8   5.902   85.4    .066   57.2    .163  -85.5 !    17.1
  500    .559 -136.3   4.765   80.2    .078   59.2    .137  -91.1 !    15.3
  600    .560  174.6   4.021   75.7    .089   60.5    .121  -95.8 !    13.8
  700    .558  169.7   3.478   71.6    .101   61.6    .110 -101.7 !    12.5
  800    .562  165.2   3.079   67.7    .113   61.7    .101 -108.1 !    11.5
  900    .566  160.6   2.750   64.1    .126   61.3    .094 -115.4 !    10.5
 1000    .573  156.5   2.503   61.0    .138   61.4    .090 -124.9 !     9.7
 1200    .594  149.0   2.111   54.0    .162   59.7    .094 -144.7 !     8.4
 1400    .612  142.7   1.838   47.7    .182   57.8    .110 -160.4 !     7.4
 1600    .620  137.2   1.624   41.1    .206   56.6    .131 -171.8 !     6.4
 1800    .629  130.1   1.481   35.0    .230   52.9    .150  177.5 !     5.7
 2000    .654  123.1   1.368   29.9    .251   51.7    .176  166.5 !     5.3
 2200    .685  117.5   1.250   24.5    .268   49.0    .211  157.5 !     4.9
 2400    .705  113.2   1.138   20.3    .281   47.9    .248  150.5 !     4.4
 2600    .705  107.9   1.063   15.0    .310   44.3    .276  143.5 !     3.9
 2800    .702  101.5    .976    9.6    .319   39.5    .296  134.9 !     3.1
 3000    .730   94.3    .928    5.4    .336   38.0    .324  125.6 !     3.1
