! Filename:       BFG93AC.S2P                                Version:   2.0
! Philips part #: BFG 93A                                    Date: Jun 1990
! Bias condition: Vce=5V, Ic=20mA
! IN LINE PINNING: same data as with cross emitter pinning.
!
#  MHz  S  MA  R  50
! Freq       S11            S21            S12            S22     !GUM [dB]
   40    .612  -37.6  39.288  159.9    .011   74.2    .924  -18.1 !    42.3
  100    .597  -81.7  31.205  137.1    .022   58.4    .741  -38.3 !    35.3
  200    .595 -122.5  20.879  116.6    .030   47.2    .503  -55.2 !    29.6
  300    .596 -142.6  14.997  106.0    .034   46.2    .375  -62.7 !    26.1
  400    .596 -154.7  11.613   99.4    .038   46.7    .306  -67.1 !    23.6
  500    .598 -162.7   9.464   94.6    .042   48.9    .267  -69.8 !    21.8
  600    .599 -168.3   7.955   90.8    .046   50.8    .243  -71.3 !    20.2
  700    .596 -173.7   6.848   87.6    .050   52.7    .229  -72.2 !    18.8
  800    .596 -177.4   6.007   84.7    .054   54.6    .217  -72.8 !    17.7
  900    .597  178.6   5.361   82.5    .058   56.0    .209  -73.0 !    16.7
 1000    .597  175.1   4.880   79.7    .063   56.9    .201  -73.3 !    15.9
 1200    .602  168.8   4.055   75.4    .071   59.2    .190  -76.1 !    14.3
 1400    .607  163.7   3.482   71.5    .080   60.3    .189  -80.7 !    13.0
 1600    .602  159.5   3.048   67.5    .090   61.0    .198  -82.8 !    11.8
 1800    .598  154.3   2.748   63.5    .098   61.4    .206  -82.8 !    10.9
 2000    .604  149.2   2.471   60.1    .108   61.8    .200  -84.2 !    10.0
 2200    .613  144.7   2.246   57.5    .118   61.8    .192  -89.3 !     9.2
 2400    .629  141.6   2.065   54.4    .125   61.9    .197  -96.5 !     8.7
 2600    .622  138.1   1.908   50.9    .133   62.2    .215 -101.6 !     7.9
 2800    .624  134.2   1.763   47.2    .143   62.1    .232 -103.7 !     7.3
 3000    .628  130.2   1.668   44.8    .151   59.4    .238 -105.3 !     6.9
