! Filename:       BFG94B.S2P                                 Version:   2.0
! Philips part #: BFG 94                                     Date: May 1990
! Bias condition: Vce=10V, Ic=30mA
! 
#  MHz  S  MA  R  50
! Freq       S11            S21            S12            S22     !GUM [dB]
   40    .438  -41.5  44.410  153.0    .009   74.6    .865  -19.7 !    39.9
  100    .374  -87.1  31.750  128.2    .018   66.3    .641  -36.3 !    33.0
  200    .320 -126.9  19.270  108.7    .028   66.9    .429  -43.2 !    27.1
  300    .314 -147.0  13.580   99.2    .038   68.6    .338  -43.0 !    23.6
  400    .315 -158.3  10.380   92.9    .048   69.9    .291  -41.7 !    21.2
  500    .314 -166.3   8.380   88.3    .058   70.6    .263  -40.5 !    19.2
  600    .315 -174.1   7.050   84.3    .068   71.6    .245  -40.1 !    17.7
  700    .316 -178.9   6.080   80.8    .078   71.3    .230  -40.4 !    16.4
  800    .316  175.3   5.350   77.7    .088   70.7    .217  -40.8 !    15.2
  900    .318  170.3   4.790   74.8    .099   70.1    .206  -41.6 !    14.3
 1000    .325  165.1   4.360   71.9    .108   69.3    .196  -43.1 !    13.4
 1200    .348  157.1   3.660   66.2    .128   68.4    .176  -46.7 !    12.0
 1400    .372  150.9   3.140   61.1    .149   66.6    .160  -51.8 !    10.7
 1600    .386  146.8   2.790   56.0    .168   64.5    .144  -57.8 !     9.7
 1800    .389  139.1   2.520   51.4    .186   62.8    .124  -63.8 !     8.8
 2000    .413  132.5   2.290   46.2    .206   60.7    .103  -73.7 !     8.1
 2200    .455  126.1   2.120   42.3    .223   57.6    .084  -92.2 !     7.6
 2400    .481  122.7   1.960   38.2    .238   55.7    .079 -113.2 !     7.0
 2600    .489  118.3   1.810   33.0    .256   54.4    .075 -130.0 !     6.4
 2800    .496  113.4   1.670   29.1    .279   51.8    .065 -149.4 !     5.7
 3000    .514  106.1   1.600   24.3    .287   46.7    .064 -179.0 !     5.4
! Noise data:
! Freq.     Fmin        Gamma-opt         rn
  500       2.30     .134    155.2       .222
 1000       2.70     .253    175.6       .216
