! Filename:       BFG97F.S2P                                 Version:   2.0
! Philips part #: BFG97                                      Date: Jul 1990
! Bias condition: Vce=10V, Ic=30mA
! 
#  MHz  S  MA  R  50
! Freq       S11            S21            S12            S22     !GUM [dB]
   40    .482  -84.2  46.196  136.9    .015   61.3    .714  -41.4 !    37.5
  100    .496 -134.8  25.425  111.1    .025   55.6    .401  -65.8 !    30.1
  200    .497 -160.7  13.617   97.5    .036   61.5    .218  -80.8 !    24.1
  300    .505 -170.8   9.259   90.0    .049   65.3    .150  -89.7 !    20.7
  400    .506 -177.4   7.066   83.8    .062   65.4    .117  -97.8 !    18.3
  500    .500  175.7   5.681   79.9    .076   68.1    .098 -104.8 !    16.4
  600    .520  172.5   4.743   76.3    .088   67.0    .087 -111.6 !    14.9
  700    .510  168.0   4.094   72.8    .101   67.3    .078 -119.5 !    13.6
  800    .516  164.9   3.627   69.3    .113   66.3    .068 -127.1 !    12.6
  900    .525  160.2   3.229   65.6    .127   66.1    .064 -137.6 !    11.6
 1000    .552  156.6   2.918   63.2    .138   64.3    .064 -147.5 !    10.9
 1200    .549  148.2   2.447   55.9    .164   62.6    .073 -172.6 !     9.4
 1400    .578  144.6   2.184   50.8    .184   60.3    .094  176.1 !     8.6
 1600    .587  139.3   1.883   44.8    .208   58.4    .110  167.5 !     7.4
 1800    .586  131.9   1.704   38.0    .231   54.0    .127  159.2 !     6.5
 2000    .629  124.7   1.570   33.4    .251   52.3    .151  150.3 !     6.2
 2200    .647  119.2   1.433   28.3    .270   49.7    .184  143.4 !     5.6
 2400    .672  116.3   1.324   25.4    .281   49.0    .216  137.9 !     5.3
 2600    .682  112.0   1.233   19.1    .307   44.9    .243  132.5 !     4.8
 2800    .679  103.6   1.136   13.8    .316   40.5    .260  125.9 !     4.1
 3000    .703   97.7   1.096    9.9    .332   39.1    .283  117.8 !     4.1
