! Filename:       BFG97D.S2P                                 Version:   2.0
! Philips part #: BFG97                                      Date: Jul 1990
! Bias condition: Vce=5V, Ic=70mA
! 
#  MHz  S  MA  R  50
! Freq       S11            S21            S12            S22     !GUM [dB]
   40    .413 -127.0  54.004  125.8    .011   67.6    .564  -61.9 !    37.1
  100    .488 -158.7  26.202  104.1    .021   67.1    .290  -95.6 !    29.9
  200    .512 -173.1  13.627   93.0    .035   72.1    .182 -124.9 !    24.2
  300    .523  179.7   9.172   87.1    .050   72.7    .154 -144.1 !    20.7
  400    .529  175.0   6.916   82.3    .065   72.4    .146 -156.8 !    18.3
  500    .533  171.4   5.563   78.3    .080   71.9    .145 -166.6 !    16.4
  600    .536  167.8   4.682   74.8    .094   70.9    .143 -174.4 !    15.0
  700    .537  164.0   4.034   71.1    .108   70.1    .146  179.4 !    13.7
  800    .539  160.2   3.549   67.8    .123   68.7    .149  172.9 !    12.6
  900    .546  156.6   3.181   64.8    .137   67.3    .153  166.7 !    11.7
 1000    .553  152.7   2.895   61.9    .150   66.0    .162  161.1 !    10.9
 1200    .578  146.1   2.422   55.8    .177   63.0    .182  152.5 !     9.6
 1400    .598  140.4   2.092   50.4    .198   59.7    .201  146.6 !     8.5
 1600    .607  135.3   1.848   44.5    .223   57.8    .220  141.5 !     7.5
 1800    .615  128.4   1.679   38.5    .247   53.1    .239  135.5 !     6.8
 2000    .642  122.0   1.547   33.8    .269   50.7    .262  129.5 !     6.4
 2200    .672  116.5   1.411   29.1    .285   47.5    .290  124.6 !     6.0
 2400    .693  112.5   1.299   25.9    .296   46.2    .315  120.5 !     5.6
 2600    .692  107.5   1.213   20.2    .322   42.1    .332  115.4 !     5.0
 2800    .693  100.7   1.111   15.7    .330   37.2    .343  108.8 !     4.3
 3000    .719   93.8   1.070   11.5    .342   35.4    .364  101.8 !     4.4
