! Filename:       BFG93AB.S2P                                Version:   2.0
! Philips part #: BFG 93A                                    Date: Jun 1990
! Bias condition: Vce=5V, Ic=10mA
! IN LINE PINNING: same data as with cross emitter pinning.
!
#  MHz  S  MA  R  50
! Freq       S11            S21            S12            S22     !GUM [dB]
   40    .730  -25.4  25.704  165.3    .012   78.0    .959  -12.2 !    42.5
  100    .698  -58.9  22.382  146.4    .026   63.8    .846  -27.6 !    35.4
  200    .656  -99.2  16.867  125.6    .039   48.8    .644  -43.1 !    29.3
  300    .635 -123.2  12.775  113.1    .045   43.1    .506  -50.7 !    25.7
  400    .622 -138.7  10.135  105.0    .049   41.0    .424  -55.0 !    23.1
  500    .618 -149.4   8.369   99.2    .052   40.7    .373  -57.5 !    21.2
  600    .616 -157.2   7.082   94.5    .055   41.3    .341  -59.0 !    19.6
  700    .609 -163.7   6.117   90.6    .058   42.5    .320  -60.0 !    18.2
  800    .611 -168.9   5.391   87.2    .061   44.2    .305  -60.5 !    17.1
  900    .608 -173.5   4.822   84.7    .065   45.2    .295  -61.0 !    16.1
 1000    .609 -178.1   4.392   81.5    .067   46.4    .285  -61.6 !    15.2
 1200    .612  174.4   3.642   76.5    .074   49.3    .271  -64.2 !    13.6
 1400    .615  168.6   3.147   71.9    .081   51.2    .266  -68.1 !    12.3
 1600    .618  163.8   2.756   67.7    .088   52.7    .273  -71.0 !    11.2
 1800    .612  158.0   2.483   63.6    .095   54.2    .282  -72.2 !    10.3
 2000    .616  152.8   2.241   59.7    .104   55.8    .277  -74.0 !     9.4
 2200    .619  147.4   2.025   56.9    .112   56.5    .266  -78.5 !     8.5
 2400    .636  144.1   1.872   53.6    .117   57.3    .269  -84.9 !     8.0
 2600    .632  140.0   1.726   49.6    .125   58.4    .286  -90.4 !     7.3
 2800    .634  136.3   1.593   46.0    .134   59.0    .303  -93.4 !     6.7
 3000    .638  131.9   1.507   43.1    .143   57.0    .309  -95.8 !     6.3
! Noise data:
! Freq.     Fmin        Gamma-opt         rn
  500       1.40     .181     70.3       .191
 1000       1.90     .248    117.9       .222
 2000       2.90     .473   -169.9       .134
