! Filename:       BFG97G.S2P                                 Version:   2.0
! Philips part #: BFG97                                      Date: Jul 1990
! Bias condition: Vce=10V, Ic=50mA
! 
#  MHz  S  MA  R  50
! Freq       S11            S21            S12            S22     !GUM [dB]
   40    .437 -102.2  53.674  130.5    .013   61.1    .629  -49.8 !    37.7
  100    .474 -146.2  27.244  106.8    .021   60.7    .326  -76.3 !    30.3
  200    .482 -166.9  14.286   95.1    .035   67.9    .175  -95.5 !    24.4
  300    .496 -174.8   9.637   88.4    .048   69.1    .124 -110.5 !    21.0
  400    .505  179.5   7.339   82.9    .062   69.9    .103 -123.7 !    18.6
  500    .491  174.2   5.901   79.2    .077   70.3    .091 -133.9 !    16.7
  600    .511  169.7   4.931   75.9    .090   69.9    .085 -143.1 !    15.2
  700    .513  166.5   4.261   72.5    .103   69.3    .082 -152.8 !    13.9
  800    .519  163.6   3.772   69.2    .117   67.9    .077 -162.6 !    12.9
  900    .521  159.0   3.344   66.0    .129   67.0    .078 -172.4 !    11.9
 1000    .539  155.1   3.030   63.3    .142   65.6    .084 -179.9 !    11.2
 1200    .554  148.2   2.534   56.6    .169   63.5    .102  164.6 !     9.7
 1400    .571  143.4   2.259   51.3    .187   60.3    .122  157.5 !     8.9
 1600    .585  139.3   1.947   45.8    .213   58.6    .139  152.0 !     7.7
 1800    .592  130.7   1.767   39.1    .237   53.9    .157  145.6 !     6.9
 2000    .622  124.8   1.630   34.7    .256   52.2    .182  138.3 !     6.5
 2200    .649  118.4   1.474   29.5    .275   49.4    .213  132.7 !     5.9
 2400    .655  115.2   1.360   27.1    .286   48.5    .241  128.3 !     5.4
 2600    .674  111.2   1.285   21.2    .312   44.2    .266  123.5 !     5.1
 2800    .675  104.4   1.170   16.0    .319   39.7    .280  117.3 !     4.4
 3000    .698   97.2   1.130   12.1    .335   38.1    .302  109.8 !     4.4
