! Filename: BFM520A.s2p
! Bias: Vce=1V; Ic=1mA
! Company: Philips Semiconductors NL
! User: Quality&Reliability T&D 
! Measure time:  1 May 2001 / 09:57:52
#  MHz  S  MA  R 50
! Freq       S11             S21             S12             S22    :
   40  0.96564 -5.910  3.60636 175.37 0.011061 87.245  0.99575 -2.099
   50  0.96636 -7.439  3.61168 174.12 0.014206 85.088  0.99539 -2.653
  100  0.95886 -14.90  3.56334 168.70 0.027249 82.234  0.98844 -5.201
  200  0.93347 -29.28  3.43086 158.33 0.053252 73.662  0.96660 -10.09
  300  0.89717 -42.77  3.26265 148.64 0.074800 66.209  0.93541 -14.33
  400  0.85599 -55.00  3.04238 139.60 0.093175 59.739  0.89975 -17.96
  500  0.81469 -66.58  2.84019 131.93  0.10696 55.056  0.86237 -21.02
  600  0.76924 -76.69  2.63430 124.72  0.11853 50.393  0.82694 -23.50
  700  0.72355 -86.20  2.43754 118.22  0.12639 46.470  0.79392 -25.67
  800  0.68954 -95.25  2.27508 112.35  0.13191 43.277  0.76307 -27.51
  900  0.65375 -103.8  2.11432 106.80  0.13662 41.001  0.73665 -29.34
 1000  0.62996 -112.1  1.97751 102.05  0.13923 38.745  0.71396 -31.08
 1200  0.60684 -127.2  1.77421 93.451  0.14265 36.532  0.68290 -34.61
 1400  0.59592 -138.8  1.60900 86.202  0.14147 36.279  0.66200 -37.68
 1600  0.58066 -148.3  1.45406 80.134  0.13877 37.926  0.64291 -40.35
 1800  0.56239 -157.7  1.32610 75.345  0.13613 40.222  0.61771 -43.54
 2000  0.56842 -167.7  1.22999 70.077  0.13549 43.852  0.59611 -48.54
 2200  0.59173 -174.9  1.15392 64.953  0.13593 48.345  0.59421 -54.47
 2400  0.61143 -179.7  1.08649 59.659  0.13886 54.626  0.60877 -59.32
 2600  0.61028 176.01  1.03517 56.759  0.15044 61.016  0.61727 -62.88
 2800  0.60534 171.14  1.00242 53.201  0.16160 66.473  0.60874 -66.94
 3000  0.61195 166.11  0.94248 50.669  0.17755 71.537  0.59797 -73.20
