! Filename: BFM520B.s2p
! Bias: Vce=6V; Ic=20mA
! Company: Philips Semiconductors NL
! User: Quality&Reliability T&D 
! Measure time:  1 May 2001 / 10:45:28
#  MHz  S  MA  R 50
! Freq       S11             S21             S12             S22    :
   40  0.70770 -20.66 36.43493 163.07 0.008519 78.971  0.92295 -11.74
   50  0.69425 -25.68 35.71174 159.15 0.010000 76.561  0.90601 -14.46
  100  0.60743 -47.10 30.71859 143.04 0.018451 71.102  0.79420 -25.20
  200  0.45526 -77.75 21.65043 122.73 0.029291 65.399  0.59329 -35.37
  300  0.36451 -97.17 16.06881 111.80 0.037886 65.789  0.47281 -37.40
  400  0.31036 -111.4 12.56129 104.78 0.045644 67.670  0.40537 -36.64
  500  0.28006 -123.0 10.31740 100.02 0.053626 69.217  0.36194 -35.25
  600  0.25462 -132.2  8.72218 96.186 0.062362 70.615  0.33138 -33.35
  700  0.23618 -141.0  7.53652 93.114 0.070658 71.370  0.30825 -31.98
  800  0.23013 -148.5  6.66398 90.395 0.079148 72.492  0.28949 -30.50
  900  0.22393 -157.3  5.95030 87.896 0.088598 72.446  0.27352 -29.94
 1000  0.22737 -164.1  5.38814 85.817 0.096469 72.793  0.26030 -29.97
 1200  0.24702 -171.6  4.55435 81.911  0.11455 73.470  0.24313 -31.72
 1400  0.25601 -176.6  3.95472 78.231  0.13166 73.151  0.23559 -33.47
 1600  0.25092 178.73  3.48729 74.950  0.14968 73.414  0.22554 -33.17
 1800  0.25230 169.95  3.12691 72.410  0.16829 72.967  0.20380 -32.29
 2000  0.28655 162.68  2.85946 69.561  0.18581 72.479  0.17357 -36.70
 2200  0.33101 161.89  2.62755 66.961  0.20187 71.417  0.15918 -48.06
 2400  0.35355 163.88  2.42780 63.559  0.21810 70.879  0.16878 -57.79
 2600  0.35387 164.72  2.26372 61.094  0.23895 69.751  0.17898 -60.31
 2800  0.34992 163.41  2.15698 58.605  0.25481 68.471  0.17051 -60.48
 3000  0.36282 159.99  2.02413 56.293  0.27046 67.835  0.14974 -66.96
