! Filename: BFM520A.2sp
! Bias: Vce=3V; Ic=5mA
! Company: Philips Semiconductors NL
! User: Quality&Reliability T&D 
! Measure time:  1 May 2001 / 10:26:30
#  MHz  S  MA  R 50
! Freq       S11             S21             S12             S22    :
   40  0.85330 -11.36 15.34808 170.98 0.009483 84.165  0.97988 -5.458
   50  0.84780 -14.32 15.29218 168.68 0.011251 82.208  0.97493 -6.779
  100  0.81432 -27.87 14.54229 158.57 0.022351 77.356  0.93782 -12.94
  200  0.72001 -51.60 12.52053 141.56 0.038899 66.586  0.83403 -22.22
  300  0.62457 -70.18 10.53321 128.99 0.051103 60.228  0.73070 -27.62
  400  0.54768 -84.97  8.83238 119.56 0.059133 57.758  0.64927 -30.36
  500  0.49275 -97.37  7.56981 112.67 0.065562 57.375  0.58767 -31.59
  600  0.44296 -107.6  6.56747 107.04 0.072194 57.167  0.54119 -31.99
  700  0.40499 -117.1  5.76901 102.38 0.077565 57.490  0.50467 -32.05
  800  0.38227 -125.4  5.16708 98.406 0.082601 58.376  0.47540 -31.98
  900  0.36014 -134.1  4.65065 94.773 0.088663 59.596  0.45127 -32.18
 1000  0.35206 -141.7  4.23853 91.740 0.094417 60.585  0.43156 -32.52
 1200  0.35523 -153.8  3.62991 86.352  0.10667 62.902  0.40629 -34.32
 1400  0.35750 -161.8  3.17991 81.594  0.11948 65.003  0.39335 -35.91
 1600  0.34821 -168.8  2.81947 77.470  0.13291 67.031  0.38037 -36.69
 1800  0.34393 -177.1  2.53523 74.251  0.14811 68.363  0.35675 -37.55
 2000  0.36698 174.31  2.32391 70.649  0.16150 69.121  0.32942 -41.64
 2200  0.40650 170.54  2.15303 67.238  0.17578 69.577  0.31842 -48.48
 2400  0.42831 169.73  2.00052 63.216  0.19100 70.608  0.32837 -54.23
 2600  0.42875 169.11  1.87670 60.630  0.21001 70.828  0.33857 -56.73
 2800  0.42398 166.58  1.79748 57.821  0.22621 70.540  0.33028 -58.65
 3000  0.43339 162.51  1.69001 55.211  0.24172 71.105  0.31199 -63.55
