! Filename:       BFQ149F.S2P                                Version:   2.0
! Philips part #: BFQ149                                     Date: Aug 1990
! Bias condition: Vce=-10V, Ic=-30mA
!
#  MHz  S  MA  R  50
! Freq       S11            S21            S12            S22     !GUM [dB]
   40    .298 -101.2  31.095  138.4    .018   73.8    .697  -39.1 !    33.2
  100    .344 -145.8  17.299  110.8    .034   71.6    .401  -60.3 !    26.1
  200    .346 -169.0   9.284   96.4    .058   73.5    .235  -68.8 !    20.2
  300    .380  178.8   6.315   87.9    .085   74.3    .180  -72.9 !    16.8
  400    .372  171.5   4.873   81.8    .111   73.7    .156  -76.0 !    14.5
  500    .376  166.6   3.874   77.3    .136   73.6    .143  -80.1 !    12.5
  600    .400  161.2   3.313   73.4    .159   71.8    .135  -83.8 !    11.2
  700    .408  155.0   2.838   69.2    .184   70.7    .134  -88.1 !     9.9
  800    .418  147.9   2.540   65.5    .207   69.4    .135  -93.2 !     9.0
  900    .412  144.3   2.282   62.0    .230   67.6    .135  -98.6 !     8.1
 1000    .418  140.4   2.098   57.9    .253   66.0    .137 -104.0 !     7.4
 1200    .472  134.1   1.790   52.2    .293   63.5    .147 -114.2 !     6.2
 1400    .483  127.1   1.617   45.8    .336   60.9    .157 -125.7 !     5.4
 1600    .511  121.9   1.462   40.6    .376   56.6    .160 -123.8 !     4.7
 1800    .537  112.6   1.382   36.3    .405   54.9    .192 -132.5 !     4.4
 2000    .533  107.1   1.265   31.5    .436   52.4    .205 -144.2 !     3.7
 2200    .597  104.8   1.203   29.1    .465   50.3    .230 -151.1 !     3.8
 2400    .590  101.5   1.130   24.4    .496   47.8    .263 -157.9 !     3.2
 2600    .638   99.8   1.062   21.6    .511   45.3    .286 -161.9 !     3.2
 2800    .607   95.8   1.006   19.1    .536   43.5    .310 -164.8 !     2.5
 3000    .643   92.2    .969   14.9    .561   40.9    .329 -169.9 !     2.5
