! Filename:       BFQ18AD.S2P                                Version:   2.0
! Philips part #: BFQ18A                                     Date: May 1990
! Bias condition: Vce=10V, Ic=70mA
!
#  MHz  S  MA  R  50
! Freq       S11            S21            S12            S22     !GUM [dB]
   40    .662  -52.5  26.992  145.0    .027   66.2    .820  -33.6 !    36.0
  100    .501 -100.6  16.740  117.6    .047   57.3    .520  -58.9 !    27.1
  200    .412 -138.5   9.406   99.6    .068   58.4    .312  -74.2 !    20.7
  300    .394 -157.1   6.497   90.6    .089   62.5    .235  -81.8 !    17.2
  400    .394 -169.1   4.940   84.1    .110   64.9    .202  -87.6 !    14.8
  500    .398 -178.2   4.020   78.8    .132   66.1    .185  -92.2 !    13.0
  600    .400  175.3   3.402   74.0    .154   66.9    .177  -96.7 !    11.5
  700    .403  168.3   2.961   69.9    .176   66.8    .174 -101.2 !    10.3
  800    .408  162.3   2.639   65.9    .199   66.6    .176 -105.3 !     9.4
  900    .419  157.4   2.380   62.1    .221   65.9    .180 -110.4 !     8.5
 1000    .433  152.0   2.171   58.7    .242   65.5    .185 -114.4 !     7.8
 1200    .465  144.3   1.867   52.3    .284   64.2    .200 -122.6 !     6.7
 1400    .498  138.0   1.666   45.9    .328   62.0    .218 -130.6 !     5.9
 1600    .514  131.9   1.500   40.8    .373   59.8    .214 -130.9 !     5.1
 1800    .531  123.3   1.389   36.9    .403   58.7    .263 -136.3 !     4.6
 2000    .544  119.1   1.304   31.6    .443   56.0    .285 -147.5 !     4.2
 2200    .591  114.5   1.224   27.8    .480   53.7    .319 -152.7 !     4.1
 2400    .615  111.4   1.145   23.8    .515   50.9    .355 -159.0 !     3.8
 2600    .637  107.7   1.066   20.4    .534   48.2    .380 -163.4 !     3.5
 2800    .637  102.9   1.032   16.8    .566   46.4    .411 -166.4 !     3.3
 3000    .652   98.5    .984   13.8    .598   43.3    .436 -171.0 !     3.2
