! Filename:       BFQ19C.S2P                                 Version:   2.0
! Philips part #: BFQ19                                      Date: Jul 1990
! Bias condition: Vce=5V, Ic=50mA
! 
#  MHz  S  MA  R  50
! Freq       S11            S21            S12            S22     !GUM [dB]
   40    .291 -122.0  41.433  124.2    .015   69.2    .555  -54.5 !    34.3
  100    .324 -158.1  19.693  102.7    .031   75.9    .274  -74.6 !    26.7
  200    .336 -175.6  10.184   91.6    .059   77.2    .159  -84.8 !    20.8
  300    .341  176.0   6.908   85.6    .086   77.3    .124  -91.3 !    17.4
  400    .350  169.6   5.205   80.8    .113   76.7    .113  -97.3 !    15.0
  500    .358  163.8   4.213   76.6    .139   75.0    .108 -101.8 !    13.1
  600    .361  159.4   3.547   72.9    .165   74.0    .109 -107.0 !    11.7
  700    .366  154.1   3.090   69.4    .190   72.0    .112 -111.7 !    10.5
  800    .375  148.9   2.739   65.8    .214   70.3    .117 -116.2 !     9.5
  900    .386  144.5   2.467   62.8    .238   68.6    .122 -121.3 !     8.6
 1000    .402  139.6   2.254   59.8    .260   67.1    .129 -125.7 !     7.9
 1200    .434  133.2   1.933   54.1    .304   64.1    .143 -134.2 !     6.7
 1400    .462  128.2   1.719   48.7    .347   61.0    .159 -142.3 !     5.9
 1600    .475  122.8   1.557   43.9    .390   57.7    .152 -140.9 !     5.1
 1800    .498  113.4   1.434   40.1    .412   55.6    .190 -145.1 !     4.5
 2000    .503  109.8   1.346   35.1    .450   52.7    .212 -157.0 !     4.0
 2200    .546  106.2   1.274   32.0    .479   50.2    .239 -161.0 !     3.9
 2400    .566  104.3   1.200   28.1    .510   47.5    .269 -166.4 !     3.6
 2600    .583  101.4   1.126   24.6    .522   45.0    .290 -170.0 !     3.2
 2800    .581   97.5   1.087   21.4    .549   43.2    .313 -171.7 !     3.0
 3000    .597   93.7   1.046   18.1    .575   40.5    .333 -175.3 !     2.8
