! Filename:       BFQ149A.S2P                                Version:   2.0
! Philips part #: BFQ149                                     Date: Aug 1990
! Bias condition: Vce=-5V, Ic=-15mA
!
#  MHz  S  MA  R  50
! Freq       S11            S21            S12            S22     !GUM [dB]
   40    .339  -83.8  23.245  143.0    .023   69.5    .783  -34.0 !    32.0
  100    .403 -134.7  14.089  115.6    .041   63.2    .485  -57.6 !    24.9
  200    .430 -162.7   7.858   98.0    .064   66.0    .288  -70.0 !    19.2
  300    .441 -176.1   5.395   88.8    .088   68.4    .218  -75.7 !    15.8
  400    .449  175.2   4.117   82.1    .112   69.3    .187  -80.3 !    13.4
  500    .454  168.2   3.348   76.7    .136   69.5    .173  -84.4 !    11.6
  600    .461  162.0   2.829   71.9    .160   69.3    .166  -88.3 !    10.2
  700    .467  156.2   2.474   67.5    .184   68.5    .164  -92.4 !     9.1
  800    .478  150.8   2.201   63.4    .208   67.5    .163  -96.3 !     8.1
  900    .487  145.9   1.992   59.5    .231   66.3    .164 -100.7 !     7.3
 1000    .502  141.2   1.822   55.9    .253   65.3    .165 -105.7 !     6.6
 1200    .531  133.5   1.574   49.5    .295   63.0    .175 -116.4 !     5.5
 1400    .555  127.2   1.408   43.8    .338   60.7    .191 -125.9 !     4.7
 1600    .576  120.9   1.287   37.9    .382   56.9    .199 -129.2 !     4.1
 1800    .604  113.1   1.189   34.4    .410   55.0    .225 -134.1 !     3.7
 2000    .607  106.5   1.121   28.8    .446   52.5    .247 -143.8 !     3.3
 2200    .642  102.6   1.060   25.9    .477   50.6    .273 -151.6 !     3.2
 2400    .655   99.9   1.003   22.4    .507   48.1    .308 -158.3 !     2.9
 2600    .655   96.8    .936   19.4    .525   45.4    .334 -161.7 !     2.4
 2800    .649   92.3    .906   16.9    .550   43.4    .359 -164.7 !     2.1
 3000    .654   87.8    .873   14.0    .582   40.8    .376 -169.6 !     1.9
