! Filename:       BFQ19E.S2P                                 Version:   2.0
! Philips part #: BFQ19                                      Date: Jul 1990
! Bias condition: Vce=10V, Ic=15mA
!
#  MHz  S  MA  R  50
! Freq       S11            S21            S12            S22     !GUM [dB]
   40    .529  -58.1  26.559  142.3    .021   66.2    .789  -31.6 !    34.1
  100    .412 -113.2  16.543  114.8    .037   61.7    .486  -48.3 !    26.3
  200    .366 -150.4   9.198   97.8    .057   64.9    .308  -51.7 !    20.3
  300    .361 -166.8   6.327   89.5    .078   68.5    .249  -51.2 !    16.9
  400    .365 -177.8   4.801   83.4    .100   70.1    .222  -52.0 !    14.5
  500    .371  173.7   3.896   78.4    .122   70.4    .208  -53.7 !    12.6
  600    .374  167.8   3.296   73.9    .144   70.6    .200  -56.3 !    11.2
  700    .381  160.8   2.867   70.0    .166   69.7    .195  -59.3 !    10.0
  800    .387  154.8   2.549   66.1    .187   68.9    .192  -62.9 !     9.0
  900    .396  149.9   2.292   62.7    .208   68.3    .190  -67.7 !     8.1
 1000    .411  144.1   2.097   59.3    .226   67.3    .189  -72.1 !     7.4
 1200    .444  137.0   1.806   53.1    .267   65.5    .189  -81.7 !     6.2
 1400    .473  130.9   1.607   47.4    .306   63.3    .193  -91.1 !     5.4
 1600    .490  124.7   1.446   42.2    .348   60.8    .194  -91.9 !     4.6
 1800    .517  115.9   1.333   38.3    .372   59.3    .221 -103.4 !     4.1
 2000    .522  111.6   1.249   33.5    .409   56.9    .226 -116.6 !     3.5
 2200    .568  107.1   1.182   29.9    .443   54.9    .249 -125.3 !     3.4
 2400    .587  104.8   1.113   26.4    .475   52.4    .275 -134.4 !     3.1
 2600    .599  101.4   1.037   22.9    .494   49.9    .294 -140.8 !     2.6
 2800    .599   96.7   1.004   19.9    .521   48.4    .320 -144.8 !     2.4
 3000    .610   92.2    .960   17.1    .553   45.7    .341 -150.9 !     2.2
