! Filename:       BFQ149H.S2P                                Version:   2.0
! Philips part #: BFQ149                                     Date: Aug 1990
! Bias condition: Vce=-10V, Ic=-70mA
!
#  MHz  S  MA  R  50
! Freq       S11            S21            S12            S22     !GUM [dB]
   40    .286 -137.8  33.887  131.9    .015   75.2    .576  -45.6 !    32.7
  100    .350 -163.5  17.349  106.1    .032   76.3    .307  -65.3 !    25.8
  200    .368 -179.7   9.099   93.6    .057   77.9    .180  -72.8 !    20.0
  300    .387  174.5   6.167   86.0    .085   77.7    .142  -77.4 !    16.6
  400    .397  167.3   4.752   80.3    .111   76.2    .126  -81.4 !    14.4
  500    .396  163.4   3.775   75.9    .138   75.5    .118  -86.0 !    12.3
  600    .405  159.0   3.211   72.2    .163   73.3    .115  -91.6 !    11.0
  700    .413  152.5   2.758   68.0    .188   72.0    .116  -95.9 !     9.7
  800    .428  148.0   2.468   64.6    .213   70.3    .120 -101.3 !     8.8
  900    .424  143.6   2.230   61.2    .234   68.3    .124 -107.1 !     7.9
 1000    .441  137.6   2.042   57.5    .258   66.6    .128 -113.0 !     7.2
 1200    .487  132.7   1.744   51.5    .298   63.5    .141 -122.1 !     6.1
 1400    .509  126.4   1.573   45.0    .343   60.9    .155 -133.5 !     5.3
 1600    .526  119.5   1.425   40.1    .381   56.7    .151 -133.1 !     4.6
 1800    .559  111.0   1.336   36.1    .411   54.7    .189 -139.1 !     4.3
 2000    .561  105.9   1.235   31.4    .442   52.3    .207 -150.4 !     3.7
 2200    .610  102.7   1.167   28.3    .472   50.1    .235 -157.2 !     3.6
 2400    .604  100.0   1.096   24.2    .502   47.4    .268 -162.9 !     3.1
 2600    .645   98.2   1.027   20.9    .516   44.9    .290 -166.4 !     3.0
 2800    .617   94.0    .991   19.7    .541   43.2    .314 -169.3 !     2.5
 3000    .650   90.7    .951   14.7    .566   40.3    .333 -174.2 !     2.5
