! Filename:       BFQ19F.S2P                                 Version:   2.0
! Philips part #: BFQ19                                      Date: Jul 1990
! Bias condition: Vce=10V, Ic=30mA
! 
#  MHz  S  MA  R  50
! Freq       S11            S21            S12            S22     !GUM [dB]
   40    .348  -78.7  37.635  130.3    .017   70.3    .656  -41.9 !    34.5
  100    .277 -129.5  19.061  107.0    .031   67.9    .357  -56.3 !    26.5
  200    .263 -159.5  10.188   95.2    .056   73.7    .218  -56.9 !    20.7
  300    .292 -176.2   6.906   87.6    .081   74.6    .176  -56.4 !    17.3
  400    .315  172.2   5.271   82.3    .104   74.4    .159  -57.4 !    15.0
  500    .336  169.9   4.274   78.2    .128   74.1    .150  -60.5 !    13.2
  600    .331  167.1   3.604   75.2    .152   73.1    .141  -64.4 !    11.7
  700    .335  162.5   3.129   70.8    .175   72.3    .138  -67.2 !    10.5
  800    .356  157.6   2.793   68.1    .200   71.2    .136  -71.6 !     9.6
  900    .352  152.4   2.551   64.6    .222   69.5    .139  -76.2 !     8.8
 1000    .368  150.0   2.324   61.9    .244   67.8    .138  -81.4 !     8.0
 1200    .390  140.3   1.995   55.3    .282   65.3    .142  -91.6 !     6.8
 1400    .443  133.1   1.773   50.7    .325   63.2    .144 -103.0 !     6.0
 1600    .443  129.4   1.592   44.1    .365   58.7    .149 -105.1 !     5.1
 1800    .472  118.8   1.497   41.6    .392   57.4    .174 -113.0 !     4.7
 2000    .510  115.6   1.406   35.6    .425   55.0    .186 -124.8 !     4.4
 2200    .547  114.6   1.332   33.3    .455   53.7    .206 -134.3 !     4.2
 2400    .562  111.4   1.239   29.9    .490   50.6    .233 -141.3 !     3.8
 2600    .565  107.8   1.167   25.7    .505   48.4    .252 -145.6 !     3.3
 2800    .574  106.4   1.128   21.8    .530   47.2    .278 -149.0 !     3.1
 3000    .602   99.2   1.103   18.2    .559   44.7    .299 -154.8 !     3.2
