! Filename:       BFQ149E.S2P                                Version:   2.0
! Philips part #: BFQ149                                     Date: Aug 1990
! Bias condition: Vce=-10V, Ic=-15mA
!
#  MHz  S  MA  R  50
! Freq       S11            S21            S12            S22     !GUM [dB]
   40    .391  -67.5  24.746  144.4    .021   70.9    .799  -30.4 !    33.0
  100    .383 -121.4  15.315  117.0    .039   63.5    .508  -50.9 !    25.7
  200    .383 -154.7   8.617   99.2    .061   65.9    .312  -59.2 !    19.8
  300    .389 -170.7   5.923   90.0    .084   68.5    .241  -61.7 !    16.4
  400    .395  179.3   4.520   83.4    .106   69.2    .208  -64.0 !    14.0
  500    .400  171.4   3.671   78.1    .129   69.6    .191  -66.5 !    12.2
  600    .408  164.8   3.100   73.4    .152   69.5    .183  -69.3 !    10.8
  700    .413  158.6   2.708   69.1    .174   68.8    .178  -72.6 !     9.6
  800    .425  153.0   2.404   65.0    .197   67.9    .175  -76.1 !     8.6
  900    .436  147.5   2.172   61.2    .219   66.9    .174  -80.2 !     7.8
 1000    .449  142.9   1.981   57.7    .240   65.8    .171  -84.8 !     7.0
 1200    .481  135.1   1.709   51.3    .280   63.7    .172  -95.7 !     5.9
 1400    .510  128.8   1.524   45.5    .321   61.6    .180 -106.9 !     5.1
 1600    .529  122.3   1.382   39.8    .360   58.2    .182 -108.2 !     4.4
 1800    .559  114.4   1.276   36.1    .390   56.4    .212 -116.3 !     3.9
 2000    .568  108.3   1.199   30.3    .425   53.9    .225 -128.4 !     3.5
 2200    .608  104.3   1.129   27.1    .456   52.1    .245 -138.0 !     3.3
 2400    .624  101.6   1.065   23.4    .486   49.8    .277 -146.5 !     3.0
 2600    .629   98.8    .992   20.2    .504   47.2    .303 -150.8 !     2.5
 2800    .626   94.1    .954   17.7    .530   45.4    .329 -154.3 !     2.2
 3000    .634   89.5    .918   14.6    .561   42.8    .345 -159.8 !     2.0
