! Filename:       BFQ149G.S2P                                Version:   2.0
! Philips part #: BFQ149                                     Date: Aug 1990
! Bias condition: Vce=-10V, Ic=-50mA
!
#  MHz  S  MA  R  50
! Freq       S11            S21            S12            S22     !GUM [dB]
   40    .268 -124.4  33.698  134.0    .016   72.7    .620  -43.9 !    33.0
  100    .338 -156.9  17.704  107.6    .032   75.1    .339  -64.2 !    26.0
  200    .350 -175.0   9.346   94.4    .058   76.5    .197  -72.5 !    20.2
  300    .379  175.2   6.342   86.7    .085   76.8    .153  -77.2 !    16.8
  400    .373  170.2   4.875   80.7    .112   75.6    .134  -81.1 !    14.5
  500    .385  164.2   3.871   76.6    .138   74.8    .124  -85.9 !    12.5
  600    .391  159.7   3.302   72.8    .163   72.7    .120  -90.8 !    11.2
  700    .402  151.9   2.849   68.5    .188   71.3    .120  -95.3 !     9.9
  800    .417  146.7   2.535   65.0    .212   69.7    .123 -100.1 !     9.0
  900    .420  143.1   2.290   61.6    .234   67.8    .126 -106.1 !     8.1
 1000    .417  138.7   2.098   57.8    .257   66.2    .128 -111.8 !     7.3
 1200    .476  134.1   1.789   52.0    .299   63.3    .141 -121.4 !     6.3
 1400    .506  126.7   1.624   45.7    .342   60.6    .155 -132.2 !     5.6
 1600    .513  121.9   1.455   40.1    .381   56.5    .153 -131.0 !     4.7
 1800    .537  110.7   1.365   36.5    .409   54.5    .188 -138.2 !     4.3
 2000    .536  106.5   1.260   31.6    .440   52.0    .204 -149.5 !     3.7
 2200    .609  105.4   1.193   28.5    .469   49.8    .230 -156.3 !     3.8
 2400    .604  101.7   1.117   24.7    .500   47.2    .263 -162.4 !     3.2
 2600    .638   98.8   1.056   21.1    .514   44.8    .286 -165.7 !     3.1
 2800    .611   95.0   1.004   19.0    .538   43.1    .311 -168.6 !     2.5
 3000    .634   91.2    .961   16.0    .564   40.4    .330 -173.0 !     2.4
