! Filename:       BFQ18AE.S2P                                Version:   2.0
! Philips part #: BFQ18A                                     Date: May 1990
! Bias condition: Vce=10V, Ic=100mA
!
#  MHz  S  MA  R  50
! Freq       S11            S21            S12            S22     !GUM [dB]
   40    .643  -49.9  26.561  143.3    .027   68.3    .807  -34.2 !    35.4
  100    .464  -96.0  16.118  116.8    .047   57.0    .509  -59.1 !    26.5
  200    .362 -135.8   9.205  100.8    .069   59.2    .304  -73.3 !    20.3
  300    .362 -157.6   6.337   90.5    .090   63.1    .231  -80.3 !    16.9
  400    .374 -172.5   4.851   83.9    .112   65.6    .199  -85.8 !    14.5
  500    .391 -177.8   3.946   78.7    .135   66.5    .184  -91.5 !    12.8
  600    .391  176.3   3.342   74.8    .158   67.0    .172  -96.5 !    11.3
  700    .393  171.4   2.915   69.9    .181   67.6    .168 -100.4 !    10.1
  800    .407  165.7   2.597   66.5    .205   67.0    .169 -104.5 !     9.2
  900    .407  160.4   2.383   62.8    .229   66.1    .174 -108.0 !     8.5
 1000    .417  157.7   2.181   59.5    .250   65.4    .178 -111.9 !     7.7
 1200    .458  145.8   1.880   52.5    .292   63.9    .194 -120.2 !     6.7
 1400    .499  139.3   1.662   47.3    .337   62.4    .210 -128.5 !     5.9
 1600    .513  132.1   1.504   40.0    .378   58.1    .204 -134.5 !     5.1
 1800    .531  125.3   1.418   37.2    .410   57.6    .244 -135.6 !     4.7
 2000    .579  121.3   1.333   32.2    .453   55.4    .274 -143.6 !     4.6
 2200    .619  117.5   1.252   29.1    .489   53.7    .307 -150.4 !     4.5
 2400    .626  113.0   1.182   24.7    .525   50.8    .344 -155.5 !     4.2
 2600    .638  110.5   1.088   20.0    .545   48.1    .366 -159.4 !     3.6
 2800    .645  106.5   1.057   16.4    .575   46.7    .397 -162.4 !     3.6
 3000    .672  101.6   1.048   14.0    .609   43.7    .427 -167.2 !     3.9
