! Filename:       BFQ19A.S2P                                 Version:   2.0
! Philips part #: BFQ19                                      Date: Jul 1990
! Bias condition: Vce=5V, Ic=15mA
! 
#  MHz  S  MA  R  50
! Freq       S11            S21            S12            S22     !GUM [dB]
   40    .495  -64.3  26.426  141.0    .022   65.5    .774  -34.5 !    33.6
  100    .411 -120.3  16.096  113.6    .038   62.3    .461  -53.2 !    26.0
  200    .385 -155.3   8.875   96.9    .059   65.4    .283  -58.9 !    20.0
  300    .384 -170.3   6.097   88.7    .082   68.7    .222  -60.0 !    16.6
  400    .390  179.4   4.628   82.6    .104   69.9    .196  -61.5 !    14.2
  500    .396  171.7   3.758   77.8    .127   70.2    .182  -63.9 !    12.4
  600    .399  165.9   3.178   73.3    .150   70.4    .175  -67.0 !    10.9
  700    .404  159.2   2.763   69.2    .172   69.5    .171  -70.9 !     9.7
  800    .411  153.8   2.465   65.2    .194   68.7    .170  -74.7 !     8.8
  900    .421  148.9   2.215   61.9    .216   67.8    .170  -80.0 !     7.9
 1000    .439  143.8   2.023   58.5    .236   66.8    .171  -84.8 !     7.2
 1200    .469  136.0   1.745   52.4    .278   64.7    .176  -94.9 !     6.1
 1400    .495  130.0   1.556   46.5    .320   62.5    .183 -104.9 !     5.2
 1600    .512  124.0   1.408   41.4    .363   59.9    .185 -106.2 !     4.4
 1800    .537  114.5   1.290   37.5    .386   58.2    .216 -115.5 !     3.9
 2000    .541  110.5   1.219   32.9    .423   55.7    .227 -128.5 !     3.5
 2200    .584  106.2   1.150   29.4    .456   53.4    .253 -135.8 !     3.3
 2400    .597  103.6   1.088   25.6    .489   51.1    .284 -144.0 !     3.0
 2600    .614  100.4   1.014   22.6    .507   48.5    .304 -149.5 !     2.6
 2800    .614   95.9    .984   19.6    .535   46.9    .330 -152.9 !     2.4
 3000    .622   91.5    .943   16.4    .564   44.2    .352 -158.4 !     2.2
