! Filename:       BFQ19B.S2P                                 Version:   2.0
! Philips part #: BFQ19                                      Date: Jul 1990
! Bias condition: Vce=5V, Ic=30mA
! 
#  MHz  S  MA  R  50
! Freq       S11            S21            S12            S22     !GUM [dB]
   40    .337  -98.2  36.773  130.2    .017   67.6    .637  -47.0 !    34.1
  100    .339 -146.4  18.761  106.1    .033   70.3    .333  -66.5 !    26.5
  200    .347 -169.7   9.851   93.2    .058   74.4    .194  -74.2 !    20.6
  300    .351  179.9   6.703   86.5    .084   75.4    .150  -78.1 !    17.2
  400    .359  172.4   5.053   81.3    .110   75.1    .131  -82.4 !    14.7
  500    .367  166.2   4.094   77.0    .135   73.6    .125  -86.2 !    12.9
  600    .369  161.4   3.453   73.0    .160   73.1    .122  -91.3 !    11.5
  700    .377  155.4   3.016   69.4    .185   71.5    .121  -95.8 !    10.3
  800    .382  150.1   2.672   66.0    .208   70.0    .124 -100.3 !     9.3
  900    .392  145.7   2.404   62.7    .232   68.5    .128 -106.3 !     8.4
 1000    .409  140.7   2.196   59.5    .253   67.0    .132 -111.2 !     7.7
 1200    .440  134.1   1.889   53.6    .296   64.2    .143 -121.2 !     6.5
 1400    .468  128.7   1.679   48.1    .339   61.3    .157 -130.2 !     5.7
 1600    .484  122.9   1.522   43.2    .382   58.1    .154 -129.7 !     4.9
 1800    .502  114.1   1.400   39.5    .404   56.3    .190 -135.5 !     4.3
 2000    .513  110.2   1.316   34.4    .441   53.4    .208 -148.0 !     3.9
 2200    .553  106.2   1.242   31.3    .472   51.1    .235 -153.2 !     3.7
 2400    .573  104.3   1.171   27.3    .502   48.5    .266 -159.4 !     3.4
 2600    .589  101.2   1.099   24.0    .517   46.0    .286 -163.5 !     3.0
 2800    .592   97.2   1.063   20.9    .542   44.3    .309 -165.7 !     2.8
 3000    .603   92.8   1.020   17.2    .570   41.6    .331 -170.0 !     2.6
