! Filename:       BFQ19G.S2P                                 Version:   2.0
! Philips part #: BFQ19                                      Date: Jul 1990
! Bias condition: Vce=10V, Ic=50mA
! 
#  MHz  S  MA  R  50
! Freq       S11            S21            S12            S22     !GUM [dB]
   40    .289  -94.7  42.853  124.3    .015   70.0    .566  -48.2 !    34.7
  100    .251 -142.7  20.280  103.1    .030   72.9    .290  -61.9 !    26.8
  200    .254 -168.6  10.636   93.0    .057   75.3    .172  -63.4 !    21.0
  300    .285  177.9   7.194   86.2    .082   76.6    .137  -63.2 !    17.6
  400    .294  169.3   5.452   81.6    .107   76.0    .123  -64.8 !    15.2
  500    .316  166.7   4.407   77.7    .132   75.0    .119  -68.9 !    13.4
  600    .326  165.2   3.724   74.9    .156   74.1    .114  -73.6 !    12.0
  700    .325  161.7   3.219   70.9    .180   72.8    .113  -77.6 !    10.7
  800    .342  157.5   2.869   67.9    .206   71.3    .112  -83.2 !     9.7
  900    .338  151.2   2.618   64.8    .229   69.5    .117  -88.1 !     8.9
 1000    .352  149.6   2.397   62.3    .250   68.0    .119  -93.1 !     8.2
 1200    .379  139.3   2.044   55.8    .291   64.9    .126 -104.6 !     7.0
 1400    .419  133.2   1.813   51.6    .334   63.1    .132 -115.9 !     6.1
 1600    .455  127.5   1.650   44.9    .374   58.0    .136 -117.4 !     5.4
 1800    .453  117.6   1.543   41.9    .401   56.7    .164 -124.0 !     4.9
 2000    .507  115.5   1.450   36.6    .434   54.3    .178 -135.4 !     4.7
 2200    .542  114.8   1.359   34.2    .465   52.7    .201 -144.5 !     4.4
 2400    .540  110.0   1.282   30.2    .497   49.8    .228 -149.5 !     3.9
 2600    .556  109.1   1.195   26.9    .511   47.3    .249 -153.2 !     3.4
 2800    .556  105.7   1.154   21.8    .535   46.1    .273 -156.2 !     3.2
 3000    .602  100.6   1.142   19.1    .563   43.4    .296 -161.3 !     3.5
