! Filename:       BFQ149B.S2P                                Version:   2.0
! Philips part #: BFQ149                                     Date: Aug 1990
! Bias condition: Vce=-5V, Ic=-30mA
!
#  MHz  S  MA  R  50
! Freq       S11            S21            S12            S22     !GUM [dB]
   40    .279 -130.4  28.157  136.7    .018   72.6    .689  -42.3 !    32.1
  100    .389 -159.0  15.505  110.5    .035   72.1    .389  -67.8 !    25.2
  200    .421 -175.5   8.364   95.2    .061   74.7    .227  -82.8 !    19.5
  300    .432  175.4   5.696   87.1    .089   75.3    .173  -91.3 !    16.1
  400    .441  168.8   4.333   81.1    .116   74.4    .152  -97.9 !    13.8
  500    .446  163.0   3.515   76.1    .142   73.4    .143 -103.5 !    12.0
  600    .453  157.8   2.968   71.7    .168   72.2    .140 -107.8 !    10.5
  700    .458  152.8   2.594   67.5    .194   70.6    .142 -112.0 !     9.4
  800    .469  147.8   2.305   63.6    .219   69.2    .143 -116.1 !     8.4
  900    .479  143.3   2.084   59.9    .243   67.4    .147 -120.1 !     7.6
 1000    .492  138.9   1.904   56.5    .266   65.8    .151 -125.2 !     6.9
 1200    .522  131.7   1.646   50.4    .309   62.9    .166 -134.5 !     5.8
 1400    .545  125.8   1.469   44.6    .353   60.2    .184 -142.2 !     5.0
 1600    .565  120.0   1.344   38.8    .397   56.0    .190 -144.7 !     4.4
 1800    .592  112.2   1.244   35.4    .424   53.9    .215 -147.5 !     4.0
 2000    .595  106.2   1.170   29.7    .458   51.1    .240 -155.8 !     3.5
 2200    .630  102.5   1.107   26.8    .488   49.0    .267 -162.4 !     3.4
 2400    .644   99.9   1.048   23.2    .516   46.6    .301 -167.7 !     3.1
 2600    .646   97.0    .978   20.0    .531   43.8    .325 -170.2 !     2.6
 2800    .640   92.7    .944   17.3    .554   41.8    .347 -172.3 !     2.3
 3000    .649   88.4    .910   14.0    .584   39.2    .364 -176.7 !     2.2
