! Filename:       BFQ149D.S2P                                Version:   2.0
! Philips part #: BFQ149                                     Date: Aug 1990
! Bias condition: Vce=-5V, Ic=-70mA
!
#  MHz  S  MA  R  50
! Freq       S11            S21            S12            S22     !GUM [dB]
   40    .375 -167.6  28.808  132.4    .014   78.1    .570  -47.9 !    31.6
  100    .437 -175.9  14.996  107.3    .032   80.4    .308  -74.4 !    24.9
  200    .456  175.8   7.955   93.3    .061   80.1    .182  -91.0 !    19.2
  300    .465  169.7   5.402   85.6    .090   79.1    .145 -100.9 !    15.8
  400    .472  164.7   4.104   79.8    .117   77.4    .132 -108.5 !    13.4
  500    .477  159.7   3.331   74.9    .144   75.6    .129 -114.0 !    11.6
  600    .484  155.1   2.812   70.6    .172   74.0    .131 -118.2 !    10.2
  700    .491  150.3   2.459   66.4    .198   72.2    .135 -122.2 !     9.1
  800    .500  145.8   2.185   62.5    .223   70.3    .138 -125.7 !     8.1
  900    .510  141.4   1.978   58.8    .248   68.4    .144 -129.6 !     7.3
 1000    .523  137.4   1.808   55.5    .271   66.6    .150 -133.9 !     6.6
 1200    .552  130.4   1.564   49.4    .315   63.5    .168 -142.5 !     5.6
 1400    .574  124.5   1.399   43.8    .360   60.5    .190 -149.5 !     4.8
 1600    .590  118.5   1.279   38.3    .403   56.2    .193 -151.1 !     4.2
 1800    .618  111.1   1.190   35.0    .431   54.0    .221 -152.9 !     3.8
 2000    .621  104.7   1.120   29.3    .466   50.9    .247 -161.4 !     3.4
 2200    .652  101.0   1.064   26.6    .495   48.9    .276 -167.3 !     3.3
 2400    .665   98.5   1.007   23.1    .522   46.3    .310 -172.0 !     3.0
 2600    .662   95.7    .941   20.0    .537   43.4    .333 -174.1 !     2.5
 2800    .655   91.3    .910   17.6    .560   41.3    .354 -176.2 !     2.2
 3000    .661   87.1    .880   14.4    .589   38.8    .371  179.6 !     2.0
