! Filename:       BFQ19D.S2P                                 Version:   2.0
! Philips part #: BFQ19                                      Date: Jul 1990
! Bias condition: Vce=5V, Ic=70mA
! 
#  MHz  S  MA  R  50
! Freq       S11            S21            S12            S22     !GUM [dB]
   40    .286 -135.3  43.365  120.8    .014   72.7    .503  -59.0 !    34.4
  100    .323 -164.0  19.971  101.0    .031   78.0    .242  -79.5 !    26.7
  200    .335 -178.5  10.257   90.8    .058   79.1    .143  -91.7 !    20.8
  300    .340  174.0   6.950   84.9    .087   78.6    .114  -99.5 !    17.4
  400    .348  168.2   5.239   80.3    .114   77.6    .105 -106.1 !    15.0
  500    .358  162.9   4.238   76.4    .141   75.5    .104 -111.3 !    13.2
  600    .361  158.5   3.571   72.7    .167   74.4    .107 -116.1 !    11.7
  700    .367  153.2   3.103   69.2    .193   72.4    .110 -120.7 !    10.5
  800    .374  148.3   2.757   65.7    .217   70.5    .116 -124.3 !     9.5
  900    .386  144.4   2.484   62.8    .241   68.7    .124 -129.4 !     8.7
 1000    .399  139.3   2.265   59.8    .263   67.1    .130 -133.0 !     7.9
 1200    .433  132.9   1.940   54.2    .307   63.9    .147 -140.4 !     6.8
 1400    .461  127.9   1.727   48.8    .351   60.8    .164 -148.0 !     5.9
 1600    .473  122.4   1.564   44.1    .394   57.6    .154 -146.6 !     5.1
 1800    .493  113.5   1.441   40.5    .418   55.4    .193 -149.4 !     4.5
 2000    .503  109.8   1.353   35.4    .454   52.3    .218 -161.0 !     4.1
 2200    .547  106.2   1.278   32.1    .483   49.7    .244 -164.7 !     3.9
 2400    .567  103.9   1.205   28.4    .514   47.2    .276 -169.7 !     3.6
 2600    .581  101.3   1.129   24.9    .526   44.6    .295 -173.1 !     3.2
 2800    .585   97.4   1.100   21.5    .552   42.8    .318 -174.5 !     3.1
 3000    .597   93.6   1.050   18.4    .578   40.1    .337 -178.1 !     2.9
