! Filename:       BFQ18AB.S2P                                Version:   2.0
! Philips part #: BFQ18A                                     Date: May 1990
! Bias condition: Vce=10V, Ic=30mA
!
#  MHz  S  MA  R  50
! Freq       S11            S21            S12            S22     !GUM [dB]
   40    .594  -40.6  21.343  142.8    .025   66.8    .786  -32.1 !    32.7
  100    .489  -84.1  14.231  122.3    .045   59.2    .534  -48.5 !    25.7
  200    .393 -126.6   8.707  104.0    .068   59.2    .353  -60.3 !    20.1
  300    .388 -153.6   6.078   92.0    .087   62.6    .276  -66.3 !    16.7
  400    .388 -169.6   4.645   84.3    .105   64.8    .238  -70.8 !    14.3
  500    .427 -178.3   3.777   78.7    .126   66.2    .218  -74.8 !    12.6
  600    .419  176.2   3.194   74.6    .148   68.1    .204  -78.7 !    11.1
  700    .439  170.8   2.782   69.5    .168   69.0    .202  -81.8 !    10.0
  800    .455  166.1   2.492   66.2    .192   68.7    .204  -85.6 !     9.1
  900    .435  161.3   2.281   61.8    .214   68.3    .211  -89.7 !     8.3
 1000    .462  158.8   2.091   58.5    .236   67.7    .217  -94.1 !     7.7
 1200    .495  146.7   1.789   51.0    .278   66.6    .232 -103.8 !     6.5
 1400    .532  139.4   1.588   45.2    .324   65.6    .245 -113.9 !     5.7
 1600    .557  132.8   1.435   39.0    .367   62.3    .250 -115.7 !     5.0
 1800    .580  125.2   1.351   35.8    .405   60.8    .294 -124.8 !     4.8
 2000    .625  122.0   1.262   30.2    .449   58.8    .316 -133.1 !     4.6
 2200    .643  117.9   1.178   26.7    .486   56.8    .348 -141.5 !     4.3
 2400    .663  111.4   1.114   23.8    .528   53.7    .385 -147.7 !     4.1
 2600    .674  109.0   1.027   19.7    .550   50.7    .410 -152.5 !     3.7
 2800    .683  105.8   1.013   16.4    .583   48.8    .441 -156.5 !     3.8
 3000    .692   98.8    .996   12.8    .619   46.0    .469 -162.3 !     3.9
