! Filename:       BFQ18AC.S2P                                Version:   2.0
! Philips part #: BFQ18A                                     Date: May 1990
! Bias condition: Vce=10V, Ic=50mA
!
#  MHz  S  MA  R  50
! Freq       S11            S21            S12            S22     !GUM [dB]
   40    .619  -49.3  25.743  144.2    .027   67.4    .827  -32.5 !    35.3
  100    .453  -96.1  15.810  117.7    .046   55.6    .529  -56.9 !    26.4
  200    .376 -134.5   9.077  101.5    .067   58.4    .319  -70.0 !    20.3
  300    .376 -157.7   6.300   91.1    .088   62.7    .244  -75.8 !    16.9
  400    .383 -171.6   4.839   84.2    .108   65.0    .212  -80.8 !    14.6
  500    .403 -178.6   3.931   78.8    .129   66.3    .195  -85.7 !    12.8
  600    .411  175.2   3.337   75.0    .151   67.4    .184  -90.6 !    11.4
  700    .414  170.9   2.902   70.0    .174   67.9    .180  -94.2 !    10.2
  800    .432  166.0   2.594   66.6    .197   67.8    .182  -98.4 !     9.3
  900    .419  160.2   2.375   62.5    .220   67.0    .188 -102.0 !     8.5
 1000    .433  157.3   2.179   59.4    .242   66.2    .193 -106.3 !     7.8
 1200    .463  146.1   1.868   52.0    .282   64.8    .208 -114.6 !     6.7
 1400    .512  140.0   1.663   46.8    .328   63.6    .224 -123.7 !     6.0
 1600    .539  132.6   1.488   40.6    .369   60.1    .225 -124.8 !     5.2
 1800    .542  124.0   1.409   37.1    .405   58.8    .270 -131.1 !     4.8
 2000    .584  121.1   1.326   31.3    .445   56.9    .294 -139.7 !     4.7
 2200    .633  118.6   1.231   27.9    .482   55.1    .327 -146.6 !     4.5
 2400    .651  112.4   1.175   24.2    .519   52.0    .363 -152.0 !     4.4
 2600    .645  109.6   1.076   19.1    .541   49.4    .387 -156.2 !     3.7
 2800    .661  106.9   1.058   16.5    .569   47.6    .418 -159.6 !     3.8
 3000    .686   99.8   1.028   13.0    .604   44.8    .445 -164.8 !     4.0
