! Filename:       BFQ149C.S2P                                Version:   2.0
! Philips part #: BFQ149                                     Date: Aug 1990
! Bias condition: Vce=-5V, Ic=-50mA
!
#  MHz  S  MA  R  50
! Freq       S11            S21            S12            S22     !GUM [dB]
   40    .323 -157.0  29.582  133.6    .015   76.3    .621  -46.5 !    32.0
  100    .409 -170.7  15.627  108.2    .033   77.9    .338  -73.0 !    25.2
  200    .433  178.4   8.323   93.9    .061   78.8    .198  -89.4 !    19.5
  300    .443  171.5   5.655   86.2    .089   77.8    .155  -99.2 !    16.1
  400    .451  166.0   4.297   80.4    .117   76.5    .139 -106.9 !    13.7
  500    .456  160.8   3.485   75.5    .144   74.9    .134 -112.4 !    11.9
  600    .463  156.0   2.942   71.2    .171   73.4    .134 -116.7 !    10.5
  700    .468  151.1   2.570   67.1    .197   71.6    .137 -120.7 !     9.4
  800    .479  146.5   2.284   63.2    .223   69.8    .140 -124.4 !     8.4
  900    .489  142.1   2.065   59.5    .247   68.0    .145 -128.3 !     7.6
 1000    .502  137.9   1.887   56.2    .270   66.3    .150 -132.8 !     6.9
 1200    .531  131.0   1.629   50.1    .314   63.1    .167 -141.3 !     5.8
 1400    .554  125.1   1.458   44.5    .358   60.2    .188 -148.5 !     5.0
 1600    .573  119.3   1.329   38.9    .402   55.9    .191 -150.5 !     4.4
 1800    .599  111.7   1.235   35.5    .429   53.7    .217 -152.2 !     4.0
 2000    .603  105.5   1.162   29.8    .463   50.8    .243 -160.5 !     3.5
 2200    .636  101.8   1.101   26.8    .493   48.8    .271 -166.6 !     3.4
 2400    .651   99.4   1.040   23.3    .521   46.1    .306 -171.3 !     3.2
 2600    .650   96.5    .972   20.2    .535   43.4    .328 -173.4 !     2.6
 2800    .646   92.4    .938   17.6    .558   41.3    .350 -175.5 !     2.4
 3000    .653   88.0    .906   14.2    .587   38.7    .366 -179.7 !     2.2
