! Filename:       BFG67B.S2P                                 Version:   2.0
! Philips part #: BFG 67                                     Date: Jul 1990
! Bias condition: Vce=4V, Ic=5mA
! IN LINE PINNING: same data as with cross emitter pinning.
!
#  MHz  S  MA  R  50
! Freq       S11            S21            S12            S22     !GUM [dB]
   40    .897  -12.3  14.969  171.2    .011   82.7    .987   -6.3 !    46.6
  100    .867  -30.1  14.202  159.4    .025   73.1    .949  -15.6 !    39.1
  200    .800  -56.3  12.502  143.2    .044   60.9    .846  -27.8 !    31.8
  300    .737  -78.3  10.798  130.3    .057   51.7    .743  -36.8 !    27.6
  400    .686  -96.0   9.256  120.3    .065   45.6    .655  -43.1 !    24.5
  500    .649 -110.0   7.964  112.5    .071   41.4    .587  -47.5 !    22.2
  600    .623 -121.3   6.965  106.4    .075   38.7    .536  -50.5 !    20.5
  700    .604 -130.5   6.173  101.2    .078   37.2    .500  -52.9 !    19.0
  800    .589 -138.8   5.522   96.5    .080   36.4    .471  -54.7 !    17.8
  900    .577 -145.9   4.983   92.5    .082   35.8    .450  -56.2 !    16.7
 1000    .568 -152.3   4.522   88.9    .084   35.8    .432  -57.3 !    15.7
 1200    .562 -163.3   3.826   82.6    .088   36.2    .405  -60.0 !    14.1
 1400    .565 -171.8   3.334   76.8    .091   37.1    .388  -63.2 !    12.8
 1600    .567 -178.9   2.940   71.5    .094   39.0    .384  -66.3 !    11.7
 1800    .565  174.7   2.637   67.1    .099   40.6    .383  -68.5 !    10.8
 2000    .563  168.2   2.392   62.7    .102   42.2    .375  -70.5 !     9.9
 2200    .574  162.2   2.188   58.9    .106   43.8    .363  -74.2 !     9.2
 2400    .590  157.3   2.002   54.5    .111   45.6    .358  -79.7 !     8.5
 2600    .600  153.3   1.843   51.0    .116   47.4    .367  -84.8 !     7.9
 2800    .605  149.3   1.738   46.8    .121   47.4    .379  -88.8 !     7.5
 3000    .610  144.9   1.622   43.2    .127   49.3    .387  -91.8 !     6.9
