! Filename:       BFG67F.S2P                                 Version:   2.0
! Philips part #: BFG 67                                     Date: Jul 1990
! Bias condition: Vce=4V, Ic=30mA
! IN LINE PINNING: same data as with cross emitter pinning.
!
#  MHz  S  MA  R  50
! Freq       S11            S21            S12            S22     !GUM [dB]
   40    .655  -37.7  43.638  158.2    .009   74.4    .889  -17.1 !    42.0
  100    .610  -81.0  33.839  135.1    .018   57.4    .706  -35.3 !    35.6
  200    .576 -120.6  22.076  115.1    .025   49.3    .486  -47.7 !    29.8
  300    .567 -140.8  15.823  104.7    .029   48.0    .376  -51.6 !    26.3
  400    .564 -152.8  12.226   98.2    .033   50.0    .317  -52.9 !    23.9
  500    .563 -161.0   9.907   93.5    .037   51.7    .285  -53.6 !    21.9
  600    .564 -166.9   8.336   89.8    .040   53.9    .265  -54.2 !    20.4
  700    .561 -171.8   7.203   86.7    .044   55.8    .256  -54.9 !    19.1
  800    .562 -176.1   6.333   83.7    .049   57.6    .249  -55.6 !    18.0
  900    .562 -179.8   5.645   81.1    .052   59.0    .246  -56.3 !    17.0
 1000    .563  176.6   5.086   78.7    .057   60.4    .242  -57.0 !    16.0
 1200    .571  170.7   4.250   74.2    .065   61.7    .238  -59.5 !    14.5
 1400    .579  166.0   3.659   69.9    .074   62.5    .238  -63.4 !    13.3
 1600    .584  161.9   3.210   65.7    .082   63.9    .245  -67.3 !    12.2
 1800    .583  157.5   2.866   62.0    .091   63.7    .253  -69.6 !    11.2
 2000    .588  152.5   2.596   58.3    .100   64.1    .252  -71.6 !    10.4
 2200    .602  148.2   2.371   55.2    .109   64.1    .245  -76.1 !     9.7
 2400    .619  145.0   2.166   51.5    .116   64.2    .246  -83.2 !     9.1
 2600    .628  142.2   1.990   48.4    .125   64.2    .258  -89.5 !     8.5
 2800    .633  139.2   1.866   44.7    .133   62.9    .275  -93.8 !     8.0
 3000    .637  135.6   1.743   41.4    .141   62.8    .286  -96.8 !     7.5
