! Filename:       BFG67L.S2P                                 Version:   2.0
! Philips part #: BFG 67                                     Date: Jul 1990
! Bias condition: Vce=8V, Ic=30mA
! IN LINE PINNING: same data as with cross emitter pinning.
!
#  MHz  S  MA  R  50
! Freq       S11            S21            S12            S22     !GUM [dB]
   40     .746 -28.6   40.528 161.6   .00923  76.2     .910 -14.6 !    43.3
  100     .669 -64.9   33.161 140.1    .0190  61.4     .761 -31.7 !    36.7
  200     .585 -105.   23.008 119.6    .0279  51.1     .547 -46.0 !    30.6
  300     .548 -128.   16.808 108.4    .0327  49.4     .424 -51.7 !    26.9
  400     .529 -142.   13.116 101.4    .0365  50.0     .357 -54.5 !    24.4
  500     .522 -152.   10.735  96.3    .0409  51.7     .317 -56.0 !    22.5
  600     .519 -159.    9.031  92.2    .0448  53.3     .295 -56.9 !    20.9
  700     .511 -166.    7.793  88.7    .0489  55.6     .280 -57.9 !    19.5
  800     .511 -170.    6.842  85.7    .0533  57.2     .273 -58.6 !    18.4
  900     .509 -175.    6.121  83.4    .0576  58.2     .266 -58.8 !    17.4
 1000     .510 -180.    5.551  80.5    .0618  58.8     .261 -59.7 !    16.5
 1200     .512 173.0    4.612  76.1    .0708  61.0     .256 -62.2 !    14.9
 1400     .516 167.5    3.982  71.8    .0801  61.9     .257 -66.0 !    13.6
 1600     .517 163.2    3.469  67.6    .0889  62.3     .264 -68.8 !    12.5
 1800     .517 157.5    3.123  63.8    .0970  62.9     .272 -70.4 !    11.6
 2000     .527 152.0    2.817  60.1     .107  63.6     .272 -72.8 !    10.7
 2200     .532 147.0    2.550  57.4     .117  63.0     .267 -76.7 !    9.90
 2400     .544 143.2    2.348  54.0     .123  63.4     .269 -82.2 !    9.26
 2600     .547 139.3    2.160  50.3     .132  63.6     .283 -88.2 !    8.60
 2800     .550 135.3    1.987  46.9     .141  63.4     .304 -91.8 !    7.95
 3000     .550 131.7    1.880  44.0     .150  61.5     .315 -93.9 !    7.50
! Noise data:
! Freq.     Fmin        Gamma-opt         rn
  500       2.00     .212     46.4       .336
 1000       2.50     .211     93.5       .379
 2000       3.50     .379    166.0       .213
