! Filename:       BFG67C.S2P                                 Version:   2.0
! Philips part #: BFG 67                                     Date: Jul 1990
! Bias condition: Vce=4V, Ic=10mA
! IN LINE PINNING: same data as with cross emitter pinning.
!
#  MHz  S  MA  R  50
! Freq       S11            S21            S12            S22     !GUM [dB]
   40    .823  -18.7  25.316  167.4    .010   80.4    .968   -9.8 !    45.0
  100    .775  -44.7  22.879  151.5    .023   67.7    .887  -23.2 !    37.9
  200    .691  -78.9  18.240  132.1    .037   54.6    .719  -38.2 !    31.2
  300    .636 -103.5  14.476  119.0    .045   47.0    .587  -47.0 !    27.3
  400    .602 -120.8  11.751  110.1    .049   44.0    .495  -52.3 !    24.6
  500    .580 -133.4   9.772  103.6    .053   42.3    .434  -55.4 !    22.5
  600    .569 -142.9   8.359   98.6    .056   42.3    .393  -57.6 !    20.9
  700    .560 -150.7   7.295   94.3    .059   42.7    .366  -59.1 !    19.5
  800    .554 -157.2   6.457   90.6    .062   43.5    .346  -60.2 !    18.3
  900    .549 -162.9   5.782   87.3    .064   44.5    .331  -61.2 !    17.3
 1000    .546 -168.0   5.224   84.4    .067   45.9    .319  -61.9 !    16.4
 1200    .549 -176.7   4.386   79.1    .074   48.0    .301  -64.0 !    14.8
 1400    .555  176.6   3.794   74.2    .080   49.1    .292  -67.1 !    13.6
 1600    .559  171.0   3.335   69.5    .086   51.5    .292  -70.1 !    12.5
 1800    .558  165.7   2.986   65.6    .094   52.8    .295  -71.9 !    11.5
 2000    .559  160.0   2.706   61.7    .101   53.9    .290  -73.5 !    10.7
 2200    .572  154.7   2.475   58.3    .108   54.9    .280  -77.3 !     9.9
 2400    .589  150.6   2.263   54.4    .115   55.7    .277  -83.4 !     9.3
 2600    .599  147.3   2.083   51.1    .122   56.3    .287  -89.0 !     8.7
 2800    .602  143.9   1.957   47.3    .129   55.9    .301  -92.8 !     8.2
 3000    .607  139.9   1.831   43.8    .135   56.5    .310  -95.6 !     7.7
