! Filename:       BFG67H.S2P                                 Version:   2.0
! Philips part #: BFG 67                                     Date: Jul 1990
! Bias condition: Vce=8V, Ic=5mA
! IN LINE PINNING: same data as with cross emitter pinning.
!
#  MHz  S  MA  R  50
! Freq       S11            S21            S12            S22     !GUM [dB]
   40     .908 -11.2   14.230 172.0    .0102  83.4     .984 -5.78 !    45.7
  100     .880 -27.6   13.539 160.5    .0243  74.6     .951 -14.4 !    39.3
  200     .816 -52.3   12.210 144.9    .0436  62.7     .859 -26.3 !    32.3
  300     .751 -73.7   10.623 132.2    .0566  53.9     .762 -35.2 !    27.9
  400     .691 -91.1    9.200 122.2    .0657  47.5     .678 -41.6 !    24.8
  500     .650 -105.    8.021 114.5    .0720  43.5     .614 -46.4 !    22.5
  600     .624 -117.    7.033 108.0    .0761  40.9     .564 -49.8 !    20.7
  700     .596 -126.    6.211 102.6    .0793  39.5     .528 -52.3 !    19.2
  800     .579 -135.    5.559  98.0    .0822  38.6     .501 -54.2 !    17.9
  900     .562 -142.    5.021  94.3    .0849  38.3     .477 -55.7 !    16.8
 1000     .550 -149.    4.626  90.2    .0867  37.6     .458 -57.3 !    15.9
 1200     .538 -161.    3.890  83.6    .0899  38.8     .433 -60.3 !    14.2
 1400     .537 -171.    3.382  77.9    .0940  39.4     .417 -63.7 !    12.9
 1600     .537 -178.    2.976  72.8    .0979  41.0     .415 -66.4 !    11.8
 1800     .533 174.9    2.692  68.0     .101  42.6     .414 -68.5 !    10.9
 2000     .535 167.5    2.429  63.4     .107  44.8     .406 -70.9 !    9.95
 2200     .536 161.0    2.201  60.1     .112  46.4     .398 -74.8 !    9.07
 2400     .542 155.6    2.027  56.2     .115  47.9     .396 -79.4 !    8.39
 2600     .549 150.3    1.872  51.9     .120  49.7     .406 -84.4 !    7.79
 2800     .551 145.8    1.716  47.4     .127  51.5     .423 -88.1 !    7.12
 3000     .557 141.4    1.633  44.9     .134  51.0     .433 -90.4 !    6.77
! Noise data:
! Freq.     Fmin        Gamma-opt         rn
  500       .950     .455     33.8       .288
 1000       1.30     .375     65.9       .304
 2000       2.20     .391    136.5       .184
