! Filename:       BFG67D.S2P                                 Version:   2.0
! Philips part #: BFG 67                                     Date: Jul 1990
! Bias condition: Vce=4V, Ic=15mA
! IN LINE PINNING: same data as with cross emitter pinning.
!
#  MHz  S  MA  R  50
! Freq       S11            S21            S12            S22     !GUM [dB]
   40    .771  -23.6  32.164  164.8    .010   77.3    .951  -12.2 !    44.3
  100    .715  -54.9  27.929  146.4    .022   64.7    .838  -27.8 !    37.3
  200    .637  -92.7  20.824  126.0    .033   51.9    .640  -43.4 !    30.9
  300    .596 -117.1  15.868  113.6    .038   46.3    .505  -51.3 !    27.2
  400    .576 -133.0  12.597  105.6    .042   45.4    .421  -55.6 !    24.6
  500    .562 -144.2  10.353   99.7    .046   45.3    .367  -58.1 !    22.6
  600    .556 -152.5   8.788   95.2    .049   45.8    .333  -59.6 !    21.0
  700    .551 -159.0   7.637   91.5    .052   46.9    .311  -60.9 !    19.7
  800    .548 -165.0   6.737   88.1    .055   48.6    .295  -61.7 !    18.5
  900    .546 -169.9   6.019   85.1    .059   50.3    .285  -62.4 !    17.5
 1000    .545 -174.3   5.430   82.4    .062   51.5    .275  -63.0 !    16.6
 1200    .549  178.1   4.549   77.5    .070   53.4    .262  -65.0 !    15.0
 1400    .558  172.2   3.928   73.0    .077   54.9    .256  -68.2 !    13.8
 1600    .561  167.1   3.450   68.5    .085   56.7    .258  -71.2 !    12.7
 1800    .561  162.2   3.086   64.7    .094   57.4    .263  -73.0 !    11.7
 2000    .563  156.8   2.795   61.0    .101   58.1    .259  -74.5 !    10.9
 2200    .576  152.0   2.554   57.7    .109   58.8    .251  -78.4 !    10.2
 2400    .593  148.2   2.337   54.0    .116   59.2    .249  -84.9 !     9.5
 2600    .603  145.3   2.149   50.8    .125   59.6    .260  -90.7 !     8.9
 2800    .605  142.0   2.017   47.1    .131   58.6    .275  -94.6 !     8.4
 3000    .612  138.2   1.887   43.7    .139   58.9    .285  -97.3 !     7.9
