! Filename:       BFG67J.S2P                                 Version:   2.0
! Philips part #: BFG 67                                     Date: Jul 1990
! Bias condition: Vce=8V, Ic=15mA
! IN LINE PINNING: same data as with cross emitter pinning.
!
#  MHz  S  MA  R  50
! Freq       S11            S21            S12            S22     !GUM [dB]
   40     .811 -20.9   30.808 166.2   .00932  79.4     .950 -11.3 !    44.5
  100     .753 -49.4   27.203 148.4    .0213  66.6     .850 -26.1 !    37.9
  200     .659 -85.7   21.003 128.3    .0334  53.5     .662 -42.0 !    31.4
  300     .601 -110.   16.153 115.7    .0396  48.1     .527 -50.7 !    27.5
  400     .568 -127.   12.934 107.4    .0439  46.1     .441 -55.7 !    24.9
  500     .555 -139.   10.735 101.5    .0477  45.8     .386 -58.9 !    22.9
  600     .543 -147.    9.109  96.6    .0512  46.5     .351 -61.0 !    21.3
  700     .532 -155.    7.891  92.8    .0543  47.9     .327 -62.3 !    19.9
  800     .530 -161.    6.953  89.4    .0581  49.3     .311 -63.3 !    18.7
  900     .523 -166.    6.221  86.7    .0615  50.3     .298 -64.2 !    17.7
 1000     .522 -171.    5.676  83.6    .0651  51.3     .288 -65.1 !    16.8
 1200     .519 -179.    4.727  78.5    .0725  53.9     .275 -67.5 !    15.2
 1400     .524 173.8    4.072  74.0    .0802  55.4     .271 -70.6 !    13.9
 1600     .524 169.0    3.565  69.9    .0880  56.3     .273 -73.2 !    12.8
 1800     .524 163.3    3.211  65.7    .0959  57.3     .276 -74.8 !    11.9
 2000     .528 157.6    2.894  61.9     .105  58.5     .273 -76.9 !    11.0
 2200     .532 151.9    2.634  59.2     .114  58.5     .266 -80.9 !    10.2
 2400     .547 147.9    2.423  55.7     .120  59.4     .267 -86.3 !    9.55
 2600     .544 143.9    2.230  52.0     .127  59.8     .279 -92.1 !    8.84
 2800     .549 140.7    2.053  48.1     .136  60.0     .298 -95.7 !    8.21
 3000     .560 136.4    1.957  45.6     .145  58.1     .308 -97.6 !    7.90
! Noise data:
! Freq.     Fmin        Gamma-opt         rn
  500       1.40     .305     38.8       .289
 1000       1.70     .278     78.1       .318
 2000       2.70     .359    152.0       .192
