! Filename:       BFG67K.S2P                                 Version:   2.0
! Philips part #: BFG 67                                     Date: Jul 1990
! Bias condition: Vce=8V, Ic=20mA
! IN LINE PINNING: same data as with cross emitter pinning.
!
#  MHz  S  MA  R  50
! Freq       S11            S21            S12            S22     !GUM [dB]
   40     .784 -23.8   35.157 164.3   .00953  78.4     .935 -12.6 !    44.1
  100     .714 -55.2   30.142 145.0    .0202  65.0     .815 -28.6 !    37.4
  200     .623 -93.3   22.267 124.5    .0310  52.6     .613 -44.2 !    31.1
  300     .569 -117.   16.724 112.5    .0366  48.9     .482 -51.8 !    27.3
  400     .541 -134.   13.219 104.7    .0406  48.4     .404 -56.1 !    24.7
  500     .531 -145.   10.900  99.1    .0446  48.8     .353 -58.5 !    22.8
  600     .522 -153.    9.222  94.7    .0483  50.2     .325 -60.1 !    21.2
  700     .513 -160.    7.965  91.1    .0520  51.8     .304 -61.2 !    19.8
  800     .508 -165.    7.023  87.8    .0561  53.4     .292 -61.9 !    18.6
  900     .501 -171.    6.273  85.4    .0603  54.6     .282 -62.6 !    17.6
 1000     .505 -176.    5.703  82.3    .0640  55.4     .275 -63.3 !    16.7
 1200     .504 176.7    4.748  77.4    .0726  57.8     .266 -65.6 !    15.1
 1400     .513 170.3    4.080  73.4    .0811  59.2     .263 -69.1 !    13.8
 1600     .518 165.2    3.592  69.3    .0901  59.8     .268 -71.6 !    12.8
 1800     .517 160.1    3.226  65.0    .0980  60.6     .274 -73.0 !    11.9
 2000     .516 154.4    2.905  61.4     .108  61.6     .272 -75.0 !    10.9
 2200     .525 148.7    2.632  58.5     .117  61.1     .266 -78.7 !    10.1
 2400     .540 144.4    2.424  55.3     .124  61.5     .268 -84.1 !    9.51
 2600     .538 141.1    2.233  51.7     .132  62.2     .281 -89.8 !    8.82
 2800     .545 136.4    2.053  47.8     .141  62.3     .300 -93.2 !    8.19
 3000     .550 132.7    1.941  45.5     .150  59.9     .311 -95.0 !    7.77
