! Filename:       BFG67G.S2P                                 Version:   2.0
! Philips part #: BFG 67                                     Date: Jul 1990
! Bias condition: Vce=8V, Ic=2mA
! IN LINE PINNING: same data as with cross emitter pinning.
!
#  MHz  S  MA  R  50
! Freq       S11            S21            S12            S22     !GUM [dB]
   40     .954 -6.95    6.333 174.7    .0105  85.7     .996 -3.24 !    47.3
  100     .942 -17.4    6.150 166.4    .0256  79.9     .983 -8.35 !    39.9
  200     .912 -33.7    5.885 155.3    .0489  70.6     .947 -16.0 !    33.0
  300     .873 -49.2    5.509 145.0    .0684  62.6     .901 -22.9 !    28.3
  400     .828 -63.4    5.123 135.7    .0845  55.4     .854 -28.7 !    24.9
  500     .792 -75.9    4.735 127.7    .0969  49.6     .810 -33.7 !    22.4
  600     .756 -87.4    4.347 120.4     .106  44.9     .768 -37.9 !    20.3
  700     .722 -97.3    3.980 114.0     .113  41.1     .734 -41.3 !    18.6
  800     .695 -107.    3.650 108.3     .118  38.0     .704 -44.1 !    17.1
  900     .669 -115.    3.373 103.6     .122  35.3     .679 -46.5 !    15.8
 1000     .646 -122.    3.161  98.4     .124  32.6     .657 -48.9 !    14.8
 1200     .610 -137.    2.722  89.6     .126  29.5     .623 -53.1 !    12.9
 1400     .600 -149.    2.398  82.4     .128  27.5     .601 -57.3 !    11.5
 1600     .598 -159.    2.147  76.0     .128  26.0     .590 -60.8 !    10.4
 1800     .588 -167.    1.962  70.2     .126  25.7     .585 -63.9 !    9.52
 2000     .579 -176.    1.775  64.3     .125  27.1     .572 -66.9 !    8.48
 2200     .579 175.5    1.609  60.3     .124  27.7     .559 -70.7 !    7.53
 2400     .584 169.0    1.486  55.8     .121  28.9     .554 -75.7 !    6.84
 2600     .585 162.8    1.378  50.5     .120  31.4     .561 -80.8 !    6.24
 2800     .592 156.5    1.262  45.4     .121  34.3     .577 -84.6 !    5.64
 3000     .597 150.9    1.201  43.0     .124  35.4     .582 -87.5 !    5.30
