! Filename:       BFG67I.S2P                                 Version:   2.0
! Philips part #: BFG 67                                     Date: Jul 1990
! Bias condition: Vce=8V, Ic=10mA
! IN LINE PINNING: same data as with cross emitter pinning.
!
#  MHz  S  MA  R  50
! Freq       S11            S21            S12            S22     !GUM [dB]
   40     .851 -16.5   23.911 168.5   .00998  81.4     .966 -8.92 !    44.9
  100     .800 -39.7   21.821 153.3    .0226  69.7     .896 -21.3 !    38.2
  200     .712 -72.3   17.984 134.4    .0372  56.7     .743 -36.1 !    31.7
  300     .644 -96.4   14.448 121.4    .0458  49.8     .614 -45.1 !    27.6
  400     .592 -114.   11.857 112.3    .0510  45.9     .525 -51.0 !    24.8
  500     .570 -127.    9.975 105.6    .0553  44.5     .463 -54.6 !    22.7
  600     .553 -138.    8.538 100.2    .0585  44.3     .422 -57.2 !    21.1
  700     .537 -146.    7.425  95.8    .0616  44.8     .392 -58.9 !    19.6
  800     .530 -154.    6.580  92.0    .0648  45.5     .372 -60.1 !    18.4
  900     .520 -160.    5.902  89.1    .0683  46.4     .357 -61.1 !    17.4
 1000     .516 -165.    5.385  85.6    .0710  47.0     .343 -62.1 !    16.5
 1200     .512 -175.    4.505  80.1    .0776  49.2     .327 -64.5 !    14.9
 1400     .517 177.8    3.887  75.3    .0843  51.2     .319 -67.6 !    13.6
 1600     .521 171.4    3.413  70.9    .0915  52.5     .319 -70.4 !    12.5
 1800     .514 165.2    3.071  66.7    .0980  53.9     .323 -72.0 !    11.6
 2000     .519 158.9    2.773  62.6     .106  55.4     .321 -74.2 !    10.7
 2200     .522 153.5    2.510  59.6     .115  55.9     .311 -77.6 !    9.81
 2400     .536 148.9    2.311  56.2     .120  56.7     .311 -82.7 !    9.19
 2600     .536 143.7    2.132  52.2     .127  57.7     .323 -88.0 !    8.53
 2800     .539 140.3    1.955  48.1     .136  58.5     .341 -91.5 !    7.85
 3000     .545 136.6    1.871  45.9     .145  57.2     .351 -93.4 !    7.54
