! Filename:       BFG67A.S2P                                 Version:   2.0
! Philips part #: BFG 67                                     Date: Jul 1990
! Bias condition: Vce=4V, Ic=2mA
! IN LINE PINNING: same data as with cross emitter pinning.
!
#  MHz  S  MA  R  50
! Freq       S11            S21            S12            S22     !GUM [dB]
   40    .953   -7.5   6.681  174.3    .011   86.1    .999   -3.5 !    52.8
  100    .940  -18.5   6.535  166.3    .027   78.3    .986   -9.1 !    41.1
  200    .904  -35.9   6.187  154.5    .051   69.2    .942  -17.1 !    32.7
  300    .865  -52.1   5.783  143.6    .070   60.3    .893  -24.2 !    28.2
  400    .821  -66.9   5.338  134.0    .086   53.2    .838  -30.2 !    24.7
  500    .779  -79.8   4.860  125.7    .098   46.8    .787  -35.1 !    22.0
  600    .745  -91.3   4.442  118.7    .106   41.9    .741  -39.0 !    19.9
  700    .714 -101.2   4.069  112.4    .113   38.0    .705  -42.3 !    18.3
  800    .688 -110.5   3.737  106.5    .117   34.8    .673  -45.1 !    16.9
  900    .664 -118.7   3.436  101.4    .120   32.1    .646  -47.4 !    15.6
 1000    .644 -126.2   3.164   96.7    .122   29.8    .623  -49.5 !    14.5
 1200    .621 -139.8   2.738   88.6    .124   26.4    .587  -53.2 !    12.7
 1400    .614 -151.1   2.428   81.2    .125   23.8    .562  -57.1 !    11.4
 1600    .609 -160.2   2.161   74.6    .123   23.2    .550  -60.8 !    10.3
 1800    .603 -168.0   1.951   69.2    .123   22.8    .544  -63.7 !     9.3
 2000    .596 -176.0   1.775   64.0    .120   22.9    .532  -66.4 !     8.3
 2200    .600  176.5   1.631   59.4    .118   23.9    .516  -70.4 !     7.5
 2400    .613  170.1   1.494   54.0    .116   25.4    .508  -75.6 !     6.8
 2600    .625  164.8   1.376   49.9    .115   27.6    .514  -80.6 !     6.3
 2800    .629  159.8   1.304   45.3    .115   28.9    .526  -84.7 !     5.9
 3000    .635  154.5   1.218   41.1    .115   31.9    .533  -88.1 !     5.4
