! Filename:       BFR520H.S2P                                Version:   2.1
! Philips part #: BFR520                                     Date: Sep 1991
! Bias condition: Vce=6V, Ic=5mA
!
#  MHz  S  MA  R  50
! Freq       S11            S21            S12            S22     !GUM [dB]
   40    .903   -9.4  14.064  170.8    .010   85.3    .974   -5.3 !    43.3
  100    .863  -22.9  13.287  159.1    .024   77.4    .937  -12.6 !    37.5
  200    .759  -42.5  11.590  142.6    .043   69.2    .841  -22.0 !    30.3
  300    .651  -58.1   9.914  130.1    .056   64.1    .745  -28.1 !    25.8
  400    .560  -70.8   8.450  120.5    .067   61.2    .667  -31.7 !    22.7
  500    .489  -80.6   7.274  113.3    .076   60.0    .609  -33.8 !    20.4
  600    .433  -88.9   6.360  107.5    .084   60.0    .567  -34.9 !    18.7
  700    .385  -96.3   5.636  102.5    .091   60.6    .537  -35.4 !    17.2
  800    .345 -102.7   5.045   98.3    .099   61.2    .514  -35.4 !    15.9
  900    .311 -109.0   4.566   94.4    .106   61.9    .496  -35.4 !    14.9
 1000    .283 -116.2   4.160   90.9    .113   62.5    .480  -35.3 !    13.9
 1200    .247 -129.2   3.558   85.1    .129   63.7    .454  -35.5 !    12.3
 1400    .229 -140.2   3.134   80.0    .145   64.6    .437  -36.5 !    11.1
 1600    .203 -147.3   2.786   75.4    .160   65.2    .431  -36.7 !    10.0
 1800    .182 -157.7   2.513   71.6    .177   66.0    .427  -37.4 !     9.0
 2000    .170 -171.9   2.304   67.5    .194   66.0    .415  -37.3 !     8.2
 2200    .182  173.7   2.136   64.0    .211   66.0    .396  -38.0 !     7.5
 2400    .202  167.1   2.019   60.1    .230   65.7    .379  -40.6 !     7.0
 2600    .202  164.7   1.880   57.1    .246   65.2    .371  -43.9 !     6.3
 2800    .196  157.1   1.795   54.5    .264   65.1    .372  -45.7 !     5.9
 3000    .203  144.7   1.706   51.2    .283   64.4    .365  -45.9 !     5.4
! Noise data:
! Freq.     Fmin        Gamma-opt         rn
  500       0.90     .442     25.0       .270
  900       1.10     .374     44.0       .260
 1000       1.15     .378     48.0       .270
 2000       1.85     .232    135.0       .150
