! Filename:       BFR540F.S2P                                Version:   3.0
! Philips part #: BFR540                                     Date: Feb 1992
! Bias condition: Vce=4V, Ic=50mA
! 
#  MHz  S  MA  R  50
! Freq       S11            S21            S12            S22     !GUM [dB]
   40    .448  -56.8  50.866  141.1    .012   72.2    .723  -32.0 !    38.3
  100    .355 -104.0  30.259  116.7    .023   67.4    .454  -50.7 !    31.2
  200    .321 -137.4  16.964  102.4    .038   69.5    .281  -59.0 !    25.4
  300    .316 -152.4  11.687   95.6    .052   71.9    .215  -62.1 !    22.0
  400    .319 -161.1   8.911   90.9    .066   72.8    .183  -64.4 !    19.6
  500    .318 -167.1   7.194   87.3    .081   73.6    .166  -65.9 !    17.7
  600    .317 -171.6   6.060   84.5    .095   73.4    .157  -66.9 !    16.2
  700    .315 -175.7   5.236   81.6    .110   73.3    .152  -67.6 !    14.9
  800    .312 -179.8   4.632   79.1    .123   72.9    .147  -67.6 !    13.9
  900    .313  176.0   4.140   76.6    .138   72.5    .144  -68.0 !    12.9
 1000    .314  172.0   3.747   74.4    .152   71.9    .138  -68.9 !    12.0
 1200    .323  165.4   3.171   70.1    .180   70.5    .131  -73.0 !    10.6
 1400    .331  160.8   2.764   66.0    .207   68.9    .128  -77.8 !     9.4
 1600    .320  156.7   2.462   62.0    .233   67.4    .130  -78.2 !     8.4
 1800    .321  151.1   2.231   58.5    .260   65.7    .128  -80.5 !     7.5
 2000    .333  144.0   2.052   55.1    .286   64.0    .114  -82.7 !     6.8
 2200    .358  138.7   1.905   52.1    .311   62.4    .097  -91.4 !     6.2
 2400    .374  136.6   1.782   48.7    .335   60.5    .094 -106.5 !     5.7
 2600    .376  135.2   1.670   45.5    .356   58.6    .104 -116.6 !     5.2
 2800    .374  131.2   1.601   42.6    .380   56.9    .109 -119.3 !     4.8
 3000    .388  124.7   1.535   39.7    .402   55.1    .096 -124.4 !     4.5
