! Filename:       BFR540D.S2P                                Version:   3.0
! Philips part #: BFR540                                     Date: Feb 1992
! Bias condition: Vce=4V, Ic=30mA
!
#  MHz  S  MA  R  50
! Freq       S11            S21            S12            S22     !GUM [dB]
   40    .549  -43.7  44.033  147.1    .013   73.4    .800  -27.3 !    38.9
  100    .414  -88.0  29.004  122.2    .025   65.3    .539  -46.8 !    31.6
  200    .340 -124.7  16.938  105.7    .039   66.6    .340  -56.8 !    25.6
  300    .322 -142.7  11.783   97.9    .053   68.9    .259  -60.3 !    22.2
  400    .318 -153.6   9.018   92.8    .067   70.2    .218  -62.4 !    19.8
  500    .315 -160.9   7.295   88.9    .080   71.3    .196  -63.8 !    17.9
  600    .312 -166.2   6.150   85.8    .094   71.6    .184  -64.6 !    16.4
  700    .308 -171.0   5.320   82.9    .108   71.8    .175  -65.1 !    15.1
  800    .305 -175.4   4.706   80.2    .122   71.7    .169  -65.1 !    14.0
  900    .304  179.7   4.206   77.7    .136   71.4    .165  -65.4 !    13.0
 1000    .306  175.6   3.806   75.4    .149   70.9    .158  -66.1 !    12.1
 1200    .313  168.0   3.220   71.1    .177   69.8    .148  -69.4 !    10.7
 1400    .321  163.2   2.807   66.9    .203   68.4    .144  -73.7 !     9.5
 1600    .310  158.8   2.502   62.9    .229   67.1    .145  -74.2 !     8.5
 1800    .311  153.2   2.268   59.3    .255   65.6    .143  -76.3 !     7.6
 2000    .321  145.9   2.083   55.9    .281   64.0    .129  -78.1 !     6.9
 2200    .346  140.2   1.933   52.9    .305   62.5    .110  -85.0 !     6.3
 2400    .364  137.8   1.810   49.4    .330   60.7    .105  -98.2 !     5.8
 2600    .365  136.5   1.695   46.2    .351   58.9    .112 -108.3 !     5.3
 2800    .363  132.5   1.624   43.3    .374   57.3    .117 -111.4 !     4.9
 3000    .377  125.6   1.557   40.4    .397   55.5    .104 -115.2 !     4.6
! Noise data:
! Freq.     Fmin        Gamma-opt         rn
  900       1.70     .252    172.0       .12
 2000       2.40     .435   -142.0       .19
