! Filename:       BFR505H.S2P                                Version:   3.0
! Philips part #: BFR505                                     Date: Feb 1992
! Bias condition: Vce=6V, Ic=1.25mA
!
#  MHz  S  MA  R  50
! Freq       S11            S21            S12            S22     !GUM [dB]
   40    .974   -2.5   3.336  176.2    .008   88.8    .993   -1.8 !    42.1
  100    .968   -6.4   3.297  171.5    .019   85.5    .989   -4.2 !    38.9
  200    .955  -12.6   3.235  163.9    .037   80.6    .978   -8.4 !    34.4
  300    .931  -18.8   3.184  156.7    .055   76.9    .957  -12.3 !    29.6
  400    .904  -24.7   3.116  150.7    .070   73.6    .936  -15.8 !    26.3
  500    .876  -30.1   3.009  144.8    .085   70.6    .914  -19.2 !    23.7
  600    .845  -35.2   2.910  139.5    .098   67.9    .889  -22.1 !    21.5
  700    .810  -40.2   2.834  134.4    .109   65.6    .864  -24.7 !    19.6
  800    .770  -44.8   2.754  129.2    .119   63.5    .839  -26.7 !    18.0
  900    .730  -49.3   2.662  124.1    .128   61.8    .817  -28.6 !    16.6
 1000    .689  -53.6   2.565  119.5    .136   60.1    .794  -30.3 !    15.3
 1200    .608  -61.8   2.399  110.8    .149   57.6    .747  -33.5 !    13.2
 1400    .538  -69.9   2.273  103.3    .161   56.1    .710  -36.0 !    11.7
 1600    .484  -75.2   2.119   97.0    .169   55.3    .681  -37.7 !    10.4
 1800    .433  -79.6   1.978   91.5    .178   55.6    .660  -39.2 !     9.3
 2000    .368  -83.8   1.857   85.6    .187   55.3    .633  -40.2 !     8.2
 2200    .310  -90.8   1.768   80.2    .196   55.2    .604  -42.0 !     7.4
 2400    .277  -99.2   1.701   74.9    .206   55.1    .578  -44.3 !     6.7
 2600    .259 -104.6   1.615   71.2    .214   55.9    .565  -46.8 !     6.1
 2800    .233 -107.0   1.562   68.2    .225   57.3    .562  -48.2 !     5.8
 3000    .186 -111.2   1.488   64.1    .235   57.6    .550  -48.8 !     5.2
! Noise data:
! Freq.     Fmin        Gamma-opt         rn
  900       1.20     .694     17.0       .87
 2000       1.90     .580     51.0       .58
