! Filename:       BFR505C.S2P                                Version:   3.0
! Philips part #: BFR505                                     Date: Feb 1992
! Bias condition: Vce=3V, Ic=2.5mA
!
#  MHz  S  MA  R  50
! Freq       S11            S21            S12            S22     !GUM [dB]
   40    .944   -3.9   6.565  174.4    .008   87.9    .989   -2.7 !    42.6
  100    .931   -9.7   6.408  167.3    .019   83.4    .979   -6.4 !    38.7
  200    .895  -19.0   6.133  156.9    .036   77.4    .945  -12.3 !    32.5
  300    .844  -27.7   5.850  147.8    .051   72.9    .900  -17.3 !    28.0
  400    .789  -35.6   5.540  140.1    .065   69.2    .856  -21.3 !    24.8
  500    .734  -42.7   5.190  133.1    .076   67.0    .813  -24.6 !    22.4
  600    .679  -48.9   4.872  127.0    .085   65.0    .774  -27.1 !    20.4
  700    .622  -54.5   4.582  121.0    .094   63.8    .741  -28.9 !    18.8
  800    .569  -59.1   4.291  115.7    .102   63.0    .712  -30.1 !    17.4
  900    .518  -63.4   4.012  110.7    .109   62.6    .688  -31.2 !    16.2
 1000    .471  -67.3   3.750  106.3    .116   62.0    .665  -32.0 !    15.1
 1200    .389  -74.5   3.324   98.5    .129   61.7    .625  -33.6 !    13.3
 1400    .332  -81.4   2.997   92.2    .141   62.0    .597  -35.0 !    12.0
 1600    .291  -84.4   2.699   87.1    .152   62.6    .579  -35.8 !    10.8
 1800    .252  -86.7   2.461   82.6    .166   63.5    .567  -36.6 !     9.8
 2000    .204  -89.5   2.267   77.8    .179   63.5    .550  -37.0 !     8.9
 2200    .161  -97.2   2.121   73.6    .193   63.5    .528  -38.2 !     8.1
 2400    .141 -108.4   2.011   69.2    .207   63.2    .508  -40.4 !     7.5
 2600    .135 -113.1   1.885   66.1    .221   63.4    .499  -43.0 !     6.8
 2800    .118 -113.6   1.804   63.6    .235   64.0    .500  -44.3 !     6.4
 3000    .079 -118.6   1.711   60.0    .249   63.7    .493  -44.7 !     5.9
! Noise data:
! Freq.     Fmin        Gamma-opt         rn
  900       1.30     .600     17.0       .67
 2000       1.90     .438     48.0       .52
