! Filename:       BFR505F.S2P                                Version:   3.0
! Philips part #: BFR505                                     Date: Feb 1992
! Bias condition: Vce=3V, Ic=7.5mA
! 
#  MHz  S  MA  R  50
! Freq       S11            S21            S12            S22     !GUM [dB]
   40    .841   -8.1  16.013  169.4    .007   84.5    .971   -5.0 !    41.8
  100    .796  -19.6  14.950  157.0    .017   79.3    .929  -11.6 !    36.5
  200    .685  -35.8  13.083  140.5    .031   72.1    .828  -19.3 !    30.1
  300    .572  -48.1  11.182  128.0    .042   69.7    .739  -23.4 !    26.1
  400    .480  -57.1   9.517  118.9    .051   68.6    .675  -25.4 !    23.4
  500    .411  -63.5   8.163  112.0    .060   68.9    .631  -26.5 !    21.2
  600    .357  -68.1   7.124  106.7    .067   69.1    .601  -27.0 !    19.6
  700    .313  -71.2   6.289  102.1    .076   69.9    .580  -27.2 !    18.2
  800    .278  -73.5   5.626   98.3    .084   70.3    .566  -27.2 !    17.0
  900    .245  -75.9   5.082   94.8    .092   70.9    .555  -27.3 !    16.0
 1000    .215  -77.8   4.626   91.7    .100   71.0    .544  -27.3 !    15.0
 1200    .168  -82.7   3.939   86.4    .116   71.4    .526  -28.0 !    13.4
 1400    .143  -89.2   3.456   82.0    .133   71.6    .514  -29.2 !    12.2
 1600    .126  -86.9   3.058   78.2    .148   71.7    .511  -30.0 !    11.1
 1800    .104  -85.6   2.755   74.8    .164   71.8    .509  -31.0 !    10.2
 2000    .073  -83.5   2.519   71.0    .181   71.1    .501  -31.4 !     9.3
 2200    .041  -97.8   2.340   67.8    .198   70.4    .485  -32.6 !     8.6
 2400    .036 -130.1   2.205   64.2    .215   69.6    .468  -35.1 !     7.9
 2600    .042 -132.4   2.052   61.7    .230   69.0    .460  -37.9 !     7.3
 2800    .032 -129.6   1.954   59.7    .247   68.8    .464  -39.6 !     6.9
 3000    .011  144.2   1.852   56.5    .263   67.8    .460  -40.1 !     6.4
