! Filename:       BFR520E.S2P                                Version:   2.1
! Philips part #: BFR520                                     Date: Sep 1991
! Bias condition: Vce=3V, Ic=20mA
!
#  MHz  S  MA  R  50
! Freq       S11            S21            S12            S22     !GUM [dB]
   40    .673  -21.4  33.855  160.2    .009   79.8    .911  -12.1 !    40.9
  100    .559  -47.4  27.286  139.2    .020   71.7    .771  -24.5 !    34.3
  200    .398  -75.6  18.570  119.2    .032   68.0    .582  -32.3 !    27.9
  300    .310  -93.7  13.629  108.7    .043   68.9    .482  -33.5 !    24.3
  400    .259 -107.3  10.647  101.8    .053   70.4    .428  -33.0 !    21.7
  500    .228 -116.8   8.690   97.1    .063   71.2    .399  -32.4 !    19.8
  600    .207 -125.0   7.358   93.4    .073   72.2    .382  -31.9 !    18.2
  700    .189 -132.4   6.382   90.1    .083   73.1    .373  -31.5 !    16.9
  800    .173 -139.8   5.631   87.3    .094   73.5    .366  -30.9 !    15.8
  900    .164 -146.8   5.048   84.5    .104   73.5    .362  -30.7 !    14.8
 1000    .157 -155.3   4.563   82.1    .115   73.9    .357  -30.5 !    13.9
 1200    .156 -167.5   3.859   77.8    .135   73.4    .347  -30.8 !    12.4
 1400    .158 -174.5   3.370   74.0    .157   72.7    .338  -32.4 !    11.2
 1600    .143  179.1   2.981   70.2    .176   71.8    .340  -33.1 !    10.1
 1800    .138  168.4   2.680   67.0    .196   71.3    .341  -34.2 !     9.2
 2000    .146  155.6   2.454   63.6    .217   69.9    .333  -34.1 !     8.4
 2200    .172  147.2   2.272   60.7    .238   68.8    .316  -34.7 !     7.7
 2400    .191  145.8   2.140   57.2    .259   67.6    .298  -37.7 !     7.2
 2600    .189  146.0   1.987   54.6    .277   66.2    .289  -41.7 !     6.5
 2800    .187  140.0   1.893   52.2    .296   65.2    .290  -44.0 !     6.1
 3000    .201  129.8   1.804   49.2    .316   63.8    .284  -43.9 !     5.7
! Noise data:
! Freq.     Fmin        Gamma-opt         rn
  500       1.45     .090     32.0       .210
  900       1.60     .080     76.0       .210
 1000       1.65     .070     78.0       .230
 2000       2.20     .210   -154.0       .170
