! Filename:       BFR540G.S2P                                Version:   3.0
! Philips part #: BFR540                                     Date: Feb 1992
! Bias condition: Vce=8V, Ic=4mA
! 
#  MHz  S  MA  R  50
! Freq       S11            S21            S12            S22     !GUM [dB]
   40    .921  -13.6  10.345  167.6    .016   81.8    .974   -7.8 !    41.3
  100    .868  -32.7   9.562  153.4    .038   71.0    .910  -18.2 !    33.4
  200    .755  -61.5   8.356  135.1    .063   58.6    .766  -30.2 !    25.9
  300    .655  -84.6   7.085  121.3    .078   52.4    .651  -36.8 !    21.8
  400    .588 -102.4   5.966  111.3    .089   49.1    .570  -40.9 !    19.1
  500    .540 -116.4   5.091  103.7    .096   48.4    .515  -43.2 !    17.0
  600    .506 -127.4   4.438   97.7    .103   48.6    .478  -44.6 !    15.4
  700    .481 -136.4   3.913   92.6    .109   49.6    .452  -45.5 !    14.0
  800    .461 -144.3   3.504   88.2    .115   50.8    .434  -46.1 !    12.8
  900    .446 -151.8   3.166   84.2    .121   52.4    .419  -46.7 !    11.8
 1000    .436 -158.5   2.882   80.7    .128   53.8    .406  -47.4 !    10.9
 1200    .428 -170.1   2.463   74.3    .142   56.7    .386  -49.8 !     9.4
 1400    .429 -179.1   2.168   68.6    .158   59.4    .375  -52.8 !     8.3
 1600    .418  173.6   1.941   63.6    .174   62.1    .373  -54.9 !     7.2
 1800    .417  165.7   1.766   59.2    .195   64.0    .370  -57.4 !     6.4
 2000    .424  157.1   1.627   54.9    .216   65.2    .357  -60.0 !     5.7
 2200    .445  150.2   1.513   51.2    .238   66.0    .339  -64.3 !     5.1
 2400    .462  145.6   1.421   47.1    .263   66.2    .328  -70.7 !     4.6
 2600    .463  141.8   1.334   43.7    .287   66.1    .329  -77.0 !     4.1
 2800    .462  136.1   1.283   40.7    .315   65.7    .334  -81.2 !     3.7
 3000    .479  128.9   1.228   37.7    .342   64.8    .322  -84.8 !     3.4
