! Filename:       BFR540K.S2P                                Version:   3.0
! Philips part #: BFR540                                     Date: Feb 1992
! Bias condition: Vce=8V, Ic=40mA
!
#  MHz  S  MA  R  50
! Freq       S11            S21            S12            S22     !GUM [dB]
   40    .612  -42.1  46.529  146.3    .013   72.7    .773  -27.0 !    39.3
  100    .443  -82.9  30.029  121.7    .025   65.2    .522  -45.8 !    31.9
  200    .337 -118.5  17.433  105.6    .039   66.2    .331  -55.0 !    25.9
  300    .308 -137.0  12.119   97.9    .053   68.6    .254  -58.0 !    22.4
  400    .300 -148.8   9.272   92.9    .066   70.2    .215  -59.9 !    20.0
  500    .293 -156.7   7.502   89.1    .080   71.4    .195  -61.1 !    18.1
  600    .290 -162.3   6.321   86.0    .094   71.5    .183  -61.9 !    16.5
  700    .284 -167.7   5.467   83.1    .108   71.7    .176  -62.2 !    15.3
  800    .280 -172.2   4.835   80.5    .122   71.6    .170  -62.2 !    14.2
  900    .279 -177.2   4.325   78.0    .136   71.3    .165  -62.3 !    13.2
 1000    .281  178.0   3.912   75.8    .149   70.8    .159  -62.9 !    12.3
 1200    .288  170.1   3.308   71.5    .176   69.7    .149  -66.1 !    10.9
 1400    .294  165.3   2.886   67.3    .203   68.2    .145  -70.3 !     9.7
 1600    .284  160.9   2.567   63.4    .228   67.0    .147  -70.7 !     8.6
 1800    .285  154.8   2.326   59.9    .254   65.5    .144  -72.5 !     7.8
 2000    .295  146.7   2.137   56.4    .279   63.9    .130  -73.8 !     7.1
 2200    .321  141.1   1.984   53.5    .303   62.4    .111  -79.8 !     6.5
 2400    .338  138.9   1.857   50.0    .327   60.5    .103  -92.7 !     6.0
 2600    .341  137.8   1.738   46.8    .348   58.7    .109 -102.9 !     5.4
 2800    .339  133.6   1.664   43.9    .371   57.2    .113 -105.9 !     5.0
 3000    .353  126.6   1.596   41.1    .393   55.5    .101 -108.8 !     4.7
! Noise data:
! Freq.     Fmin        Gamma-opt         rn
  900       1.90     .205    145.0       .17
 2000       2.60     .430   -152.0       .14
