! Filename:       BFR540I.S2P                                Version:   3.0
! Philips part #: BFR540                                     Date: Feb 1992
! Bias condition: Vce=8V, Ic=20mA
!
#  MHz  S  MA  R  50
! Freq       S11            S21            S12            S22     !GUM [dB]
   40    .714  -31.2  35.048  153.6    .014   75.0    .859  -21.2 !    39.8
  100    .553  -67.6  26.124  130.1    .028   64.5    .640  -39.8 !    32.2
  200    .404 -104.2  16.483  111.1    .042   62.2    .425  -51.2 !    26.0
  300    .351 -125.2  11.711  101.8    .055   64.2    .326  -55.2 !    22.4
  400    .330 -138.8   9.035   95.9    .067   65.8    .274  -57.2 !    20.0
  500    .317 -148.2   7.338   91.4    .080   67.5    .245  -58.4 !    18.0
  600    .310 -155.2   6.202   88.0    .093   68.2    .228  -58.9 !    16.5
  700    .302 -161.1   5.370   84.8    .106   68.9    .216  -59.2 !    15.2
  800    .295 -166.6   4.753   82.0    .119   69.1    .208  -59.1 !    14.1
  900    .293 -172.1   4.254   79.3    .132   69.2    .201  -59.1 !    13.1
 1000    .291 -177.3   3.847   76.8    .145   69.0    .194  -59.6 !    12.3
 1200    .297  174.0   3.255   72.3    .171   68.4    .182  -62.1 !    10.8
 1400    .304  168.3   2.839   68.0    .196   67.5    .175  -65.6 !     9.6
 1600    .293  163.5   2.530   63.9    .221   66.6    .176  -66.3 !     8.6
 1800    .294  157.2   2.292   60.3    .246   65.4    .174  -68.1 !     7.7
 2000    .302  149.0   2.107   56.7    .270   64.0    .159  -69.1 !     7.0
 2200    .327  143.0   1.956   53.7    .294   62.7    .140  -73.8 !     6.4
 2400    .346  140.5   1.832   50.2    .318   61.1    .130  -84.0 !     5.9
 2600    .347  139.0   1.714   47.0    .339   59.5    .133  -93.2 !     5.3
 2800    .345  134.8   1.643   44.1    .362   58.0    .138  -96.6 !     4.9
 3000    .359  127.5   1.574   41.1    .384   56.4    .125  -98.7 !     4.6
! Noise data:
! Freq.     Fmin        Gamma-opt         rn
  900       1.50     .231    130.0       .14
 2000       2.20     .410   -154.0       .13
