! Filename:       BFR520C.S2P                                Version:   2.1
! Philips part #: BFR520                                     Date: Sep 1991
! Bias condition: Vce=3V, Ic=10mA
!
#  MHz  S  MA  R  50
! Freq       S11            S21            S12            S22     !GUM [dB]
   40    .800  -14.7  23.665  166.0    .010   82.8    .954   -8.6 !    42.3
  100    .721  -34.4  20.958  149.2    .022   73.2    .868  -19.2 !    35.7
  200    .562  -59.0  16.124  129.4    .037   66.8    .706  -29.4 !    28.8
  300    .449  -76.0  12.566  117.3    .048   65.3    .591  -33.6 !    24.8
  400    .371  -89.1  10.109  109.0    .058   64.7    .518  -35.0 !    22.1
  500    .317  -98.6   8.387  103.1    .067   65.9    .473  -35.4 !    20.0
  600    .281 -106.6   7.170   98.6    .076   66.7    .444  -35.3 !    18.4
  700    .250 -114.1   6.255   94.6    .086   67.9    .426  -34.9 !    17.1
  800    .224 -120.3   5.539   91.3    .095   68.7    .413  -34.4 !    15.9
  900    .205 -127.3   4.978   88.2    .104   69.1    .402  -34.0 !    14.9
 1000    .189 -135.3   4.509   85.3    .114   69.6    .394  -33.7 !    14.0
 1200    .175 -149.0   3.823   80.6    .133   69.9    .378  -33.7 !    12.5
 1400    .170 -159.0   3.348   76.4    .153   69.8    .366  -34.9 !    11.2
 1600    .153 -165.3   2.965   72.3    .171   69.6    .365  -35.3 !    10.2
 1800    .141 -175.6   2.665   68.9    .191   69.4    .364  -36.1 !     9.2
 2000    .141  168.5   2.441   65.3    .210   68.5    .355  -35.9 !     8.4
 2200    .164  157.0   2.261   62.2    .230   67.8    .337  -36.5 !     7.7
 2400    .183  154.0   2.131   58.6    .251   66.7    .320  -39.3 !     7.2
 2600    .183  153.6   1.981   55.8    .268   65.5    .311  -43.0 !     6.5
 2800    .179  146.7   1.888   53.4    .287   64.9    .312  -45.0 !     6.1
 3000    .191  135.1   1.797   50.4    .306   63.7    .305  -44.8 !     5.7
! Noise data:
! Freq.     Fmin        Gamma-opt         rn
  500       1.10     .262     25.0       .220
  900       1.25     .217     46.0       .210
 1000       1.30     .212     48.0       .230
 2000       1.90     .159    167.0       .150
