! Filename:       BFR520G.S2P                                Version:   2.1
! Philips part #: BFR520                                     Date: Sep 1991
! Bias condition: Vce=6V, Ic=2mA
! 
#  MHz  S  MA  R  50
! Freq       S11            S21            S12            S22     !GUM [dB]
   40    .957   -6.0   6.256  174.5    .010   87.6    .990   -2.8 !    43.6
  100    .945  -14.8   6.129  167.1    .025   80.8    .978   -7.0 !    39.1
  200    .900  -28.8   5.815  155.3    .048   73.5    .942  -13.5 !    32.0
  300    .845  -41.7   5.443  145.1    .068   67.4    .894  -18.9 !    27.1
  400    .783  -53.4   5.030  135.9    .083   61.8    .845  -23.3 !    23.6
  500    .723  -63.6   4.601  128.1    .095   58.1    .797  -26.8 !    20.8
  600    .668  -72.8   4.228  121.3    .105   55.0    .755  -29.5 !    18.8
  700    .614  -81.0   3.887  115.1    .112   53.3    .720  -31.4 !    17.0
  800    .565  -88.4   3.575  109.7    .118   51.8    .688  -32.7 !    15.5
  900    .522  -95.6   3.307  104.6    .123   50.9    .662  -33.8 !    14.3
 1000    .481 -102.6   3.063   99.9    .126   50.5    .638  -34.6 !    13.1
 1200    .424 -116.3   2.692   92.1    .134   50.5    .599  -36.0 !    11.4
 1400    .390 -128.2   2.419   85.6    .142   51.6    .572  -37.6 !    10.1
 1600    .354 -137.6   2.178   79.7    .148   53.6    .556  -38.5 !     9.0
 1800    .322 -147.8   1.982   74.8    .157   56.4    .545  -39.5 !     7.9
 2000    .300 -160.3   1.830   69.8    .167   58.4    .528  -40.1 !     7.1
 2200    .302 -173.0   1.706   65.5    .178   60.6    .507  -41.6 !     6.3
 2400    .312  178.4   1.620   60.8    .192   62.6    .491  -44.3 !     5.8
 2600    .312  172.7   1.520   57.3    .206   64.1    .484  -47.4 !     5.2
 2800    .305  164.7   1.455   54.2    .223   65.9    .484  -49.4 !     4.8
 3000    .311  153.5   1.387   50.8    .241   66.8    .474  -50.6 !     4.4
