! Filename:       BFR520A.S2P                                Version:   2.1
! Philips part #: BFR520                                     Date: Sep 1991
! Bias condition: Vce=3V, Ic=2mA
! 
#  MHz  S  MA  R  50
! Freq       S11            S21            S12            S22     !GUM [dB]
   40    .951   -6.2   6.413  174.3    .011   87.8    .991   -3.0 !    43.8
  100    .937  -15.5   6.275  166.6    .026   80.5    .978   -7.4 !    38.8
  200    .891  -30.1   5.934  154.5    .050   72.8    .939  -14.2 !    31.6
  300    .832  -43.6   5.531  144.0    .069   66.5    .887  -19.8 !    26.7
  400    .769  -55.7   5.087  134.7    .084   60.9    .834  -24.3 !    23.2
  500    .709  -66.2   4.639  126.8    .097   57.3    .785  -27.9 !    20.5
  600    .653  -75.6   4.249  119.9    .106   54.2    .742  -30.5 !    18.5
  700    .600  -84.2   3.897  113.7    .113   52.3    .706  -32.4 !    16.7
  800    .552  -91.7   3.578  108.3    .119   51.1    .674  -33.7 !    15.3
  900    .510  -98.9   3.302  103.3    .124   50.3    .648  -34.7 !    14.0
 1000    .471 -106.4   3.054   98.6    .128   50.0    .624  -35.4 !    12.9
 1200    .419 -120.3   2.676   90.9    .135   50.2    .585  -36.9 !    11.2
 1400    .388 -132.3   2.399   84.4    .144   51.5    .559  -38.5 !     9.9
 1600    .355 -141.7   2.161   78.6    .150   53.4    .544  -39.4 !     8.8
 1800    .325 -152.0   1.965   73.8    .158   56.4    .533  -40.4 !     7.8
 2000    .306 -164.4   1.815   68.9    .169   58.5    .516  -41.1 !     6.9
 2200    .310 -176.7   1.690   64.5    .181   60.7    .495  -42.6 !     6.2
 2400    .322  175.1   1.604   59.9    .196   62.6    .479  -45.5 !     5.7
 2600    .323  169.6   1.504   56.3    .211   64.0    .472  -48.7 !     5.1
 2800    .317  161.7   1.441   53.4    .228   65.6    .472  -50.8 !     4.7
 3000    .324  151.3   1.375   49.9    .247   66.5    .461  -52.0 !     4.3
