! Filename:       BFR520L.S2P                                Version:   2.1
! Philips part #: BFR520                                     Date: Sep 1991
! Bias condition: Vce=6V, Ic=30mA
! 
#  MHz  S  MA  R  50
! Freq       S11            S21            S12            S22     !GUM [dB]
   40    .691  -22.1  37.360  158.7    .009   80.4    .892  -12.5 !    41.2
  100    .559  -47.9  29.323  137.1    .019   71.6    .744  -24.8 !    34.5
  200    .387  -74.7  19.484  117.4    .031   68.8    .560  -31.3 !    28.1
  300    .294  -91.4  14.155  107.3    .041   70.4    .468  -31.8 !    24.5
  400    .242 -103.6  11.009  100.9    .051   71.6    .420  -30.9 !    21.9
  500    .209 -112.9   8.974   96.4    .062   72.7    .395  -30.3 !    20.0
  600    .187 -120.3   7.584   92.8    .072   73.4    .380  -29.8 !    18.4
  700    .169 -127.8   6.574   89.7    .082   74.2    .373  -29.5 !    17.1
  800    .153 -134.1   5.797   87.0    .093   74.6    .368  -29.0 !    16.0
  900    .141 -141.3   5.192   84.4    .103   74.5    .364  -28.8 !    15.0
 1000    .133 -150.1   4.694   82.0    .114   74.5    .361  -28.6 !    14.1
 1200    .131 -163.8   3.965   77.9    .134   73.8    .351  -29.1 !    12.6
 1400    .133 -171.6   3.463   74.2    .156   73.2    .344  -30.7 !    11.4
 1600    .120 -177.7   3.062   70.5    .175   72.3    .346  -31.6 !    10.3
 1800    .113  171.5   2.750   67.4    .195   71.7    .347  -32.7 !     9.4
 2000    .117  156.0   2.515   64.0    .216   70.3    .339  -32.6 !     8.6
 2200    .145  146.6   2.330   61.2    .236   69.1    .322  -33.1 !     7.9
 2400    .166  146.1   2.195   57.8    .258   67.8    .305  -35.9 !     7.4
 2600    .164  146.9   2.038   55.2    .275   66.4    .295  -39.9 !     6.7
 2800    .161  140.8   1.941   53.0    .294   65.5    .297  -42.1 !     6.3
 3000    .176  129.3   1.844   49.9    .314   64.1    .291  -41.9 !     5.8
