! Filename:       BFR505L.S2P                                Version:   3.0
! Philips part #: BFR505                                     Date: Feb 1992
! Bias condition: Vce=6V, Ic=7.5mA
! 
#  MHz  S  MA  R  50
! Freq       S11            S21            S12            S22     !GUM [dB]
   40    .866   -7.3  15.867  169.8    .007   84.5    .972   -4.8 !    42.7
  100    .825  -17.5  14.896  158.3    .017   80.1    .934  -11.2 !    37.4
  200    .722  -32.4  13.178  142.4    .031   73.4    .839  -19.0 !    30.9
  300    .612  -43.8  11.373  130.1    .042   70.2    .752  -23.5 !    26.8
  400    .520  -52.2   9.759  121.0    .052   69.1    .687  -25.9 !    23.9
  500    .448  -57.9   8.422  114.0    .061   69.3    .640  -27.2 !    21.8
  600    .393  -62.0   7.377  108.6    .069   69.3    .607  -27.9 !    20.1
  700    .347  -64.8   6.527  103.9    .077   69.8    .584  -28.1 !    18.7
  800    .310  -66.5   5.850  100.1    .085   70.1    .567  -28.2 !    17.5
  900    .276  -68.0   5.289   96.5    .093   70.6    .555  -28.3 !    16.4
 1000    .246  -69.4   4.817   93.4    .102   70.7    .543  -28.3 !    15.4
 1200    .197  -72.5   4.104   87.9    .118   71.0    .522  -28.9 !    13.8
 1400    .168  -76.8   3.604   83.5    .134   71.0    .509  -30.0 !    12.6
 1600    .152  -74.3   3.184   79.8    .149   71.1    .505  -30.5 !    11.4
 1800    .134  -71.9   2.869   76.4    .166   71.2    .503  -31.5 !    10.5
 2000    .105  -67.3   2.626   72.6    .183   70.2    .493  -31.7 !     9.6
 2200    .071  -69.5   2.437   69.4    .199   69.5    .476  -32.7 !     8.9
 2400    .055  -84.2   2.298   65.8    .217   68.5    .459  -35.1 !     8.3
 2600    .060  -91.2   2.137   63.4    .232   68.0    .451  -37.8 !     7.6
 2800    .054  -84.5   2.034   61.4    .248   67.8    .455  -39.4 !     7.2
 3000    .029  -56.7   1.927   58.2    .264   66.7    .451  -39.7 !     6.7
