! Filename:       BFR505J.S2P                                Version:   3.0
! Philips part #: BFR505                                     Date: Feb 1992
! Bias condition: Vce=6V, Ic=3.75mA
!
#  MHz  S  MA  R  50
! Freq       S11            S21            S12            S22     !GUM [dB]
   40    .928   -4.7   9.181  173.0    .007   87.4    .985   -3.3 !    43.0
  100    .908  -11.5   8.876  164.9    .018   82.5    .969   -7.8 !    38.6
  200    .855  -22.4   8.351  152.9    .034   75.7    .918  -14.6 !    32.2
  300    .786  -32.1   7.782  142.7    .048   71.8    .856  -19.7 !    27.7
  400    .714  -40.5   7.184  134.2    .060   68.7    .802  -23.6 !    24.7
  500    .646  -47.5   6.568  126.8    .070   67.2    .752  -26.5 !    22.3
  600    .583  -53.4   6.031  120.5    .078   66.0    .712  -28.5 !    20.5
  700    .524  -58.1   5.530  114.7    .087   65.7    .679  -29.7 !    18.9
  800    .473  -61.5   5.072  109.9    .094   65.5    .653  -30.4 !    17.6
  900    .427  -64.9   4.671  105.3    .102   65.5    .632  -31.0 !    16.5
 1000    .385  -67.6   4.309  101.4    .109   65.3    .612  -31.4 !    15.4
 1200    .313  -72.8   3.747   94.5    .123   65.5    .578  -32.4 !    13.7
 1400    .269  -78.2   3.332   89.1    .138   66.0    .556  -33.5 !    12.4
 1600    .238  -78.7   2.968   84.5    .151   66.3    .543  -34.1 !    11.2
 1800    .208  -79.1   2.693   80.5    .166   66.9    .536  -34.8 !    10.3
 2000    .167  -78.9   2.470   76.2    .181   66.4    .522  -35.0 !     9.4
 2200    .128  -84.0   2.302   72.5    .196   66.2    .502  -36.1 !     8.6
 2400    .108  -94.7   2.175   68.4    .212   65.5    .483  -38.3 !     8.0
 2600    .107  -98.6   2.031   65.6    .227   65.3    .474  -40.9 !     7.3
 2800    .097  -96.2   1.938   63.4    .241   65.5    .476  -42.2 !     6.9
 3000    .062  -90.3   1.838   60.0    .256   64.8    .471  -42.5 !     6.4
! Noise data:
! Freq.     Fmin        Gamma-opt         rn
  900       1.40     .600     15.0       .68
 2000       2.00     .492     45.0       .51
