! Filename:       BFR520F.S2P                                Version:   2.1
! Philips part #: BFR520                                     Date: Sep 1991
! Bias condition: Vce=3V, Ic=30mA
! 
#  MHz  S  MA  R  50
! Freq       S11            S21            S12            S22     !GUM [dB]
   40    .570  -29.5  36.792  156.0    .009   77.3    .849  -14.0 !    38.6
  100    .455  -63.1  27.504  132.7    .019   69.4    .684  -26.2 !    32.5
  200    .331  -97.4  17.456  113.4    .030   68.7    .508  -30.8 !    26.6
  300    .279 -118.1  12.470  104.0    .040   70.8    .430  -30.1 !    23.2
  400    .254 -132.3   9.628   97.9    .051   71.8    .392  -29.0 !    20.7
  500    .238 -142.0   7.818   93.5    .061   73.1    .373  -28.4 !    18.8
  600    .229 -149.5   6.596   90.1    .072   73.9    .362  -28.1 !    17.2
  700    .220 -156.5   5.712   87.0    .082   74.9    .358  -28.0 !    15.9
  800    .212 -162.8   5.035   84.3    .093   75.1    .355  -27.8 !    14.8
  900    .209 -168.7   4.512   81.6    .103   75.2    .353  -27.8 !    13.9
 1000    .209 -175.0   4.079   79.2    .114   75.1    .350  -28.0 !    13.0
 1200    .215  176.0   3.447   75.0    .135   74.7    .343  -28.9 !    11.5
 1400    .219  170.4   3.013   71.2    .157   74.0    .336  -30.9 !    10.3
 1600    .209  164.5   2.668   67.2    .177   72.9    .339  -32.3 !     9.2
 1800    .207  156.3   2.404   63.9    .198   72.3    .339  -33.7 !     8.3
 2000    .217  147.5   2.206   60.5    .219   71.0    .332  -34.0 !     7.6
 2200    .245  141.9   2.043   57.5    .240   69.8    .314  -35.1 !     6.9
 2400    .262  140.4   1.925   54.0    .262   68.5    .298  -38.5 !     6.4
 2600    .261  139.2   1.790   51.2    .281   67.0    .288  -42.8 !     5.7
 2800    .261  133.8   1.709   48.8    .301   66.1    .289  -45.4 !     5.3
 3000    .277  125.8   1.629   45.7    .322   64.6    .282  -45.7 !     4.9
