! Filename:       BFR540C.S2P                                Version:   3.0
! Philips part #: BFR540                                     Date: Feb 1992
! Bias condition: Vce=4V, Ic=20mA
!
#  MHz  S  MA  R  50
! Freq       S11            S21            S12            S22     !GUM [dB]
   40    .645  -34.8  36.002  152.2    .014   75.1    .856  -23.0 !    39.2
  100    .499  -75.1  26.225  128.0    .027   64.5    .618  -42.2 !    31.7
  200    .384 -113.4  16.211  109.4    .042   63.1    .403  -53.5 !    25.7
  300    .349 -133.8  11.437  100.5    .054   65.2    .307  -57.4 !    22.2
  400    .338 -146.2   8.800   94.7    .067   66.9    .257  -59.6 !    19.7
  500    .330 -154.8   7.140   90.4    .080   68.5    .230  -60.8 !    17.8
  600    .325 -161.1   6.029   87.0    .093   69.2    .214  -61.5 !    16.3
  700    .320 -166.5   5.218   83.9    .107   69.7    .204  -61.8 !    15.0
  800    .315 -171.5   4.618   81.0    .120   69.8    .196  -61.8 !    13.9
  900    .313 -176.5   4.132   78.4    .133   69.8    .190  -62.0 !    12.9
 1000    .315  178.8   3.742   76.0    .146   69.7    .182  -62.5 !    12.1
 1200    .320  170.7   3.164   71.5    .173   68.8    .171  -65.4 !    10.6
 1400    .327  165.5   2.763   67.1    .198   67.8    .166  -69.2 !     9.4
 1600    .317  160.6   2.460   63.1    .223   66.8    .167  -70.0 !     8.4
 1800    .318  154.6   2.230   59.4    .249   65.6    .165  -72.0 !     7.6
 2000    .328  147.2   2.050   55.9    .274   64.1    .150  -73.6 !     6.8
 2200    .352  141.4   1.904   52.9    .299   62.8    .131  -79.3 !     6.2
 2400    .370  138.9   1.784   49.3    .323   61.1    .124  -90.4 !     5.7
 2600    .371  137.3   1.669   46.1    .344   59.5    .129  -99.9 !     5.2
 2800    .369  133.2   1.601   43.1    .368   58.0    .134 -103.4 !     4.8
 3000    .384  126.2   1.535   40.2    .390   56.3    .121 -106.3 !     4.5
! Noise data:
! Freq.     Fmin        Gamma-opt         rn
  900       1.50     .222    156.0       .13
 2000       2.20     .398   -148.0       .16
