! Filename:       BFR505I.S2P                                Version:   3.0
! Philips part #: BFR505                                     Date: Feb 1992
! Bias condition: Vce=6V, Ic=2.5mA
!
#  MHz  S  MA  R  50
! Freq       S11            S21            S12            S22     !GUM [dB]
   40    .949   -3.7   6.445  174.4    .007   87.1    .989   -2.6 !    42.7
  100    .937   -9.2   6.297  167.8    .018   84.1    .979   -6.1 !    39.0
  200    .905  -18.0   6.045  157.7    .036   77.8    .949  -12.0 !    33.0
  300    .856  -26.2   5.781  148.8    .051   73.6    .905  -16.9 !    28.4
  400    .804  -33.8   5.494  141.3    .064   70.2    .863  -20.9 !    25.3
  500    .751  -40.4   5.160  134.4    .076   67.7    .821  -24.3 !    22.7
  600    .698  -46.4   4.859  128.3    .086   65.8    .783  -26.9 !    20.8
  700    .643  -51.8   4.578  122.5    .095   64.4    .750  -28.8 !    19.1
  800    .591  -56.1   4.303  117.1    .102   63.6    .721  -30.1 !    17.7
  900    .540  -60.1   4.030  112.2    .110   62.9    .697  -31.2 !    16.5
 1000    .494  -63.9   3.775  107.8    .117   62.4    .673  -32.1 !    15.4
 1200    .410  -70.6   3.358   99.9    .130   61.9    .631  -33.8 !    13.5
 1400    .353  -77.1   3.036   93.6    .143   62.1    .602  -35.2 !    12.2
 1600    .312  -79.6   2.737   88.4    .154   62.4    .583  -36.0 !    11.0
 1800    .273  -81.5   2.498   83.9    .167   63.3    .570  -36.9 !    10.0
 2000    .224  -83.3   2.302   79.0    .180   63.0    .552  -37.2 !     9.0
 2200    .178  -89.2   2.154   74.8    .194   63.0    .530  -38.4 !     8.2
 2400    .155  -98.2   2.044   70.3    .209   62.6    .508  -40.6 !     7.6
 2600    .150 -102.6   1.915   67.3    .221   62.8    .498  -43.0 !     7.0
 2800    .134 -102.3   1.833   64.8    .236   63.3    .499  -44.4 !     6.6
 3000    .094 -102.7   1.739   61.2    .249   63.0    .492  -44.7 !     6.0
! Noise data:
! Freq.     Fmin        Gamma-opt         rn
  900       1.30     .631     16.0       .74
 2000       1.90     .483     46.0       .55
