! Filename:       BFR505B.S2P                                Version:   3.0
! Philips part #: BFR505                                     Date: Feb 1992
! Bias condition: Vce=3V, Ic=1.25mA
!
#  MHz  S  MA  R  50
! Freq       S11            S21            S12            S22     !GUM [dB]
   40    .971   -2.7   3.415  176.1    .008   87.8    .993   -1.8 !    41.6
  100    .965   -6.6   3.375  171.2    .019   85.2    .990   -4.2 !    39.0
  200    .951  -13.3   3.305  163.3    .038   80.3    .977   -8.6 !    33.9
  300    .926  -19.7   3.244  156.0    .055   76.4    .955  -12.6 !    29.2
  400    .897  -25.8   3.173  149.9    .071   73.0    .932  -16.2 !    25.9
  500    .867  -31.5   3.059  143.8    .086   69.8    .909  -19.6 !    23.4
  600    .835  -36.7   2.947  138.6    .098   67.0    .882  -22.6 !    21.1
  700    .798  -41.9   2.868  133.3    .110   64.8    .857  -25.1 !    19.3
  800    .758  -46.7   2.780  128.1    .119   62.8    .832  -27.1 !    17.7
  900    .715  -51.4   2.688  123.0    .128   61.0    .810  -29.0 !    16.3
 1000    .674  -55.7   2.584  118.3    .136   59.4    .785  -30.6 !    15.0
 1200    .590  -64.5   2.413  109.5    .149   56.9    .739  -33.7 !    12.9
 1400    .520  -73.0   2.282  102.0    .160   55.7    .702  -36.1 !    11.5
 1600    .466  -78.4   2.121   95.7    .167   55.0    .674  -37.8 !    10.2
 1800    .413  -83.0   1.978   90.2    .177   55.5    .653  -39.3 !     9.2
 2000    .350  -87.9   1.856   84.3    .185   55.2    .627  -40.2 !     8.1
 2200    .294  -95.6   1.763   79.1    .194   55.3    .599  -41.9 !     7.2
 2400    .263 -104.5   1.692   73.7    .204   55.4    .574  -44.4 !     6.6
 2600    .247 -110.3   1.604   70.1    .213   56.3    .561  -46.8 !     6.0
 2800    .220 -113.6   1.551   67.0    .224   57.7    .559  -48.3 !     5.7
 3000    .174 -119.3   1.478   63.0    .234   58.4    .547  -48.9 !     5.1
! Noise data:
! Freq.     Fmin        Gamma-opt         rn
  900       1.20     .670     17.0       .86
 2000       1.90     .560     51.0       .55
