! Filename:       BFR505D.S2P                                Version:   3.0
! Philips part #: BFR505                                     Date: Feb 1992
! Bias condition: Vce=3V, Ic=3.75mA
!
#  MHz  S  MA  R  50
! Freq       S11            S21            S12            S22     !GUM [dB]
   40    .918   -5.0   9.316  172.9    .007   87.3    .985   -3.4 !    42.6
  100    .897  -12.3   8.982  164.3    .018   81.8    .966   -8.0 !    38.0
  200    .840  -23.8   8.420  151.9    .035   75.5    .913  -15.0 !    31.6
  300    .766  -34.1   7.818  141.5    .048   71.1    .848  -20.1 !    27.2
  400    .692  -43.1   7.188  132.8    .060   67.9    .791  -23.8 !    24.2
  500    .622  -50.5   6.543  125.3    .069   66.5    .743  -26.6 !    21.9
  600    .558  -56.7   5.983  118.9    .078   65.5    .702  -28.4 !    20.1
  700    .499  -61.6   5.467  113.2    .086   65.3    .670  -29.5 !    18.6
  800    .447  -65.3   5.004  108.4    .093   65.1    .646  -30.1 !    17.3
  900    .402  -68.9   4.597  103.9    .101   65.2    .626  -30.6 !    16.2
 1000    .361  -72.0   4.237  100.0    .108   65.2    .606  -31.0 !    15.1
 1200    .291  -78.0   3.670   93.2    .122   65.6    .575  -32.0 !    13.4
 1400    .248  -84.1   3.261   87.8    .137   66.0    .554  -33.1 !    12.1
 1600    .217  -85.0   2.908   83.3    .149   66.5    .543  -33.7 !    11.0
 1800    .187  -86.2   2.634   79.3    .164   67.2    .536  -34.5 !    10.0
 2000    .145  -86.9   2.415   74.9    .179   66.9    .523  -34.8 !     9.1
 2200    .107  -95.3   2.252   71.2    .195   66.6    .503  -35.9 !     8.4
 2400    .092 -108.8   2.127   67.2    .211   66.1    .485  -38.2 !     7.8
 2600    .092 -114.0   1.986   64.4    .225   66.0    .476  -40.8 !     7.1
 2800    .079 -112.4   1.895   62.1    .241   66.2    .479  -42.3 !     6.7
 3000    .043 -116.2   1.797   58.7    .256   65.5    .474  -42.6 !     6.2
! Noise data:
! Freq.     Fmin        Gamma-opt         rn
  900       1.40     .554     17.0       .62
 2000       2.00     .402     47.0       .49
