! Filename:       BFR505A.S2P                                Version:   3.0
! Philips part #: BFR505                                     Date: Feb 1992
! Bias condition: Vce=3V, Ic=0.50mA
! 
#  MHz  S  MA  R  50
! Freq       S11            S21            S12            S22     !GUM [dB]
   40    .987   -1.8   1.368  177.3    .008   87.7    .995   -1.2 !    38.9
  100    .984   -4.5   1.362  173.8    .019   86.4    .994   -2.8 !    37.2
  200    .981   -9.1   1.353  167.9    .039   82.7    .991   -5.8 !    34.5
  300    .972  -13.8   1.354  161.9    .057   79.5    .983   -8.7 !    30.0
  400    .959  -18.3   1.351  156.8    .075   76.8    .975  -11.5 !    26.6
  500    .948  -22.5   1.333  151.7    .092   74.2    .967  -14.2 !    24.3
  600    .933  -26.7   1.314  146.8    .108   71.5    .957  -16.8 !    22.0
  700    .916  -30.8   1.298  142.2    .123   68.9    .946  -19.3 !    20.0
  800    .894  -34.7   1.291  137.4    .137   66.5    .933  -21.4 !    18.1
  900    .869  -38.7   1.284  132.4    .149   64.0    .921  -23.5 !    16.5
 1000    .844  -42.7   1.263  127.9    .160   61.6    .906  -25.5 !    14.9
 1200    .791  -50.7   1.232  119.2    .180   57.0    .873  -29.6 !    12.3
 1400    .740  -58.8   1.224  111.5    .195   53.5    .841  -33.1 !    10.5
 1600    .693  -65.3   1.199  105.0    .204   50.3    .814  -35.9 !     9.1
 1800    .648  -71.1   1.155   98.9    .212   48.6    .792  -38.5 !     7.9
 2000    .581  -77.5   1.127   92.1    .217   46.1    .761  -40.8 !     6.6
 2200    .518  -85.3   1.111   85.9    .220   44.2    .728  -43.5 !     5.6
 2400    .476  -94.2   1.106   79.5    .223   43.0    .699  -46.6 !     4.9
 2600    .450 -101.1   1.081   75.3    .223   43.0    .683  -49.6 !     4.4
 2800    .413 -106.2   1.072   71.7    .225   44.3    .677  -51.6 !     4.1
 3000    .356 -112.4   1.038   67.1    .225   45.3    .658  -53.1 !     3.4
