! Filename:       BFR520I.S2P                                Version:   2.1
! Philips part #: BFR520                                     Date: Sep 1991
! Bias condition: Vce=6V, Ic=10mA
!
#  MHz  S  MA  R  50
! Freq       S11            S21            S12            S22     !GUM [dB]
   40    .836  -13.3  22.877  166.6    .010   82.7    .953   -8.0 !    42.8
  100    .760  -31.4  20.460  150.7    .022   74.6    .877  -18.0 !    36.3
  200    .604  -54.5  16.069  131.4    .037   67.0    .726  -28.2 !    29.3
  300    .482  -70.5  12.675  119.1    .048   65.1    .612  -32.7 !    25.2
  400    .398  -82.5  10.263  110.7    .058   64.7    .538  -34.3 !    22.5
  500    .339  -91.5   8.558  104.7    .067   65.8    .491  -34.9 !    20.4
  600    .297  -98.7   7.322   99.9    .076   66.7    .460  -34.9 !    18.7
  700    .262 -105.2   6.399   96.0    .085   67.7    .441  -34.6 !    17.4
  800    .231 -111.2   5.675   92.5    .095   68.4    .426  -34.1 !    16.2
  900    .207 -117.4   5.099   89.3    .104   68.8    .416  -33.7 !    15.2
 1000    .188 -124.9   4.623   86.5    .113   69.2    .406  -33.4 !    14.2
 1200    .167 -138.3   3.920   81.7    .131   69.6    .389  -33.4 !    12.7
 1400    .157 -148.8   3.434   77.4    .151   69.5    .377  -34.4 !    11.5
 1600    .138 -154.8   3.041   73.4    .170   69.3    .376  -34.8 !    10.4
 1800    .123 -165.4   2.734   70.0    .188   69.2    .375  -35.5 !     9.5
 2000    .118  176.8   2.503   66.4    .207   68.3    .365  -35.2 !     8.7
 2200    .138  162.0   2.316   63.3    .226   67.6    .347  -35.6 !     7.9
 2400    .159  157.9   2.185   59.7    .247   66.6    .330  -38.3 !     7.4
 2600    .158  157.9   2.030   57.0    .264   65.4    .320  -41.8 !     6.7
 2800    .153  151.2   1.934   54.6    .282   64.9    .322  -43.7 !     6.3
 3000    .163  137.5   1.838   51.5    .301   63.7    .316  -43.5 !     5.9
! Noise data:
! Freq.     Fmin        Gamma-opt         rn
  500       1.10     .333     25.0       .240
  900       1.25     .291     41.0       .240
 1000       1.30     .273     43.0       .250
 2000       1.90     .170    148.0       .160
