! Filename:       BFR540A.S2P                                Version:   3.0
! Philips part #: BFR540                                     Date: Feb 1992
! Bias condition: Vce=4V, Ic=4mA
! 
#  MHz  S  MA  R  50
! Freq       S11            S21            S12            S22     !GUM [dB]
   40    .908  -14.2  10.429  167.1    .017   81.4    .974   -8.2 !    40.8
  100    .855  -34.2   9.573  152.6    .039   70.1    .905  -19.1 !    32.8
  200    .741  -64.3   8.335  134.0    .065   57.7    .755  -31.4 !    25.5
  300    .643  -88.2   7.018  120.0    .080   51.4    .637  -38.2 !    21.5
  400    .581 -106.1   5.873  110.2    .090   48.5    .555  -42.2 !    18.8
  500    .538 -120.2   5.006  102.5    .097   47.8    .500  -44.5 !    16.7
  600    .507 -131.0   4.344   96.6    .103   48.2    .464  -45.9 !    15.1
  700    .486 -139.9   3.830   91.6    .110   49.2    .439  -46.8 !    13.8
  800    .469 -147.7   3.428   87.2    .116   50.7    .421  -47.4 !    12.6
  900    .454 -154.8   3.087   83.3    .122   52.3    .407  -48.1 !    11.6
 1000    .448 -161.3   2.814   79.7    .129   53.7    .394  -48.9 !    10.7
 1200    .442 -172.5   2.403   73.4    .143   56.8    .375  -51.4 !     9.2
 1400    .444  178.6   2.114   67.6    .159   59.4    .365  -54.6 !     8.1
 1600    .433  171.5   1.895   62.6    .177   62.2    .363  -56.9 !     7.1
 1800    .432  163.9   1.727   58.2    .198   63.9    .360  -59.6 !     6.2
 2000    .440  155.6   1.591   54.0    .220   65.1    .347  -62.4 !     5.5
 2200    .461  148.8   1.479   50.3    .243   65.9    .329  -67.0 !     4.9
 2400    .477  144.3   1.389   46.3    .268   65.9    .319  -73.8 !     4.4
 2600    .479  140.6   1.305   42.9    .293   65.7    .321  -80.2 !     3.9
 2800    .478  135.0   1.254   39.9    .321   65.2    .326  -84.6 !     3.6
 3000    .494  127.8   1.200   36.9    .349   64.3    .315  -88.5 !     3.3
