! Filename:       BFR520K.S2P                                Version:   2.1
! Philips part #: BFR520                                     Date: Sep 1991
! Bias condition: Vce=6V, Ic=20mA
!
#  MHz  S  MA  R  50
! Freq       S11            S21            S12            S22     !GUM [dB]
   40    .743  -18.7  33.272  161.4    .009   81.0    .918  -11.1 !    41.9
  100    .627  -41.8  27.392  141.4    .020   72.1    .792  -23.2 !    35.2
  200    .447  -66.7  19.114  121.4    .033   68.1    .607  -31.5 !    28.6
  300    .342  -82.4  14.179  110.6    .043   68.6    .503  -33.4 !    24.8
  400    .278  -94.3  11.131  103.5    .053   69.6    .446  -33.1 !    22.2
  500    .237 -102.7   9.118   98.7    .063   71.1    .414  -32.7 !    20.3
  600    .209 -109.7   7.724   94.8    .073   71.7    .395  -32.2 !    18.7
  700    .185 -116.5   6.708   91.5    .083   72.7    .384  -31.7 !    17.4
  800    .164 -122.5   5.920   88.7    .094   73.0    .377  -31.1 !    16.2
  900    .148 -129.1   5.307   85.9    .104   73.2    .371  -30.8 !    15.2
 1000    .135 -137.3   4.799   83.4    .114   73.2    .365  -30.5 !    14.3
 1200    .126 -152.3   4.058   79.2    .134   73.0    .354  -30.7 !    12.8
 1400    .125 -161.6   3.545   75.4    .156   72.3    .345  -32.1 !    11.6
 1600    .111 -166.7   3.132   71.7    .175   71.4    .347  -32.7 !    10.5
 1800    .099 -178.7   2.813   68.6    .195   70.9    .348  -33.6 !     9.6
 2000    .101  163.6   2.574   65.1    .215   69.6    .339  -33.4 !     8.8
 2200    .126  151.0   2.382   62.3    .235   68.5    .322  -33.7 !     8.1
 2400    .147  149.6   2.244   58.9    .256   67.3    .305  -36.4 !     7.5
 2600    .147  151.2   2.082   56.3    .273   65.9    .295  -40.3 !     6.9
 2800    .143  144.3   1.983   54.0    .292   65.0    .297  -42.4 !     6.4
 3000    .157  131.2   1.884   51.0    .312   63.6    .290  -42.0 !     6.0
! Noise data:
! Freq.     Fmin        Gamma-opt         rn
  500       1.45     .194     27.0       .250
  900       1.60     .164     49.0       .260
 1000       1.65     .166     55.0       .280
 2000       2.20     .165   -175.0       .180
