! Filename:       BFR540B.S2P                                Version:   3.0
! Philips part #: BFR540                                     Date: Feb 1992
! Bias condition: Vce=4V, Ic=10mA
!
#  MHz  S  MA  R  50
! Freq       S11            S21            S12            S22     !GUM [dB]
   40    .788  -23.3  22.641  159.8    .016   77.8    .926  -15.6 !    39.8
  100    .675  -54.1  18.988  139.7    .032   65.0    .762  -32.4 !    32.0
  200    .514  -92.0  13.709  118.5    .049   58.0    .542  -45.4 !    25.6
  300    .440 -115.4  10.166  107.0    .061   57.6    .424  -50.6 !    21.9
  400    .408 -130.9   7.979   99.6    .071   58.9    .357  -53.1 !    19.4
  500    .388 -141.9   6.534   94.2    .082   60.8    .318  -54.5 !    17.5
  600    .376 -150.0   5.553   90.0    .093   62.0    .294  -55.1 !    15.9
  700    .365 -156.9   4.820   86.3    .105   63.5    .278  -55.4 !    14.6
  800    .357 -162.8   4.278   83.0    .116   64.3    .267  -55.5 !    13.5
  900    .352 -168.8   3.832   80.0    .128   65.1    .258  -55.7 !    12.5
 1000    .350 -174.2   3.474   77.2    .139   65.5    .248  -56.2 !    11.7
 1200    .353  176.6   2.946   72.1    .162   66.0    .234  -58.5 !    10.2
 1400    .360  170.3   2.576   67.4    .186   65.8    .226  -61.7 !     9.0
 1600    .349  164.7   2.298   63.0    .209   65.8    .227  -63.0 !     8.0
 1800    .349  158.0   2.085   59.1    .233   65.2    .224  -65.1 !     7.2
 2000    .359  150.2   1.919   55.3    .257   64.4    .211  -66.9 !     6.5
 2200    .382  144.3   1.783   52.1    .281   63.6    .191  -71.4 !     5.9
 2400    .400  141.1   1.672   48.4    .305   62.4    .182  -79.8 !     5.4
 2600    .401  138.8   1.566   45.1    .327   61.1    .184  -87.6 !     4.8
 2800    .400  134.2   1.503   42.1    .351   59.9    .190  -91.4 !     4.5
 3000    .415  127.4   1.440   39.0    .375   58.5    .178  -94.1 !     4.1
! Noise data:
! Freq.     Fmin        Gamma-opt         rn
  900       1.30     .269    129.0       .11
 2000       2.10     .406   -151.0       .16
