! Filename:       BFR505K.S2P                                Version:   3.0
! Philips part #: BFR505                                     Date: Feb 1992
! Bias condition: Vce=6V, Ic=5mA
!
#  MHz  S  MA  R  50
! Freq       S11            S21            S12            S22     !GUM [dB]
   40    .906   -5.6  11.695  171.8    .007   86.3    .980   -3.9 !    42.9
  100    .879  -13.8  11.190  162.3    .018   81.4    .956   -9.1 !    38.1
  200    .806  -26.3  10.317  148.8    .033   74.5    .888  -16.6 !    31.6
  300    .719  -36.9   9.359  137.6    .046   70.9    .814  -21.6 !    27.3
  400    .635  -45.7   8.398  128.6    .056   68.5    .752  -25.0 !    24.3
  500    .561  -52.5   7.491  121.1    .066   67.6    .701  -27.3 !    22.1
  600    .497  -57.7   6.727  115.0    .074   67.1    .663  -28.6 !    20.3
  700    .443  -61.4   6.055  109.7    .082   67.3    .633  -29.4 !    18.8
  800    .397  -64.2   5.485  105.2    .090   67.4    .611  -29.8 !    17.6
  900    .355  -66.7   5.005  101.1    .097   67.6    .594  -30.1 !    16.5
 1000    .318  -68.9   4.587   97.5    .105   67.7    .577  -30.3 !    15.4
 1200    .257  -73.0   3.944   91.4    .121   68.1    .549  -31.0 !    13.8
 1400    .220  -78.0   3.482   86.4    .136   68.4    .531  -32.1 !    12.5
 1600    .197  -77.2   3.094   82.2    .150   68.7    .523  -32.6 !    11.4
 1800    .172  -76.0   2.792   78.6    .166   69.0    .518  -33.3 !    10.4
 2000    .137  -74.1   2.555   74.5    .182   68.3    .507  -33.5 !     9.5
 2200    .100  -78.1   2.377   71.0    .198   67.8    .488  -34.5 !     8.7
 2400    .083  -90.3   2.242   67.2    .215   67.0    .470  -36.8 !     8.1
 2600    .085  -94.8   2.090   64.6    .229   66.6    .461  -39.4 !     7.5
 2800    .077  -90.8   1.992   62.5    .245   66.6    .465  -40.9 !     7.1
 3000    .045  -77.8   1.886   59.2    .260   65.8    .459  -41.2 !     6.5
! Noise data:
! Freq.     Fmin        Gamma-opt         rn
  900       1.60     .552     16.0       .67
 2000       2.20     .412     44.0       .51
