! Filename:       BFR505E.S2P                                Version:   3.0
! Philips part #: BFR505                                     Date: Feb 1992
! Bias condition: Vce=3V, Ic=5mA
!
#  MHz  S  MA  R  50
! Freq       S11            S21            S12            S22     !GUM [dB]
   40    .893   -6.1  11.842  171.6    .007   86.6    .980   -4.0 !    42.5
  100    .863  -14.9  11.284  161.6    .018   80.8    .954   -9.5 !    37.4
  200    .785  -28.2  10.345  147.6    .033   73.7    .881  -17.0 !    31.0
  300    .693  -39.7   9.345  136.1    .046   69.9    .804  -21.9 !    26.8
  400    .607  -48.9   8.330  126.9    .056   67.8    .742  -25.0 !    23.9
  500    .531  -56.1   7.395  119.4    .065   67.1    .692  -27.1 !    21.6
  600    .469  -61.7   6.613  113.4    .073   66.6    .654  -28.3 !    19.9
  700    .415  -65.8   5.932  108.1    .081   67.0    .626  -29.0 !    18.4
  800    .370  -68.9   5.367  103.7    .089   67.3    .606  -29.3 !    17.2
  900    .328  -71.8   4.881   99.7    .096   67.5    .589  -29.5 !    16.1
 1000    .293  -74.4   4.472   96.1    .104   67.7    .573  -29.7 !    15.1
 1200    .234  -79.4   3.833   90.0    .119   68.2    .548  -30.4 !    13.5
 1400    .198  -85.4   3.385   85.1    .135   68.6    .532  -31.5 !    12.2
 1600    .174  -85.5   3.003   80.9    .148   69.0    .525  -32.1 !    11.1
 1800    .149  -85.0   2.714   77.3    .164   69.5    .521  -33.0 !    10.1
 2000    .112  -84.9   2.484   73.2    .180   68.9    .510  -33.2 !     9.3
 2200    .077  -93.8   2.311   69.7    .196   68.4    .492  -34.3 !     8.5
 2400    .065 -111.8   2.181   65.8    .213   67.8    .474  -36.7 !     7.9
 2600    .067 -116.3   2.032   63.3    .228   67.3    .466  -39.4 !     7.2
 2800    .058 -113.1   1.938   61.1    .244   67.3    .470  -41.0 !     6.8
 3000    .022 -120.6   1.835   57.8    .260   66.5    .465  -41.4 !     6.3
! Noise data:
! Freq.     Fmin        Gamma-opt         rn
  900       1.60     .509     16.0       .60
 2000       2.20     .353     46.0       .49
