! Filename:       BFR520B.S2P                                Version:   2.1
! Philips part #: BFR520                                     Date: Sep 1991
! Bias condition: Vce=3V, Ic=5mA
!
#  MHz  S  MA  R  50
! Freq       S11            S21            S12            S22     !GUM [dB]
   40    .888  -10.0  14.292  170.5    .010   84.7    .977   -5.6 !    43.2
  100    .846  -24.3  13.459  158.3    .024   76.9    .936  -13.2 !    37.1
  200    .737  -44.9  11.641  141.4    .043   68.1    .833  -23.0 !    29.9
  300    .630  -61.3   9.877  128.8    .057   63.2    .732  -29.1 !    25.4
  400    .542  -74.5   8.377  119.2    .067   60.5    .653  -32.6 !    22.4
  500    .473  -84.8   7.179  112.0    .076   59.6    .595  -34.7 !    20.1
  600    .420  -93.5   6.263  106.3    .084   59.6    .554  -35.7 !    18.4
  700    .375 -101.2   5.539  101.4    .092   60.3    .524  -36.1 !    16.9
  800    .337 -107.9   4.952   97.2    .100   61.0    .501  -36.1 !    15.7
  900    .306 -114.9   4.479   93.3    .107   61.7    .484  -36.0 !    14.6
 1000    .280 -122.1   4.078   89.8    .115   62.4    .469  -35.9 !    13.6
 1200    .250 -135.7   3.484   84.1    .130   63.7    .444  -36.1 !    12.1
 1400    .235 -146.6   3.068   79.1    .147   64.5    .427  -37.2 !    10.9
 1600    .213 -154.4   2.727   74.5    .162   65.1    .421  -37.5 !     9.8
 1800    .193 -164.6   2.462   70.6    .179   66.0    .417  -38.2 !     8.8
 2000    .186 -178.6   2.256   66.6    .196   66.0    .405  -38.2 !     8.0
 2200    .202  168.9   2.093   63.1    .214   66.0    .386  -39.0 !     7.3
 2400    .220  163.0   1.977   59.2    .233   65.6    .369  -41.7 !     6.8
 2600    .221  160.7   1.842   56.1    .250   65.1    .361  -45.1 !     6.1
 2800    .216  153.7   1.759   53.6    .268   65.0    .362  -47.0 !     5.7
 3000    .225  142.6   1.673   50.3    .287   64.3    .354  -47.4 !     5.3
! Noise data:
! Freq.     Fmin        Gamma-opt         rn
  500       0.90     .400     26.0       .250
  900       1.10     .331     47.0       .260
 1000       1.15     .336     49.0       .250
 2000       1.85     .211    145.0       .140
