! Filename:       BFR540L.S2P                                Version:   3.0
! Philips part #: BFR540                                     Date: Feb 1992
! Bias condition: Vce=8V, Ic=50mA
! 
#  MHz  S  MA  R  50
! Freq       S11            S21            S12            S22     !GUM [dB]
   40    .587  -45.6  48.707  144.3    .013   71.6    .743  -28.3 !    39.1
  100    .422  -87.4  30.314  119.8    .024   65.1    .490  -46.7 !    31.7
  200    .330 -122.6  17.334  104.3    .038   66.7    .310  -55.0 !    25.7
  300    .306 -140.6  12.007   97.0    .052   69.6    .239  -57.5 !    22.3
  400    .299 -151.6   9.171   92.1    .066   71.0    .203  -59.2 !    19.8
  500    .295 -159.0   7.413   88.4    .080   71.9    .185  -60.3 !    17.9
  600    .292 -164.5   6.246   85.4    .094   72.1    .175  -61.1 !    16.4
  700    .286 -169.5   5.397   82.6    .108   72.1    .169  -61.5 !    15.1
  800    .283 -174.0   4.775   80.0    .122   71.9    .164  -61.6 !    14.1
  900    .283 -178.8   4.273   77.5    .136   71.6    .160  -61.7 !    13.1
 1000    .284  176.8   3.865   75.3    .150   71.0    .154  -62.5 !    12.2
 1200    .292  169.0   3.269   71.0    .177   69.9    .145  -65.8 !    10.8
 1400    .299  164.3   2.848   66.9    .203   68.4    .141  -69.9 !     9.6
 1600    .289  159.9   2.537   62.9    .229   67.1    .143  -70.6 !     8.6
 1800    .290  154.1   2.298   59.4    .255   65.6    .141  -72.5 !     7.7
 2000    .301  146.4   2.111   55.9    .280   63.9    .127  -73.7 !     7.0
 2200    .325  140.6   1.960   52.9    .304   62.3    .108  -79.9 !     6.4
 2400    .345  138.4   1.837   49.4    .329   60.5    .101  -93.2 !     5.9
 2600    .346  137.2   1.720   46.3    .349   58.7    .107 -103.7 !     5.3
 2800    .344  133.3   1.644   43.4    .372   57.1    .112 -106.7 !     4.9
 3000    .359  126.2   1.578   40.5    .394   55.4    .099 -109.8 !     4.6
