! Filename:       BFR505G.S2P                                Version:   3.0
! Philips part #: BFR505                                     Date: Feb 1992
! Bias condition: Vce=6V, Ic=0.50mA
! 
#  MHz  S  MA  R  50
! Freq       S11            S21            S12            S22     !GUM [dB]
   40    .988   -1.7   1.312  177.4    .008   89.6    .995   -1.2 !    38.5
  100    .985   -4.4   1.313  174.0    .019   86.8    .994   -2.7 !    37.0
  200    .983   -8.8   1.303  168.1    .038   83.0    .992   -5.6 !    34.7
  300    .975  -13.3   1.296  162.3    .057   80.0    .984   -8.5 !    30.3
  400    .962  -17.7   1.295  157.3    .074   77.0    .977  -11.2 !    26.9
  500    .952  -21.8   1.279  152.2    .091   74.6    .969  -13.9 !    24.5
  600    .938  -25.7   1.256  147.5    .107   72.1    .960  -16.4 !    22.2
  700    .921  -29.6   1.243  142.9    .122   69.6    .949  -18.8 !    20.1
  800    .901  -33.5   1.237  138.2    .135   67.1    .938  -20.9 !    18.3
  900    .878  -37.4   1.237  133.2    .148   64.7    .927  -22.9 !    16.7
 1000    .854  -41.2   1.215  128.7    .159   62.3    .912  -24.9 !    15.1
 1200    .801  -49.0   1.194  120.0    .179   57.8    .880  -29.0 !    12.5
 1400    .752  -56.9   1.191  112.5    .195   54.2    .848  -32.5 !    10.6
 1600    .706  -63.2   1.171  105.9    .204   51.0    .822  -35.4 !     9.3
 1800    .660  -68.8   1.128   99.8    .213   49.2    .801  -38.1 !     8.0
 2000    .595  -74.8   1.100   93.0    .218   46.7    .771  -40.4 !     6.6
 2200    .533  -82.4   1.084   86.9    .223   44.6    .739  -43.2 !     5.6
 2400    .492  -90.8   1.081   80.5    .226   43.2    .709  -46.3 !     4.9
 2600    .465  -97.5   1.058   76.3    .226   43.1    .693  -49.2 !     4.4
 2800    .428 -102.4   1.051   72.7    .227   44.1    .685  -51.3 !     4.1
 3000    .370 -108.0   1.019   68.2    .227   45.0    .666  -52.8 !     3.4
