! Filename:       BFR540H.S2P                                Version:   3.0
! Philips part #: BFR540                                     Date: Feb 1992
! Bias condition: Vce=8V, Ic=10mA
!
#  MHz  S  MA  R  50
! Freq       S11            S21            S12            S22     !GUM [dB]
   40    .823  -21.6  22.154  160.7    .015   78.6    .927  -14.5 !    40.3
  100    .710  -50.1  18.770  141.3    .032   65.9    .777  -30.5 !    32.5
  200    .538  -86.0  13.808  120.2    .050   58.4    .564  -43.5 !    26.0
  300    .450 -108.9  10.338  108.4    .061   57.7    .444  -48.8 !    22.2
  400    .408 -124.8   8.150  100.9    .072   58.6    .375  -51.3 !    19.7
  500    .383 -136.2   6.690   95.3    .082   60.3    .334  -52.6 !    17.7
  600    .367 -144.9   5.691   91.1    .093   61.6    .309  -53.2 !    16.2
  700    .354 -152.0   4.945   87.3    .104   62.8    .292  -53.5 !    14.9
  800    .344 -158.4   4.387   84.0    .115   63.8    .280  -53.5 !    13.7
  900    .338 -164.7   3.936   80.8    .126   64.6    .271  -53.7 !    12.8
 1000    .333 -170.4   3.565   78.1    .137   65.0    .260  -54.1 !    11.9
 1200    .335  179.8   3.024   73.0    .160   65.5    .246  -56.1 !    10.4
 1400    .341  172.9   2.644   68.3    .183   65.6    .237  -59.1 !     9.2
 1600    .330  167.2   2.358   63.9    .206   65.6    .237  -60.3 !     8.2
 1800    .330  160.5   2.139   60.0    .230   65.2    .235  -62.2 !     7.3
 2000    .339  152.2   1.967   56.2    .253   64.3    .221  -63.7 !     6.6
 2200    .361  145.8   1.827   53.0    .276   63.6    .202  -67.5 !     6.0
 2400    .380  142.5   1.711   49.2    .300   62.4    .191  -75.3 !     5.5
 2600    .381  140.3   1.605   46.0    .322   61.2    .192  -82.8 !     5.0
 2800    .381  135.7   1.538   43.0    .345   60.1    .196  -86.4 !     4.6
 3000    .395  128.5   1.476   39.9    .368   58.7    .185  -88.6 !     4.3
! Noise data:
! Freq.     Fmin        Gamma-opt         rn
  900       1.30     .311    112.0       .13
 2000       2.10     .400   -155.0       .14
