! Filename:       BFR540E.S2P                                Version:   3.0
! Philips part #: BFR540                                     Date: Feb 1992
! Bias condition: Vce=4V, Ic=40mA
!
#  MHz  S  MA  R  50
! Freq       S11            S21            S12            S22     !GUM [dB]
   40    .490  -50.7  48.572  143.6    .012   72.1    .758  -30.1 !    38.6
  100    .375  -97.0  30.052  118.9    .024   66.5    .489  -49.3 !    31.4
  200    .324 -132.0  17.092  103.7    .038   68.3    .305  -58.3 !    25.6
  300    .314 -148.3  11.818   96.5    .052   70.7    .232  -61.6 !    22.1
  400    .314 -157.9   9.023   91.7    .066   71.9    .196  -63.8 !    19.7
  500    .312 -164.6   7.289   88.0    .081   72.7    .178  -65.3 !    17.8
  600    .311 -169.2   6.140   85.0    .095   72.8    .167  -66.3 !    16.3
  700    .308 -173.8   5.307   82.2    .109   72.8    .161  -66.8 !    15.0
  800    .305 -177.9   4.694   79.6    .123   72.5    .156  -66.8 !    14.0
  900    .306  177.7   4.197   77.2    .137   72.1    .152  -67.0 !    13.0
 1000    .307  173.5   3.799   74.9    .151   71.5    .145  -67.9 !    12.1
 1200    .315  166.5   3.210   70.7    .179   70.2    .137  -71.7 !    10.7
 1400    .322  161.9   2.802   66.6    .206   68.7    .133  -76.3 !     9.5
 1600    .312  157.7   2.496   62.5    .232   67.3    .135  -76.7 !     8.5
 1800    .313  152.1   2.261   59.0    .258   65.7    .133  -78.8 !     7.6
 2000    .325  144.7   2.079   55.5    .284   63.9    .119  -80.9 !     6.9
 2200    .349  139.5   1.928   52.6    .309   62.5    .101  -88.9 !     6.3
 2400    .367  137.2   1.806   49.2    .333   60.5    .097 -103.2 !     5.8
 2600    .367  136.0   1.691   46.0    .354   58.7    .106 -113.4 !     5.2
 2800    .365  132.0   1.621   43.1    .378   57.0    .110 -116.3 !     4.9
 3000    .381  125.1   1.553   40.2    .400   55.2    .098 -120.8 !     4.5
! Noise data:
! Freq.     Fmin        Gamma-opt         rn
  900       1.90     .279    180.0       .13
 2000       2.60     .429   -140.0       .22
