! Filename:       BFR520J.S2P                                Version:   2.1
! Philips part #: BFR520                                     Date: Sep 1991
! Bias condition: Vce=6V, Ic=15mA
!
#  MHz  S  MA  R  50
! Freq       S11            S21            S12            S22     !GUM [dB]
   40    .784  -16.2  28.912  163.7    .009   83.1    .934   -9.8 !    42.3
  100    .684  -37.3  24.730  145.3    .021   73.3    .829  -21.2 !    35.7
  200    .509  -61.5  18.106  125.3    .034   67.4    .654  -30.6 !    28.9
  300    .395  -77.3  13.734  113.8    .045   67.2    .544  -33.5 !    25.0
  400    .321  -88.9  10.898  106.2    .054   67.8    .479  -34.1 !    22.4
  500    .274  -97.6   8.977  100.9    .064   68.9    .441  -34.0 !    20.3
  600    .239 -104.6   7.637   96.7    .074   69.6    .417  -33.7 !    18.7
  700    .211 -111.0   6.644   93.2    .084   70.8    .403  -33.2 !    17.4
  800    .187 -116.7   5.871   90.1    .094   71.4    .393  -32.5 !    16.3
  900    .167 -122.9   5.269   87.2    .104   71.7    .386  -32.1 !    15.3
 1000    .151 -131.0   4.765   84.6    .114   71.9    .378  -31.8 !    14.3
 1200    .138 -145.4   4.034   80.2    .133   71.8    .365  -31.9 !    12.8
 1400    .134 -155.5   3.528   76.2    .154   71.3    .356  -33.2 !    11.6
 1600    .117 -160.6   3.118   72.4    .173   70.7    .355  -33.5 !    10.5
 1800    .104 -172.5   2.802   69.2    .192   70.3    .355  -34.4 !     9.6
 2000    .104  168.9   2.564   65.7    .212   69.2    .347  -34.1 !     8.8
 2200    .127  155.9   2.372   62.8    .232   68.2    .330  -34.4 !     8.1
 2400    .147  152.9   2.234   59.3    .253   66.9    .312  -37.2 !     7.5
 2600    .147  154.1   2.074   56.7    .270   65.6    .302  -40.9 !     6.8
 2800    .142  146.9   1.975   54.4    .289   64.9    .304  -42.9 !     6.4
 3000    .155  133.8   1.878   51.4    .308   63.6    .298  -42.4 !     6.0
! Noise data:
! Freq.     Fmin        Gamma-opt         rn
  500       1.30     .250     25.0       .240
  900       1.45     .218     45.0       .250
 1000       1.50     .205     53.0       .280
 2000       2.05     .135    167.0       .170
