! Filename:       BFR520D.S2P                                Version:   2.1
! Philips part #: BFR520                                     Date: Sep 1991
! Bias condition: Vce=3V, Ic=15mA
!
#  MHz  S  MA  R  50
! Freq       S11            S21            S12            S22     !GUM [dB]
   40    .731  -18.2  29.853  162.7    .010   82.7    .932  -10.7 !    41.6
  100    .629  -41.4  25.095  143.3    .021   72.2    .814  -22.5 !    34.9
  200    .461  -67.9  17.933  123.1    .034   67.4    .631  -31.7 !    28.3
  300    .359  -85.3  13.444  111.9    .044   67.2    .522  -34.1 !    24.5
  400    .297  -98.3  10.603  104.5    .054   68.2    .460  -34.3 !    21.9
  500    .256 -107.8   8.712   99.4    .064   69.4    .424  -34.1 !    20.0
  600    .229 -115.7   7.394   95.3    .074   70.1    .402  -33.6 !    18.4
  700    .205 -123.1   6.425   91.9    .084   71.4    .390  -33.2 !    17.1
  800    .185 -129.6   5.673   88.9    .094   71.9    .381  -32.5 !    15.9
  900    .170 -136.9   5.090   86.0    .104   72.1    .374  -32.1 !    14.9
 1000    .161 -145.2   4.602   83.4    .115   72.1    .368  -31.9 !    14.0
 1200    .156 -158.8   3.896   79.0    .135   72.2    .356  -32.1 !    12.5
 1400    .154 -167.2   3.405   75.1    .156   71.7    .346  -33.5 !    11.3
 1600    .140 -173.6   3.012   71.2    .175   71.0    .347  -34.0 !    10.2
 1800    .130  175.4   2.708   67.9    .195   70.4    .347  -35.0 !     9.3
 2000    .134  160.5   2.479   64.4    .215   69.3    .338  -34.8 !     8.5
 2200    .161  151.0   2.296   61.5    .235   68.3    .321  -35.2 !     7.8
 2400    .179  149.2   2.161   58.0    .257   67.2    .304  -38.2 !     7.3
 2600    .179  149.2   2.008   55.3    .274   65.8    .294  -42.1 !     6.6
 2800    .177  143.1   1.914   53.0    .293   65.0    .295  -44.2 !     6.2
 3000    .189  131.9   1.821   50.0    .313   63.5    .290  -43.9 !     5.7
! Noise data:
! Freq.     Fmin        Gamma-opt         rn
  500       1.30     .164     27.0       .210
  900       1.45     .130     58.0       .210
 1000       1.50     .134     62.0       .240
 2000       2.05     .160   -169.0       .160
