! Filename:       BFR92AWA.S2P                               Version:   4.0
! Philips part #: BFR92AW                                    Date: Jun 1994
! Bias condition: Vce=5V, Ic=2mA
! 
#  MHz  S  MA  R  50
! Freq       S11            S21            S12            S22     !GUM [dB]
   40    .937   -6.8   5.465  173.1    .009   85.5    .995   -2.7 !    43.8
  100    .919  -16.9   5.290  164.2    .022   78.6    .979   -6.6 !    36.4
  200    .865  -32.8   4.984  151.8    .041   69.5    .933  -12.2 !    28.8
  300    .802  -47.9   4.707  141.0    .056   61.8    .876  -16.4 !    24.2
  400    .734  -61.9   4.367  131.7    .067   56.6    .826  -19.5 !    21.1
  500    .676  -74.1   3.999  123.9    .076   53.0    .780  -21.9 !    18.8
  600    .621  -85.3   3.691  117.1    .081   50.9    .745  -23.5 !    17.0
  700    .573  -95.4   3.406  111.2    .086   49.6    .720  -24.5 !    15.5
  800    .530 -104.4   3.138  105.7    .090   49.0    .699  -25.2 !    14.3
  900    .496 -112.5   2.883  101.1    .093   48.7    .682  -25.6 !    13.1
 1000    .468 -120.3   2.663   97.0    .095   49.0    .665  -26.1 !    12.1
 1200    .432 -135.3   2.328   89.9    .099   50.3    .632  -27.1 !    10.5
 1400    .418 -147.7   2.090   83.9    .105   52.5    .609  -29.1 !     9.3
 1600    .409 -157.3   1.875   78.5    .111   55.3    .597  -31.6 !     8.2
 1800    .397 -166.1   1.701   74.4    .117   59.0    .589  -33.4 !     7.2
 2000    .395 -176.0   1.567   70.1    .124   62.2    .577  -34.8 !     6.4
 2200    .407  175.5   1.464   66.7    .132   65.2    .556  -37.0 !     5.7
 2400    .428  169.4   1.376   62.3    .142   67.8    .537  -40.8 !     5.1
 2600    .439  165.7   1.281   59.7    .152   70.1    .533  -45.1 !     4.5
 2800    .438  161.2   1.239   57.0    .164   72.8    .539  -48.3 !     4.3
 3000    .438  155.5   1.173   54.1    .178   74.9    .537  -50.4 !     3.8
