! Filename:       BFR93AA.S2P                                Version:   2.0
! Philips part #: BFR93A                                     Date: May 1990
! Bias condition: Vce=5V, Ic=5mA
! 
#  MHz  S  MA  R  50
! Freq       S11            S21            S12            S22     !GUM [dB]
   40    .827  -18.1  14.761  166.3    .015   78.6    .972   -8.9 !    41.0
  100    .752  -43.3  13.042  148.6    .035   68.3    .887  -20.0 !    32.7
  200    .637  -76.8  10.271  128.6    .056   56.9    .723  -31.2 !    25.7
  300    .564 -100.5   7.982  115.6    .067   52.2    .606  -36.3 !    21.7
  400    .523 -116.9   6.438  106.9    .075   51.1    .531  -38.7 !    19.0
  500    .492 -130.8   5.481   99.4    .082   51.3    .485  -39.6 !    17.1
  600    .466 -139.7   4.652   94.5    .090   52.2    .455  -40.4 !    15.4
  700    .448 -145.7   4.077   90.2    .096   54.3    .435  -41.1 !    14.1
  800    .440 -154.6   3.590   86.1    .104   56.1    .422  -41.3 !    12.9
  900    .433 -159.7   3.245   82.6    .111   58.0    .414  -41.9 !    11.9
 1000    .428 -167.3   2.927   78.8    .118   59.3    .404  -42.5 !    11.0
 1200    .425 -175.6   2.500   72.5    .134   61.9    .392  -44.4 !     9.5
 1400    .433  178.5   2.186   66.8    .152   64.0    .383  -47.1 !     8.4
 1600    .429  171.6   1.968   62.9    .171   65.9    .383  -49.5 !     7.5
 1800    .420  163.9   1.763   58.2    .190   66.4    .381  -51.9 !     6.5
 2000    .432  157.0   1.647   54.7    .211   67.4    .375  -54.3 !     5.9
 2200    .449  150.8   1.508   50.5    .233   68.5    .352  -57.9 !     5.1
 2400    .463  146.6   1.417   46.4    .257   67.8    .344  -64.3 !     4.6
 2600    .454  145.2   1.342   43.4    .281   67.6    .345  -69.7 !     4.1
 2800    .449  137.3   1.279   40.7    .307   67.0    .348  -73.8 !     3.7
 3000    .479  132.2   1.207   37.6    .331   65.8    .332  -77.2 !     3.3
