! Filename:       BFR93AWC.S2P                       Version:   4.0
! Philips part #: BFR93AW                            Date: Jun 1994
! Bias condition: Vce=5V, Ic=20mA
! 
#  MHz  S  MA  R  50
! Freq       S11            S21            S12            S22   !GUM [dB]
   40    .804  -17.6  18.550  166.2    .012   81.9    .970   -8.8 !   42.1
  100    .733  -41.4  16.474  149.3    .029   69.9    .878  -19.7 !   34.1
  200    .603  -72.3  12.745  129.6    .046   60.1    .705  -30.4 !   27.1
  300    .515  -94.6   9.946  117.1    .058   55.9    .579  -35.0 !   23.1
  400    .461 -111.4   8.016  108.6    .066   55.3    .498  -37.0 !   20.4
  500    .430 -123.6   6.676  102.6    .074   56.0    .447  -38.0 !   18.3
  600    .410 -133.8   5.719   97.8    .081   57.4    .415  -38.3 !   16.8
  700    .395 -141.9   4.990   93.8    .089   58.7    .394  -38.2 !   15.4
  800    .383 -149.0   4.428   90.3    .097   60.3    .381  -37.8 !   14.3
  900    .375 -155.5   3.971   87.1    .104   61.5    .369  -37.0 !   13.3
 1000    .370 -161.4   3.606   84.4    .112   62.7    .357  -36.3 !   12.4
 1200    .374 -171.5   3.052   79.4    .127   64.5    .330  -35.8 !   10.8
 1400    .384 -178.9   2.680   75.0    .144   66.0    .310  -37.9 !    9.7
 1600    .389  175.6   2.382   70.9    .161   66.6    .302  -41.5 !    8.7
 1800    .388  169.7   2.151   67.5    .176   67.7    .300  -43.2 !    7.8
 2000    .398  163.0   1.974   64.2    .193   68.5    .292  -43.9 !    7.0
 2200    .419  157.7   1.832   61.3    .209   69.2    .271  -45.8 !    6.4
 2400    .443  154.4   1.714   57.9    .226   69.4    .253  -51.8 !    5.9
 2600    .454  152.9   1.598   55.4    .241   69.2    .251  -59.5 !    5.4
 2800    .453  150.0   1.532   52.7    .257   69.6    .261  -64.1 !    5.0
 3000    .452  145.7   1.457   50.0    .276   69.6    .266  -66.5 !    4.6
