! Filename:       BFR93AE.S2P                                Version:   2.0
! Philips part #: BFR93A                                     Date: May 1990
! Bias condition: Vce=8V, Ic=5mA
! 
#  MHz  S  MA  R  50
! Freq       S11            S21            S12            S22     !GUM [dB]
   40    .836  -17.4  14.523  166.8    .015   80.3    .974   -8.2 !    41.4
  100    .774  -40.8  12.937  149.5    .033   69.0    .897  -18.6 !    33.3
  200    .658  -74.4  10.324  130.3    .053   58.2    .744  -29.2 !    26.2
  300    .566  -96.3   8.091  116.7    .064   52.8    .629  -34.0 !    22.0
  400    .521 -113.0   6.567  108.2    .073   50.6    .556  -36.5 !    19.3
  500    .501 -126.2   5.611  100.5    .080   51.2    .508  -37.3 !    17.5
  600    .475 -137.6   4.769   95.5    .087   52.4    .479  -37.9 !    15.8
  700    .454 -142.4   4.169   91.2    .092   53.8    .458  -38.4 !    14.4
  800    .444 -151.4   3.669   87.1    .100   56.2    .447  -38.8 !    13.2
  900    .430 -157.2   3.337   83.7    .107   57.8    .439  -39.5 !    12.3
 1000    .425 -164.0   3.003   79.8    .114   58.9    .427  -39.8 !    11.3
 1200    .422 -173.4   2.565   73.6    .128   61.8    .416  -41.5 !     9.9
 1400    .436  179.2   2.250   67.7    .145   63.8    .407  -44.3 !     8.7
 1600    .419  173.0   2.022   64.2    .162   66.4    .407  -46.5 !     7.7
 1800    .407  166.3   1.803   59.0    .182   67.1    .405  -48.8 !     6.7
 2000    .420  157.8   1.688   55.2    .200   68.0    .398  -51.0 !     6.1
 2200    .440  151.2   1.532   51.4    .221   69.1    .376  -54.4 !     5.3
 2400    .460  149.1   1.453   47.3    .244   68.8    .367  -60.2 !     4.9
 2600    .463  145.2   1.363   44.1    .264   68.2    .367  -65.6 !     4.4
 2800    .448  138.4   1.297   41.7    .289   68.0    .369  -69.2 !     3.9
 3000    .466  134.0   1.225   38.6    .316   67.2    .354  -72.7 !     3.4
