! Filename:       BFR92AF.S2P                                Version:   2.0
! Philips part #: BFR92A                                     Date: May 1990
! Bias condition: Vce=10V, Ic=2mA
! 
#  MHz  S  MA  R  50
! Freq       S11            S21            S12            S22     !GUM [dB]
   40    .912   -7.6   6.327  173.3    .009   85.6    .996   -2.7 !    44.9
  100    .883  -18.1   6.077  163.4    .023   79.1    .981   -6.8 !    36.5
  200    .835  -36.0   5.703  150.7    .044   71.0    .935  -12.5 !    29.3
  300    .760  -51.6   5.148  138.7    .059   64.1    .886  -16.9 !    24.7
  400    .695  -65.3   4.614  129.3    .071   59.3    .840  -20.3 !    21.4
  500    .627  -78.1   4.289  120.2    .080   56.3    .798  -22.3 !    19.2
  600    .575  -87.2   3.789  113.7    .087   54.4    .769  -23.9 !    17.2
  700    .527  -95.3   3.431  108.1    .092   54.1    .741  -25.3 !    15.6
  800    .476 -104.7   3.099  102.1    .097   53.3    .722  -26.1 !    14.1
  900    .448 -112.7   2.861   97.6    .100   54.5    .707  -26.9 !    13.1
 1000    .403 -121.5   2.617   92.5    .103   55.1    .691  -27.5 !    11.9
 1200    .365 -135.2   2.272   85.0    .112   57.4    .672  -29.1 !    10.4
 1400    .363 -148.4   2.033   78.1    .121   59.6    .658  -31.1 !     9.2
 1600    .342 -158.3   1.827   73.6    .130   64.0    .653  -32.5 !     8.2
 1800    .301 -171.2   1.614   68.1    .141   67.3    .649  -34.4 !     6.9
 2000    .318  177.4   1.542   63.2    .153   70.0    .644  -36.2 !     6.6
 2200    .312  164.9   1.410   58.5    .170   73.0    .625  -38.6 !     5.6
 2400    .330  157.6   1.332   54.8    .187   74.2    .614  -42.2 !     5.0
 2600    .326  150.0   1.246   51.9    .207   75.2    .611  -45.9 !     4.4
 2800    .333  142.6   1.176   49.4    .229   76.7    .614  -48.6 !     4.0
 3000    .350  136.4   1.129   45.2    .252   76.5    .601  -50.6 !     3.6
