! Filename:       BFR93ACB.S2P                              Version:   2.0
! Philips part #: BFR93A                                     Date: Jul 1990
! Bias condition: Vce=5V, Ic=10mA
! COMMON BASE
#  MHz  S  MA  R  50
! Freq       S11            S21            S12            S22
   40    .874  179.4   1.856   -1.0    .001   67.4    .995    -.9
  100    .873  178.2   1.853   -3.1    .002   85.9    .995   -2.7
  200    .874  176.8   1.857   -5.8    .005  106.2   1.000   -4.9
  300    .879  175.2   1.856   -8.4    .008  120.1   1.007   -7.5
  400    .883  173.8   1.857  -11.2    .013  129.3   1.010  -10.1
  500    .891  172.3   1.865  -14.3    .018  135.0   1.017  -12.8
  600    .900  170.7   1.872  -17.1    .025  137.5   1.026  -15.5
  700    .914  169.0   1.882  -20.2    .033  140.2   1.037  -18.2
  800    .928  167.4   1.888  -23.2    .043  141.2   1.047  -21.1
  900    .944  165.6   1.898  -26.4    .054  142.2   1.060  -23.8
 1000    .964  163.8   1.912  -29.8    .066  142.0   1.075  -26.8
 1200   1.007  160.1   1.936  -36.6    .097  141.6   1.107  -33.1
 1400   1.061  155.9   1.977  -44.2    .134  139.1   1.148  -39.9
 1600   1.118  151.2   2.001  -52.9    .180  136.4   1.188  -47.2
 1800   1.190  145.7   2.027  -61.7    .235  131.6   1.224  -55.6
 2000   1.264  139.6   2.044  -71.9    .298  126.1   1.257  -65.0
 2200   1.330  133.3   2.019  -83.7    .366  119.5   1.287  -76.2
 2400   1.368  125.6   2.015  -97.0    .439  111.5   1.326  -88.1
 2600   1.369  117.2   1.909 -111.7    .510  103.2   1.345  -99.8
 2800   1.344  107.4   1.818 -126.9    .574   94.1   1.333 -111.5
 3000   1.316   97.9   1.676 -141.7    .630   86.4   1.277 -122.8
