! Filename:       BFR92ACF.S2P                              Version:   2.0
! Philips part #: BFR92A                                     Date: Jul 1990
! Bias condition: Vce=10V, Ic=2mA
! COMMON BASE
#  MHz  S  MA  R  50
! Freq       S11            S21            S12            S22   
   40    .559  179.0   1.546   -1.4    .002   74.5   1.002    -.7
  100    .558  177.9   1.543   -3.0    .004   87.0   1.004   -1.4
  200    .559  176.0   1.542   -6.0    .008   93.8   1.003   -3.1
  300    .561  174.1   1.539   -8.9    .011   99.0   1.003   -4.7
  400    .565  172.3   1.541  -11.9    .016  103.0   1.009   -6.2
  500    .570  170.5   1.543  -15.0    .020  106.1   1.014   -7.8
  600    .579  168.5   1.551  -18.0    .024  109.7   1.019   -9.4
  700    .588  166.5   1.553  -21.1    .030  112.9   1.026  -11.0
  800    .601  164.5   1.557  -24.4    .035  115.4   1.036  -12.7
  900    .612  162.5   1.560  -27.7    .042  118.2   1.045  -14.6
 1000    .627  160.6   1.571  -31.1    .049  120.5   1.055  -16.3
 1200    .662  156.6   1.582  -38.0    .065  124.5   1.080  -20.3
 1400    .699  152.1   1.609  -45.4    .086  126.6   1.108  -24.5
 1600    .741  147.0   1.614  -54.2    .111  128.3   1.135  -29.3
 1800    .792  141.6   1.623  -62.8    .143  127.9   1.162  -34.8
 2000    .852  135.6   1.633  -72.6    .181  126.4   1.183  -41.3
 2200    .910  129.9   1.637  -84.1    .225  123.7   1.209  -48.9
 2400    .954  123.4   1.650  -95.7    .276  119.8   1.236  -57.3
 2600    .975  115.7   1.596 -109.5    .330  115.2   1.256  -65.7
 2800    .980  106.7   1.567 -122.8    .386  109.4   1.251  -73.9
 3000    .983   97.8   1.481 -137.3    .438  103.8   1.210  -82.4
