! Filename:       BFR92ACD.S2P                              Version:   2.0
! Philips part #: BFR92A                                     Date: Jul 1990
! Bias condition: Vce=5V, Ic=15mA
! COMMON BASE
#  MHz  S  MA  R  50
! Freq       S11            S21            S12            S22   
   40    .901  179.2   1.885   -1.0    .001   40.6   1.002    -.7
  100    .899  178.0   1.883   -2.1    .002   88.4   1.004   -1.4
  200    .900  176.3   1.882   -4.4    .003  112.7   1.003   -3.0
  300    .902  174.5   1.881   -6.5    .006  124.6   1.003   -4.6
  400    .905  172.9   1.885   -8.7    .009  132.8   1.008   -6.1
  500    .912  171.1   1.890  -10.9    .013  137.6   1.014   -7.6
  600    .920  169.5   1.902  -13.0    .018  142.2   1.020   -9.1
  700    .929  167.8   1.908  -15.2    .024  144.3   1.026  -10.7
  800    .942  166.0   1.916  -17.6    .030  145.8   1.035  -12.3
  900    .955  164.4   1.925  -19.9    .038  147.4   1.046  -14.1
 1000    .971  162.6   1.943  -22.3    .047  148.2   1.056  -15.7
 1200   1.006  159.2   1.970  -27.0    .069  148.8   1.083  -19.4
 1400   1.049  155.5   2.023  -32.2    .095  147.3   1.114  -23.1
 1600   1.098  151.3   2.060  -38.4    .127  146.4   1.149  -27.4
 1800   1.165  147.2   2.111  -44.1    .167  143.8   1.187  -32.3
 2000   1.246  142.9   2.173  -50.6    .213  140.8   1.227  -38.0
 2200   1.333  138.3   2.243  -58.8    .268  137.2   1.280  -44.8
 2400   1.418  133.0   2.352  -67.0    .333  132.4   1.347  -52.4
 2600   1.492  126.1   2.378  -78.0    .405  127.2   1.418  -60.6
 2800   1.568  117.6   2.473  -88.8    .488  120.2   1.478  -69.2
 3000   1.643  108.2   2.468 -101.5    .573  113.1   1.504  -78.8
