! Filename:       BFR92AWC.S2P                               Version:   4.0
! Philips part #: BFR92AW                                    Date: Jun 1994
! Bias condition: Vce=5V, Ic=10mA
! 
#  MHz  S  MA  R  50
! Freq       S11            S21            S12            S22     !GUM [dB]
   40    .764  -16.2  21.026  164.9    .008   81.3    .970   -7.3 !    42.5
  100    .687  -38.5  18.636  148.3    .018   70.9    .881  -15.7 !    34.7
  200    .540  -69.1  14.722  128.6    .029   62.9    .730  -22.0 !    28.2
  300    .441  -91.4  11.531  116.2    .037   60.3    .632  -23.3 !    24.4
  400    .382 -108.1   9.285  108.1    .043   61.3    .574  -23.4 !    21.8
  500    .347 -120.5   7.706  102.4    .050   62.6    .540  -23.2 !    19.8
  600    .324 -130.8   6.588   98.0    .056   64.6    .520  -23.1 !    18.2
  700    .308 -139.1   5.736   94.3    .062   66.3    .508  -22.9 !    16.9
  800    .295 -146.5   5.080   91.1    .068   67.6    .502  -22.6 !    15.8
  900    .287 -153.3   4.551   88.2    .075   68.5    .496  -22.3 !    14.8
 1000    .282 -159.8   4.118   85.8    .081   69.5    .489  -22.0 !    13.8
 1200    .286 -170.7   3.483   81.3    .094   71.2    .471  -22.0 !    12.3
 1400    .297 -178.2   3.051   77.4    .108   72.4    .455  -23.6 !    11.1
 1600    .301  176.2   2.700   73.7    .121   72.9    .448  -26.3 !    10.0
 1800    .299  170.4   2.424   70.8    .134   74.0    .446  -28.0 !     9.1
 2000    .309  162.9   2.215   67.5    .147   74.5    .440  -28.7 !     8.3
 2200    .332  157.4   2.054   65.0    .160   74.9    .421  -30.0 !     7.6
 2400    .357  154.3   1.924   61.6    .175   75.0    .402  -33.6 !     7.0
 2600    .367  153.5   1.782   59.4    .187   75.0    .395  -38.6 !     6.4
 2800    .368  151.1   1.710   57.1    .200   75.7    .401  -42.1 !     6.1
 3000    .367  146.3   1.618   54.4    .215   75.7    .404  -44.1 !     5.6
! Noise data:
! Freq.     Fmin        Gamma-opt         rn
  500       2.00     .293     20.0       .326
 1000       2.50     .204     53.9       .280
 2000       3.40     .199   -175.6       .270
