! Filename:       BFR93ACH.S2P                              Version:   2.0
! Philips part #: BFR93A                                     Date: Jul 1990
! Bias condition: Vce=8V, Ic=30mA
! COMMON BASE
#  MHz  S  MA  R  50
! Freq       S11            S21            S12            S22
   40    .934  179.4   1.919    -.9    .001   51.8    .995    -.8
  100    .933  178.2   1.918   -2.8    .002   80.8    .994   -2.6
  200    .934  176.7   1.922   -5.1    .004  105.9    .999   -4.7
  300    .937  175.2   1.920   -7.4    .007  121.6   1.006   -7.1
  400    .941  173.7   1.921   -9.9    .012  130.8   1.009   -9.7
  500    .948  172.3   1.932  -12.6    .017  135.5   1.015  -12.2
  600    .957  170.7   1.938  -15.2    .024  140.0   1.024  -14.8
  700    .969  169.1   1.949  -17.9    .032  141.4   1.034  -17.4
  800    .982  167.5   1.955  -20.5    .042  143.2   1.044  -20.1
  900    .997  165.8   1.966  -23.4    .052  143.8   1.056  -22.7
 1000   1.015  164.1   1.982  -26.3    .065  143.9   1.070  -25.5
 1200   1.056  160.6   2.009  -32.2    .095  143.0   1.101  -31.4
 1400   1.106  156.8   2.057  -38.8    .130  140.5   1.141  -37.7
 1600   1.162  152.6   2.087  -46.3    .175  138.1   1.182  -44.5
 1800   1.235  147.7   2.126  -53.7    .229  133.8   1.220  -52.1
 2000   1.312  142.4   2.164  -62.4    .290  128.7   1.260  -60.7
 2200   1.390  136.8   2.167  -72.7    .358  122.8   1.302  -71.1
 2400   1.449  129.9   2.204  -84.2    .434  115.4   1.360  -82.3
 2600   1.481  122.0   2.137  -97.5    .513  107.4   1.406  -93.6
 2800   1.486  112.3   2.092 -111.5    .588   98.4   1.422 -105.2
 3000   1.489  102.6   1.976 -125.5    .657   90.4   1.395 -116.8
