! Filename:       BFR92ACH.S2P                              Version:   2.0
! Philips part #: BFR92A                                     Date: Jul 1990
! Bias condition: Vce=10V, Ic=10mA
! COMMON BASE
#  MHz  S  MA  R  50
! Freq       S11            S21            S12            S22   
   40    .861  179.1   1.848   -1.0    .001   56.0   1.002    -.6
  100    .861  178.0   1.846   -2.1    .002   84.0   1.004   -1.3
  200    .860  176.1   1.844   -4.5    .004  104.9   1.002   -2.9
  300    .863  174.4   1.842   -6.6    .006  120.2   1.003   -4.4
  400    .867  172.6   1.847   -8.8    .009  127.8   1.008   -5.8
  500    .872  170.8   1.853  -11.0    .013  132.7   1.013   -7.2
  600    .880  169.0   1.863  -13.2    .018  136.9   1.019   -8.7
  700    .890  167.3   1.869  -15.4    .023  140.0   1.026  -10.2
  800    .900  165.4   1.877  -17.9    .030  141.9   1.035  -11.7
  900    .914  163.6   1.884  -20.2    .037  143.5   1.045  -13.4
 1000    .929  161.8   1.904  -22.6    .045  145.0   1.055  -14.9
 1200    .964  158.3   1.929  -27.5    .066  145.8   1.080  -18.4
 1400   1.002  154.4   1.981  -32.7    .090  145.1   1.111  -22.0
 1600   1.050  150.2   2.017  -39.0    .121  144.6   1.145  -26.1
 1800   1.114  145.9   2.066  -44.8    .157  142.6   1.182  -30.8
 2000   1.190  141.5   2.126  -51.3    .201  139.8   1.221  -36.3
 2200   1.272  136.9   2.196  -59.5    .253  136.6   1.273  -42.8
 2400   1.351  131.7   2.299  -67.6    .314  132.2   1.338  -50.0
 2600   1.421  125.0   2.328  -78.5    .382  127.4   1.406  -57.9
 2800   1.491  116.4   2.417  -89.1    .460  120.8   1.464  -66.1
 3000   1.564  107.3   2.417 -101.8    .540  114.1   1.490  -75.5
