! Filename:       BFR93ACC.S2P                              Version:   2.0
! Philips part #: BFR93A                                     Date: Jul 1990
! Bias condition: Vce=5V, Ic=20mA
! COMMON BASE
#  MHz  S  MA  R  50
! Freq       S11            S21            S12            S22
   40    .922  179.4   1.905    -.9    .001   45.4    .996    -.9
  100    .921  178.2   1.904   -2.9    .002   84.9    .994   -2.7
  200    .923  176.8   1.907   -5.3    .004  113.5    .999   -5.0
  300    .927  175.4   1.906   -7.7    .008  127.4   1.007   -7.5
  400    .931  173.9   1.906  -10.3    .012  133.9   1.010  -10.1
  500    .938  172.4   1.915  -13.1    .018  139.1   1.016  -12.8
  600    .947  170.9   1.922  -15.7    .025  141.2   1.025  -15.5
  700    .961  169.3   1.932  -18.5    .033  142.6   1.035  -18.2
  800    .973  167.7   1.938  -21.3    .043  144.2   1.046  -21.0
  900    .990  166.0   1.947  -24.2    .054  145.1   1.058  -23.7
 1000   1.008  164.3   1.963  -27.3    .067  144.6   1.073  -26.7
 1200   1.051  160.8   1.988  -33.5    .098  143.5   1.105  -32.9
 1400   1.104  156.9   2.032  -40.3    .135  140.8   1.145  -39.5
 1600   1.162  152.5   2.060  -48.2    .183  137.8   1.186  -46.6
 1800   1.236  147.4   2.092  -56.0    .238  133.0   1.224  -54.6
 2000   1.312  142.0   2.118  -65.1    .302  127.7   1.262  -63.7
 2200   1.386  136.2   2.107  -75.8    .372  121.4   1.300  -74.5
 2400   1.438  129.0   2.124  -87.9    .448  113.6   1.352  -86.0
 2600   1.460  120.7   2.037 -101.6    .524  105.4   1.388  -97.6
 2800   1.453  111.0   1.971 -115.9    .597   96.1   1.396 -109.4
 3000   1.445  101.4   1.840 -130.0    .661   88.2   1.359 -120.9
