! Filename:       BFR92ACI.S2P                              Version:   2.0
! Philips part #: BFR92A                                     Date: Jul 1990
! Bias condition: Vce=10V, Ic=15mA
! COMMON BASE
#  MHz  S  MA  R  50
! Freq       S11            S21            S12            S22   
   40    .890  179.0   1.879   -1.0    .001   61.3   1.002    -.6
  100    .889  178.0   1.876   -2.1    .002   78.0   1.004   -1.3
  200    .890  176.1   1.874   -4.4    .003  111.8   1.003   -2.9
  300    .892  174.4   1.872   -6.5    .006  123.9   1.003   -4.3
  400    .896  172.7   1.877   -8.6    .009  131.5   1.008   -5.8
  500    .902  170.9   1.882  -10.8    .013  135.1   1.013   -7.2
  600    .909  169.1   1.894  -12.9    .017  138.9   1.019   -8.7
  700    .919  167.3   1.900  -15.0    .023  142.7   1.026  -10.1
  800    .929  165.5   1.908  -17.5    .030  143.7   1.035  -11.7
  900    .941  163.8   1.916  -19.7    .037  145.6   1.044  -13.3
 1000    .957  162.1   1.934  -22.1    .046  146.5   1.054  -14.9
 1200    .990  158.5   1.961  -26.8    .066  147.5   1.080  -18.3
 1400   1.029  154.7   2.013  -31.8    .091  146.7   1.111  -21.9
 1600   1.078  150.6   2.051  -37.9    .122  145.8   1.145  -26.0
 1800   1.141  146.6   2.101  -43.5    .159  143.6   1.182  -30.6
 2000   1.220  142.2   2.163  -49.8    .203  140.8   1.222  -36.0
 2200   1.301  137.7   2.235  -57.8    .255  137.6   1.275  -42.4
 2400   1.385  132.7   2.344  -65.5    .317  133.2   1.342  -49.6
 2600   1.457  126.2   2.379  -76.2    .386  128.4   1.413  -57.4
 2800   1.533  117.8   2.480  -86.5    .465  121.9   1.476  -65.5
 3000   1.614  108.8   2.491  -98.9    .548  115.1   1.508  -74.8
