! Filename:       BFR93AWB.S2P                               Version:   4.0
! Philips part #: BFR93AW                                    Date: Jun 1994
! Bias condition: Vce=5V, Ic=10mA
! 
#  MHz  S  MA  R  50
! Freq       S11            S21            S12            S22     !GUM [dB]
   40    .817  -16.9  15.623  166.9    .013   81.0    .976   -7.7 !    41.8
  100    .754  -40.2  14.105  150.7    .029   70.1    .895  -17.4 !    33.6
  200    .632  -71.4  11.244  131.1    .046   59.4    .739  -27.0 !    26.7
  300    .546  -94.2   8.916  118.3    .057   54.4    .621  -31.0 !    22.7
  400    .493 -111.4   7.247  109.5    .065   53.4    .545  -32.8 !    19.9
  500    .462 -124.0   6.060  103.2    .072   53.6    .496  -33.7 !    17.9
  600    .441 -134.3   5.208   98.2    .079   55.3    .466  -34.1 !    16.3
  700    .427 -142.5   4.552   94.0    .085   56.7    .448  -34.1 !    15.0
  800    .416 -149.8   4.044   90.3    .092   58.2    .435  -34.0 !    13.9
  900    .407 -156.2   3.631   87.0    .098   59.8    .424  -33.7 !    12.8
 1000    .403 -162.1   3.297   84.2    .105   61.3    .413  -33.4 !    11.9
 1200    .407 -172.2   2.798   79.0    .118   63.8    .389  -33.7 !    10.4
 1400    .417 -179.7   2.458   74.4    .134   65.9    .370  -36.1 !     9.3
 1600    .421  174.7   2.185   70.1    .149   67.3    .363  -39.8 !     8.2
 1800    .420  168.8   1.974   66.7    .163   69.0    .361  -42.0 !     7.4
 2000    .430  162.2   1.813   63.2    .180   70.2    .352  -43.3 !     6.6
 2200    .451  157.0   1.685   60.3    .196   71.2    .332  -45.9 !     6.0
 2400    .474  153.5   1.574   56.8    .213   71.8    .314  -51.6 !     5.5
 2600    .484  151.7   1.468   54.3    .228   72.0    .313  -58.6 !     4.9
 2800    .483  148.5   1.411   51.6    .245   72.7    .323  -63.1 !     4.6
 3000    .482  144.1   1.341   48.8    .265   72.8    .327  -65.8 !     4.2
! Noise data:
! Freq.     Fmin        Gamma-opt         rn
  500       1.40     .137     88.2       .172
 1000       1.90     .240    145.7       .198
 2000       2.90     .610   -152.3       .131
