! Filename:       BFR92AI.S2P                                Version:   2.0
! Philips part #: BFR92A                                     Date: May 1990
! Bias condition: Vce=10V, Ic=15mA
!
#  MHz  S  MA  R  50
! Freq       S11            S21            S12            S22     !GUM [dB]
   40    .672  -18.4  26.592  162.4    .008   77.9    .958   -8.7 !    42.0
  100    .578  -41.1  22.062  142.4    .019   69.8    .853  -17.8 !    34.3
  200    .415  -67.7  15.884  123.0    .032   69.8    .695  -23.9 !    27.7
  300    .326  -84.7  11.832  111.6    .040   68.6    .604  -25.0 !    23.9
  400    .283  -97.6   9.353  104.5    .049   70.2    .555  -25.1 !    21.4
  500    .247 -110.7   7.884   98.6    .058   70.0    .527  -24.5 !    19.6
  600    .211 -119.1   6.622   94.7    .067   71.7    .512  -24.5 !    17.9
  700    .197 -123.3   5.747   91.3    .076   73.6    .503  -24.7 !    16.6
  800    .172 -135.1   5.060   88.1    .087   73.4    .499  -24.6 !    15.5
  900    .159 -139.5   4.561   85.2    .095   74.8    .496  -25.0 !    14.5
 1000    .147 -152.9   4.106   82.0    .105   74.6    .489  -25.1 !    13.6
 1200    .149 -160.4   3.476   77.1    .124   74.6    .482  -26.1 !    12.1
 1400    .160 -172.5   3.055   72.7    .143   74.2    .477  -28.1 !    10.9
 1600    .151 -173.3   2.723   69.8    .160   74.0    .478  -29.1 !     9.9
 1800    .128  168.0   2.396   65.6    .179   74.0    .478  -30.8 !     8.8
 2000    .153  159.3   2.249   62.0    .195   73.2    .476  -32.0 !     8.3
 2200    .168  141.5   2.040   57.9    .214   72.8    .458  -33.1 !     7.3
 2400    .195  148.3   1.915   55.5    .235   71.6    .443  -36.5 !     6.8
 2600    .192  144.7   1.809   52.5    .254   70.8    .440  -39.8 !     6.2
 2800    .175  137.8   1.694   50.8    .272   70.3    .443  -42.3 !     5.7
 3000    .205  127.6   1.619   47.0    .292   69.0    .433  -43.2 !     5.3
