! Filename:       BFR93ACG.S2P                              Version:   2.0
! Philips part #: BFR93A                                     Date: Jul 1990
! Bias condition: Vce=8V, Ic=20mA
! COMMON BASE
#  MHz  S  MA  R  50
! Freq       S11            S21            S12            S22
   40    .916  179.3   1.901    -.9    .001   38.6    .995    -.8
  100    .915  178.2   1.900   -2.8    .002   84.7    .994   -2.5
  200    .917  176.8   1.903   -5.2    .004  109.2    .999   -4.7
  300    .920  175.3   1.901   -7.5    .007  122.5   1.006   -7.1
  400    .925  173.8   1.902  -10.1    .012  131.8   1.009   -9.6
  500    .932  172.4   1.912  -12.8    .017  137.2   1.015  -12.1
  600    .940  170.8   1.918  -15.4    .024  140.0   1.024  -14.6
  700    .953  169.2   1.929  -18.1    .032  141.6   1.034  -17.3
  800    .966  167.6   1.936  -20.8    .041  143.1   1.044  -19.9
  900    .981  165.8   1.947  -23.7    .052  144.3   1.056  -22.4
 1000    .998  164.2   1.962  -26.7    .063  143.9   1.070  -25.2
 1200   1.041  160.7   1.990  -32.7    .093  143.5   1.101  -31.1
 1400   1.091  156.9   2.036  -39.3    .128  141.0   1.141  -37.4
 1600   1.147  152.6   2.068  -46.9    .173  138.5   1.181  -44.1
 1800   1.222  147.6   2.107  -54.5    .226  134.3   1.220  -51.6
 2000   1.298  142.3   2.145  -63.3    .286  129.2   1.260  -60.3
 2200   1.375  136.6   2.150  -73.8    .355  123.3   1.301  -70.6
 2400   1.433  129.6   2.185  -85.4    .430  115.9   1.359  -81.8
 2600   1.463  121.5   2.120  -98.9    .508  108.0   1.403  -93.0
 2800   1.467  111.8   2.072 -113.1    .583   98.9   1.418 -104.7
 3000   1.470  102.0   1.957 -127.2    .651   90.9   1.388 -116.2
