! Filename:       BFR92AG.S2P                                Version:   2.0
! Philips part #: BFR92A                                     Date: May 1990
! Bias condition: Vce=10V, Ic=5mA
! 
#  MHz  S  MA  R  50
! Freq       S11            S21            S12            S22     !GUM [dB]
   40    .813  -11.6  13.669  169.3    .009   82.2    .987   -4.9 !    43.3
  100    .769  -27.1  12.628  155.3    .021   74.3    .944  -11.4 !    35.5
  200    .650  -50.5  10.807  138.0    .038   68.1    .841  -19.1 !    28.4
  300    .547  -67.7   8.877  125.0    .049   63.7    .756  -22.8 !    24.2
  400    .471  -81.3   7.404  116.0    .057   62.0    .693  -24.8 !    21.3
  500    .419  -95.8   6.458  108.1    .064   61.1    .650  -25.5 !    19.4
  600    .358 -103.4   5.540  102.9    .072   62.4    .622  -26.2 !    17.6
  700    .325 -107.4   4.858   98.5    .078   64.2    .600  -26.5 !    16.2
  800    .302 -120.5   4.332   93.9    .087   64.5    .588  -26.7 !    15.0
  900    .277 -126.3   3.927   90.5    .093   65.4    .580  -26.9 !    14.0
 1000    .248 -136.6   3.550   86.3    .100   67.0    .569  -27.3 !    13.0
 1200    .231 -148.8   3.023   80.6    .116   68.8    .557  -28.2 !    11.5
 1400    .232 -160.5   2.670   75.2    .131   69.6    .547  -29.9 !    10.3
 1600    .218 -166.8   2.382   71.5    .147   71.3    .546  -31.1 !     9.3
 1800    .189  176.8   2.111   66.9    .164   72.1    .544  -32.6 !     8.2
 2000    .200  170.6   1.986   62.9    .179   72.4    .541  -34.0 !     7.6
 2200    .216  154.4   1.791   58.5    .197   72.9    .522  -35.6 !     6.7
 2400    .241  153.0   1.713   55.4    .219   72.4    .510  -39.1 !     6.2
 2600    .237  147.5   1.595   52.7    .235   72.4    .506  -42.4 !     5.6
 2800    .231  139.9   1.511   50.2    .255   72.4    .509  -44.9 !     5.1
 3000    .250  130.6   1.449   46.0    .275   71.7    .499  -46.0 !     4.7
