! Filename:       BFR92AWJ.S2P                               Version:   4.0
! Philips part #: BFR92AW                                    Date: Jun 1994
! Bias condition: Vce=10V, Ic=20mA
! 
#  MHz  S  MA  R  50
! Freq       S11            S21            S12            S22     !GUM [dB]
   40    .740  -21.9  28.607  160.4    .008   78.7    .950   -8.7 !    42.7
  100    .619  -49.3  23.458  140.0    .016   69.0    .830  -16.9 !    34.6
  200    .451  -80.6  16.348  120.0    .026   63.4    .677  -20.2 !    27.9
  300    .363 -101.3  12.056  109.4    .033   63.6    .600  -19.7 !    24.2
  400    .316 -116.6   9.447  102.6    .039   65.5    .559  -19.0 !    21.6
  500    .290 -127.5   7.735   97.9    .046   67.0    .536  -18.8 !    19.6
  600    .275 -136.8   6.559   94.2    .053   69.0    .524  -18.9 !    18.1
  700    .264 -144.1   5.686   91.1    .060   70.3    .518  -19.0 !    16.8
  800    .255 -151.0   5.019   88.4    .067   71.4    .516  -19.0 !    15.6
  900    .250 -157.3   4.489   85.8    .073   72.0    .513  -19.0 !    14.6
 1000    .248 -163.1   4.060   83.6    .080   72.5    .508  -19.0 !    13.7
 1200    .255 -173.3   3.431   79.5    .093   73.4    .493  -19.5 !    12.2
 1400    .270 -179.8   3.002   75.9    .108   74.1    .478  -21.3 !    11.0
 1600    .276  175.2   2.657   72.4    .121   74.2    .471  -24.2 !     9.9
 1800    .277  169.6   2.383   69.6    .133   74.9    .470  -26.0 !     9.0
 2000    .288  162.4   2.180   66.5    .146   75.2    .464  -27.0 !     8.2
 2200    .314  156.9   2.022   64.0    .159   75.4    .446  -28.4 !     7.5
 2400    .341  154.2   1.896   60.6    .173   75.6    .426  -32.0 !     7.0
 2600    .352  153.7   1.756   58.6    .184   75.4    .418  -36.8 !     6.3
 2800    .354  151.3   1.686   56.5    .197   76.1    .423  -40.3 !     6.0
 3000    .354  146.8   1.593   53.7    .211   76.3    .426  -42.4 !     5.5
