! Filename:       BFR92AD.S2P                                Version:   2.0
! Philips part #: BFR92A                                     Date: May 1990
! Bias condition: Vce=5V, Ic=15mA
!
#  MHz  S  MA  R  50
! Freq       S11            S21            S12            S22     !GUM [dB]
   40    .611  -47.6  23.942  153.8    .018   70.1    .899  -21.1 !    36.8
  100    .585  -97.9  17.649  128.3    .034   53.6    .663  -39.5 !    29.3
  200    .580 -136.4  10.944  108.4    .044   49.3    .441  -48.3 !    23.5
  300    .586 -153.8   7.705   98.4    .052   50.8    .349  -49.8 !    20.1
  400    .591 -163.6   5.905   92.0    .061   54.1    .306  -50.6 !    17.7
  500    .596 -170.5   4.800   86.8    .068   57.6    .283  -51.4 !    15.9
  600    .596 -175.5   4.045   82.7    .078   60.2    .271  -52.7 !    14.4
  700    .591 -179.8   3.519   79.2    .086   62.2    .265  -54.4 !    13.1
  800    .590  176.4   3.119   75.7    .096   64.2    .263  -56.3 !    12.0
  900    .590  172.5   2.777   72.5    .105   65.3    .261  -58.4 !    11.0
 1000    .588  168.7   2.522   69.6    .115   66.6    .260  -60.9 !    10.2
 1200    .595  162.6   2.131   64.5    .136   68.3    .263  -66.0 !     8.8
 1400    .609  157.1   1.869   59.1    .157   68.8    .269  -72.4 !     7.8
 1600    .613  152.1   1.661   53.9    .180   69.8    .277  -78.0 !     6.8
 1800    .604  146.7   1.510   49.6    .206   69.4    .284  -83.8 !     5.9
 2000    .609  140.9   1.392   45.3    .229   69.5    .287  -90.0 !     5.3
 2200    .623  135.9   1.299   41.6    .255   68.7    .290  -98.3 !     4.8
 2400    .630  132.4   1.197   37.6    .279   68.7    .301 -107.1 !     4.2
 2600    .618  128.7   1.117   34.6    .309   67.3    .321 -114.3 !     3.5
 2800    .602  123.0   1.071   30.4    .336   65.4    .344 -120.4 !     3.1
 3000    .597  117.1   1.009   27.5    .368   64.8    .355 -126.1 !     2.6
