! Filename:       BFR93AWA.S2P                               Version:   4.0
! Philips part #: BFR93AW                                    Date: Jun 1994
! Bias condition: Vce=5V, Ic=5mA
! 
#  MHz  S  MA  R  50
! Freq       S11            S21            S12            S22     !GUM [dB]
   40    .872  -14.3  10.344  168.9    .013   81.9    .985   -5.7 !    41.7
  100    .825  -34.4   9.640  154.8    .030   71.4    .932  -13.3 !    33.4
  200    .721  -63.5   8.237  136.4    .050   59.6    .811  -21.5 !    26.2
  300    .634  -86.3   6.875  123.0    .063   52.9    .711  -25.7 !    22.0
  400    .574 -103.9   5.746  113.3    .071   49.8    .640  -27.9 !    19.2
  500    .536 -117.3   4.888  106.2    .077   48.8    .594  -29.2 !    17.1
  600    .510 -128.4   4.251  100.5    .082   49.4    .563  -30.1 !    15.5
  700    .491 -137.2   3.744   95.7    .087   50.6    .544  -30.6 !    14.2
  800    .476 -145.0   3.341   91.6    .091   52.1    .531  -31.0 !    13.0
  900    .466 -151.9   3.010   87.8    .096   53.7    .520  -31.1 !    12.0
 1000    .459 -158.1   2.739   84.6    .100   55.5    .509  -31.5 !    11.1
 1200    .460 -168.9   2.333   78.9    .110   59.2    .484  -32.8 !     9.6
 1400    .469 -177.0   2.057   73.8    .122   62.6    .466  -35.7 !     8.4
 1600    .472  176.5   1.832   69.1    .134   65.4    .458  -39.5 !     7.4
 1800    .471  170.1   1.659   65.5    .148   68.3    .456  -42.2 !     6.5
 2000    .480  163.2   1.523   61.8    .163   70.9    .445  -44.4 !     5.8
 2200    .501  157.7   1.417   58.8    .178   72.8    .424  -47.8 !     5.1
 2400    .523  153.9   1.325   55.1    .195   74.3    .407  -53.5 !     4.6
 2600    .531  151.3   1.236   52.7    .211   75.0    .408  -59.8 !     4.1
 2800    .528  147.5   1.190   50.0    .230   76.1    .417  -64.2 !     3.8
 3000    .530  142.6   1.130   47.4    .251   76.7    .418  -67.2 !     3.3
! Noise data:
! Freq.     Fmin        Gamma-opt         rn
  500       1.20     .220     61.3       .168
 1000       1.90     .250    142.8       .230
 2000       3.00     .710   -154.5       .100
