! Filename:       BFR93AWH.S2P                               Version:   4.0
! Philips part #: BFR93AW                                    Date: Jun 1994
! Bias condition: Vce=8V, Ic=30mA
! 
#  MHz  S  MA  R  50
! Freq       S11            S21            S12            S22     !GUM [dB]
   40    .835  -17.7  19.505  165.7    .012   80.3    .967   -8.8 !    42.9
  100    .755  -41.4  17.190  148.4    .028   69.7    .871  -19.5 !    34.5
  200    .609  -71.7  13.111  128.4    .044   60.1    .698  -29.4 !    27.3
  300    .511  -93.3  10.144  116.1    .055   56.2    .575  -33.2 !    23.2
  400    .451 -109.6   8.143  107.7    .064   56.1    .498  -34.7 !    20.4
  500    .416 -121.7   6.762  101.8    .071   56.9    .451  -35.2 !    18.4
  600    .394 -131.7   5.781   97.1    .079   58.4    .422  -35.4 !    16.8
  700    .377 -139.7   5.040   93.2    .087   59.7    .404  -35.1 !    15.5
  800    .365 -146.7   4.464   89.7    .095   61.2    .392  -34.6 !    14.3
  900    .355 -153.3   4.005   86.6    .102   62.3    .382  -33.9 !    13.3
 1000    .350 -159.2   3.634   83.9    .110   63.3    .371  -33.2 !    12.4
 1200    .354 -169.6   3.077   79.0    .126   65.0    .347  -32.8 !    10.9
 1400    .365 -177.1   2.698   74.7    .142   66.3    .327  -34.7 !     9.7
 1600    .370  177.2   2.397   70.5    .158   66.8    .320  -38.2 !     8.7
 1800    .369  171.5   2.164   67.2    .173   67.8    .318  -39.9 !     7.8
 2000    .379  164.5   1.984   63.8    .190   68.6    .311  -40.6 !     7.1
 2200    .402  159.0   1.842   61.0    .206   69.1    .290  -42.4 !     6.5
 2400    .426  155.6   1.722   57.5    .222   69.4    .271  -47.8 !     5.9
 2600    .440  154.2   1.605   55.0    .236   69.3    .268  -55.0 !     5.4
 2800    .439  151.2   1.540   52.3    .252   69.7    .277  -59.6 !     5.0
 3000    .438  146.8   1.464   49.6    .270   69.7    .282  -62.1 !     4.6
! Noise data:
! Freq.     Fmin        Gamma-opt         rn
  500       2.10     .178     37.4       .231
 1000       2.60     .193    144.2       .320
 2000       3.60     .509   -154.2       .220
