! Filename:       BFR92AWB.S2P                               Version:   4.0
! Philips part #: BFR92AW                                    Date: Jun 1994
! Bias condition: Vce=5V, Ic=5mA
! 
#  MHz  S  MA  R  50
! Freq       S11            S21            S12            S22     !GUM [dB]
   40    .859  -10.9  12.463  169.2    .009   83.6    .985   -4.8 !    43.0
  100    .814  -26.4  11.626  156.5    .020   74.8    .940  -11.3 !    35.4
  200    .707  -49.9  10.252  140.0    .035   64.4    .832  -18.4 !    28.4
  300    .603  -70.2   8.874  127.2    .045   58.9    .740  -21.9 !    24.4
  400    .520  -86.7   7.583  117.6    .052   56.9    .673  -23.6 !    21.6
  500    .463  -99.8   6.525  110.5    .058   56.2    .628  -24.5 !    19.5
  600    .420 -111.3   5.709  104.8    .063   57.1    .598  -24.9 !    17.9
  700    .389 -120.5   5.044  100.2    .068   58.1    .578  -24.9 !    16.5
  800    .364 -129.1   4.507   96.2    .073   59.6    .566  -24.9 !    15.4
  900    .345 -136.6   4.061   92.6    .078   60.7    .555  -24.6 !    14.3
 1000    .331 -143.9   3.695   89.7    .083   62.0    .544  -24.5 !    13.4
 1200    .322 -157.0   3.144   84.3    .093   64.3    .520  -24.6 !    11.8
 1400    .326 -166.9   2.771   79.7    .105   66.4    .502  -26.2 !    10.6
 1600    .326 -174.2   2.460   75.5    .116   67.9    .493  -28.7 !     9.5
 1800    .322  178.7   2.213   72.2    .127   69.9    .490  -30.2 !     8.6
 2000    .328  170.3   2.026   68.6    .139   71.4    .482  -31.2 !     7.8
 2200    .348  163.6   1.882   65.8    .151   72.3    .462  -32.7 !     7.1
 2400    .372  159.4   1.765   62.0    .165   73.1    .443  -36.3 !     6.5
 2600    .383  157.6   1.637   59.7    .177   73.7    .437  -41.0 !     5.9
 2800    .382  154.5   1.574   57.3    .189   74.8    .443  -44.3 !     5.6
 3000    .382  149.4   1.490   54.5    .204   75.3    .445  -46.3 !     5.1
! Noise data:
! Freq.     Fmin        Gamma-opt         rn
  500       1.60     .415     16.9       .303
 1000       2.10     .286     52.1       .360
 2000       3.00     .184    171.9       .240
