! Filename:       BFR92AWH.S2P                               Version:   4.0
! Philips part #: BFR92AW                                    Date: Jun 1994
! Bias condition: Vce=10V, Ic=10mA
! 
#  MHz  S  MA  R  50
! Freq       S11            S21            S12            S22     !GUM [dB]
   40    .812  -14.7  19.943  165.8    .008   82.0    .974   -6.5 !    43.5
  100    .737  -34.9  17.862  149.9    .018   71.8    .897  -14.2 !    35.5
  200    .585  -62.6  14.347  130.7    .029   63.5    .757  -20.5 !    28.7
  300    .472  -83.2  11.386  118.2    .037   60.4    .662  -22.1 !    24.7
  400    .399  -99.1   9.230  109.8    .044   60.7    .603  -22.3 !    22.0
  500    .355 -111.2   7.695  103.9    .050   62.0    .568  -22.3 !    20.0
  600    .325 -121.4   6.595   99.3    .056   64.1    .548  -22.3 !    18.4
  700    .303 -129.8   5.752   95.5    .062   65.4    .535  -22.1 !    17.1
  800    .285 -137.6   5.099   92.3    .068   66.7    .528  -21.9 !    15.9
  900    .272 -144.8   4.568   89.3    .074   67.7    .522  -21.6 !    14.9
 1000    .264 -151.7   4.144   86.8    .080   68.8    .515  -21.4 !    14.0
 1200    .263 -164.0   3.504   82.2    .093   70.2    .496  -21.5 !    12.4
 1400    .271 -172.6   3.072   78.2    .106   71.5    .480  -22.9 !    11.2
 1600    .275 -178.8   2.719   74.5    .119   72.0    .473  -25.5 !    10.1
 1800    .272  174.8   2.442   71.5    .131   73.1    .471  -27.0 !     9.2
 2000    .280  166.8   2.230   68.2    .144   73.6    .465  -27.9 !     8.4
 2200    .303  160.5   2.069   65.7    .156   74.1    .446  -29.1 !     7.7
 2400    .329  157.1   1.939   62.2    .170   74.3    .427  -32.5 !     7.1
 2600    .340  156.3   1.796   60.1    .182   74.3    .419  -37.2 !     6.5
 2800    .340  153.9   1.725   57.8    .194   75.1    .425  -40.6 !     6.1
 3000    .340  149.1   1.630   55.1    .209   75.2    .427  -42.5 !     5.7
! Noise data:
! Freq.     Fmin        Gamma-opt         rn
  500       2.00     .385     17.8       .420
 1000       2.50     .271     47.4       .450
 2000       3.40     .165    167.6       .300
