! Filename:       BFR92AH.S2P                                Version:   2.0
! Philips part #: BFR92A                                     Date: May 1990
! Bias condition: Vce=10V, Ic=10mA
! 
#  MHz  S  MA  R  50
! Freq       S11            S21            S12            S22     !GUM [dB]
   40    .720  -15.5  22.111  164.9    .009   84.4    .971   -7.4 !    42.5
  100    .640  -36.3  19.093  146.7    .019   71.8    .888  -16.0 !    34.6
  200    .491  -62.5  14.569  127.5    .033   66.9    .737  -22.9 !    27.9
  300    .399  -79.3  11.152  115.3    .042   66.2    .645  -25.0 !    24.0
  400    .332  -93.0   8.913  107.6    .051   66.1    .590  -25.5 !    21.4
  500    .293 -105.2   7.577  101.1    .059   67.9    .558  -25.3 !    19.6
  600    .254 -113.7   6.396   96.8    .068   69.1    .539  -25.5 !    17.9
  700    .231 -116.5   5.558   93.2    .076   70.7    .525  -25.5 !    16.5
  800    .205 -128.9   4.910   89.6    .085   71.8    .519  -25.5 !    15.4
  900    .189 -134.8   4.431   86.7    .095   72.5    .516  -25.8 !    14.4
 1000    .180 -146.7   3.989   83.1    .103   72.7    .508  -26.0 !    13.5
 1200    .169 -156.5   3.375   78.3    .121   73.5    .499  -26.8 !    11.9
 1400    .167 -169.7   2.967   73.4    .139   73.3    .492  -28.7 !    10.8
 1600    .160 -171.2   2.653   70.2    .157   73.9    .493  -29.7 !     9.8
 1800    .147  172.2   2.333   65.9    .175   73.2    .493  -31.2 !     8.7
 2000    .161  164.3   2.197   62.7    .192   73.1    .492  -32.4 !     8.2
 2200    .181  143.5   1.998   58.6    .212   73.0    .472  -33.8 !     7.3
 2400    .197  151.3   1.868   55.5    .232   71.9    .458  -37.1 !     6.6
 2600    .211  147.3   1.760   52.8    .249   71.1    .455  -40.6 !     6.1
 2800    .189  139.6   1.663   51.2    .269   71.0    .458  -42.8 !     5.6
 3000    .200  128.0   1.591   46.5    .287   69.7    .448  -44.1 !     5.2
