! Filename:       BFR92AWE.S2P                               Version:   4.0
! Philips part #: BFR92AW                                    Date: Jun 1994
! Bias condition: Vce=5V, Ic=20mA
! 
#  MHz  S  MA  R  50
! Freq       S11            S21            S12            S22     !GUM [dB]
   40    .640  -27.0  30.625  158.1    .008   79.1    .938  -10.1 !    41.2
  100    .531  -59.0  24.546  136.8    .016   67.8    .799  -18.8 !    33.7
  200    .400  -94.2  16.697  117.3    .025   63.6    .638  -21.5 !    27.5
  300    .342 -116.1  12.188  107.2    .032   64.4    .562  -20.6 !    23.9
  400    .315 -131.4   9.503  100.8    .038   66.9    .523  -19.6 !    21.4
  500    .301 -141.7   7.760   96.4    .045   68.5    .502  -19.3 !    19.5
  600    .294 -150.1   6.567   92.9    .052   70.7    .491  -19.3 !    17.9
  700    .289 -156.5   5.688   89.9    .059   71.9    .486  -19.4 !    16.6
  800    .285 -162.5   5.019   87.2    .066   73.1    .484  -19.5 !    15.5
  900    .283 -168.0   4.485   84.7    .073   73.7    .482  -19.4 !    14.5
 1000    .283 -172.8   4.054   82.6    .080   74.4    .478  -19.4 !    13.6
 1200    .294  179.1   3.420   78.6    .094   75.1    .463  -19.8 !    12.1
 1400    .309  173.5   2.991   75.1    .108   75.9    .449  -21.7 !    10.9
 1600    .315  169.2   2.647   71.6    .122   76.0    .443  -24.8 !     9.9
 1800    .317  164.1   2.375   68.8    .135   76.5    .442  -26.7 !     8.9
 2000    .329  157.7   2.170   65.8    .149   76.7    .436  -27.7 !     8.1
 2200    .355  153.3   2.012   63.4    .163   77.0    .418  -29.1 !     7.5
 2400    .381  150.9   1.883   60.1    .177   77.2    .397  -32.9 !     6.9
 2600    .390  150.3   1.745   58.0    .189   76.8    .390  -38.1 !     6.3
 2800    .390  148.0   1.673   55.9    .203   77.4    .396  -41.8 !     5.9
 3000    .390  143.5   1.582   53.2    .218   77.5    .399  -44.0 !     5.5
