! Filename:       BFR93ACF.S2P                              Version:   2.0
! Philips part #: BFR93A                                     Date: Jul 1990
! Bias condition: Vce=8V, Ic=10mA
! COMMON BASE
#  MHz  S  MA  R  50
! Freq       S11            S21            S12            S22
   40    .872  179.3   1.854   -1.0    .001   50.9    .996    -.8
  100    .870  178.1   1.853   -3.0    .002   81.4    .995   -2.5
  200    .871  176.7   1.856   -5.6    .005  105.3    .999   -4.7
  300    .875  175.2   1.855   -8.1    .008  122.1   1.006   -7.1
  400    .880  173.7   1.856  -10.9    .012  127.9   1.009   -9.6
  500    .888  172.3   1.865  -13.9    .017  133.7   1.016  -12.1
  600    .897  170.6   1.872  -16.6    .023  136.7   1.025  -14.6
  700    .910  169.0   1.881  -19.6    .032  138.8   1.035  -17.3
  800    .922  167.3   1.888  -22.6    .041  141.0   1.046  -19.9
  900    .939  165.6   1.898  -25.7    .051  141.9   1.058  -22.5
 1000    .956  163.8   1.914  -29.0    .063  142.1   1.072  -25.3
 1200    .999  160.1   1.941  -35.6    .091  141.9   1.104  -31.3
 1400   1.051  156.0   1.985  -42.9    .127  139.7   1.144  -37.7
 1600   1.108  151.5   2.012  -51.2    .171  137.3   1.184  -44.6
 1800   1.181  146.1   2.046  -59.7    .223  133.0   1.221  -52.5
 2000   1.255  140.3   2.074  -69.5    .284  127.8   1.257  -61.5
 2200   1.326  134.2   2.065  -81.0    .351  121.7   1.292  -72.2
 2400   1.371  126.7   2.082  -93.8    .423  114.1   1.338  -83.7
 2600   1.383  118.2   1.995 -108.3    .497  106.0   1.366  -95.2
 2800   1.367  108.4   1.922 -123.3    .564   96.9   1.361 -106.8
 3000   1.348   98.6   1.791 -138.1    .623   89.2   1.312 -118.1
