! Filename:       BFR92ACB.S2P                              Version:   2.0
! Philips part #: BFR92A                                     Date: Jul 1990
! Bias condition: Vce=5V, Ic=5mA
! COMMON BASE
#  MHz  S  MA  R  50
! Freq       S11            S21            S12            S22   
   40    .784  179.1   1.768   -1.2    .001   61.9   1.002    -.7
  100    .783  177.9   1.765   -2.4    .002   84.5   1.004   -1.4
  200    .784  176.0   1.764   -4.9    .005  104.4   1.003   -3.1
  300    .785  174.2   1.762   -7.3    .007  113.2   1.003   -4.7
  400    .789  172.5   1.767   -9.8    .011  122.2   1.009   -6.2
  500    .795  170.7   1.772  -12.3    .015  125.1   1.014   -7.8
  600    .804  168.8   1.782  -14.8    .020  129.6   1.020   -9.3
  700    .814  167.0   1.788  -17.2    .025  132.6   1.027  -11.0
  800    .826  165.1   1.795  -20.0    .032  134.8   1.036  -12.6
  900    .839  163.2   1.802  -22.6    .039  137.4   1.047  -14.4
 1000    .856  161.4   1.818  -25.4    .047  139.0   1.057  -16.2
 1200    .892  157.6   1.844  -30.9    .068  141.0   1.084  -20.0
 1400    .933  153.4   1.891  -36.8    .093  140.7   1.115  -23.9
 1600    .982  149.0   1.921  -44.1    .124  140.4   1.148  -28.5
 1800   1.046  144.2   1.963  -50.8    .162  138.4   1.185  -33.7
 2000   1.122  139.0   2.012  -58.6    .207  135.6   1.220  -39.9
 2200   1.201  133.8   2.062  -68.0    .260  132.1   1.266  -47.2
 2400   1.270  127.8   2.138  -77.8    .322  127.1   1.322  -55.3
 2600   1.323  120.3   2.132  -90.1    .389  121.7   1.374  -64.0
 2800   1.364  111.0   2.166 -102.2    .462  114.7   1.407  -72.9
 3000   1.400  101.3   2.111 -116.1    .533  107.7   1.399  -82.6
