! Filename:       BFR93ACD.S2P                              Version:   2.0
! Philips part #: BFR93A                                     Date: Jul 1990
! Bias condition: Vce=5V, Ic=30mA
! COMMON BASE
#  MHz  S  MA  R  50
! Freq       S11            S21            S12            S22
   40    .940  179.3   1.922    -.9    .001   49.6    .995    -.9
  100    .938  178.2   1.920   -2.8    .002   80.6    .994   -2.7
  200    .938  176.8   1.924   -5.2    .004  109.2    .999   -5.0
  300    .942  175.3   1.923   -7.5    .008  128.3   1.006   -7.5
  400    .948  173.9   1.923  -10.0    .012  133.9   1.009  -10.2
  500    .954  172.5   1.933  -12.8    .018  138.9   1.016  -12.9
  600    .964  171.0   1.940  -15.4    .025  142.0   1.025  -15.6
  700    .976  169.3   1.950  -18.1    .033  143.7   1.035  -18.4
  800    .990  167.7   1.955  -20.8    .043  144.8   1.045  -21.2
  900   1.006  166.1   1.965  -23.7    .055  145.3   1.057  -23.9
 1000   1.023  164.4   1.980  -26.8    .068  144.8   1.073  -26.9
 1200   1.065  160.9   2.006  -32.8    .099  143.5   1.104  -33.1
 1400   1.117  157.2   2.050  -39.5    .137  140.7   1.144  -39.7
 1600   1.175  152.8   2.078  -47.1    .185  137.9   1.186  -46.8
 1800   1.248  147.8   2.110  -54.8    .241  133.1   1.224  -54.8
 2000   1.327  142.4   2.137  -63.6    .304  127.7   1.263  -63.8
 2200   1.403  136.7   2.128  -74.1    .375  121.5   1.301  -74.6
 2400   1.456  129.7   2.147  -85.9    .451  113.7   1.356  -86.1
 2600   1.481  121.6   2.062  -99.3    .529  105.4   1.394  -97.7
 2800   1.478  112.0   1.999 -113.4    .603   96.2   1.406 -109.4
 3000   1.475  102.4   1.870 -127.3    .669   88.3   1.372 -121.0
