! Filename:       BFR93AH.S2P                                Version:   2.0
! Philips part #: BFR93A                                     Date: May 1990
! Bias condition: Vce=8V, Ic=30mA
! 
#  MHz  S  MA  R  50
! Freq       S11            S21            S12            S22     !GUM [dB]
   40    .572  -39.6  41.364  151.0    .012   73.0    .866  -21.3 !    40.1
  100    .447  -79.2  28.224  126.2    .023   63.2    .632  -37.7 !    32.2
  200    .369 -117.3  17.123  109.0    .036   64.3    .422  -45.0 !    26.2
  300    .336 -134.9  11.967  100.1    .046   65.9    .333  -45.6 !    22.6
  400    .324 -146.6   9.213   95.0    .058   68.7    .288  -45.2 !    20.1
  500    .339 -154.1   7.585   90.0    .069   70.1    .265  -44.3 !    18.4
  600    .332 -161.4   6.325   87.1    .081   70.4    .252  -44.0 !    16.8
  700    .312 -164.2   5.508   84.2    .093   72.1    .244  -43.8 !    15.5
  800    .308 -172.9   4.816   81.6    .105   71.4    .242  -43.5 !    14.3
  900    .312 -174.5   4.331   79.1    .116   72.3    .239  -43.9 !    13.4
 1000    .312  177.6   3.892   76.1    .127   72.1    .233  -43.6 !    12.5
 1200    .315  174.0   3.293   71.4    .152   71.6    .226  -44.7 !    11.0
 1400    .340  169.3   2.873   67.0    .175   70.0    .220  -47.4 !     9.9
 1600    .320  168.3   2.574   63.7    .199   69.6    .223  -49.2 !     8.9
 1800    .296  157.3   2.285   60.2    .218   68.2    .224  -50.2 !     7.8
 2000    .329  157.2   2.136   56.3    .240   66.8    .216  -50.6 !     7.3
 2200    .346  146.9   1.944   53.0    .263   66.4    .195  -52.9 !     6.5
 2400    .358  146.9   1.827   49.9    .285   64.5    .182  -59.9 !     6.0
 2600    .374  145.5   1.705   46.7    .304   63.0    .181  -66.2 !     5.4
 2800    .346  140.4   1.631   44.0    .326   61.8    .182  -69.4 !     4.9
 3000    .380  133.9   1.535   40.9    .348   60.1    .169  -70.8 !     4.5
