! Filename:       BFR92AE.S2P                                Version:   2.0
! Philips part #: BFR92A                                     Date: May 1990
! Bias condition: Vce=5V, Ic=20mA
! 
#  MHz  S  MA  R  50
! Freq       S11            S21            S12            S22     !GUM [dB]
   40    .530  -23.5  32.953  158.4    .008   79.3    .935  -11.2 !    40.8
  100    .431  -52.2  25.492  135.8    .017   72.0    .793  -21.5 !    33.3
  200    .315  -84.1  17.060  117.0    .029   69.1    .619  -26.1 !    27.2
  300    .237 -103.4  12.284  106.5    .038   71.7    .538  -25.8 !    23.5
  400    .216 -116.9   9.567  100.3    .048   73.2    .497  -25.2 !    21.1
  500    .211 -129.8   7.971   95.0    .059   74.5    .476  -24.6 !    19.3
  600    .185 -138.4   6.680   91.7    .068   74.5    .465  -24.6 !    17.7
  700    .168 -138.1   5.788   88.7    .078   76.0    .458  -24.7 !    16.4
  800    .177 -152.4   5.103   85.8    .089   75.3    .456  -24.9 !    15.3
  900    .155 -157.8   4.570   83.1    .099   76.5    .453  -25.2 !    14.3
 1000    .160 -170.5   4.115   79.9    .108   76.8    .448  -25.4 !    13.4
 1200    .158 -176.4   3.488   75.5    .128   76.0    .443  -26.7 !    11.9
 1400    .175  179.7   3.048   71.3    .148   75.0    .438  -28.6 !    10.7
 1600    .162  174.3   2.725   68.4    .168   75.1    .440  -30.1 !     9.8
 1800    .158  153.5   2.397   64.3    .186   74.3    .441  -31.8 !     8.6
 2000    .161  157.3   2.248   60.9    .205   73.2    .439  -32.9 !     8.1
 2200    .199  139.4   2.054   57.1    .226   72.8    .419  -34.0 !     7.3
 2400    .202  142.0   1.907   54.0    .247   71.2    .405  -37.7 !     6.6
 2600    .222  142.3   1.798   51.8    .266   70.2    .400  -41.4 !     6.1
 2800    .215  132.7   1.699   49.0    .286   69.6    .402  -43.9 !     5.6
 3000    .230  126.3   1.632   45.9    .305   68.1    .394  -44.8 !     5.2
