! Filename:       BFR93AWE.S2P                               Version:   4.0
! Philips part #: BFR93AW                                    Date: Jun 1994
! Bias condition: Vce=8V, Ic=5mA
! 
#  MHz  S  MA  R  50
! Freq       S11            S21            S12            S22     !GUM [dB]
   40    .886  -13.3   9.855  169.6    .012   83.2    .987   -5.1 !    42.3
  100    .842  -32.1   9.245  156.2    .029   72.7    .942  -12.0 !    34.1
  200    .741  -59.5   7.990  138.2    .049   60.9    .833  -19.8 !    26.7
  300    .651  -81.5   6.746  124.9    .062   53.9    .739  -23.9 !    22.4
  400    .586  -98.8   5.685  115.1    .070   50.6    .670  -26.2 !    19.5
  500    .544 -112.3   4.859  107.9    .076   49.4    .623  -27.6 !    17.4
  600    .513 -123.5   4.238  102.0    .081   49.7    .593  -28.5 !    15.8
  700    .491 -132.6   3.741   97.1    .086   50.5    .573  -29.1 !    14.4
  800    .474 -140.7   3.345   92.9    .091   51.9    .560  -29.5 !    13.2
  900    .461 -147.8   3.014   89.0    .095   53.6    .548  -29.7 !    12.2
 1000    .452 -154.3   2.745   85.7    .099   55.2    .537  -30.0 !    11.2
 1200    .450 -165.7   2.341   79.8    .108   58.7    .512  -31.3 !     9.7
 1400    .457 -174.3   2.068   74.7    .119   62.1    .494  -34.1 !     8.5
 1600    .460  178.9   1.843   69.9    .131   65.0    .485  -37.7 !     7.5
 1800    .458  172.3   1.667   66.3    .144   68.1    .482  -40.3 !     6.6
 2000    .466  165.2   1.531   62.5    .158   70.5    .472  -42.4 !     5.9
 2200    .487  159.3   1.425   59.5    .173   72.6    .451  -45.5 !     5.2
 2400    .509  155.2   1.333   55.6    .190   74.1    .433  -50.9 !     4.7
 2600    .517  152.7   1.242   53.3    .205   75.0    .432  -56.9 !     4.1
 2800    .516  148.7   1.196   50.6    .223   76.2    .440  -61.1 !     3.8
 3000    .517  143.9   1.134   48.0    .243   76.9    .441  -64.1 !     3.4
! Noise data:
! Freq.     Fmin        Gamma-opt         rn
  500       1.20     .313     45.9       .163
 1000       1.90     .280    133.8       .218
 2000       3.00     .606   -155.7       .137
