! Filename:       BFR92AWF.S2P                               Version:   4.0
! Philips part #: BFR92AW                                    Date: Jun 1994
! Bias condition: Vce=10V, Ic=2mA
! 
#  MHz  S  MA  R  50
! Freq       S11            S21            S12            S22     !GUM [dB]
   40    .944   -6.5   5.268  173.4    .008   86.2    .995   -2.4 !    44.3
  100    .926  -16.1   5.117  164.7    .021   79.9    .981   -6.1 !    36.9
  200    .876  -31.3   4.836  152.6    .039   70.2    .940  -11.3 !    29.3
  300    .813  -45.8   4.571  142.1    .054   62.8    .888  -15.3 !    24.7
  400    .748  -59.2   4.255  132.9    .065   57.6    .841  -18.3 !    21.5
  500    .689  -70.9   3.915  125.2    .073   53.8    .800  -20.7 !    19.1
  600    .634  -81.8   3.618  118.5    .079   51.7    .766  -22.2 !    17.2
  700    .584  -91.6   3.350  112.5    .084   50.3    .740  -23.3 !    15.8
  800    .538 -100.4   3.097  107.1    .087   49.7    .720  -23.9 !    14.5
  900    .502 -108.6   2.855  102.3    .090   49.3    .703  -24.4 !    13.3
 1000    .472 -116.3   2.642   98.2    .092   49.5    .687  -24.9 !    12.3
 1200    .430 -131.4   2.315   91.0    .097   50.7    .655  -26.0 !    10.6
 1400    .413 -144.2   2.086   84.8    .102   52.7    .631  -28.0 !     9.4
 1600    .402 -153.9   1.871   79.5    .108   55.5    .619  -30.5 !     8.3
 1800    .388 -162.9   1.698   75.4    .113   59.1    .611  -32.1 !     7.3
 2000    .384 -173.1   1.562   71.0    .120   62.3    .600  -33.5 !     6.5
 2200    .396  178.2   1.460   67.6    .128   65.3    .579  -35.7 !     5.8
 2400    .415  171.8   1.374   63.1    .137   67.9    .559  -39.3 !     5.2
 2600    .428  167.7   1.277   60.6    .147   70.5    .555  -43.5 !     4.6
 2800    .427  163.1   1.237   57.9    .158   73.3    .560  -46.6 !     4.4
 3000    .426  157.2   1.169   54.9    .172   75.4    .558  -48.6 !     3.8
