! Filename:       BFR92ACA.S2P                              Version:   2.0
! Philips part #: BFR92A                                     Date: Jul 1990
! Bias condition: Vce=5V, Ic=2mA
! COMMON BASE
#  MHz  S  MA  R  50
! Freq       S11            S21            S12            S22   
   40    .568  179.0   1.554   -1.4    .001   72.2   1.002    -.7
  100    .567  178.0   1.550   -2.9    .004   86.0   1.005   -1.5
  200    .568  176.1   1.550   -6.0    .007   94.8   1.003   -3.3
  300    .571  174.4   1.547   -9.0    .011   99.8   1.003   -4.9
  400    .575  172.6   1.549  -12.0    .015  104.5   1.009   -6.6
  500    .581  170.7   1.552  -15.1    .020  106.8   1.015   -8.2
  600    .589  168.7   1.560  -18.1    .025  110.9   1.020   -9.9
  700    .599  167.0   1.561  -21.3    .030  114.0   1.027  -11.6
  800    .611  164.9   1.566  -24.6    .036  116.8   1.036  -13.4
  900    .624  163.0   1.568  -27.9    .043  119.5   1.047  -15.3
 1000    .641  161.1   1.579  -31.4    .050  121.6   1.057  -17.2
 1200    .676  157.1   1.592  -38.4    .067  126.1   1.082  -21.4
 1400    .714  152.5   1.619  -45.9    .089  127.6   1.110  -25.8
 1600    .757  147.5   1.624  -54.8    .116  129.2   1.138  -30.8
 1800    .811  141.9   1.634  -63.6    .149  128.4   1.163  -36.6
 2000    .872  136.0   1.640  -73.6    .189  126.5   1.184  -43.5
 2200    .933  129.9   1.642  -85.3    .236  123.5   1.209  -51.5
 2400    .975  123.2   1.650  -97.3    .289  119.1   1.234  -60.2
 2600    .995  115.4   1.592 -111.4    .345  114.2   1.251  -68.9
 2800    .997  106.3   1.556 -124.9    .402  108.0   1.243  -77.4
 3000    .999   97.2   1.462 -139.7    .455  102.1   1.198  -86.2
