! Filename:       BFR92AWI.S2P                               Version:   4.0
! Philips part #: BFR92AW                                    Date: Jun 1994
! Bias condition: Vce=10V, Ic=15mA
! 
#  MHz  S  MA  R  50
! Freq       S11            S21            S12            S22     !GUM [dB]
   40    .770  -18.4  25.267  163.0    .008   80.7    .961   -7.9 !    43.1
  100    .669  -42.7  21.658  144.4    .017   70.1    .858  -16.1 !    35.1
  200    .502  -72.8  16.022  124.3    .027   63.1    .705  -21.0 !    28.3
  300    .401  -93.4  12.129  112.8    .034   62.4    .618  -21.3 !    24.5
  400    .343 -109.0   9.616  105.3    .041   63.8    .569  -20.9 !    21.9
  500    .310 -120.6   7.917  100.2    .048   65.4    .540  -20.6 !    19.9
  600    .288 -130.4   6.737   96.2    .054   67.2    .525  -20.5 !    18.3
  700    .273 -138.3   5.849   92.8    .061   68.6    .517  -20.4 !    17.0
  800    .261 -145.5   5.169   89.9    .067   69.8    .512  -20.3 !    15.9
  900    .253 -152.3   4.624   87.1    .074   70.6    .508  -20.1 !    14.9
 1000    .248 -158.7   4.185   84.8    .080   71.4    .503  -20.0 !    14.0
 1200    .252 -169.6   3.535   80.6    .093   72.3    .487  -20.2 !    12.4
 1400    .264 -177.0   3.097   77.0    .107   73.1    .471  -21.8 !    11.2
 1600    .269  177.6   2.739   73.3    .121   73.5    .464  -24.6 !    10.1
 1800    .268  171.6   2.455   70.5    .133   74.1    .463  -26.2 !     9.2
 2000    .279  164.1   2.246   67.3    .146   74.5    .458  -27.1 !     8.4
 2200    .303  158.3   2.082   64.9    .159   74.8    .439  -28.3 !     7.7
 2400    .328  155.2   1.951   61.5    .173   74.8    .419  -31.8 !     7.1
 2600    .340  154.8   1.806   59.4    .184   74.8    .411  -36.6 !     6.5
 2800    .341  152.5   1.734   57.2    .197   75.5    .417  -40.1 !     6.1
 3000    .342  147.9   1.639   54.6    .211   75.6    .420  -42.0 !     5.7
! Noise data:
! Freq.     Fmin        Gamma-opt         rn
  500       2.30     .350     18.8       .470
 1000       2.80     .252     47.3       .490
 2000       3.70     .166    173.0       .330
