! Filename:       BFR93AG.S2P                                Version:   2.0
! Philips part #: BFR93A                                     Date: May 1990
! Bias condition: Vce=8V, Ic=20mA
! 
#  MHz  S  MA  R  50
! Freq       S11            S21            S12            S22     !GUM [dB]
   40    .623  -33.5  35.357  154.9    .012   76.1    .901  -18.2 !    40.3
  100    .501  -70.8  25.815  130.9    .025   62.7    .694  -34.4 !    32.3
  200    .410 -109.3  16.357  112.3    .038   62.0    .477  -43.3 !    26.2
  300    .369 -129.1  11.632  102.7    .048   63.3    .377  -44.7 !    22.6
  400    .346 -141.8   8.956   96.9    .058   65.8    .325  -44.9 !    20.1
  500    .351 -150.3   7.403   91.8    .069   66.7    .297  -44.2 !    18.4
  600    .339 -158.0   6.202   88.2    .080   69.2    .281  -43.8 !    16.7
  700    .324 -162.5   5.386   85.2    .091   69.8    .272  -44.1 !    15.4
  800    .336 -168.1   4.723   82.5    .104   70.2    .267  -43.5 !    14.3
  900    .331 -171.1   4.250   79.8    .115   70.7    .263  -43.9 !    13.4
 1000    .326  179.9   3.818   77.1    .125   70.7    .258  -43.7 !    12.4
 1200    .318  175.4   3.245   71.8    .148   70.5    .248  -44.7 !    11.0
 1400    .351  171.7   2.823   67.3    .171   69.8    .242  -47.1 !     9.8
 1600    .331  167.2   2.530   64.0    .193   69.3    .244  -48.5 !     8.8
 1800    .317  158.1   2.248   60.0    .215   68.1    .243  -50.2 !     7.8
 2000    .340  156.3   2.114   56.4    .235   67.2    .236  -50.7 !     7.3
 2200    .356  145.7   1.918   52.8    .259   66.7    .215  -52.8 !     6.5
 2400    .379  147.0   1.784   49.3    .280   64.9    .203  -59.2 !     5.9
 2600    .376  145.8   1.677   47.1    .301   63.7    .202  -66.0 !     5.3
 2800    .363  141.8   1.601   44.2    .322   62.7    .204  -68.6 !     4.9
 3000    .388  133.5   1.519   41.0    .342   60.9    .190  -70.5 !     4.5
