! Filename:       BFR92AWD.S2P                               Version:   4.0
! Philips part #: BFR92AW                                    Date: Jun 1994
! Bias condition: Vce=5V, Ic=15mA
! 
#  MHz  S  MA  R  50
! Freq       S11            S21            S12            S22     !GUM [dB]
   40    .697  -21.1  26.991  161.6    .008   80.8    .955   -8.9 !    42.0
  100    .598  -48.7  22.750  142.1    .017   69.6    .836  -17.9 !    34.3
  200    .451  -82.4  16.441  122.0    .027   63.4    .673  -22.4 !    27.9
  300    .373 -104.8  12.293  110.8    .034   62.6    .584  -22.3 !    24.3
  400    .332 -121.0   9.684  103.7    .040   64.8    .536  -21.7 !    21.7
  500    .310 -132.4   7.950   98.8    .047   66.5    .509  -21.3 !    19.8
  600    .297 -141.7   6.748   94.9    .054   68.4    .495  -21.2 !    18.2
  700    .288 -149.0   5.851   91.7    .060   69.8    .487  -21.0 !    16.9
  800    .281 -155.6   5.172   88.8    .067   70.9    .484  -20.9 !    15.8
  900    .277 -161.8   4.623   86.2    .074   71.8    .480  -20.6 !    14.8
 1000    .274 -167.5   4.180   83.9    .081   72.7    .475  -20.5 !    13.9
 1200    .283 -176.9   3.526   79.8    .094   73.7    .459  -20.6 !    12.3
 1400    .297  176.7   3.086   76.2    .109   74.4    .444  -22.3 !    11.1
 1600    .302  172.2   2.728   72.6    .123   74.8    .438  -25.2 !    10.1
 1800    .302  166.7   2.448   69.8    .135   75.4    .437  -26.9 !     9.1
 2000    .312  159.7   2.238   66.6    .149   75.8    .432  -27.7 !     8.3
 2200    .338  154.8   2.072   64.3    .162   76.1    .413  -29.1 !     7.7
 2400    .362  152.3   1.940   60.9    .177   76.1    .393  -32.7 !     7.1
 2600    .373  151.7   1.798   58.8    .189   75.9    .386  -37.8 !     6.4
 2800    .373  149.3   1.722   56.6    .202   76.4    .392  -41.4 !     6.1
 3000    .373  144.9   1.629   53.9    .218   76.4    .395  -43.6 !     5.6
! Noise data:
! Freq.     Fmin        Gamma-opt         rn
  500       2.30     .222     25.2       .332
 1000       2.80     .151     66.2       .370
 2000       3.70     .222   -164.7       .300
