! Filename:       BFR93AWD.S2P                               Version:   4.0
! Philips part #: BFR93AW                                    Date: Jun 1994
! Bias condition: Vce=5V, Ic=30mA
! 
#  MHz  S  MA  R  50
! Freq       S11            S21            S12            S22     !GUM [dB]
   40    .802  -18.7  20.101  165.4    .013   80.4    .965   -9.6 !    42.2
  100    .723  -43.8  17.618  147.7    .029   69.4    .862  -21.2 !    34.0
  200    .586  -75.4  13.320  127.7    .046   59.6    .678  -32.1 !    27.0
  300    .498  -97.7  10.255  115.4    .057   56.0    .550  -36.5 !    23.0
  400    .447 -114.4   8.211  107.2    .065   55.9    .470  -38.3 !    20.3
  500    .418 -126.4   6.807  101.3    .073   56.8    .420  -39.0 !    18.3
  600    .400 -136.2   5.817   96.7    .081   58.4    .390  -39.2 !    16.8
  700    .386 -144.1   5.066   92.8    .089   59.9    .370  -38.9 !    15.4
  800    .375 -151.1   4.487   89.5    .097   61.2    .358  -38.4 !    14.3
  900    .368 -157.2   4.025   86.3    .105   62.4    .346  -37.4 !    13.3
 1000    .364 -163.0   3.648   83.7    .113   63.5    .335  -36.7 !    12.4
 1200    .370 -172.8   3.092   78.9    .129   65.2    .309  -35.9 !    10.9
 1400    .381 -179.9   2.708   74.6    .146   66.5    .290  -38.0 !     9.7
 1600    .385  174.7   2.406   70.5    .164   66.9    .282  -41.8 !     8.7
 1800    .385  169.1   2.173   67.2    .179   67.8    .280  -43.5 !     7.8
 2000    .395  162.5   1.993   63.9    .197   68.5    .272  -43.9 !     7.1
 2200    .417  157.1   1.851   61.1    .213   69.0    .252  -45.8 !     6.5
 2400    .441  154.0   1.729   57.7    .230   69.2    .234  -52.0 !     5.9
 2600    .453  152.5   1.612   55.2    .245   68.9    .232  -60.1 !     5.4
 2800    .451  149.7   1.547   52.5    .261   69.2    .243  -64.9 !     5.0
 3000    .451  145.5   1.471   49.8    .280   69.1    .247  -67.3 !     4.6
! Noise data:
! Freq.     Fmin        Gamma-opt         rn
  500       2.10     .124    134.7       .220
 1000       2.60     .233    163.9       .250
 2000       3.40     .606   -149.3       .180
