! Filename:       BFR93AF.S2P                                Version:   2.0
! Philips part #: BFR93A                                     Date: May 1990
! Bias condition: Vce=8V, Ic=10mA
! 
#  MHz  S  MA  R  50
! Freq       S11            S21            S12            S22     !GUM [dB]
   40    .736  -24.7  24.131  161.4    .013   77.8    .948  -12.7 !    41.0
  100    .639  -55.3  19.698  140.2    .030   65.6    .804  -26.6 !    32.7
  200    .513  -92.7  13.931  120.1    .044   58.4    .600  -37.4 !    26.1
  300    .452 -113.9  10.264  108.5    .054   57.0    .486  -40.8 !    22.4
  400    .414 -129.2   8.059  101.5    .062   58.5    .421  -41.7 !    19.8
  500    .413 -140.5   6.731   95.2    .072   60.1    .384  -41.6 !    18.1
  600    .380 -149.0   5.659   91.2    .081   61.7    .361  -41.7 !    16.3
  700    .370 -152.9   4.933   87.6    .090   64.4    .346  -41.7 !    15.1
  800    .373 -161.9   4.329   84.3    .100   65.1    .338  -41.5 !    13.9
  900    .368 -165.5   3.911   81.3    .109   66.5    .333  -42.0 !    13.0
 1000    .368 -172.8   3.506   78.1    .119   66.7    .325  -42.0 !    12.0
 1200    .368 -179.3   2.975   72.8    .140   67.7    .314  -43.1 !    10.6
 1400    .383  173.9   2.603   67.7    .160   67.7    .307  -45.7 !     9.4
 1600    .367  169.3   2.335   64.2    .181   68.5    .308  -47.4 !     8.4
 1800    .359  161.2   2.083   59.8    .201   67.7    .307  -49.0 !     7.4
 2000    .369  157.9   1.955   55.8    .222   67.5    .300  -50.4 !     6.9
 2200    .388  148.4   1.777   52.5    .243   67.9    .279  -53.2 !     6.1
 2400    .403  149.8   1.651   48.5    .266   66.3    .267  -59.4 !     5.4
 2600    .400  144.1   1.552   46.1    .286   65.5    .266  -64.9 !     4.9
 2800    .395  138.9   1.491   42.8    .308   64.4    .268  -67.8 !     4.5
 3000    .408  134.4   1.415   40.1    .331   63.2    .253  -70.5 !     4.1
