! Filename:       BFR93AWG.S2P                       Version:   4.0
! Philips part #: BFR93AW                            Date: Jun 1994
! Bias condition: Vce=8V, Ic=20mA
! 
#  MHz  S  MA  R  50
! Freq     S11          S21          S12         S22     !GUM [dB]
   40  .837  -16.5  17.926 166.7  .012 81.5  .973   -8.1 !    43.0
  100  .766  -38.8  16.042 150.3  .028 71.0  .889  -18.1 !    34.7
  200  .629  -68.2  12.566 130.8  .045 60.5  .726  -28.0 !    27.4
  300  .531  -89.8   9.882 118.3  .056 56.2  .605  -32.3 !    23.3
  400  .469 -106.3   8.005 109.6  .065 55.6  .526  -34.1 !    20.6
  500  .433 -118.6   6.681 103.4  .072 56.1  .476  -35.0 !    18.5
  600  .407 -128.9   5.730  98.5  .080 57.4  .444  -35.3 !    16.9
  700  .388 -137.2   5.007  94.4  .087 58.8  .424  -35.1 !    15.6
  800  .374 -144.6   4.444  90.9  .095 60.2  .411  -34.7 !    14.4
  900  .364 -151.3   3.989  87.7  .102 61.3  .400  -34.1 !    13.4
 1000  .358 -157.5   3.621  84.9  .109 62.5  .388  -33.5 !    12.5
 1200  .360 -168.2   3.071  79.9  .124 64.3  .363  -33.1 !    11.0
 1400  .370 -176.2   2.694  75.4  .140 65.9  .343  -35.0 !     9.8
 1600  .373  178.2   2.393  71.2  .156 66.6  .334  -38.5 !     8.7
 1800  .373  172.1   2.161  67.8  .171 67.7  .332  -40.1 !     7.9
 2000  .381  165.1   1.982  64.4  .187 68.5  .325  -40.8 !     7.1
 2200  .403  159.5   1.840  61.5  .202 69.2  .304  -42.6 !     6.5
 2400  .427  156.0   1.721  58.0  .219 69.6  .285  -48.0 !     6.0
 2600  .440  154.5   1.604  55.5  .233 69.5  .282  -54.9 !     5.4
 2800  .439  151.4   1.540  52.8  .249 70.1  .291  -59.4 !     5.1
 3000  .439  147.2   1.463  50.1  .267 70.1  .295  -61.9 !     4.6
