! Filename:       BFR92ACG.S2P                              Version:   2.0
! Philips part #: BFR92A                                     Date: Jul 1990
! Bias condition: Vce=10V, Ic=5mA
! COMMON BASE
#  MHz  S  MA  R  50
! Freq       S11            S21            S12            S22   
   40    .774  178.9   1.760   -1.2    .001   61.3   1.002    -.7
  100    .772  177.9   1.758   -2.4    .002   86.3   1.004   -1.3
  200    .773  176.0   1.755   -4.9    .005  103.5   1.003   -3.0
  300    .776  174.1   1.754   -7.3    .007  110.5   1.003   -4.4
  400    .780  172.3   1.758   -9.7    .011  119.0   1.009   -5.9
  500    .785  170.5   1.763  -12.2    .015  122.6   1.014   -7.4
  600    .792  168.5   1.774  -14.6    .019  127.7   1.019   -8.9
  700    .803  166.7   1.780  -17.1    .025  131.0   1.026  -10.4
  800    .815  164.7   1.786  -19.8    .031  133.7   1.036  -11.9
  900    .827  162.8   1.794  -22.4    .038  135.7   1.046  -13.7
 1000    .842  161.0   1.810  -25.1    .046  138.0   1.055  -15.3
 1200    .878  157.2   1.835  -30.5    .065  140.0   1.081  -18.9
 1400    .917  153.0   1.881  -36.4    .089  140.2   1.112  -22.7
 1600    .964  148.6   1.910  -43.4    .118  140.0   1.145  -27.0
 1800   1.026  143.8   1.951  -50.1    .155  138.3   1.181  -31.9
 2000   1.097  138.9   2.000  -57.7    .197  135.8   1.217  -37.8
 2200   1.175  133.6   2.057  -66.9    .248  132.6   1.263  -44.7
 2400   1.245  127.8   2.137  -76.3    .307  128.1   1.320  -52.5
 2600   1.296  120.5   2.139  -88.3    .371  123.2   1.374  -60.7
 2800   1.342  111.5   2.183 -100.0    .442  116.5   1.411  -69.2
 3000   1.382  101.9   2.140 -113.8    .513  109.8   1.410  -78.7
