! Filename:       BFR92AA.S2P                                Version:   2.0
! Philips part #: BFR92A                                     Date: May 1990
! Bias condition: Vce=5V, Ic=2mA
! 
#  MHz  S  MA  R  50
! Freq       S11            S21            S12            S22     !GUM [dB]
   40    .901   -7.9   6.467  173.2    .010   86.1    .994   -2.9 !    42.7
  100    .874  -19.1   6.222  162.8    .025   78.1    .979   -7.3 !    36.1
  200    .819  -38.0   5.842  149.8    .047   70.8    .930  -13.4 !    28.8
  300    .746  -53.4   5.235  137.6    .062   64.0    .875  -18.0 !    24.2
  400    .683  -67.6   4.679  128.1    .074   58.8    .827  -21.4 !    21.1
  500    .622  -80.9   4.317  119.1    .084   55.7    .780  -23.9 !    18.9
  600    .556  -90.8   3.824  112.5    .091   53.5    .747  -25.6 !    16.8
  700    .522  -97.7   3.441  106.9    .096   53.0    .721  -26.7 !    15.3
  800    .476 -110.1   3.116  100.8    .101   52.4    .700  -27.6 !    13.9
  900    .433 -115.7   2.863   96.8    .105   53.4    .687  -28.4 !    12.8
 1000    .403 -126.9   2.615   91.4    .109   54.5    .668  -29.1 !    11.7
 1200    .378 -138.9   2.269   84.0    .116   56.2    .650  -30.7 !    10.2
 1400    .354 -152.1   2.023   77.2    .125   58.8    .636  -32.6 !     9.0
 1600    .341 -162.5   1.840   72.9    .135   62.8    .631  -34.3 !     8.0
 1800    .312 -175.7   1.617   67.2    .146   66.2    .625  -36.2 !     6.8
 2000    .327  175.7   1.529   62.6    .160   68.7    .619  -38.2 !     6.3
 2200    .323  160.6   1.397   57.9    .176   71.3    .600  -40.6 !     5.3
 2400    .337  157.7   1.329   54.2    .196   72.5    .588  -44.4 !     4.8
 2600    .343  150.9   1.253   50.9    .214   74.1    .585  -48.0 !     4.3
 2800    .332  141.7   1.184   48.3    .238   75.0    .587  -50.8 !     3.8
 3000    .355  132.2   1.129   44.5    .262   74.7    .575  -53.1 !     3.4
