! Filename:       BFR93AC.S2P                                Version:   2.0
! Philips part #: BFR93A                                     Date: May 1990
! Bias condition: Vce=5V, Ic=20mA
! 
#  MHz  S  MA  R  50
! Freq       S11            S21            S12            S22     !GUM [dB]
   40    .575  -36.9  36.292  154.1    .012   74.7    .893  -19.8 !    39.9
  100    .469  -77.2  26.069  129.7    .024   61.3    .675  -37.3 !    32.0
  200    .415 -117.9  16.356  111.4    .038   61.4    .451  -47.4 !    26.1
  300    .386 -136.5  11.549  101.9    .048   63.3    .349  -49.6 !    22.5
  400    .376 -147.9   8.937   96.1    .058   65.4    .296  -50.3 !    20.1
  500    .383 -156.0   7.343   91.1    .069   67.4    .267  -49.9 !    18.3
  600    .374 -162.7   6.156   87.8    .080   68.3    .250  -49.6 !    16.7
  700    .350 -163.6   5.347   84.7    .091   70.0    .239  -49.6 !    15.4
  800    .373 -172.2   4.681   82.1    .103   69.8    .235  -49.2 !    14.3
  900    .348 -175.4   4.224   79.4    .115   70.2    .229  -49.4 !    13.3
 1000    .359 -179.5   3.783   76.4    .125   70.6    .224  -49.1 !    12.4
 1200    .361  173.4   3.205   71.6    .148   70.4    .213  -50.0 !    10.9
 1400    .394  171.0   2.798   66.8    .171   69.2    .206  -52.8 !     9.9
 1600    .364  169.2   2.495   63.6    .194   69.1    .208  -54.2 !     8.8
 1800    .355  160.6   2.242   59.6    .215   67.6    .207  -55.6 !     7.8
 2000    .383  155.4   2.087   56.0    .236   66.3    .198  -55.8 !     7.3
 2200    .387  148.8   1.895   52.8    .258   65.8    .175  -58.4 !     6.4
 2400    .399  148.9   1.781   48.9    .280   64.4    .164  -66.7 !     5.9
 2600    .423  145.2   1.676   46.0    .301   62.7    .163  -73.5 !     5.5
 2800    .393  141.0   1.591   43.5    .322   61.5    .166  -77.0 !     4.9
 3000    .418  136.6   1.499   39.7    .345   59.8    .150  -79.5 !     4.4
