! Filename:       BFR92AJ.S2P                                Version:   2.0
! Philips part #: BFR92A                                     Date: May 1990
! Bias condition: Vce=10V, Ic=20mA
! 
#  MHz  S  MA  R  50
! Freq       S11            S21            S12            S22     !GUM [dB]
   40    .626  -21.0  31.314  159.5    .008   79.1    .944  -10.3 !    41.7
  100    .515  -45.5  24.713  137.6    .018   71.0    .814  -19.4 !    33.9
  200    .369  -75.0  16.851  118.7    .029   69.8    .648  -24.1 !    27.5
  300    .286  -89.3  12.289  108.0    .039   70.6    .570  -24.1 !    23.9
  400    .234 -103.4   9.573  101.5    .048   72.1    .529  -23.7 !    21.3
  500    .210 -117.5   8.014   96.2    .058   72.2    .507  -23.2 !    19.6
  600    .186 -125.0   6.718   92.7    .066   73.6    .495  -23.2 !    17.9
  700    .165 -125.8   5.801   89.6    .076   75.2    .488  -23.3 !    16.6
  800    .166 -140.0   5.129   86.5    .086   75.0    .486  -23.7 !    15.5
  900    .144 -142.5   4.610   83.9    .096   76.3    .484  -24.1 !    14.5
 1000    .143 -156.2   4.152   80.9    .104   76.1    .478  -24.2 !    13.6
 1200    .134 -164.4   3.493   76.2    .124   75.6    .473  -25.4 !    12.0
 1400    .156 -175.1   3.081   72.0    .144   74.5    .467  -27.4 !    11.0
 1600    .136  178.9   2.736   69.2    .162   74.5    .470  -28.7 !     9.9
 1800    .128  167.9   2.415   65.1    .180   74.2    .470  -30.2 !     8.8
 2000    .139  160.4   2.274   61.8    .199   73.0    .468  -31.5 !     8.3
 2200    .167  142.5   2.064   57.8    .218   73.1    .449  -32.6 !     7.4
 2400    .188  144.7   1.940   55.0    .238   71.5    .436  -36.1 !     6.8
 2600    .184  145.3   1.820   52.8    .257   70.7    .430  -39.5 !     6.2
 2800    .189  135.6   1.712   49.9    .275   70.2    .434  -42.0 !     5.7
 3000    .212  125.4   1.644   47.0    .294   68.7    .426  -42.9 !     5.4
