! Filename:       BFR93AWF.S2P                               Version:   4.0
! Philips part #: BFR93AW                                    Date: Jun 1994
! Bias condition: Vce=8V, Ic=10mA
! 
#  MHz  S  MA  R  50
! Freq       S11            S21            S12            S22     !GUM [dB]
   40    .838  -16.1  15.365  167.2    .012   81.6    .977   -7.2 !    42.4
  100    .774  -38.3  13.926  151.4    .027   70.6    .903  -16.2 !    34.2
  200    .648  -68.4  11.196  132.1    .045   60.2    .754  -25.1 !    27.0
  300    .556  -90.7   8.936  119.2    .056   55.0    .642  -28.9 !    22.9
  400    .497 -107.7   7.291  110.3    .063   53.6    .568  -30.6 !    20.2
  500    .461 -120.4   6.109  104.0    .070   54.1    .521  -31.4 !    18.1
  600    .438 -130.9   5.255   98.9    .077   55.4    .492  -31.8 !    16.5
  700    .421 -139.3   4.599   94.6    .083   56.9    .473  -31.8 !    15.2
  800    .407 -146.7   4.087   90.9    .089   58.4    .461  -31.8 !    14.1
  900    .398 -153.4   3.669   87.6    .095   60.1    .451  -31.5 !    13.0
 1000    .392 -159.5   3.333   84.8    .102   61.4    .440  -31.2 !    12.1
 1200    .394 -169.9   2.827   79.5    .115   64.0    .416  -31.6 !    10.6
 1400    .404 -177.6   2.485   74.9    .129   66.1    .397  -33.9 !     9.4
 1600    .408  176.3   2.209   70.6    .144   67.5    .390  -37.4 !     8.4
 1800    .407  170.3   1.996   67.1    .158   69.3    .388  -39.5 !     7.5
 2000    .415  163.7   1.829   63.6    .174   70.6    .380  -40.8 !     6.7
 2200    .438  158.1   1.700   60.7    .189   71.7    .359  -43.3 !     6.1
 2400    .461  154.6   1.591   57.1    .206   72.4    .341  -48.5 !     5.6
 2600    .471  152.8   1.482   54.7    .221   72.6    .339  -55.0 !     5.0
 2800    .470  149.5   1.424   52.0    .237   73.4    .348  -59.3 !     4.7
 3000    .470  145.0   1.352   49.2    .256   73.7    .352  -62.0 !     4.3
! Noise data:
! Freq.     Fmin        Gamma-opt         rn
  500       1.40     .259     44.0       .167
 1000       2.00     .234    136.2       .218
 2000       3.00     .566   -154.8       .140
