! Filename:       BFR93ACE.S2P                              Version:   2.0
! Philips part #: BFR93A                                     Date: Jul 1990
! Bias condition: Vce=8V, Ic=5mA
! COMMON BASE
#  MHz  S  MA  R  50
! Freq       S11            S21            S12            S22
   40    .785  179.3   1.767   -1.2    .001   59.0    .996    -.8
  100    .784  178.1   1.766   -3.4    .003   90.8    .995   -2.6
  200    .786  176.7   1.769   -6.4    .006  100.6   1.000   -4.7
  300    .790  175.2   1.768   -9.4    .009  113.3   1.007   -7.2
  400    .795  173.7   1.768  -12.6    .014  119.3   1.010   -9.7
  500    .802  172.2   1.776  -16.0    .019  125.5   1.017  -12.3
  600    .813  170.5   1.781  -19.2    .025  129.3   1.027  -14.8
  700    .825  168.8   1.791  -22.7    .033  131.6   1.037  -17.5
  800    .839  167.0   1.795  -26.1    .041  134.6   1.048  -20.3
  900    .856  165.2   1.804  -29.7    .050  136.3   1.061  -23.0
 1000    .875  163.3   1.816  -33.6    .062  137.0   1.076  -25.9
 1200    .920  159.3   1.837  -41.3    .090  137.8   1.108  -32.1
 1400    .971  154.9   1.870  -50.0    .124  136.1   1.146  -38.9
 1600   1.024  149.8   1.883  -59.8    .167  134.1   1.182  -46.3
 1800   1.090  143.7   1.894  -69.9    .218  129.7   1.212  -54.7
 2000   1.153  137.1   1.892  -81.5    .276  124.4   1.235  -64.3
 2200   1.207  130.3   1.851  -94.8    .339  118.1   1.251  -75.6
 2400   1.224  122.5   1.819 -109.3    .404  110.4   1.271  -87.5
 2600   1.208  114.0   1.700 -125.0    .467  102.4   1.269  -98.8
 2800   1.164  104.6   1.597 -140.9    .522   94.0   1.234 -109.9
 3000   1.124   95.7   1.459 -156.3    .570   86.9   1.165 -120.3
