! Filename:       BFR92ACE.S2P                              Version:   2.0
! Philips part #: BFR92A                                     Date: Jul 1990
! Bias condition: Vce=5V, Ic=20mA
! COMMON BASE
#  MHz  S  MA  R  50
! Freq       S11            S21            S12            S22   
   40    .915  179.2   1.901   -1.0    .001   60.5   1.002    -.7
  100    .914  178.1   1.899   -2.1    .001   83.5   1.004   -1.4
  200    .915  176.3   1.897   -4.4    .003  112.4   1.003   -3.0
  300    .917  174.6   1.895   -6.5    .006  126.5   1.003   -4.6
  400    .921  172.9   1.898   -8.6    .009  136.6   1.008   -6.1
  500    .928  171.2   1.905  -10.9    .013  138.5   1.014   -7.7
  600    .934  169.5   1.916  -13.0    .018  142.8   1.020   -9.2
  700    .945  167.8   1.924  -15.2    .024  145.6   1.027  -10.8
  800    .957  166.0   1.931  -17.6    .031  147.0   1.036  -12.3
  900    .969  164.4   1.941  -19.9    .039  148.2   1.046  -14.1
 1000    .986  162.7   1.958  -22.2    .048  148.7   1.057  -15.8
 1200   1.021  159.2   1.986  -27.0    .069  149.3   1.083  -19.4
 1400   1.063  155.5   2.040  -32.2    .095  148.0   1.115  -23.2
 1600   1.114  151.5   2.079  -38.4    .128  146.9   1.150  -27.6
 1800   1.183  147.4   2.131  -44.1    .168  144.2   1.189  -32.4
 2000   1.264  143.1   2.194  -50.6    .215  141.2   1.229  -38.2
 2200   1.353  138.5   2.266  -58.8    .271  137.4   1.283  -45.1
 2400   1.438  133.2   2.371  -67.0    .337  132.6   1.350  -52.7
 2600   1.512  126.3   2.399  -78.0    .410  127.3   1.421  -61.0
 2800   1.590  117.7   2.492  -88.8    .494  120.2   1.481  -69.6
 3000   1.667  108.4   2.485 -101.6    .579  113.0   1.506  -79.3
