! Filename:       BFR92ACJ.S2P                              Version:   2.0
! Philips part #: BFR92A                                     Date: Jul 1990
! Bias condition: Vce=10V, Ic=20mA
! COMMON BASE
#  MHz  S  MA  R  50
! Freq       S11            S21            S12            S22   
   40    .905  179.1   1.893   -1.0    .001   60.8   1.002    -.6
  100    .905  178.0   1.892   -2.1    .002   81.8   1.004   -1.3
  200    .904  176.1   1.889   -4.4    .003  111.4   1.002   -2.9
  300    .906  174.3   1.888   -6.5    .006  125.6   1.003   -4.4
  400    .911  172.7   1.892   -8.6    .009  131.5   1.008   -5.8
  500    .916  170.8   1.898  -10.8    .013  137.0   1.013   -7.3
  600    .923  169.1   1.909  -12.9    .017  140.0   1.019   -8.7
  700    .932  167.2   1.916  -15.1    .024  142.8   1.026  -10.2
  800    .943  165.4   1.923  -17.5    .030  144.9   1.035  -11.7
  900    .956  163.8   1.931  -19.8    .037  146.4   1.045  -13.4
 1000    .971  161.9   1.950  -22.1    .046  147.4   1.055  -15.0
 1200   1.004  158.5   1.975  -26.9    .067  147.9   1.081  -18.5
 1400   1.044  154.7   2.028  -31.8    .092  146.8   1.112  -22.1
 1600   1.091  150.6   2.065  -38.0    .123  146.0   1.145  -26.2
 1800   1.156  146.5   2.116  -43.6    .160  143.6   1.184  -30.8
 2000   1.233  142.2   2.180  -49.9    .205  140.9   1.223  -36.2
 2200   1.317  137.7   2.253  -57.9    .257  137.5   1.276  -42.7
 2400   1.400  132.8   2.363  -65.7    .320  133.0   1.344  -49.9
 2600   1.472  126.1   2.397  -76.4    .389  128.2   1.415  -57.8
 2800   1.549  117.8   2.499  -86.7    .469  121.6   1.477  -66.0
 3000   1.631  108.7   2.511  -99.2    .552  114.9   1.510  -75.4
