! Filename:       BFR93ACA.S2P                              Version:   2.0
! Philips part #: BFR93A                                     Date: Jul 1990
! Bias condition: Vce=5V, Ic=5mA
! COMMON BASE
#  MHz  S  MA  R  50
! Freq       S11            S21            S12            S22
   40    .788  179.4   1.768   -1.2    .001   73.1    .996    -.9
  100    .786  178.2   1.767   -3.5    .002   91.5    .995   -2.7
  200    .788  176.7   1.770   -6.6    .006  102.8   1.000   -5.0
  300    .792  175.2   1.768   -9.6    .010  112.7   1.007   -7.6
  400    .797  173.8   1.768  -12.9    .014  121.7   1.011  -10.3
  500    .806  172.2   1.776  -16.3    .019  127.0   1.018  -13.0
  600    .816  170.6   1.782  -19.7    .026  129.7   1.027  -15.7
  700    .829  168.8   1.790  -23.3    .033  132.8   1.039  -18.6
  800    .843  167.2   1.794  -26.8    .043  134.7   1.050  -21.5
  900    .861  165.3   1.801  -30.6    .053  136.8   1.063  -24.3
 1000    .880  163.4   1.813  -34.5    .065  137.2   1.078  -27.4
 1200    .926  159.3   1.830  -42.5    .095  137.4   1.110  -34.0
 1400    .977  154.7   1.861  -51.5    .130  135.4   1.149  -41.2
 1600   1.032  149.4   1.868  -61.6    .176  132.9   1.185  -49.0
 1800   1.098  143.1   1.872  -72.1    .229  128.3   1.212  -57.9
 2000   1.157  136.4   1.858  -84.1    .290  122.5   1.231  -68.0
 2200   1.208  129.5   1.802  -97.8    .353  115.9   1.241  -79.7
 2400   1.217  121.5   1.749 -112.7    .418  107.9   1.256  -91.9
 2600   1.192  113.2   1.620 -128.5    .479   99.8   1.245 -103.4
 2800   1.142  103.9   1.508 -144.6    .532   91.4   1.206 -114.4
 3000   1.099   95.3   1.369 -160.0    .577   84.5   1.134 -124.8
