! Filename:       BFS17WE.S2P                                Version:   4.0
! Philips part #: BFS17W                                     Date: Jun 1994
! Bias condition: Vce=5V, Ic=20mA
! 
#  MHz  S  MA  R  50
! Freq       S11            S21            S12            S22     !GUM [dB]
   40    .491  -59.8  23.061  145.6    .010   69.3    .893  -11.5 !    35.4
  100    .466 -109.5  15.137  119.4    .018   58.7    .736  -14.9 !    28.1
  200    .465 -141.4   8.783  101.4    .026   59.6    .648  -13.0 !    22.3
  300    .474 -154.7   6.060   92.3    .033   62.1    .621  -12.1 !    18.9
  400    .486 -162.5   4.599   85.8    .040   65.0    .611  -12.4 !    16.4
  500    .496 -167.6   3.689   80.8    .047   67.1    .608  -13.6 !    14.6
  600    .506 -171.8   3.085   76.6    .054   69.0    .610  -15.1 !    13.1
  700    .515 -175.5   2.646   72.7    .060   70.5    .614  -16.6 !    11.8
  800    .524 -179.0   2.315   69.1    .067   71.9    .620  -18.2 !    10.8
  900    .533  177.6   2.054   65.7    .072   73.5    .623  -19.7 !     9.8
 1000    .543  174.4   1.843   62.7    .078   75.2    .624  -21.3 !     9.0
 1200    .568  168.5   1.533   57.2    .090   78.7    .619  -25.1 !     7.5
 1400    .590  163.6   1.326   52.3    .104   82.3    .614  -30.0 !     6.4
 1600    .605  158.7   1.155   47.6    .120   85.0    .615  -35.2 !     5.3
 1800    .616  153.4   1.022   44.2    .137   87.8    .617  -39.7 !     4.3
 2000    .637  148.0    .917   40.9    .157   89.8    .609  -44.0 !     3.5
 2200    .665  143.6    .836   38.6    .179   91.1    .591  -49.2 !     2.9
 2400    .686  140.1    .760   35.7    .202   91.8    .577  -55.8 !     2.1
 2600    .690  136.8    .687   35.0    .226   91.6    .580  -62.6 !     1.3
 2800    .687  132.1    .645   34.0    .252   91.3    .589  -67.9 !      .8
 3000    .691  126.7    .595   33.8    .280   90.8    .586  -72.0 !      .1
