! Filename:       BFS17WF.S2P                                Version:   4.0
! Philips part #: BFS17W                                     Date: Jun 1994
! Bias condition: Vce=10V, Ic=2mA
! 
#  MHz  S  MA  R  50
! Freq       S11            S21            S12            S22     !GUM [dB]
   40    .922  -12.1   5.177  168.8    .012   82.0    .991   -3.4 !    40.2
  100    .880  -29.5   4.860  155.2    .029   71.3    .961   -8.0 !    31.3
  200    .785  -56.3   4.315  137.3    .048   58.6    .887  -13.1 !    23.6
  300    .700  -79.5   3.763  123.3    .060   50.7    .828  -15.8 !    19.5
  400    .635  -98.3   3.237  112.3    .068   46.7    .786  -17.4 !    16.6
  500    .592 -112.9   2.795  103.7    .073   45.1    .759  -18.9 !    14.5
  600    .561 -125.0   2.458   96.8    .077   44.9    .743  -20.2 !    12.9
  700    .539 -134.5   2.178   91.0    .079   45.6    .733  -21.4 !    11.6
  800    .524 -142.7   1.952   85.9    .082   47.1    .726  -22.5 !    10.5
  900    .514 -150.0   1.765   81.2    .084   48.6    .720  -23.6 !     9.4
 1000    .508 -156.4   1.608   77.2    .087   50.6    .714  -24.8 !     8.5
 1200    .509 -167.5   1.376   70.0    .092   55.0    .697  -27.7 !     7.0
 1400    .520 -176.1   1.219   63.8    .098   60.2    .685  -31.5 !     5.8
 1600    .527  176.8   1.081   58.3    .106   65.1    .681  -35.7 !     4.8
 1800    .534  169.9    .973   54.1    .116   70.4    .679  -39.1 !     3.9
 2000    .549  162.8    .885   50.0    .128   75.2    .668  -42.6 !     3.1
 2200    .574  157.0    .818   46.9    .142   79.2    .649  -46.9 !     2.4
 2400    .596  152.6    .754   43.0    .159   82.4    .634  -52.5 !     1.7
 2600    .607  148.6    .691   41.6    .177   84.6    .636  -58.2 !     1.0
 2800    .608  143.7    .657   39.9    .198   86.5    .644  -62.7 !      .7
 3000    .615  137.9    .609   38.8    .222   87.9    .639  -66.3 !     0.0
