! Filename:       BFS17WG.S2P                                Version:   4.0
! Philips part #: BFS17W                                     Date: Jun 1994
! Bias condition: Vce=10V, Ic=5mA
! 
#  MHz  S  MA  R  50
! Freq       S11            S21            S12            S22     !GUM [dB]
   40    .827  -20.6  11.130  162.9    .011   78.4    .975   -5.8 !    39.0
  100    .743  -48.7   9.717  144.1    .025   65.0    .898  -11.9 !    30.4
  200    .610  -86.2   7.473  122.1    .037   54.6    .784  -15.2 !    23.6
  300    .537 -111.1   5.728  108.5    .045   51.6    .723  -15.8 !    19.9
  400    .501 -127.8   4.548   99.4    .050   52.1    .691  -16.2 !    17.2
  500    .484 -139.1   3.743   92.8    .056   53.7    .675  -16.9 !    15.3
  600    .476 -147.9   3.185   87.5    .061   55.7    .667  -17.9 !    13.7
  700    .470 -154.8   2.767   82.9    .066   57.8    .664  -18.8 !    12.4
  800    .469 -160.7   2.444   78.7    .070   59.9    .663  -19.8 !    11.4
  900    .469 -165.9   2.186   74.9    .076   61.8    .662  -20.8 !    10.4
 1000    .472 -170.7   1.975   71.5    .080   63.5    .660  -21.9 !     9.5
 1200    .487 -178.9   1.664   65.3    .090   66.9    .650  -24.7 !     8.0
 1400    .506  174.8   1.455   59.8    .101   70.5    .643  -28.5 !     6.9
 1600    .519  169.2   1.280   54.5    .112   73.9    .643  -32.8 !     5.8
 1800    .530  163.3   1.140   50.7    .123   77.5    .644  -36.3 !     4.9
 2000    .550  157.2   1.031   46.6    .137   80.9    .638  -39.8 !     4.1
 2200    .579  152.1    .947   43.8    .153   83.7    .622  -44.1 !     3.4
 2400    .605  148.3    .866   39.8    .171   85.8    .608  -49.8 !     2.7
 2600    .616  144.8    .788   38.3    .190   87.1    .611  -55.8 !     2.0
 2800    .619  140.1    .744   36.4    .212   88.5    .620  -60.5 !     1.6
 3000    .626  134.7    .686   35.1    .236   89.3    .618  -64.2 !     1.0
