! Filename:       BFS17WH.S2P                                Version:   4.0
! Philips part #: BFS17W                                     Date: Jun 1994
! Bias condition: Vce=10V, Ic=10mA
! 
#  MHz  S  MA  R  50
! Freq       S11            S21            S12            S22     !GUM [dB]
   40    .718  -30.5  17.597  157.1    .011   74.3    .951   -8.1 !    38.3
  100    .609  -68.4  13.927  133.7    .021   61.6    .832  -14.1 !    30.0
  200    .497 -108.2   9.202  112.1    .031   55.9    .714  -14.9 !    23.6
  300    .460 -129.7   6.605  100.8    .038   56.5    .667  -14.2 !    20.0
  400    .449 -142.9   5.102   93.1    .044   58.5    .645  -14.2 !    17.5
  500    .447 -151.5   4.137   87.5    .050   60.8    .636  -14.8 !    15.5
  600    .448 -158.1   3.489   82.9    .057   63.0    .633  -15.8 !    14.0
  700    .450 -163.4   3.005   78.7    .063   64.4    .634  -16.8 !    12.8
  800    .454 -168.1   2.644   74.9    .069   66.0    .636  -17.9 !    11.7
  900    .459 -172.4   2.353   71.4    .074   67.2    .638  -18.9 !    10.7
 1000    .467 -176.3   2.119   68.3    .080   68.8    .638  -20.1 !     9.9
 1200    .488  176.7   1.774   62.5    .090   71.5    .632  -23.0 !     8.4
 1400    .511  171.1   1.543   57.4    .101   74.6    .627  -26.8 !     7.2
 1600    .528  166.0   1.350   52.4    .113   77.5    .628  -31.3 !     6.2
 1800    .540  160.4   1.198   48.7    .126   80.9    .631  -35.0 !     5.3
 2000    .562  154.5   1.080   44.8    .141   83.7    .626  -38.6 !     4.5
 2200    .592  149.8    .989   42.1    .158   86.1    .610  -43.0 !     3.8
 2400    .618  145.9    .904   38.3    .177   87.8    .597  -48.9 !     3.1
 2600    .628  142.8    .820   36.9    .197   88.8    .599  -54.9 !     2.4
 2800    .630  138.1    .774   35.0    .219   89.7    .608  -59.8 !     2.0
 3000    .637  132.7    .712   33.6    .244   90.1    .607  -63.6 !     1.3
