! Filename:       BFS17WA.S2P                                Version:   4.0
! Philips part #: BFS17W                                     Date: Jun 1994
! Bias condition: Vce=5V, Ic=2mA
! 
#  MHz  S  MA  R  50
! Freq       S11            S21            S12            S22     !GUM [dB]
   40    .913  -13.2   5.327  168.1    .014   82.2    .990   -4.0 !    39.3
  100    .866  -32.0   4.969  153.7    .032   69.9    .952   -9.3 !    30.2
  200    .769  -60.9   4.368  135.2    .054   56.6    .867  -14.8 !    22.8
  300    .687  -85.2   3.758  120.8    .066   48.8    .800  -17.4 !    18.7
  400    .626 -104.3   3.201  109.8    .074   45.0    .757  -19.2 !    16.0
  500    .589 -118.7   2.746  101.4    .079   43.6    .729  -20.7 !    13.9
  600    .563 -130.6   2.402   94.5    .082   43.5    .713  -22.1 !    12.4
  700    .546 -139.7   2.122   88.9    .085   44.4    .703  -23.4 !    11.0
  800    .533 -147.5   1.898   83.8    .088   45.9    .696  -24.6 !     9.9
  900    .525 -154.5   1.715   79.2    .090   47.6    .690  -25.8 !     8.9
 1000    .521 -160.5   1.561   75.3    .093   49.8    .683  -27.1 !     8.0
 1200    .525 -171.0   1.336   68.2    .098   54.3    .666  -30.4 !     6.5
 1400    .536 -179.2   1.182   62.1    .106   59.4    .654  -34.6 !     5.3
 1600    .545  174.1   1.051   56.6    .115   64.3    .650  -39.1 !     4.4
 1800    .551  167.4    .946   52.5    .125   69.4    .648  -42.9 !     3.5
 2000    .565  160.7    .861   48.5    .138   73.9    .637  -46.7 !     2.6
 2200    .590  155.1    .796   45.7    .154   77.8    .617  -51.4 !     2.0
 2400    .613  150.7    .732   42.1    .171   80.7    .603  -57.5 !     1.3
 2600    .622  146.9    .673   40.9    .191   82.6    .606  -63.7 !      .7
 2800    .622  142.1    .641   39.4    .214   84.3    .615  -68.5 !      .3
 3000    .627  136.4    .597   38.5    .239   85.4    .612  -72.3 !     -.3
