! Filename:       BFS17WC.S2P                                Version:   4.0
! Philips part #: BFS17W                                     Date: Jun 1994
! Bias condition: Vce=5V, Ic=10mA
! 
#  MHz  S  MA  R  50
! Freq       S11            S21            S12            S22     !GUM [dB]
   40    .662  -36.1  18.120  154.9    .011   73.3    .938   -9.5 !    36.9
  100    .570  -79.5  13.876  130.3    .022   59.3    .800  -15.5 !    29.0
  200    .498 -120.1   8.849  109.1    .031   54.8    .680  -15.8 !    22.9
  300    .481 -139.8   6.272   98.2    .038   56.2    .635  -14.9 !    19.3
  400    .479 -151.3   4.817   90.8    .045   58.8    .615  -14.9 !    16.9
  500    .481 -158.7   3.895   85.3    .052   61.2    .607  -15.6 !    15.0
  600    .486 -164.5   3.276   80.7    .058   63.7    .606  -16.7 !    13.5
  700    .490 -169.2   2.821   76.6    .064   65.1    .608  -17.9 !    12.2
  800    .496 -173.4   2.478   72.8    .070   67.0    .611  -19.2 !    11.1
  900    .502 -177.3   2.204   69.2    .076   68.4    .614  -20.4 !    10.2
 1000    .510  179.0   1.983   66.1    .082   69.9    .615  -21.7 !     9.3
 1200    .532  172.8   1.656   60.3    .093   73.1    .609  -25.1 !     7.8
 1400    .553  167.5   1.436   55.1    .106   76.4    .605  -29.5 !     6.7
 1600    .569  162.6   1.255   50.2    .120   79.4    .607  -34.5 !     5.7
 1800    .580  157.1   1.112   46.6    .134   82.6    .610  -38.7 !     4.7
 2000    .602  151.6   1.000   43.0    .152   85.2    .605  -42.8 !     3.9
 2200    .630  147.0    .913   40.5    .171   87.2    .588  -47.8 !     3.3
 2400    .654  143.4    .832   37.1    .192   88.7    .575  -54.3 !     2.6
 2600    .662  140.0    .754   36.1    .215   89.1    .579  -60.9 !     1.8
 2800    .661  135.4    .710   34.7    .239   89.5    .589  -66.1 !     1.4
 3000    .667  129.9    .654   34.0    .266   89.4    .587  -70.3 !      .7
