! Filename:       BFS17WB.S2P                                Version:   4.0
! Philips part #: BFS17W                                     Date: Jun 1994
! Bias condition: Vce=5V, Ic=5mA
! 
#  MHz  S  MA  R  50
! Freq       S11            S21            S12            S22     !GUM [dB]
   40    .802  -23.1  11.380  161.5    .013   77.1    .969   -6.8 !    37.7
  100    .717  -54.3   9.802  141.7    .027   62.7    .876  -13.5 !    29.3
  200    .595  -94.7   7.337  119.3    .040   52.5    .752  -16.7 !    22.8
  300    .537 -119.4   5.526  106.0    .047   50.1    .691  -17.0 !    19.1
  400    .513 -135.2   4.353   97.2    .053   51.2    .659  -17.3 !    16.6
  500    .502 -145.7   3.569   90.8    .058   52.9    .644  -18.2 !    14.6
  600    .498 -153.7   3.029   85.5    .064   55.4    .637  -19.3 !    13.1
  700    .495 -160.1   2.626   81.0    .069   57.5    .635  -20.4 !    11.8
  800    .495 -165.6   2.323   76.8    .074   59.7    .635  -21.5 !    10.8
  900    .496 -170.4   2.075   73.0    .079   61.8    .634  -22.7 !     9.8
 1000    .500 -174.9   1.875   69.6    .085   63.6    .632  -23.9 !     8.9
 1200    .516  177.6   1.579   63.4    .095   67.3    .622  -27.1 !     7.4
 1400    .534  171.6   1.379   57.9    .107   71.0    .615  -31.3 !     6.3
 1600    .548  166.3   1.212   52.8    .119   74.3    .616  -36.1 !     5.3
 1800    .559  160.6   1.081   49.0    .132   77.9    .618  -40.0 !     4.4
 2000    .578  154.7    .977   45.1    .148   80.9    .611  -44.0 !     3.6
 2200    .607  149.8    .895   42.4    .165   83.4    .594  -48.7 !     2.9
 2400    .631  146.2    .817   38.9    .185   85.4    .581  -55.1 !     2.2
 2600    .640  142.6    .744   37.7    .206   86.4    .585  -61.5 !     1.5
 2800    .640  138.1    .702   36.1    .229   87.3    .595  -66.6 !     1.1
 3000    .647  132.5    .648   35.4    .255   87.7    .593  -70.6 !      .5
