! Filename:       BFS17WI.S2P                                Version:   4.0
! Philips part #: BFS17W                                     Date: Jun 1994
! Bias condition: Vce=10V, Ic=15mA
! 
#  MHz  S  MA  R  50
! Freq       S11            S21            S12            S22     !GUM [dB]
   40    .646  -37.8  21.244  153.1    .010   73.2    .933   -9.3 !    37.8
  100    .536  -80.7  15.528  127.9    .019   60.6    .797  -14.4 !    29.7
  200    .455 -119.0   9.578  107.6    .028   58.0    .689  -13.9 !    23.4
  300    .436 -138.0   6.734   97.3    .035   59.5    .651  -13.0 !    19.9
  400    .434 -149.2   5.154   90.3    .042   62.3    .634  -13.0 !    17.4
  500    .438 -156.4   4.161   85.1    .049   63.7    .628  -13.7 !    15.5
  600    .444 -162.1   3.490   80.7    .055   65.5    .627  -14.8 !    14.0
  700    .450 -166.8   3.003   76.8    .062   67.1    .630  -15.9 !    12.7
  800    .457 -171.0   2.637   73.1    .068   68.2    .634  -17.1 !    11.7
  900    .464 -175.0   2.343   69.7    .073   69.3    .636  -18.2 !    10.7
 1000    .473 -178.7   2.108   66.6    .079   70.8    .637  -19.5 !     9.8
 1200    .497  174.7   1.760   61.1    .090   73.6    .631  -22.5 !     8.4
 1400    .521  169.3   1.527   56.1    .101   76.7    .627  -26.6 !     7.2
 1600    .536  164.3   1.336   51.3    .114   79.5    .628  -31.1 !     6.2
 1800    .550  158.7   1.185   47.6    .127   82.7    .631  -35.0 !     5.2
 2000    .572  153.0   1.069   43.9    .143   85.4    .625  -38.6 !     4.4
 2200    .601  148.2    .978   41.2    .161   87.4    .609  -43.1 !     3.8
 2400    .627  144.5    .895   37.5    .181   89.0    .595  -49.0 !     3.1
 2600    .637  141.3    .811   36.1    .201   89.7    .597  -55.1 !     2.3
 2800    .637  136.8    .764   34.3    .224   90.3    .606  -60.0 !     1.9
 3000    .645  131.3    .703   32.9    .249   90.6    .604  -63.8 !     1.2
