! Filename:       BFS17WD.S2P                                Version:   4.0
! Philips part #: BFS17W                                     Date: Jun 1994
! Bias condition: Vce=5V, Ic=15mA
! 
#  MHz  S  MA  R  50
! Freq       S11            S21            S12            S22     !GUM [dB]
   40    .566  -47.1  21.925  150.2    .011   71.1    .915  -10.9 !    36.4
  100    .500  -95.8  15.333  124.0    .020   58.8    .760  -15.7 !    28.7
  200    .470 -132.6   9.156  104.6    .028   57.9    .653  -14.4 !    22.7
  300    .471 -148.7   6.371   94.7    .035   59.9    .619  -13.3 !    19.3
  400    .477 -158.0   4.854   87.9    .042   62.8    .605  -13.4 !    16.8
  500    .484 -164.0   3.905   82.7    .049   65.0    .600  -14.3 !    14.9
  600    .492 -168.9   3.270   78.3    .056   66.8    .601  -15.5 !    13.4
  700    .499 -172.9   2.809   74.3    .062   68.3    .605  -16.8 !    12.2
  800    .506 -176.6   2.460   70.7    .068   69.9    .610  -18.2 !    11.1
  900    .515  179.8   2.184   67.2    .074   71.4    .614  -19.6 !    10.2
 1000    .525  176.4   1.961   64.1    .080   72.9    .616  -21.1 !     9.3
 1200    .548  170.4   1.633   58.5    .092   76.1    .611  -24.6 !     7.8
 1400    .570  165.4   1.412   53.5    .105   79.5    .607  -29.3 !     6.7
 1600    .586  160.5   1.232   48.8    .120   82.5    .609  -34.4 !     5.7
 1800    .598  155.2   1.091   45.3    .135   85.4    .612  -38.7 !     4.7
 2000    .620  149.7    .979   41.8    .154   87.7    .606  -42.9 !     3.9
 2200    .648  145.2    .893   39.4    .175   89.4    .589  -48.0 !     3.2
 2400    .670  141.7    .811   36.3    .197   90.4    .576  -54.6 !     2.5
 2600    .677  138.4    .735   35.4    .220   90.5    .579  -61.3 !     1.8
 2800    .674  133.7    .690   34.2    .245   90.6    .588  -66.5 !     1.3
 3000    .679  128.3    .636   33.6    .273   90.3    .586  -70.7 !      .6
