! Filename:       BFS17WJ.S2P                                Version:   4.0
! Philips part #: BFS17W                                     Date: Jun 1994
! Bias condition: Vce=10V, Ic=20mA
! 
#  MHz  S  MA  R  50
! Freq       S11            S21            S12            S22     !GUM [dB]
   40    .588  -44.9  22.919  149.6    .010   71.7    .918   -9.8 !    37.1
  100    .490  -90.5  15.720  123.6    .018   59.8    .777  -13.9 !    29.1
  200    .435 -126.9   9.326  104.6    .026   59.7    .683  -12.7 !    23.0
  300    .429 -143.5   6.485   95.1    .034   61.7    .653  -11.8 !    19.5
  400    .434 -153.4   4.944   88.4    .041   63.9    .640  -12.1 !    17.1
  500    .441 -159.7   3.976   83.4    .048   65.5    .635  -13.1 !    15.2
  600    .450 -164.8   3.333   79.2    .055   67.1    .636  -14.3 !    13.7
  700    .457 -169.2   2.865   75.3    .061   68.5    .639  -15.6 !    12.4
  800    .467 -173.2   2.512   71.8    .066   69.7    .643  -17.0 !    11.4
  900    .476 -177.0   2.233   68.4    .072   70.9    .645  -18.2 !    10.4
 1000    .486  179.3   2.007   65.4    .077   72.3    .646  -19.6 !     9.6
 1200    .510  172.9   1.677   60.0    .089   75.2    .640  -22.8 !     8.1
 1400    .534  167.6   1.456   55.1    .101   78.6    .634  -27.0 !     7.0
 1600    .550  162.6   1.274   50.3    .114   81.6    .635  -31.7 !     5.9
 1800    .563  157.0   1.130   46.7    .128   84.6    .636  -35.6 !     5.0
 2000    .585  151.3   1.019   43.0    .145   87.1    .630  -39.3 !     4.2
 2200    .614  146.8    .934   40.4    .164   88.9    .613  -43.9 !     3.5
 2400    .638  143.2    .853   36.8    .184   90.1    .598  -49.8 !     2.8
 2600    .645  139.9    .772   35.4    .206   90.7    .600  -56.0 !     2.0
 2800    .647  135.4    .727   33.8    .229   91.0    .608  -60.9 !     1.6
 3000    .653  129.9    .669   32.5    .255   91.0    .606  -64.7 !      .9
