! Filename:       BFS520H.S2P                                Version:   4.0
! Philips part #: BFS520                                     Date: Jun 1994
! Bias condition: Vce=6V, Ic=5mA
! 
#  MHz  S  MA  R  50
! Freq       S11            S21            S12            S22     !GUM [dB]
   40    .900   -9.4  12.307  170.3    .010   84.3    .980   -5.3 !    42.9
  100    .860  -23.0  11.606  158.7    .024   75.8    .938  -12.6 !    36.3
  200    .764  -43.8  10.436  143.4    .041   65.3    .828  -21.9 !    29.2
  300    .663  -62.3   9.258  131.3    .054   59.4    .723  -27.7 !    25.1
  400    .577  -77.8   8.062  121.7    .063   56.4    .641  -31.4 !    22.2
  500    .513  -90.6   7.058  114.5    .070   54.9    .580  -33.6 !    20.1
  600    .462 -101.3   6.235  108.7    .077   54.9    .538  -34.6 !    18.4
  700    .420 -110.6   5.554  103.7    .082   55.5    .508  -35.0 !    17.0
  800    .385 -118.6   4.976   99.7    .088   56.3    .486  -34.6 !    15.8
  900    .358 -126.5   4.503   96.0    .093   57.2    .467  -34.1 !    14.7
 1000    .335 -134.3   4.098   92.8    .098   58.2    .448  -33.5 !    13.7
 1200    .317 -149.3   3.504   87.4    .109   60.3    .413  -32.8 !    12.2
 1400    .321 -160.2   3.093   82.9    .121   62.3    .388  -33.8 !    11.0
 1600    .320 -167.6   2.753   78.7    .134   63.6    .375  -36.0 !     9.9
 1800    .310 -174.7   2.492   75.5    .145   65.5    .367  -36.9 !     9.0
 2000    .307  175.4   2.284   72.0    .158   66.7    .358  -37.1 !     8.2
 2200    .329  167.0   2.122   69.3    .171   67.9    .339  -38.0 !     7.6
 2400    .355  162.2   1.990   65.6    .187   68.6    .318  -41.6 !     7.0
 2600    .366  160.9   1.847   63.1    .199   68.8    .308  -47.1 !     6.4
 2800    .363  158.1   1.781   60.8    .213   69.8    .316  -50.9 !     6.1
 3000    .358  152.0   1.694   57.9    .230   70.1    .320  -52.5 !     5.6
! Noise data:
! Freq.     Fmin        Gamma-opt         rn
  500       .900     .359     27.0       .240
  900       1.10     .338     45.0       .230
 2000       1.85     .277    161.0       .130
