! Filename:       BFS540I.S2P                                Version:   4.0
! Philips part #: BFS540                                     Date: Jun 1994
! Bias condition: Vce=8V, Ic=20mA
! 
#  MHz  S  MA  R  50
! Freq       S11            S21            S12            S22     !GUM [dB]
   40    .778  -28.1  32.958  157.8    .014   75.8    .882  -18.5 !    40.9
  100    .651  -63.0  26.163  136.4    .028   62.1    .692  -37.7 !    33.6
  200    .510 -101.6  17.548  116.6    .041   55.6    .458  -53.1 !    27.2
  300    .460 -124.0  12.748  106.7    .050   56.0    .334  -60.7 !    23.7
  400    .442 -138.4   9.905  100.5    .059   57.8    .266  -66.1 !    21.2
  500    .433 -147.6   8.105   96.0    .067   59.9    .227  -69.9 !    19.3
  600    .426 -154.6   6.857   92.5    .076   61.7    .204  -72.2 !    17.8
  700    .419 -160.5   5.945   89.6    .084   63.4    .188  -72.9 !    16.5
  800    .412 -165.5   5.243   87.0    .094   64.7    .175  -72.3 !    15.3
  900    .410 -170.4   4.693   84.7    .103   65.6    .161  -71.5 !    14.3
 1000    .410 -175.0   4.238   82.6    .111   66.3    .147  -71.0 !    13.4
 1200    .424  177.8   3.569   78.9    .129   67.8    .118  -73.3 !    12.0
 1400    .437  173.4   3.110   75.4    .147   68.7    .105  -81.6 !    10.8
 1600    .442  170.0   2.763   71.8    .166   68.2    .106  -90.4 !     9.8
 1800    .441  165.8   2.505   69.1    .182   68.7    .105  -93.1 !     9.0
 2000    .448  160.6   2.301   66.3    .201   68.7    .097  -95.1 !     8.3
 2200    .469  156.1   2.129   64.1    .218   69.0    .086 -105.4 !     7.7
 2400    .495  153.6   1.981   61.0    .237   68.6    .092 -123.3 !     7.2
 2600    .507  153.1   1.835   58.4    .249   67.6    .114 -132.2 !     6.6
 2800    .503  151.5   1.765   55.9    .266   67.5    .132 -130.8 !     6.3
 3000    .498  147.7   1.691   53.1    .286   66.7    .137 -130.0 !     5.9
! Noise data:
! Freq.     Fmin        Gamma-opt         rn
  500       1.25     .156     64.0       .180
  900       1.50     .206    121.0       .170
 2000       2.20     .413   -167.0       .120
