! Filename:       BFS520L.S2P                                Version:   4.0
! Philips part #: BFS520                                     Date: Jun 1994
! Bias condition: Vce=6V, Ic=30mA
! 
#  MHz  S  MA  R  50
! Freq       S11            S21            S12            S22     !GUM [dB]
   40    .697  -24.1  37.925  158.2    .009   78.9    .892  -13.3 !    41.4
  100    .566  -53.3  29.886  136.8    .019   68.6    .731  -26.0 !    34.5
  200    .403  -85.6  20.003  117.6    .029   64.4    .532  -32.7 !    28.2
  300    .327 -106.7  14.570  107.8    .038   65.6    .429  -33.4 !    24.6
  400    .289 -122.4  11.346  101.6    .047   67.7    .373  -32.9 !    22.1
  500    .270 -133.3   9.276   97.3    .055   69.4    .341  -32.4 !    20.2
  600    .255 -141.9   7.845   93.9    .064   70.4    .325  -31.9 !    18.7
  700    .244 -149.4   6.799   91.1    .072   71.6    .316  -31.2 !    17.4
  800    .234 -156.2   5.989   88.6    .081   72.4    .312  -30.1 !    16.2
  900    .227 -162.7   5.357   86.2    .090   72.8    .305  -28.9 !    15.2
 1000    .225 -169.8   4.834   84.1    .098   73.3    .298  -27.6 !    14.3
 1200    .237  179.3   4.075   80.6    .115   73.5    .278  -25.9 !    12.8
 1400    .253  173.8   3.557   77.4    .133   74.0    .261  -27.2 !    11.6
 1600    .257  170.2   3.151   74.2    .151   73.3    .253  -30.9 !    10.6
 1800    .250  164.5   2.838   71.6    .166   73.3    .250  -32.1 !     9.6
 2000    .259  156.0   2.596   68.8    .184   72.9    .245  -31.7 !     8.9
 2200    .286  150.5   2.406   66.6    .201   72.7    .227  -31.9 !     8.2
 2400    .313  148.9   2.249   63.5    .220   72.1    .204  -36.2 !     7.7
 2600    .321  149.8   2.080   61.4    .233   71.1    .193  -44.3 !     7.0
 2800    .316  148.3   1.998   59.4    .249   71.0    .202  -50.1 !     6.6
 3000    .311  143.0   1.899   56.7    .267   70.2    .208  -51.9 !     6.2
