! Filename:       BFS505G.S2P                        Version:   4.0
! Philips part #: BFS505                             Date: Jun 1994
! Bias condition: Vce=6V, Ic=0.5mA
! 
#  MHz  S  MA  R  50
! Freq     S11           S21          S12         S22     !GUM [dB]
   40  .988   -1.5   1.295 177.7  .006  88.8  .998    -.9 !    43.7
  100  .987   -3.9   1.298 174.4  .015  85.7  .997   -2.2 !    40.9
  200  .982   -7.8   1.284 169.2  .030  82.3  .992   -4.5 !    34.7
  300  .972  -11.7   1.292 164.3  .045  79.3  .984   -6.7 !    30.0
  400  .960  -15.7   1.296 159.5  .060  76.9  .976   -9.0 !    26.6
  500  .949  -19.4   1.277 155.2  .074  74.3  .969  -11.2 !    24.2
  600  .934  -23.1   1.265 150.8  .087  72.0  .959  -13.3 !    22.0
  700  .918  -26.6   1.250 146.8  .100  69.9  .949  -15.2 !    20.0
  800  .898  -29.9   1.229 142.6  .110  67.6  .938  -16.9 !    18.1
  900  .875  -33.4   1.225 138.1  .120  64.9  .922  -18.6 !    16.3
 1000  .849  -36.8   1.201 134.0  .129  62.3  .907  -20.1 !    14.6
 1200  .794  -44.0   1.169 126.5  .145  57.2  .866  -23.4 !    11.7
 1400  .748  -51.3   1.166 120.1  .161  53.7  .831  -26.3 !    10.0
 1600  .712  -58.0   1.158 114.3  .175  50.4  .809  -29.1 !     9.0
 1800  .674  -63.3   1.104 109.3  .181  48.1  .783  -31.4 !     7.6
 2000  .612  -69.0   1.075 103.1  .186  45.6  .751  -33.1 !     6.3
 2200  .552  -76.6   1.067  97.9  .190  43.5  .717  -35.1 !     5.3
 2400  .508  -85.8   1.074  91.4  .196  41.4  .687  -37.8 !     4.7
 2600  .494  -93.7   1.050  88.2  .197  40.0  .670  -40.9 !     4.2
 2800  .472  -99.0   1.063  85.3  .198  40.6  .665  -43.0 !     4.2
 3000  .434 -103.4   1.034  81.5  .198  41.0  .653  -44.0 !     3.6
