! Filename:       BFS520I.S2P                                Version:   4.0
! Philips part #: BFS520                                     Date: Jun 1994
! Bias condition: Vce=6V, Ic=10mA
! 
#  MHz  S  MA  R  50
! Freq       S11            S21            S12            S22     !GUM [dB]
   40    .830  -13.7  21.306  166.3    .009   82.2    .957   -8.2 !    42.4
  100    .758  -32.7  19.195  151.0    .022   72.8    .873  -18.5 !    35.6
  200    .608  -59.5  15.715  132.4    .036   63.4    .707  -28.5 !    28.9
  300    .492  -80.1  12.682  119.9    .045   60.5    .584  -33.0 !    25.1
  400    .415  -95.9  10.348  111.5    .053   60.1    .503  -35.0 !    22.4
  500    .368 -108.2   8.684  105.6    .060   60.9    .452  -35.8 !    20.4
  600    .333 -118.1   7.455  101.0    .068   62.3    .420  -35.8 !    18.8
  700    .306 -126.8   6.519   97.2    .075   63.8    .400  -35.4 !    17.5
  800    .285 -134.4   5.778   93.9    .082   64.9    .386  -34.4 !    16.3
  900    .267 -142.1   5.184   91.0    .089   66.0    .372  -33.3 !    15.3
 1000    .255 -149.9   4.689   88.5    .096   66.8    .360  -32.2 !    14.3
 1200    .253 -164.0   3.971   84.1    .111   68.2    .332  -30.6 !    12.8
 1400    .265 -172.8   3.479   80.4    .127   69.4    .311  -31.5 !    11.6
 1600    .267 -178.4   3.090   76.8    .143   69.5    .300  -34.3 !    10.5
 1800    .260  175.5   2.782   74.1    .157   70.3    .296  -35.1 !     9.6
 2000    .262  165.7   2.547   71.0    .173   70.4    .289  -34.7 !     8.8
 2200    .287  158.3   2.362   68.6    .189   70.8    .270  -35.2 !     8.2
 2400    .315  155.1   2.211   65.2    .206   70.6    .247  -39.0 !     7.6
 2600    .324  155.3   2.047   63.1    .219   70.0    .237  -45.8 !     7.0
 2800    .320  153.4   1.970   61.0    .234   70.3    .245  -50.5 !     6.6
 3000    .315  147.5   1.871   58.1    .252   69.9    .251  -52.0 !     6.2
! Noise data:
! Freq.     Fmin        Gamma-opt         rn
  500       1.10     .250     48.0       .230
  900       1.25     .210     49.0       .230
 2000       1.90     .230    162.0       .150
