! Filename:       BFS520E.S2P                                Version:   4.0
! Philips part #: BFS520                                     Date: Jun 1994
! Bias condition: Vce=3V, Ic=20mA
! 
#  MHz  S  MA  R  50
! Freq       S11            S21            S12            S22     !GUM [dB]
   40    .665  -22.9  33.838  159.8    .009   80.4    .914  -12.9 !    40.9
  100    .556  -52.1  27.652  139.3    .019   69.1    .759  -25.7 !    34.2
  200    .409  -86.3  19.226  119.5    .030   63.7    .556  -33.6 !    28.1
  300    .340 -108.7  14.178  109.2    .039   64.7    .445  -35.0 !    24.5
  400    .306 -124.8  11.088  102.6    .047   66.4    .383  -35.0 !    22.0
  500    .288 -135.9   9.094   98.1    .055   68.1    .348  -34.6 !    20.1
  600    .275 -144.5   7.701   94.6    .064   69.6    .330  -34.0 !    18.6
  700    .265 -151.9   6.681   91.6    .072   70.9    .319  -33.3 !    17.3
  800    .257 -158.4   5.888   89.0    .081   71.7    .312  -32.1 !    16.1
  900    .250 -165.1   5.266   86.6    .090   72.2    .305  -30.8 !    15.1
 1000    .249 -171.4   4.754   84.5    .098   72.7    .297  -29.6 !    14.2
 1200    .261  178.3   4.007   80.8    .115   73.3    .276  -27.9 !    12.7
 1400    .278  172.7   3.501   77.6    .133   73.8    .258  -29.2 !    11.5
 1600    .282  169.1   3.100   74.2    .151   73.2    .250  -32.9 !    10.5
 1800    .276  164.0   2.794   71.7    .166   73.4    .247  -34.0 !     9.5
 2000    .283  155.9   2.557   68.8    .184   72.9    .242  -33.6 !     8.8
 2200    .311  150.5   2.370   66.6    .201   72.9    .224  -34.1 !     8.2
 2400    .339  148.5   2.215   63.4    .219   72.4    .201  -38.7 !     7.6
 2600    .345  149.4   2.050   61.4    .233   71.3    .191  -47.0 !     6.9
 2800    .340  147.7   1.970   59.3    .248   71.3    .200  -52.8 !     6.6
 3000    .335  142.2   1.873   56.5    .268   70.6    .207  -54.5 !     6.2
! Noise data:
! Freq.     Fmin        Gamma-opt         rn
  500       1.45    .0480     61.0       .200
  900       1.60    .0780    136.0       .180
 2000       2.20     .311   -153.0       .170
