! Filename:       BFS505B.S2P                                Version:   4.0
! Philips part #: BFS505                                     Date: Jun 1994
! Bias condition: Vce=3V, Ic=1.25mA
! 
#  MHz  S  MA  R  50
! Freq       S11            S21            S12            S22     !GUM [dB]
   40    .968   -2.4   3.435  176.5    .006   89.0    .997   -1.4 !    44.4
  100    .963   -6.0   3.400  171.9    .015   84.7    .993   -3.4 !    40.3
  200    .947  -11.9   3.325  164.8    .030   79.5    .980   -6.9 !    34.3
  300    .924  -17.8   3.288  158.3    .044   76.0    .959  -10.1 !    29.6
  400    .895  -23.6   3.226  152.3    .058   72.6    .937  -13.2 !    26.4
  500    .867  -28.9   3.115  147.1    .070   69.3    .915  -16.2 !    23.8
  600    .836  -33.7   2.986  142.3    .081   66.7    .892  -18.7 !    21.6
  700    .802  -38.6   2.911  137.7    .090   64.6    .868  -20.7 !    19.8
  800    .763  -43.0   2.827  132.9    .098   62.6    .843  -22.3 !    18.2
  900    .722  -47.3   2.725  128.2    .105   60.5    .819  -23.6 !    16.7
 1000    .679  -51.5   2.619  123.9    .111   58.5    .794  -24.9 !    15.4
 1200    .593  -60.7   2.472  116.1    .121   55.3    .740  -27.0 !    13.2
 1400    .524  -69.9   2.373  109.4    .131   53.9    .696  -29.0 !    11.8
 1600    .474  -77.1   2.237  103.6    .140   52.8    .668  -31.1 !    10.7
 1800    .425  -82.6   2.080   98.9    .144   52.8    .643  -32.4 !     9.5
 2000    .362  -88.4   1.949   93.5    .150   52.8    .619  -32.9 !     8.5
 2200    .307  -97.9   1.858   89.0    .156   53.1    .588  -33.9 !     7.7
 2400    .278 -109.5   1.788   83.6    .164   53.1    .561  -36.0 !     7.0
 2600    .273 -117.6   1.691   80.7    .170   53.6    .546  -38.9 !     6.4
 2800    .260 -122.5   1.655   78.3    .176   55.6    .544  -40.8 !     6.2
 3000    .227 -127.2   1.573   74.9    .183   56.9    .540  -41.5 !     5.7
! Noise data:
! Freq.     Fmin        Gamma-opt         rn
  500       1.00     .716     9.00       .770
  900       1.20     .659     12.0       .740
 2000       1.90     .505     37.0       .580
