! Filename:       BFS540D.S2P                                Version:   4.0
! Philips part #: BFS540                                     Date: Jun 1994
! Bias condition: Vce=4V, Ic=30mA
! 
#  MHz  S  MA  R  50
! Freq       S11            S21            S12            S22     !GUM [dB]
   40    .630  -40.6  42.829  151.5    .013   72.5    .830  -25.1 !    39.9
  100    .516  -84.8  30.299  127.6    .025   60.8    .584  -46.9 !    32.8
  200    .446 -123.5  18.450  110.0    .036   58.4    .357  -62.3 !    26.9
  300    .434 -142.4  13.000  101.8    .045   61.0    .253  -70.6 !    23.5
  400    .434 -153.5   9.980   96.6    .055   63.5    .201  -77.3 !    21.1
  500    .435 -160.3   8.111   92.9    .064   65.6    .172  -82.4 !    19.2
  600    .433 -165.6   6.837   89.9    .074   67.1    .157  -85.5 !    17.7
  700    .430 -170.1   5.916   87.3    .084   68.5    .146  -86.8 !    16.4
  800    .426 -174.1   5.213   84.9    .094   69.3    .135  -86.4 !    15.3
  900    .426 -178.2   4.664   82.9    .104   69.9    .123  -86.3 !    14.3
 1000    .429  178.1   4.208   81.0    .113   70.4    .111  -87.0 !    13.4
 1200    .445  172.3   3.540   77.6    .133   71.1    .087  -94.2 !    12.0
 1400    .459  168.7   3.085   74.4    .152   71.6    .083 -107.0 !    10.8
 1600    .462  165.8   2.735   70.8    .172   70.7    .092 -115.8 !     9.8
 1800    .462  162.0   2.480   68.2    .189   70.7    .093 -118.4 !     9.0
 2000    .470  157.2   2.281   65.6    .210   70.4    .086 -122.0 !     8.3
 2200    .492  153.1   2.111   63.5    .228   70.4    .084 -135.5 !     7.7
 2400    .517  151.0   1.964   60.4    .246   69.8    .102 -149.1 !     7.3
 2600    .527  150.6   1.816   58.0    .260   68.6    .128 -152.2 !     6.7
 2800    .523  149.0   1.748   55.4    .277   68.2    .143 -148.5 !     6.3
 3000    .516  145.3   1.677   52.6    .298   67.2    .146 -147.4 !     5.9
! Noise data:
! Freq.     Fmin        Gamma-opt         rn
  500       1.45     .129    150.0       .140
  900       1.70     .235    163.0       .150
 2000       2.40     .488   -154.0       .120
