! Filename:       BFS505I.S2P                                Version:   4.0
! Philips part #: BFS505                                     Date: Jun 1994
! Bias condition: Vce=6V, Ic=2.5mA
! 
#  MHz  S  MA  R  50
! Freq       S11            S21            S12            S22     !GUM [dB]
   40    .945   -3.3   6.332  175.1    .006   85.0    .993   -1.9 !    44.4
  100    .935   -8.2   6.233  169.0    .015   83.1    .985   -4.9 !    40.2
  200    .904  -16.2   6.000  160.0    .029   77.5    .957   -9.4 !    33.7
  300    .862  -23.8   5.801  152.1    .041   73.3    .919  -13.5 !    29.2
  400    .813  -31.1   5.557  145.0    .053   69.8    .881  -17.0 !    26.1
  500    .764  -37.5   5.254  138.9    .062   66.8    .843  -20.1 !    23.6
  600    .714  -43.4   4.982  133.3    .071   64.7    .808  -22.3 !    21.6
  700    .662  -48.9   4.744  127.9    .078   63.5    .776  -24.0 !    20.0
  800    .609  -53.4   4.471  122.9    .084   62.5    .748  -25.0 !    18.6
  900    .557  -57.6   4.216  118.1    .089   61.4    .721  -25.6 !    17.3
 1000    .506  -61.6   3.961  113.8    .094   60.5    .694  -26.1 !    16.1
 1200    .415  -70.1   3.559  106.5    .103   59.6    .642  -26.9 !    14.2
 1400    .352  -78.6   3.264  100.7    .114   59.9    .605  -27.9 !    12.8
 1600    .311  -84.8   2.969   95.7    .124   60.0    .583  -29.4 !    11.7
 1800    .271  -88.4   2.705   91.9    .131   61.0    .564  -30.1 !    10.6
 2000    .218  -93.1   2.487   87.5    .140   61.5    .547  -30.0 !     9.7
 2200    .175 -104.0   2.332   84.0    .150   62.2    .521  -30.5 !     8.9
 2400    .157 -120.1   2.217   79.5    .162   62.5    .497  -32.4 !     8.3
 2600    .162 -128.1   2.070   77.2    .170   62.6    .482  -35.4 !     7.6
 2800    .155 -131.0   2.003   75.3    .179   64.2    .483  -37.5 !     7.3
 3000    .126 -135.6   1.893   72.2    .191   64.8    .483  -38.2 !     6.8
! Noise data:
! Freq.     Fmin        Gamma-opt         rn
  500       1.10     .692     8.00       .660
  900       1.25     .612     9.00       .700
 2000       1.90     .439     36.0       .580
