! Filename:       BFS505J.S2P                                Version:   4.0
! Philips part #: BFS505                                     Date: Jun 1994
! Bias condition: Vce=6V, Ic=3.75mA
! 
#  MHz  S  MA  R  50
! Freq       S11            S21            S12            S22     !GUM [dB]
   40    .920   -4.2   8.980  173.9    .006   87.6    .990   -2.5 !    44.1
  100    .905  -10.4   8.768  166.6    .015   81.9    .976   -6.1 !    39.5
  200    .858  -20.3   8.301  155.8    .028   75.7    .933  -11.5 !    33.0
  300    .797  -29.5   7.844  146.7    .039   71.2    .880  -15.9 !    28.7
  400    .730  -37.8   7.335  138.6    .049   68.1    .829  -19.4 !    25.6
  500    .668  -45.0   6.790  131.9    .057   65.8    .782  -22.1 !    23.3
  600    .606  -51.2   6.296  125.9    .065   64.5    .743  -23.8 !    21.5
  700    .545  -56.6   5.846  120.3    .071   63.7    .712  -24.9 !    19.9
  800    .491  -60.7   5.389  115.5    .077   63.7    .685  -25.3 !    18.6
  900    .439  -64.4   4.987  111.1    .082   63.3    .660  -25.5 !    17.4
 1000    .390  -67.9   4.613  107.1    .087   63.1    .637  -25.4 !    16.3
 1200    .308  -75.8   4.044  100.6    .096   63.2    .592  -25.4 !    14.4
 1400    .258  -84.4   3.632   95.6    .108   64.1    .560  -26.0 !    13.1
 1600    .226  -90.2   3.264   91.3    .119   64.5    .543  -27.5 !    12.0
 1800    .192  -92.4   2.949   87.9    .128   65.5    .530  -28.0 !    11.0
 2000    .146  -96.6   2.695   84.0    .139   65.9    .516  -27.8 !    10.1
 2200    .112 -112.1   2.515   81.0    .149   66.5    .494  -28.1 !     9.3
 2400    .105 -133.5   2.379   77.0    .163   66.5    .470  -30.0 !     8.7
 2600    .116 -140.7   2.212   74.9    .173   66.5    .456  -33.2 !     8.0
 2800    .111 -142.3   2.131   73.2    .183   67.7    .459  -35.5 !     7.6
 3000    .087 -149.4   2.012   70.4    .196   67.9    .460  -36.3 !     7.1
! Noise data:
! Freq.     Fmin        Gamma-opt         rn
  500       1.20     .628     8.00       .640
  900       1.35     .544     9.00       .670
 2000       2.00     .388     37.0       .540
