! Filename:       BFS520K.S2P                                Version:   4.0
! Philips part #: BFS520                                     Date: Jun 1994
! Bias condition: Vce=6V, Ic=20mA
! 
#  MHz  S  MA  R  50
! Freq       S11            S21            S12            S22     !GUM [dB]
   40    .746  -19.7  32.383  161.4    .009   80.3    .922  -11.6 !    42.0
  100    .633  -45.1  27.053  142.0    .020   69.5    .785  -23.9 !    35.0
  200    .462  -75.6  19.369  122.2    .031   64.2    .588  -32.5 !    28.6
  300    .368  -96.6  14.485  111.4    .040   63.8    .473  -34.6 !    24.9
  400    .315 -112.4  11.399  104.5    .048   65.4    .407  -35.0 !    22.4
  500    .287 -123.8   9.381   99.8    .056   66.8    .368  -34.8 !    20.5
  600    .266 -133.1   7.959   96.1    .065   68.5    .347  -34.3 !    18.9
  700    .250 -140.8   6.912   93.0    .073   69.7    .334  -33.6 !    17.6
  800    .237 -148.0   6.096   90.3    .082   70.6    .327  -32.3 !    16.4
  900    .227 -155.6   5.456   87.8    .090   71.2    .318  -31.0 !    15.4
 1000    .221 -162.9   4.924   85.7    .098   71.6    .309  -29.6 !    14.5
 1200    .229 -175.5   4.154   81.9    .114   72.2    .287  -27.8 !    13.0
 1400    .244  177.8   3.629   78.6    .132   72.8    .268  -28.9 !    11.8
 1600    .249  173.6   3.215   75.3    .150   72.3    .259  -32.3 !    10.7
 1800    .241  168.2   2.897   72.7    .164   72.4    .256  -33.3 !     9.8
 2000    .247  158.9   2.647   69.9    .182   72.1    .251  -32.7 !     9.0
 2200    .274  152.5   2.453   67.7    .199   72.1    .232  -32.8 !     8.4
 2400    .303  150.4   2.295   64.5    .217   71.6    .209  -37.0 !     7.8
 2600    .311  151.6   2.124   62.5    .230   70.6    .198  -44.8 !     7.2
 2800    .305  150.1   2.040   60.5    .246   70.7    .206  -50.3 !     6.8
 3000    .299  144.4   1.937   57.7    .264   69.9    .212  -51.9 !     6.3
! Noise data:
! Freq.     Fmin        Gamma-opt         rn
  500       1.45     .154     28.0       .250
  900       1.60     .130     63.0       .250
 2000       2.20     .228   -175.0       .180
