! Filename:       BFS540G.S2P                                Version:   4.0
! Philips part #: BFS540                                     Date: Jun 1994
! Bias condition: Vce=8V, Ic=4mA
! 
#  MHz  S  MA  R  50
! Freq       S11            S21            S12            S22     !GUM [dB]
   40    .925  -12.8  10.157  169.0    .015   82.3    .974   -7.0 !    41.5
  100    .882  -30.9   9.500  155.9    .036   71.0    .919  -16.6 !    34.2
  200    .787  -58.9   8.419  138.7    .061   57.6    .780  -28.4 !    26.8
  300    .703  -82.2   7.281  125.7    .076   49.7    .659  -35.6 !    22.7
  400    .646 -100.3   6.211  116.0    .086   45.3    .571  -40.3 !    19.9
  500    .611 -114.0   5.371  108.7    .092   42.8    .509  -43.4 !    17.9
  600    .583 -125.0   4.704  102.9    .097   42.1    .467  -45.1 !    16.3
  700    .561 -133.9   4.169   98.1    .100   42.3    .438  -46.0 !    15.0
  800    .543 -141.3   3.723   94.0    .104   43.1    .416  -46.2 !    13.8
  900    .529 -148.0   3.365   90.4    .107   44.1    .397  -46.3 !    12.7
 1000    .521 -154.3   3.057   87.2    .110   45.4    .379  -46.2 !    11.8
 1200    .521 -164.8   2.605   81.6    .116   48.6    .344  -47.2 !    10.2
 1400    .532 -172.2   2.296   76.7    .124   52.2    .323  -50.2 !     9.1
 1600    .537 -177.9   2.053   72.1    .134   55.1    .314  -54.4 !     8.2
 1800    .537  176.5   1.867   68.5    .142   58.6    .310  -57.1 !     7.3
 2000    .544  170.6   1.717   65.1    .154   61.6    .302  -59.3 !     6.6
 2200    .563  165.1   1.593   62.2    .166   64.7    .286  -63.2 !     6.1
 2400    .586  161.2   1.486   58.4    .180   66.7    .275  -70.3 !     5.6
 2600    .599  158.9   1.384   55.5    .193   67.9    .280  -78.2 !     5.1
 2800    .601  155.9   1.337   52.8    .208   69.7    .297  -82.7 !     4.9
 3000    .599  151.5   1.281   50.0    .228   70.6    .303  -85.4 !     4.5
