! Filename:       BFS540E.S2P                                Version:   4.0
! Philips part #: BFS540                                     Date: Jun 1994
! Bias condition: Vce=4V, Ic=40mA
! 
#  MHz  S  MA  R  50
! Freq       S11            S21            S12            S22     !GUM [dB]
   40    .587  -47.0  47.166  148.3    .013   71.2    .789  -27.8 !    39.5
  100    .484  -93.5  31.466  124.0    .024   60.7    .532  -50.0 !    32.6
  200    .435 -130.5  18.561  107.7    .034   59.9    .317  -65.0 !    26.7
  300    .432 -147.6  12.969  100.1    .044   62.8    .223  -73.4 !    23.4
  400    .434 -157.5   9.921   95.3    .054   65.7    .177  -80.7 !    21.0
  500    .436 -163.6   8.049   91.8    .063   67.5    .154  -86.2 !    19.1
  600    .435 -168.4   6.777   88.9    .073   68.8    .141  -89.5 !    17.6
  700    .432 -172.5   5.864   86.4    .084   69.9    .132  -90.8 !    16.3
  800    .430 -176.4   5.166   84.2    .094   70.7    .123  -90.4 !    15.2
  900    .430  179.8   4.618   82.1    .104   71.1    .112  -90.5 !    14.2
 1000    .433  176.3   4.170   80.3    .114   71.5    .100  -91.7 !    13.3
 1200    .450  170.9   3.505   77.1    .134   72.1    .079 -100.5 !    11.9
 1400    .464  167.6   3.052   73.8    .154   72.4    .078 -114.4 !    10.8
 1600    .467  164.7   2.709   70.4    .174   71.4    .088 -122.5 !     9.8
 1800    .466  161.0   2.456   67.7    .191   71.2    .090 -124.6 !     8.9
 2000    .474  156.4   2.259   65.1    .212   70.7    .084 -128.8 !     8.2
 2200    .498  152.4   2.092   63.1    .230   70.7    .084 -142.4 !     7.7
 2400    .522  150.4   1.945   60.1    .250   70.1    .104 -154.4 !     7.2
 2600    .532  150.1   1.799   57.6    .262   68.7    .130 -156.4 !     6.6
 2800    .528  148.4   1.732   55.0    .280   68.3    .145 -152.2 !     6.3
 3000    .521  144.7   1.661   52.2    .301   67.3    .148 -151.0 !     5.9
! Noise data:
! Freq.     Fmin        Gamma-opt         rn
  500       1.60     .153    164.0       .150
  900       1.90     .253    170.0       .160
 2000       2.60     .496   -152.0       .140
