! Filename:       BFS505E.S2P                                Version:   4.0
! Philips part #: BFS505                                     Date: Jun 1994
! Bias condition: Vce=3V, Ic=5mA
! 
#  MHz  S  MA  R  50
! Freq       S11            S21            S12            S22     !GUM [dB]
   40    .881   -5.6  11.534  172.6    .006   87.2    .986   -3.1 !    43.4
  100    .856  -13.6  11.129  163.5    .015   80.4    .965   -7.4 !    38.4
  200    .788  -26.1  10.306  150.8    .027   73.9    .904  -13.5 !    31.8
  300    .707  -37.3   9.476  140.4    .037   69.1    .835  -17.7 !    27.7
  400    .624  -47.1   8.592  131.5    .046   66.7    .774  -20.8 !    24.8
  500    .552  -55.0   7.742  124.4    .053   64.9    .726  -22.7 !    22.6
  600    .487  -61.6   6.993  118.4    .059   64.6    .687  -23.8 !    20.8
  700    .429  -66.8   6.339  113.1    .065   64.6    .660  -24.2 !    19.4
  800    .379  -70.9   5.748  108.7    .071   64.9    .638  -24.2 !    18.1
  900    .332  -74.6   5.247  104.7    .076   65.3    .619  -24.0 !    17.0
 1000    .289  -78.3   4.805  101.2    .081   65.5    .600  -23.7 !    16.0
 1200    .221  -88.0   4.147   95.5    .092   66.1    .565  -23.2 !    14.2
 1400    .184  -99.0   3.685   91.1    .103   67.4    .539  -23.7 !    13.0
 1600    .162 -106.2   3.293   87.2    .116   67.9    .525  -25.2 !    11.9
 1800    .134 -109.9   2.962   84.1    .125   68.8    .516  -25.8 !    10.9
 2000    .097 -120.7   2.701   80.5    .137   69.1    .506  -25.8 !    10.0
 2200    .083 -147.1   2.513   77.8    .148   69.6    .486  -26.2 !     9.2
 2400    .099 -168.2   2.374   74.0    .162   69.6    .464  -28.2 !     8.6
 2600    .111 -169.9   2.199   72.1    .173   69.4    .451  -31.5 !     7.9
 2800    .108 -171.6   2.115   70.6    .184   70.4    .454  -34.0 !     7.6
 3000    .091  177.0   1.994   67.7    .197   70.4    .457  -35.1 !     7.0
! Noise data:
! Freq.     Fmin        Gamma-opt         rn
  500       1.45     .536     7.00       .550
  900       1.60     .487     8.00       .570
 2000       2.10     .297     41.0       .470
