! Filename:       BFS505C.S2P                                Version:   4.0
! Philips part #: BFS505                                     Date: Jun 1994
! Bias condition: Vce=3V, Ic=2.5mA
! 
#  MHz  S  MA  R  50
! Freq       S11            S21            S12            S22     !GUM [dB]
   40    .938   -3.6   6.470  175.0    .006   87.8    .993   -2.1 !    43.9
  100    .927   -8.8   6.361  168.6    .015   83.1    .984   -5.0 !    39.7
  200    .893  -17.2   6.103  159.2    .029   77.0    .954   -9.8 !    33.1
  300    .848  -25.3   5.871  151.0    .042   72.1    .914  -13.9 !    28.7
  400    .796  -33.0   5.600  143.7    .053   69.0    .873  -17.4 !    25.6
  500    .747  -39.8   5.282  137.5    .062   66.0    .834  -20.4 !    23.2
  600    .696  -45.9   4.983  131.8    .070   64.2    .798  -22.6 !    21.2
  700    .641  -51.7   4.731  126.4    .078   62.7    .766  -24.1 !    19.6
  800    .586  -56.6   4.453  121.2    .084   61.6    .738  -24.9 !    18.2
  900    .533  -61.0   4.189  116.5    .089   60.9    .712  -25.5 !    17.0
 1000    .482  -65.3   3.922  112.3    .093   60.1    .686  -25.9 !    15.8
 1200    .391  -74.5   3.521  104.9    .102   59.3    .636  -26.6 !    13.9
 1400    .331  -83.8   3.217   99.2    .112   59.9    .600  -27.5 !    12.6
 1600    .292  -90.9   2.923   94.2    .123   60.2    .579  -29.1 !    11.5
 1800    .252  -95.0   2.658   90.4    .130   61.3    .562  -29.7 !    10.4
 2000    .203 -101.0   2.442   86.1    .139   61.9    .546  -29.7 !     9.5
 2200    .164 -114.3   2.287   82.6    .148   62.7    .521  -30.2 !     8.7
 2400    .154 -130.8   2.172   78.2    .160   63.1    .498  -32.2 !     8.1
 2600    .162 -138.6   2.025   75.9    .169   63.2    .484  -35.3 !     7.4
 2800    .155 -142.0   1.959   74.0    .178   64.9    .485  -37.3 !     7.1
 3000    .130 -148.7   1.852   70.9    .190   65.5    .485  -38.2 !     6.6
! Noise data:
! Freq.     Fmin        Gamma-opt         rn
  500       1.10     .640     9.00       .610
  900       1.25     .581     10.0       .650
 2000       1.90     .410     37.0       .530
