! Filename:       BFS520G.S2P                                Version:   4.0
! Philips part #: BFS520                                     Date: Jun 1994
! Bias condition: Vce=6V, Ic=2mA
! 
#  MHz  S  MA  R  50
! Freq       S11            S21            S12            S22     !GUM [dB]
   40    .956   -6.2   5.495  173.7    .010   86.1    .992   -2.9 !    43.4
  100    .939  -15.4   5.368  165.4    .025   79.2    .977   -7.2 !    37.3
  200    .893  -30.1   5.096  153.8    .047   70.1    .929  -13.7 !    29.7
  300    .836  -44.1   4.834  143.8    .065   62.8    .869  -19.0 !    25.0
  400    .777  -57.3   4.527  135.0    .079   57.3    .813  -23.3 !    21.8
  500    .724  -68.8   4.196  127.6    .090   52.8    .762  -26.7 !    19.5
  600    .672  -79.5   3.915  121.0    .097   49.9    .720  -29.0 !    17.6
  700    .622  -89.3   3.650  115.0    .103   47.9    .685  -30.5 !    16.1
  800    .577  -97.8   3.375  109.7    .107   46.6    .657  -31.4 !    14.8
  900    .536 -105.9   3.130  104.9    .110   45.7    .630  -31.9 !    13.6
 1000    .501 -113.8   2.899  100.6    .113   45.2    .606  -32.3 !    12.5
 1200    .456 -129.4   2.555   93.4    .116   45.5    .561  -33.2 !    10.8
 1400    .442 -142.4   2.309   87.4    .121   47.2    .530  -34.9 !     9.6
 1600    .435 -151.9   2.085   82.1    .126   49.4    .512  -37.2 !     8.6
 1800    .419 -160.3   1.903   78.1    .129   52.7    .501  -38.5 !     7.7
 2000    .410 -170.2   1.753   73.9    .135   56.0    .487  -39.5 !     6.9
 2200    .422 -179.8   1.638   70.4    .142   59.7    .465  -41.4 !     6.2
 2400    .445  173.5   1.543   65.9    .153   62.7    .446  -44.9 !     5.7
 2600    .457  169.6   1.442   63.1    .162   65.2    .439  -49.5 !     5.1
 2800    .455  165.0   1.400   60.6    .174   68.3    .445  -52.9 !     4.9
 3000    .451  158.5   1.336   57.5    .189   70.6    .446  -54.7 !     4.5
