! Filename:       BFS540K.S2P                                Version:   4.0
! Philips part #: BFS540                                     Date: Jun 1994
! Bias condition: Vce=8V, Ic=40mA
! 
#  MHz  S  MA  R  50
! Freq       S11            S21            S12            S22     !GUM [dB]
   40    .716  -37.3  42.648  152.1    .013   71.9    .809  -23.4 !    40.3
  100    .567  -77.7  30.194  128.4    .025   60.6    .581  -44.1 !    33.1
  200    .456 -115.7  18.486  110.8    .037   57.8    .360  -58.5 !    27.0
  300    .427 -135.8  13.056  102.4    .046   59.9    .257  -65.6 !    23.5
  400    .419 -148.1  10.036   97.0    .055   62.6    .204  -71.2 !    21.1
  500    .416 -155.8   8.162   93.2    .064   64.6    .175  -75.5 !    19.2
  600    .412 -161.7   6.882   90.1    .074   66.1    .159  -78.0 !    17.7
  700    .407 -166.6   5.957   87.5    .084   67.4    .147  -78.6 !    16.4
  800    .403 -171.0   5.251   85.1    .094   68.4    .137  -77.8 !    15.3
  900    .402 -175.4   4.693   83.0    .104   68.9    .126  -76.9 !    14.3
 1000    .404 -179.5   4.236   81.1    .113   69.6    .114  -76.6 !    13.4
 1200    .419  174.2   3.566   77.6    .132   70.3    .089  -80.8 !    11.9
 1400    .433  170.3   3.105   74.2    .152   70.8    .080  -92.6 !    10.8
 1600    .438  167.3   2.758   70.7    .171   69.9    .086 -103.0 !     9.8
 1800    .437  163.5   2.499   68.0    .188   70.0    .086 -105.4 !     8.9
 2000    .444  158.3   2.296   65.3    .208   69.7    .079 -108.1 !     8.2
 2200    .467  154.2   2.125   63.2    .226   69.6    .072 -122.1 !     7.6
 2400    .492  152.1   1.977   60.1    .244   69.0    .086 -139.9 !     7.2
 2600    .504  151.6   1.830   57.6    .257   67.9    .111 -145.4 !     6.6
 2800    .500  150.1   1.761   55.1    .274   67.5    .127 -141.8 !     6.2
 3000    .494  146.5   1.688   52.3    .294   66.6    .130 -140.4 !     5.8
! Noise data:
! Freq.     Fmin        Gamma-opt         rn
  500       1.60     .123     72.0       .240
  900       1.90     .184    127.0       .230
 2000       2.60     .400   -164.0       .170
