! Filename:       BFS505F.S2P                                Version:   4.0
! Philips part #: BFS505                                     Date: Jun 1994
! Bias condition: Vce=3V, Ic=7.5mA
! 
#  MHz  S  MA  R  50
! Freq       S11            S21            S12            S22     !GUM [dB]
   40    .828   -7.5  15.309  170.7    .006   84.7    .979   -3.8 !    42.5
  100    .790  -18.2  14.502  159.5    .014   78.8    .946   -9.0 !    37.3
  200    .693  -33.9  12.929  144.4    .025   71.9    .861  -15.4 !    30.9
  300    .592  -46.9  11.369  132.7    .034   67.8    .778  -19.0 !    27.0
  400    .500  -57.3   9.871  123.5    .042   66.5    .715  -21.1 !    24.2
  500    .428  -65.2   8.598  116.7    .048   65.9    .669  -22.1 !    22.1
  600    .370  -71.3   7.566  111.2    .054   66.5    .637  -22.5 !    20.5
  700    .320  -76.1   6.726  106.7    .060   67.4    .616  -22.5 !    19.1
  800    .279  -79.9   6.020  102.8    .066   68.2    .601  -22.2 !    17.9
  900    .240  -83.7   5.446   99.4    .071   68.5    .587  -21.8 !    16.8
 1000    .205  -87.8   4.954   96.3    .077   69.1    .574  -21.3 !    15.8
 1200    .153 -100.2   4.229   91.3    .088   69.8    .545  -20.7 !    14.2
 1400    .129 -114.7   3.733   87.5    .101   71.0    .525  -21.3 !    12.9
 1600    .117 -123.3   3.318   84.0    .114   71.3    .514  -23.0 !    11.8
 1800    .095 -129.6   2.982   81.2    .124   72.0    .508  -23.8 !    10.8
 2000    .070 -150.3   2.713   77.9    .137   72.1    .500  -23.9 !     9.9
 2200    .078  179.9   2.521   75.4    .148   72.3    .482  -24.4 !     9.2
 2400    .104  167.8   2.379   71.9    .163   72.2    .461  -26.4 !     8.6
 2600    .116  170.6   2.201   70.1    .174   71.8    .448  -30.0 !     7.9
 2800    .112  169.7   2.114   68.7    .185   72.7    .451  -32.6 !     7.5
 3000    .102  156.4   1.991   65.9    .199   72.5    .454  -33.9 !     7.0
