! Filename:       BFS505L.S2P                                Version:   4.0
! Philips part #: BFS505                                     Date: Jun 1994
! Bias condition: Vce=6V, Ic=7.5mA
! 
#  MHz  S  MA  R  50
! Freq       S11            S21            S12            S22     !GUM [dB]
   40    .858   -6.5  15.093  171.3    .006   85.9    .980   -3.6 !    43.5
  100    .827  -15.8  14.388  161.1    .014   80.3    .952   -8.6 !    38.4
  200    .740  -29.8  12.990  146.8    .026   72.8    .874  -15.0 !    32.0
  300    .640  -41.6  11.565  135.4    .035   69.2    .794  -19.0 !    27.9
  400    .548  -51.1  10.151  126.2    .043   67.2    .729  -21.5 !    25.0
  500    .475  -58.2   8.909  119.3    .049   66.5    .680  -22.9 !    22.8
  600    .414  -63.6   7.884  113.8    .056   66.6    .646  -23.5 !    21.1
  700    .361  -67.7   7.037  109.0    .062   67.3    .621  -23.7 !    19.7
  800    .316  -70.6   6.315  105.1    .068   68.0    .604  -23.4 !    18.4
  900    .275  -73.0   5.720  101.5    .073   68.3    .587  -22.9 !    17.3
 1000    .237  -75.8   5.211   98.4    .079   68.5    .572  -22.4 !    16.3
 1200    .178  -84.2   4.459   93.2    .090   69.2    .541  -21.7 !    14.6
 1400    .145  -93.9   3.943   89.4    .103   70.2    .518  -22.2 !    13.4
 1600    .126 -100.6   3.507   85.8    .116   70.5    .506  -23.7 !    12.3
 1800    .102 -101.2   3.143   83.0    .126   71.1    .498  -24.4 !    11.2
 2000    .065 -110.2   2.867   79.6    .139   71.0    .490  -24.3 !    10.4
 2200    .049 -145.1   2.661   77.1    .151   71.2    .471  -24.6 !     9.6
 2400    .068 -174.5   2.511   73.6    .166   71.1    .449  -26.5 !     9.0
 2600    .081 -172.9   2.323   71.9    .176   70.5    .435  -30.0 !     8.3
 2800    .080 -171.8   2.231   70.5    .188   71.5    .438  -32.7 !     7.9
 3000    .063  173.4   2.101   67.8    .201   71.2    .442  -33.7 !     7.4
