! Filename:       BFS520A.S2P                                Version:   4.0
! Philips part #: BFS520                                     Date: Jun 1994
! Bias condition: Vce=3V, Ic=2mA
! 
#  MHz  S  MA  R  50
! Freq       S11            S21            S12            S22     !GUM [dB]
   40    .951   -6.5   5.567  173.5    .011   85.2    .992   -3.1 !    43.1
  100    .933  -16.0   5.416  165.0    .026   79.0    .976   -7.6 !    36.8
  200    .885  -31.3   5.128  153.0    .049   69.6    .925  -14.3 !    29.2
  300    .827  -46.0   4.862  142.8    .067   62.0    .862  -19.7 !    24.6
  400    .767  -59.4   4.532  133.8    .081   56.2    .803  -24.1 !    21.5
  500    .713  -71.5   4.186  126.4    .091   51.9    .751  -27.5 !    19.1
  600    .663  -82.3   3.885  119.8    .099   48.9    .708  -29.8 !    17.3
  700    .614  -92.3   3.615  113.7    .105   47.1    .673  -31.3 !    15.8
  800    .570 -101.0   3.342  108.5    .109   45.9    .644  -32.1 !    14.5
  900    .532 -109.2   3.088  103.7    .112   44.9    .619  -32.6 !    13.3
 1000    .499 -117.3   2.857   99.5    .114   44.7    .595  -33.0 !    12.3
 1200    .458 -132.8   2.514   92.2    .117   45.2    .550  -33.8 !    10.6
 1400    .447 -145.5   2.270   86.2    .121   47.0    .520  -35.6 !     9.5
 1600    .442 -154.8   2.050   81.0    .126   49.3    .502  -37.9 !     8.4
 1800    .429 -163.2   1.871   77.0    .130   52.8    .491  -39.4 !     7.5
 2000    .421 -172.9   1.725   72.8    .137   56.2    .478  -40.5 !     6.7
 2200    .435  178.0   1.610   69.3    .144   59.9    .458  -42.4 !     6.1
 2400    .459  171.6   1.514   64.9    .154   62.9    .438  -46.1 !     5.5
 2600    .470  167.8   1.416   62.1    .164   65.4    .431  -50.9 !     5.0
 2800    .469  163.3   1.373   59.5    .177   68.6    .438  -54.3 !     4.8
 3000    .467  156.9   1.311   56.5    .192   70.8    .440  -56.2 !     4.4
