! Filename:       BFS540B.S2P                                Version:   4.0
! Philips part #: BFS540                                     Date: Jun 1994
! Bias condition: Vce=4V, Ic=10mA
! 
#  MHz  S  MA  R  50
! Freq       S11            S21            S12            S22     !GUM [dB]
   40    .806  -22.1  22.248  162.2    .015   77.7    .935  -14.3 !    40.5
  100    .719  -51.7  19.148  143.7    .032   64.2    .790  -30.8 !    33.0
  200    .586  -90.5  14.458  123.2    .048   53.9    .564  -45.8 !    26.7
  300    .525 -115.2  10.993  111.5    .057   51.5    .427  -53.2 !    23.1
  400    .500 -131.3   8.703  104.0    .064   51.9    .346  -57.9 !    20.6
  500    .488 -141.9   7.190   98.8    .071   53.2    .298  -61.0 !    18.7
  600    .479 -149.8   6.117   94.6    .078   54.9    .268  -62.6 !    17.2
  700    .470 -156.2   5.321   91.2    .086   56.9    .248  -63.2 !    15.9
  800    .463 -161.7   4.704   88.2    .093   58.6    .233  -62.7 !    14.7
  900    .459 -166.8   4.214   85.6    .101   59.9    .218  -62.0 !    13.7
 1000    .458 -171.6   3.809   83.3    .108   61.4    .202  -61.4 !    12.8
 1200    .470 -179.2   3.211   79.1    .123   63.7    .173  -62.4 !    11.3
 1400    .484  175.8   2.807   75.2    .139   65.5    .157  -67.6 !    10.2
 1600    .488  171.8   2.499   71.4    .156   66.0    .154  -74.4 !     9.2
 1800    .488  167.4   2.266   68.3    .171   67.0    .153  -77.0 !     8.4
 2000    .496  162.1   2.085   65.4    .189   67.8    .145  -78.7 !     7.7
 2200    .517  157.7   1.930   63.1    .205   68.7    .132  -84.9 !     7.1
 2400    .541  154.9   1.797   59.7    .222   68.8    .130  -98.0 !     6.7
 2600    .553  153.8   1.667   57.1    .235   68.2    .145 -108.8 !     6.1
 2800    .551  151.8   1.607   54.5    .252   68.4    .166 -110.9 !     5.8
 3000    .546  147.8   1.541   51.6    .272   68.1    .173 -111.6 !     5.4
! Noise data:
! Freq.     Fmin        Gamma-opt         rn
  500       1.10     .159     78.0       .140
  900       1.30     .234    133.0       .140
 2000       2.10     .520   -165.0      .0700
