! Filename:       BFS540A.S2P                                Version:   4.0
! Philips part #: BFS540                                     Date: Jun 1994
! Bias condition: Vce=4V, Ic=4mA
! 
#  MHz  S  MA  R  50
! Freq       S11            S21            S12            S22     !GUM [dB]
   40    .909  -13.6  10.406  168.4    .016   81.7    .975   -7.6 !    41.0
  100    .863  -32.9   9.687  154.8    .037   70.2    .913  -17.8 !    33.5
  200    .768  -62.4   8.519  137.2    .062   56.4    .764  -30.1 !    26.3
  300    .688  -86.5   7.296  124.1    .077   48.5    .637  -37.4 !    22.3
  400    .637 -104.9   6.175  114.4    .086   44.4    .549  -42.1 !    19.6
  500    .606 -118.6   5.313  107.3    .091   42.3    .487  -45.1 !    17.7
  600    .582 -129.4   4.640  101.6    .096   41.8    .447  -46.8 !    16.1
  700    .563 -137.9   4.102   96.8    .100   42.1    .420  -47.7 !    14.8
  800    .547 -145.0   3.660   92.8    .104   43.1    .399  -47.9 !    13.6
  900    .536 -151.5   3.300   89.3    .107   44.2    .380  -47.9 !    12.5
 1000    .530 -157.5   2.999   86.1    .110   45.7    .363  -47.9 !    11.6
 1200    .533 -167.5   2.555   80.6    .116   49.2    .329  -49.1 !    10.1
 1400    .545 -174.6   2.251   75.7    .124   53.0    .308  -52.4 !     9.0
 1600    .549  179.9   2.012   71.2    .135   55.9    .301  -56.9 !     8.0
 1800    .550  174.6   1.830   67.7    .144   59.3    .298  -59.8 !     7.2
 2000    .559  168.9   1.684   64.3    .156   62.4    .291  -62.2 !     6.5
 2200    .578  163.6   1.561   61.4    .169   65.3    .275  -66.5 !     6.0
 2400    .601  159.9   1.455   57.7    .184   67.4    .266  -74.0 !     5.5
 2600    .614  157.6   1.355   54.8    .197   68.4    .273  -82.1 !     5.0
 2800    .614  154.7   1.309   52.1    .213   70.0    .291  -86.6 !     4.8
 3000    .614  150.3   1.256   49.3    .233   70.9    .298  -89.3 !     4.4
