! Filename:       BFS540F.S2P                                Version:   4.0
! Philips part #: BFS540                                     Date: Jun 1994
! Bias condition: Vce=4V, Ic=50mA
! 
#  MHz  S  MA  R  50
! Freq       S11            S21            S12            S22     !GUM [dB]
   40    .556  -52.7  48.898  146.0    .012   70.2    .756  -29.7 !    39.1
  100    .470 -100.6  31.374  121.7    .023   60.0    .493  -51.9 !    32.2
  200    .437 -135.7  18.167  106.1    .034   60.5    .289  -66.3 !    26.5
  300    .438 -151.4  12.630   99.0    .043   64.1    .203  -74.7 !    23.1
  400    .443 -160.5   9.644   94.3    .053   66.7    .162  -82.0 !    20.7
  500    .446 -166.2   7.812   90.9    .063   68.5    .141  -87.7 !    18.9
  600    .446 -170.6   6.579   88.1    .073   69.8    .131  -91.0 !    17.4
  700    .443 -174.5   5.688   85.7    .084   70.7    .123  -92.1 !    16.1
  800    .440 -178.1   5.013   83.5    .094   71.5    .115  -91.7 !    15.0
  900    .442  178.4   4.480   81.5    .104   71.8    .105  -91.7 !    14.0
 1000    .445  175.0   4.045   79.7    .114   72.1    .094  -93.0 !    13.1
 1200    .461  169.9   3.402   76.4    .134   72.6    .075 -102.6 !    11.7
 1400    .475  166.7   2.964   73.1    .155   72.7    .075 -116.9 !    10.6
 1600    .479  163.8   2.631   69.7    .175   71.7    .087 -124.6 !     9.6
 1800    .479  160.1   2.385   67.0    .192   71.5    .089 -126.5 !     8.7
 2000    .488  155.7   2.196   64.3    .213   71.0    .084 -130.7 !     8.0
 2200    .510  151.9   2.032   62.3    .232   71.0    .085 -143.9 !     7.5
 2400    .534  149.8   1.890   59.3    .251   70.3    .106 -155.5 !     7.0
 2600    .544  149.3   1.749   56.8    .264   69.0    .132 -157.0 !     6.5
 2800    .539  147.7   1.683   54.3    .281   68.4    .147 -152.8 !     6.1
 3000    .533  144.1   1.617   51.4    .303   67.5    .150 -151.7 !     5.7
