! Filename:       BFS520C.S2P                                Version:   4.0
! Philips part #: BFS520                                     Date: Jun 1994
! Bias condition: Vce=3V, Ic=10mA
! 
#  MHz  S  MA  R  50
! Freq       S11            S21            S12            S22     !GUM [dB]
   40    .793  -15.0  21.963  165.5    .010   82.3    .956   -8.9 !    41.8
  100    .718  -35.8  19.615  149.5    .022   71.5    .860  -19.7 !    34.9
  200    .568  -65.1  15.811  130.3    .035   62.8    .684  -29.8 !    28.4
  300    .462  -87.1  12.578  117.9    .045   60.1    .560  -33.8 !    24.7
  400    .396 -103.8  10.183  109.7    .053   60.5    .482  -35.5 !    22.0
  500    .358 -116.3   8.508  103.9    .060   61.5    .433  -36.1 !    20.1
  600    .330 -126.2   7.279   99.5    .067   62.8    .404  -36.0 !    18.5
  700    .309 -134.8   6.354   95.8    .074   64.3    .385  -35.5 !    17.2
  800    .292 -142.3   5.624   92.7    .082   65.7    .372  -34.5 !    16.0
  900    .279 -149.9   5.046   89.8    .090   66.5    .361  -33.4 !    15.0
 1000    .270 -157.1   4.562   87.4    .097   67.4    .348  -32.2 !    14.1
 1200    .273 -169.9   3.860   83.1    .111   68.8    .322  -30.8 !    12.5
 1400    .287 -177.7   3.383   79.4    .128   70.1    .302  -31.8 !    11.4
 1600    .291  177.4   2.999   75.8    .144   70.2    .292  -34.8 !    10.3
 1800    .284  171.2   2.706   73.0    .158   71.0    .288  -35.8 !     9.4
 2000    .288  162.7   2.476   70.0    .175   71.0    .282  -35.5 !     8.6
 2200    .314  155.8   2.297   67.6    .191   71.4    .263  -36.1 !     8.0
 2400    .342  153.1   2.150   64.2    .208   71.2    .241  -40.3 !     7.4
 2600    .351  153.3   1.991   62.0    .221   70.6    .231  -47.4 !     6.8
 2800    .346  151.1   1.914   59.9    .237   70.8    .240  -52.2 !     6.5
 3000    .341  145.4   1.821   57.0    .255   70.4    .246  -53.9 !     6.0
! Noise data:
! Freq.     Fmin        Gamma-opt         rn
  500       1.10     .716     32.0       .190
  900       1.25     .318     59.0       .160
 2000       1.90     .257   -171.0       .150
