! Filename:       BFS540L.S2P                                Version:   4.0
! Philips part #: BFS540                                     Date: Jun 1994
! Bias condition: Vce=8V, Ic=50mA
! 
#  MHz  S  MA  R  50
! Freq       S11            S21            S12            S22     !GUM [dB]
   40    .700  -40.1  43.866  150.6    .013   71.1    .780  -24.3 !    39.8
  100    .551  -81.9  30.164  126.6    .025   60.3    .550  -44.7 !    32.7
  200    .451 -119.5  18.142  109.4    .036   58.0    .337  -57.9 !    26.7
  300    .426 -138.8  12.750  101.3    .045   60.8    .241  -64.1 !    23.2
  400    .422 -150.6   9.777   96.1    .055   63.6    .191  -69.1 !    20.8
  500    .420 -157.8   7.942   92.4    .064   65.3    .165  -72.9 !    19.0
  600    .416 -163.4   6.693   89.4    .074   66.8    .151  -75.0 !    17.4
  700    .412 -168.1   5.789   86.8    .083   68.1    .141  -75.5 !    16.1
  800    .408 -172.5   5.103   84.4    .093   69.0    .133  -74.3 !    15.0
  900    .408 -176.6   4.563   82.3    .104   69.5    .123  -73.1 !    14.0
 1000    .410  179.4   4.118   80.4    .113   70.0    .111  -72.4 !    13.1
 1200    .426  173.4   3.468   76.9    .132   70.8    .088  -75.7 !    11.7
 1400    .440  169.7   3.024   73.5    .152   71.1    .078  -87.2 !    10.6
 1600    .444  166.6   2.682   70.0    .171   70.3    .084  -97.8 !     9.6
 1800    .444  162.8   2.430   67.2    .188   70.3    .085 -100.3 !     8.7
 2000    .452  157.7   2.235   64.5    .208   69.9    .078 -102.8 !     8.0
 2200    .474  153.7   2.070   62.4    .226   69.9    .070 -116.6 !     7.4
 2400    .500  151.6   1.927   59.3    .244   69.3    .082 -135.5 !     7.0
 2600    .513  151.1   1.781   56.8    .257   68.1    .107 -141.7 !     6.4
 2800    .508  149.7   1.714   54.2    .274   67.8    .124 -138.6 !     6.0
 3000    .502  146.0   1.644   51.3    .295   66.8    .128 -137.2 !     5.7
