! Filename:       BFS505H.S2P                                Version:   4.0
! Philips part #: BFS505                                     Date: Jun 1994
! Bias condition: Vce=6V, Ic=1.25mA
! 
#  MHz  S  MA  R  50
! Freq       S11            S21            S12            S22     !GUM [dB]
   40    .971   -2.3   3.306  176.6    .006   87.8    .996   -1.4 !    44.2
  100    .967   -5.6   3.287  172.2    .015   84.6    .993   -3.3 !    41.1
  200    .953  -11.3   3.219  165.4    .030   80.4    .980   -6.6 !    34.6
  300    .931  -16.9   3.184  159.1    .044   76.5    .962   -9.8 !    30.1
  400    .904  -22.4   3.133  153.3    .058   73.2    .942  -12.8 !    26.8
  500    .878  -27.4   3.029  148.3    .069   70.3    .921  -15.7 !    24.2
  600    .848  -32.2   2.937  143.4    .080   67.5    .899  -18.2 !    22.0
  700    .815  -36.7   2.863  138.9    .090   65.3    .877  -20.3 !    20.2
  800    .779  -41.0   2.779  134.2    .098   63.4    .854  -21.8 !    18.6
  900    .738  -45.1   2.696  129.5    .105   61.2    .828  -23.3 !    17.1
 1000    .696  -49.2   2.595  125.2    .111   59.4    .803  -24.5 !    15.7
 1200    .613  -57.8   2.447  117.6    .121   56.0    .748  -26.9 !    13.4
 1400    .544  -66.5   2.354  111.0    .132   54.5    .705  -28.9 !    12.0
 1600    .496  -73.5   2.222  105.2    .142   53.1    .678  -31.1 !    10.8
 1800    .449  -78.6   2.068  100.5    .146   52.9    .652  -32.5 !     9.7
 2000    .383  -83.8   1.940   95.1    .152   52.7    .625  -33.0 !     8.6
 2200    .325  -92.6   1.857   90.5    .157   52.9    .594  -34.0 !     7.7
 2400    .290 -103.7   1.793   85.1    .166   52.9    .566  -36.1 !     7.1
 2600    .284 -111.9   1.701   82.1    .171   53.1    .550  -39.0 !     6.5
 2800    .269 -116.2   1.668   79.7    .177   55.0    .547  -40.9 !     6.3
 3000    .235 -120.1   1.588   76.2    .184   56.3    .543  -41.6 !     5.8
! Noise data:
! Freq.     Fmin        Gamma-opt         rn
  500       1.00     .739     8.00       .820
  900       1.20     .602     12.0       .810
 2000       1.90     .544     39.0       .600
