! Filename:       BFS505A.S2P                                Version:   4.0
! Philips part #: BFS505                                     Date: Jun 1994
! Bias condition: Vce=3V, Ic=0.5mA
! 
#  MHz  S  MA  R  50
! Freq       S11            S21            S12            S22     !GUM [dB]
   40    .987   -1.7   1.389  177.6    .006   88.4    .999    -.9 !    44.2
  100    .985   -4.0   1.385  174.3    .016   85.8    .998   -2.3 !    41.3
  200    .979   -8.2   1.371  168.8    .031   82.1    .992   -4.6 !    34.5
  300    .969  -12.2   1.372  163.8    .046   79.0    .983   -7.0 !    29.6
  400    .956  -16.5   1.368  158.8    .061   76.5    .975   -9.3 !    26.4
  500    .944  -20.3   1.349  154.5    .076   73.8    .966  -11.7 !    24.0
  600    .929  -24.0   1.307  150.1    .089   71.4    .957  -13.7 !    21.7
  700    .912  -27.6   1.290  146.0    .101   69.1    .944  -15.7 !    19.6
  800    .891  -31.1   1.279  141.8    .112   66.8    .931  -17.5 !    17.8
  900    .867  -34.6   1.267  137.2    .122   64.2    .917  -19.0 !    16.1
 1000    .839  -38.2   1.239  133.1    .131   61.6    .900  -20.6 !    14.3
 1200    .782  -45.8   1.218  125.4    .147   56.4    .859  -23.8 !    11.6
 1400    .732  -53.4   1.220  118.9    .161   52.9    .822  -26.7 !    10.0
 1600    .694  -60.4   1.212  113.0    .175   49.7    .798  -29.6 !     8.9
 1800    .654  -65.9   1.158  108.0    .180   47.3    .772  -31.9 !     7.6
 2000    .592  -71.9   1.123  101.9    .185   45.0    .742  -33.4 !     6.4
 2200    .533  -79.9   1.106   96.7    .189   43.0    .708  -35.4 !     5.3
 2400    .491  -89.3   1.104   90.2    .195   41.0    .679  -38.1 !     4.7
 2600    .480  -97.2   1.073   86.8    .196   39.7    .662  -41.2 !     4.3
 2800    .459 -102.6   1.080   84.0    .196   40.6    .656  -43.2 !     4.1
 3000    .421 -107.2   1.048   80.2    .196   41.2    .644  -44.3 !     3.6
