! Filename:       BFS540C.S2P                                Version:   4.0
! Philips part #: BFS540                                     Date: Jun 1994
! Bias condition: Vce=4V, Ic=20mA
! 
#  MHz  S  MA  R  50
! Freq       S11            S21            S12            S22     !GUM [dB]
   40    .693  -32.8  35.366  155.7    .014   74.2    .875  -21.1 !    40.1
  100    .578  -72.6  27.190  133.1    .027   61.3    .659  -41.6 !    32.9
  200    .478 -113.0  17.616  113.9    .039   56.2    .421  -57.1 !    26.9
  300    .453 -134.1  12.631  104.6    .048   57.5    .303  -64.9 !    23.4
  400    .447 -147.0   9.759   98.7    .057   60.1    .241  -70.8 !    21.0
  500    .444 -154.9   7.960   94.6    .065   62.0    .206  -75.0 !    19.2
  600    .440 -161.0   6.724   91.3    .074   63.7    .185  -77.6 !    17.6
  700    .437 -166.1   5.824   88.5    .083   65.3    .171  -78.6 !    16.4
  800    .432 -170.6   5.137   86.0    .093   66.6    .159  -78.2 !    15.2
  900    .431 -175.0   4.595   83.8    .103   67.4    .146  -77.6 !    14.2
 1000    .432 -179.1   4.147   81.8    .112   68.2    .133  -77.7 !    13.3
 1200    .447  174.5   3.489   78.2    .130   69.4    .106  -81.8 !    11.9
 1400    .461  170.7   3.043   74.7    .149   70.2    .097  -91.8 !    10.7
 1600    .465  167.5   2.702   71.2    .168   69.5    .102 -100.8 !     9.7
 1800    .465  163.5   2.450   68.4    .184   69.9    .102 -103.7 !     8.9
 2000    .472  158.6   2.252   65.8    .204   69.7    .095 -106.5 !     8.2
 2200    .495  154.5   2.084   63.7    .222   70.0    .087 -118.3 !     7.6
 2400    .519  152.1   1.939   60.5    .240   69.5    .099 -134.3 !     7.2
 2600    .531  151.5   1.795   58.0    .253   68.5    .124 -140.6 !     6.6
 2800    .526  149.8   1.729   55.5    .270   68.2    .142 -138.3 !     6.3
 3000    .520  146.2   1.657   52.7    .291   67.3    .146 -137.2 !     5.9
! Noise data:
! Freq.     Fmin        Gamma-opt         rn
  500       1.25     .104    123.0       .140
  900       1.50     .225    153.0       .140
 2000       2.20     .487   -160.0      .0900
