! Filename:       BFS505K.S2P                                Version:   4.0
! Philips part #: BFS505                                     Date: Jun 1994
! Bias condition: Vce=6V, Ic=5mA
! 
#  MHz  S  MA  R  50
! Freq       S11            S21            S12            S22     !GUM [dB]
   40    .898   -5.0  11.309  172.9    .006   85.6    .986   -2.9 !    43.9
  100    .876  -12.4  10.944  164.5    .014   80.8    .968   -7.1 !    39.2
  200    .815  -23.8  10.199  152.4    .027   74.7    .911  -13.1 !    32.6
  300    .738  -34.2   9.448  142.3    .037   70.1    .846  -17.5 !    28.4
  400    .658  -43.3   8.631  133.5    .047   67.4    .786  -20.7 !    25.4
  500    .588  -50.7   7.824  126.5    .054   65.8    .737  -22.9 !    23.1
  600    .522  -56.8   7.109  120.5    .060   65.0    .698  -24.2 !    21.3
  700    .463  -61.6   6.473  115.2    .067   65.0    .669  -24.8 !    19.8
  800    .411  -65.1   5.887  110.7    .072   65.1    .646  -24.8 !    18.5
  900    .362  -68.3   5.388  106.6    .078   65.4    .624  -24.7 !    17.4
 1000    .319  -71.4   4.945  103.0    .083   65.5    .604  -24.4 !    16.3
 1200    .246  -79.1   4.279   97.2    .093   65.9    .565  -23.9 !    14.6
 1400    .204  -88.1   3.811   92.7    .105   66.9    .538  -24.4 !    13.3
 1600    .178  -93.6   3.406   88.8    .118   67.3    .523  -25.9 !    12.2
 1800    .149  -95.5   3.062   85.6    .127   68.1    .512  -26.4 !    11.1
 2000    .107 -100.3   2.796   82.0    .138   68.4    .501  -26.3 !    10.2
 2200    .079 -121.0   2.602   79.2    .150   68.8    .481  -26.5 !     9.5
 2400    .081 -147.7   2.458   75.5    .164   68.8    .458  -28.4 !     8.9
 2600    .094 -152.6   2.280   73.6    .174   68.4    .444  -31.7 !     8.2
 2800    .092 -153.1   2.191   72.0    .185   69.5    .447  -34.2 !     7.8
 3000    .070 -163.4   2.066   69.2    .198   69.5    .450  -35.1 !     7.3
! Noise data:
! Freq.     Fmin        Gamma-opt         rn
  500       1.45     .584     8.00       .630
  900       1.60     .506     9.00       .680
 2000       2.20     .365     35.0       .550
