! Filename:       BFS520J.S2P                                Version:   4.0
! Philips part #: BFS520                                     Date: Jun 1994
! Bias condition: Vce=6V, Ic=15mA
! 
#  MHz  S  MA  R  50
! Freq       S11            S21            S12            S22     !GUM [dB]
   40    .781  -17.0  27.776  163.5    .009   81.3    .939  -10.3 !    42.2
  100    .685  -39.7  24.046  145.8    .021   70.7    .823  -21.9 !    35.3
  200    .516  -69.2  18.202  126.1    .033   63.5    .634  -31.3 !    28.8
  300    .410  -89.9  13.964  114.5    .042   62.3    .513  -34.4 !    25.0
  400    .349 -105.7  11.119  107.0    .050   63.3    .441  -35.4 !    22.4
  500    .312 -117.4   9.205  101.9    .057   64.9    .397  -35.6 !    20.5
  600    .287 -127.0   7.841   97.8    .065   66.2    .372  -35.3 !    18.9
  700    .267 -135.2   6.821   94.5    .074   67.5    .356  -34.6 !    17.6
  800    .251 -142.7   6.025   91.6    .082   68.7    .346  -33.4 !    16.4
  900    .238 -150.3   5.396   89.0    .090   69.4    .336  -32.1 !    15.4
 1000    .230 -157.9   4.874   86.7    .097   70.1    .325  -30.8 !    14.5
 1200    .234 -171.1   4.115   82.8    .113   70.9    .301  -29.1 !    12.9
 1400    .249 -178.6   3.601   79.3    .130   71.7    .281  -30.1 !    11.8
 1600    .252  176.6   3.191   76.0    .148   71.3    .272  -33.1 !    10.7
 1800    .245  170.7   2.874   73.4    .162   71.8    .268  -34.0 !     9.8
 2000    .249  161.2   2.629   70.3    .179   71.6    .263  -33.5 !     9.0
 2200    .275  154.4   2.436   68.1    .195   71.6    .244  -33.8 !     8.3
 2400    .305  152.1   2.279   64.9    .213   71.2    .221  -37.8 !     7.8
 2600    .313  153.0   2.108   62.8    .226   70.3    .210  -45.2 !     7.1
 2800    .307  151.3   2.027   60.8    .242   70.5    .218  -50.4 !     6.8
 3000    .303  145.6   1.926   58.0    .260   69.8    .224  -52.0 !     6.3
! Noise data:
! Freq.     Fmin        Gamma-opt         rn
  500       1.30     .192     26.0       .230
  900       1.45     .158     56.0       .230
 2000       2.05     .202    175.0       .180
