! Filename:       BFS505D.S2P                                Version:   4.0
! Philips part #: BFS505                                     Date: Jun 1994
! Bias condition: Vce=3V, Ic=3.75mA
! 
#  MHz  S  MA  R  50
! Freq       S11            S21            S12            S22     !GUM [dB]
   40    .909   -4.6   9.162  173.7    .006   86.4    .989   -2.6 !    43.6
  100    .891  -11.3   8.921  165.9    .015   82.2    .975   -6.3 !    38.9
  200    .840  -21.9   8.412  154.7    .028   74.9    .928  -11.9 !    32.4
  300    .774  -31.7   7.908  145.3    .039   70.4    .871  -16.2 !    28.1
  400    .704  -40.7   7.358  137.0    .049   67.2    .818  -19.7 !    25.1
  500    .640  -48.3   6.782  130.1    .057   64.9    .771  -22.2 !    22.8
  600    .578  -54.9   6.255  124.1    .064   63.8    .732  -23.8 !    21.0
  700    .517  -60.7   5.781  118.5    .070   63.3    .701  -24.7 !    19.5
  800    .462  -65.1   5.313  113.7    .075   63.2    .676  -25.0 !    18.2
  900    .410  -69.1   4.903  109.3    .080   62.9    .653  -25.0 !    17.0
 1000    .362  -73.0   4.523  105.4    .085   63.0    .631  -25.0 !    15.9
 1200    .285  -82.2   3.953   99.0    .095   63.2    .589  -24.8 !    14.2
 1400    .238  -92.1   3.544   94.1    .106   64.4    .559  -25.5 !    12.9
 1600    .208  -98.9   3.182   89.9    .118   64.8    .542  -26.9 !    11.8
 1800    .176 -102.7   2.874   86.4    .126   66.0    .530  -27.5 !    10.7
 2000    .134 -110.3   2.624   82.6    .137   66.5    .518  -27.4 !     9.8
 2200    .108 -129.8   2.447   79.6    .148   67.1    .497  -27.8 !     9.1
 2400    .112 -150.3   2.314   75.6    .161   67.3    .474  -29.7 !     8.4
 2600    .125 -155.4   2.149   73.6    .171   67.2    .461  -33.0 !     7.7
 2800    .120 -158.1   2.071   71.9    .182   68.4    .463  -35.4 !     7.4
 3000    .100 -167.8   1.954   69.0    .194   68.7    .465  -36.3 !     6.9
! Noise data:
! Freq.     Fmin        Gamma-opt         rn
  500       1.20     .591     8.00       .570
  900       1.35     .503     9.00       .630
 2000       2.00     .352     41.0       .490
