! Filename:       BFS520B.S2P                                Version:   4.0
! Philips part #: BFS520                                     Date: Jun 1994
! Bias condition: Vce=3V, Ic=5mA
! 
#  MHz  S  MA  R  50
! Freq       S11            S21            S12            S22     !GUM [dB]
   40    .885  -10.1  12.638  169.8    .010   83.8    .979   -5.7 !    42.4
  100    .841  -24.6  11.872  157.6    .024   74.5    .932  -13.5 !    35.7
  200    .741  -46.8  10.599  141.8    .042   64.1    .812  -23.1 !    28.6
  300    .639  -66.4   9.319  129.5    .054   58.5    .703  -28.8 !    24.6
  400    .555  -82.8   8.055  119.9    .063   55.7    .620  -32.3 !    21.8
  500    .496  -95.9   7.005  112.8    .070   54.6    .560  -34.3 !    19.8
  600    .449 -107.0   6.167  107.0    .076   54.7    .520  -35.2 !    18.1
  700    .411 -116.4   5.475  102.2    .082   55.4    .491  -35.5 !    16.8
  800    .382 -124.5   4.898   98.2    .088   56.4    .470  -35.1 !    15.6
  900    .358 -132.4   4.426   94.7    .093   57.5    .452  -34.5 !    14.5
 1000    .340 -140.3   4.022   91.5    .098   58.5    .434  -33.8 !    13.5
 1200    .327 -154.7   3.431   86.3    .109   60.6    .400  -33.1 !    12.0
 1400    .333 -164.8   3.025   81.7    .121   63.0    .376  -34.2 !    10.8
 1600    .334 -171.7   2.694   77.7    .135   64.2    .364  -36.6 !     9.7
 1800    .326 -178.5   2.438   74.5    .146   66.1    .357  -37.6 !     8.8
 2000    .327  172.3   2.235   71.0    .160   67.2    .348  -37.8 !     8.0
 2200    .348  164.5   2.076   68.3    .174   68.6    .329  -38.9 !     7.4
 2400    .375  160.2   1.946   64.6    .190   69.1    .308  -42.8 !     6.9
 2600    .385  158.6   1.808   62.1    .202   69.3    .299  -48.5 !     6.2
 2800    .382  155.8   1.743   59.9    .216   70.3    .308  -52.6 !     5.9
 3000    .379  149.9   1.660   56.9    .234   70.5    .313  -54.2 !     5.5
! Noise data:
! Freq.     Fmin        Gamma-opt         rn
  500       .900     .325     31.0       .200
  900       1.10     .266     54.0       .210
 2000       1.94     .245    174.0       .170
