! Filename:       BFS540J.S2P                                Version:   4.0
! Philips part #: BFS540                                     Date: Jun 1994
! Bias condition: Vce=8V, Ic=30mA
! 
#  MHz  S  MA  R  50
! Freq       S11            S21            S12            S22     !GUM [dB]
   40    .739  -33.5  39.365  154.4    .013   73.4    .841  -21.6 !    40.7
  100    .596  -72.0  29.173  131.4    .026   61.2    .625  -42.1 !    33.4
  200    .472 -110.3  18.416  112.8    .038   56.9    .396  -57.2 !    27.1
  300    .436 -131.4  13.127  103.9    .047   58.5    .284  -64.8 !    23.6
  400    .423 -144.6  10.122   98.3    .056   60.8    .226  -70.6 !    21.2
  500    .419 -152.8   8.246   94.3    .065   62.9    .193  -74.8 !    19.3
  600    .414 -159.0   6.963   91.1    .075   64.6    .174  -77.4 !    17.8
  700    .408 -164.3   6.028   88.3    .084   66.1    .161  -78.3 !    16.5
  800    .403 -169.0   5.315   85.9    .094   67.2    .149  -77.6 !    15.4
  900    .401 -173.5   4.753   83.7    .104   67.8    .137  -77.0 !    14.4
 1000    .403 -177.9   4.293   81.8    .113   68.6    .123  -76.6 !    13.5
 1200    .418  175.5   3.610   78.3    .131   69.4    .097  -80.7 !    12.0
 1400    .432  171.5   3.149   74.8    .151   70.2    .087  -91.5 !    10.9
 1600    .436  168.2   2.792   71.4    .170   69.4    .092 -101.3 !     9.9
 1800    .435  164.3   2.531   68.6    .186   69.6    .092 -104.1 !     9.0
 2000    .442  159.1   2.326   65.9    .206   69.3    .084 -106.8 !     8.3
 2200    .465  154.7   2.153   63.8    .224   69.4    .076 -120.0 !     7.7
 2400    .489  152.6   2.002   60.7    .242   68.9    .088 -137.5 !     7.3
 2600    .502  152.2   1.854   58.3    .255   67.7    .113 -143.5 !     6.7
 2800    .498  150.7   1.783   55.7    .272   67.4    .129 -140.3 !     6.3
 3000    .492  147.0   1.708   52.9    .292   66.6    .133 -139.2 !     5.9
! Noise data:
! Freq.     Fmin        Gamma-opt         rn
  500       1.45     .133     68.0       .200
  900       1.70     .191    122.0       .190
 2000       2.40     .405   -166.0       .140
