! Filename:       BFS520D.S2P                                Version:   4.0
! Philips part #: BFS520                                     Date: Jun 1994
! Bias condition: Vce=3V, Ic=15mA
! 
#  MHz  S  MA  R  50
! Freq       S11            S21            S12            S22     !GUM [dB]
   40    .722  -19.1  28.824  162.3    .009   80.4    .934  -11.2 !    41.4
  100    .624  -44.7  24.593  143.7    .020   70.1    .804  -23.5 !    34.5
  200    .468  -77.2  18.171  123.7    .032   63.0    .607  -32.4 !    28.3
  300    .380  -99.5  13.751  112.4    .041   62.8    .488  -35.0 !    24.6
  400    .333 -116.1  10.875  105.2    .049   64.1    .419  -35.6 !    22.1
  500    .308 -127.7   8.966  100.2    .057   65.5    .379  -35.5 !    20.2
  600    .291 -137.0   7.618   96.4    .065   67.1    .356  -35.1 !    18.6
  700    .276 -145.0   6.619   93.2    .073   68.5    .342  -34.5 !    17.3
  800    .265 -151.8   5.841   90.4    .081   69.6    .333  -33.3 !    16.2
  900    .255 -159.0   5.231   87.8    .089   70.4    .324  -32.0 !    15.1
 1000    .251 -165.8   4.723   85.6    .097   70.9    .315  -30.7 !    14.2
 1200    .261 -177.4   3.986   81.7    .114   71.8    .291  -29.1 !    12.7
 1400    .277  176.3   3.485   78.3    .131   72.5    .273  -30.3 !    11.5
 1600    .281  172.1   3.087   74.9    .148   72.2    .264  -33.7 !    10.5
 1800    .274  166.7   2.782   72.2    .163   72.5    .261  -34.7 !     9.5
 2000    .281  158.3   2.548   69.3    .181   72.3    .255  -34.4 !     8.8
 2200    .308  152.4   2.362   67.1    .197   72.4    .237  -34.8 !     8.1
 2400    .335  150.2   2.210   63.9    .215   72.0    .214  -39.3 !     7.6
 2600    .343  150.8   2.043   61.8    .229   71.0    .204  -47.0 !     6.9
 2800    .337  149.0   1.965   59.7    .244   71.1    .213  -52.4 !     6.6
 3000    .332  143.5   1.869   56.9    .263   70.4    .220  -54.2 !     6.2
! Noise data:
! Freq.     Fmin        Gamma-opt         rn
  500       1.30    .0980     37.0       .200
  900       1.45    .0750     99.0       .180
 2000       2.05     .265   -158.0       .180
