! Filename:       BFS520F.S2P                                Version:   4.0
! Philips part #: BFS520                                     Date: Jun 1994
! Bias condition: Vce=3V, Ic=30mA
! 
#  MHz  S  MA  R  50
! Freq       S11            S21            S12            S22     !GUM [dB]
   40    .579  -30.5  39.467  155.6    .009   77.8    .872  -15.2 !    39.9
  100    .467  -65.7  29.988  133.1    .018   67.5    .688  -28.3 !    33.4
  200    .354 -102.1  19.424  114.5    .028   64.7    .490  -33.8 !    27.5
  300    .313 -123.9  13.983  105.3    .037   66.9    .394  -33.6 !    24.1
  400    .295 -138.6  10.823   99.5    .046   69.1    .344  -32.8 !    21.6
  500    .288 -148.1   8.827   95.4    .054   70.9    .316  -32.2 !    19.7
  600    .281 -155.4   7.452   92.2    .063   72.1    .303  -31.7 !    18.2
  700    .276 -161.7   6.453   89.5    .072   73.1    .296  -31.1 !    16.9
  800    .270 -167.5   5.684   87.0    .081   73.8    .292  -30.1 !    15.8
  900    .267 -173.2   5.079   84.8    .090   74.1    .288  -28.9 !    14.8
 1000    .268 -178.7   4.585   82.8    .099   74.5    .281  -27.7 !    13.9
 1200    .283  172.9   3.861   79.3    .116   74.7    .263  -26.2 !    12.4
 1400    .300  168.3   3.375   76.1    .134   75.2    .246  -27.9 !    11.2
 1600    .304  165.0   2.987   72.8    .153   74.4    .238  -32.0 !    10.2
 1800    .298  160.5   2.691   70.3    .168   74.3    .237  -33.4 !     9.3
 2000    .306  153.1   2.466   67.4    .187   73.7    .232  -33.3 !     8.5
 2200    .335  148.3   2.287   65.3    .204   73.7    .214  -33.8 !     7.9
 2400    .363  146.5   2.138   62.2    .223   73.0    .192  -38.9 !     7.4
 2600    .368  147.3   1.976   60.0    .237   71.9    .182  -47.8 !     6.7
 2800    .362  145.3   1.900   58.0    .253   71.8    .192  -53.9 !     6.3
 3000    .359  140.3   1.808   55.2    .272   71.0    .198  -55.8 !     5.9
