! Filename:       BFS540H.S2P                                Version:   4.0
! Philips part #: BFS540                                     Date: Jun 1994
! Bias condition: Vce=8V, Ic=10mA
! 
#  MHz  S  MA  R  50
! Freq       S11            S21            S12            S22     !GUM [dB]
   40    .849  -20.0  21.314  163.4    .014   78.4    .936  -12.9 !    41.2
  100    .762  -46.9  18.589  145.8    .032   65.6    .809  -28.3 !    33.8
  200    .619  -83.1  14.351  125.5    .049   54.5    .593  -43.0 !    27.1
  300    .541 -107.5  11.062  113.6    .058   51.4    .456  -50.5 !    23.4
  400    .504 -124.1   8.822  105.8    .066   51.3    .372  -55.2 !    20.8
  500    .485 -135.6   7.317  100.3    .073   52.2    .320  -58.2 !    18.9
  600    .471 -144.1   6.243   96.0    .080   53.7    .288  -59.8 !    17.4
  700    .459 -151.1   5.435   92.4    .087   55.6    .267  -60.3 !    16.1
  800    .450 -157.0   4.808   89.4    .094   57.4    .250  -59.7 !    14.9
  900    .443 -162.6   4.310   86.7    .101   58.7    .234  -59.0 !    13.9
 1000    .441 -167.8   3.895   84.2    .108   60.0    .218  -58.3 !    13.0
 1200    .451 -176.1   3.291   80.0    .123   62.4    .187  -58.7 !    11.5
 1400    .465  178.3   2.879   76.0    .138   64.3    .169  -63.0 !    10.4
 1600    .469  174.2   2.560   72.2    .154   64.8    .165  -69.2 !     9.4
 1800    .469  169.6   2.322   69.1    .168   66.1    .162  -71.6 !     8.5
 2000    .475  164.0   2.134   66.1    .186   66.9    .154  -72.8 !     7.8
 2200    .496  159.3   1.974   63.7    .201   67.8    .139  -78.1 !     7.2
 2400    .521  156.3   1.839   60.4    .218   68.0    .133  -90.4 !     6.7
 2600    .534  155.2   1.707   57.7    .231   67.5    .145 -101.6 !     6.2
 2800    .532  153.3   1.644   55.1    .247   67.8    .164 -104.5 !     5.9
 3000    .527  149.3   1.577   52.3    .266   67.6    .171 -105.4 !     5.5
! Noise data:
! Freq.     Fmin        Gamma-opt         rn
  500       1.10     .225     59.0       .170
  900       1.30     .255    113.0       .160
 2000       2.10     .459   -171.0       .100
