! Filename:       BFT25AD.S2P                                Version:   2.0
! Philips part #: BFT25A                                     Date: Aug 1990
! Bias condition: Vce=1V, Ic=1mA
!
#  MHz  S  MA  R  50
! Freq       S11            S21            S12            S22     !GUM [dB]
   40    .946   -2.2   3.078  176.5    .009   86.5    .996   -1.6 !    40.6
  100    .940   -5.4   3.067  171.3    .021   85.3    .993   -4.0 !    37.5
  200    .923  -10.6   3.003  163.8    .041   82.7    .981   -7.8 !    32.1
  300    .903  -15.6   2.923  156.3    .061   79.5    .964  -11.5 !    28.2
  400    .873  -19.9   2.815  149.2    .080   76.7    .945  -14.9 !    25.0
  500    .840  -24.1   2.708  142.6    .096   74.5    .924  -18.0 !    22.3
  600    .807  -27.9   2.597  136.5    .111   72.2    .902  -20.7 !    20.2
  700    .772  -31.1   2.472  130.4    .125   70.0    .881  -23.1 !    18.3
  800    .736  -33.6   2.350  125.3    .138   68.5    .859  -25.1 !    16.6
  900    .699  -35.9   2.240  119.9    .150   67.0    .839  -27.0 !    15.2
 1000    .665  -38.0   2.147  115.3    .161   65.6    .817  -28.6 !    14.0
 1200    .599  -41.8   1.966  106.2    .183   63.0    .775  -31.7 !    11.8
 1400    .551  -44.8   1.830   99.0    .204   61.2    .745  -34.6 !    10.3
 1600    .513  -46.3   1.688   92.9    .221   60.2    .721  -36.7 !     9.1
 1800    .472  -47.6   1.580   86.8    .239   59.0    .702  -38.4 !     8.0
 2000    .427  -47.6   1.485   80.8    .252   57.1    .671  -40.0 !     6.9
 2200    .384  -49.2   1.417   75.7    .268   55.4    .637  -42.3 !     6.0
 2400    .354  -51.8   1.360   71.2    .288   54.2    .613  -45.5 !     5.3
 2600    .340  -53.7   1.326   67.1    .306   52.9    .601  -48.5 !     4.9
 2800    .330  -52.0   1.262   63.4    .317   52.2    .595  -49.7 !     4.4
 3000    .299  -50.0   1.208   60.2    .326   51.6    .573  -50.7 !     3.8
