! Filename:       BFT25AH.S2P                                Version:   2.0
! Philips part #: BFT25A                                     Date: Aug 1990
! Bias condition: Vce=3V, Ic=0.5mA
!
#  MHz  S  MA  R  50
! Freq       S11            S21            S12            S22     !GUM [dB]
   40    .972   -1.3   1.703  177.5    .008   86.7    .999   -1.2 !    42.7
  100    .971   -3.5   1.702  173.8    .021   86.1    .997   -3.0 !    39.1
  200    .966   -6.8   1.689  168.5    .040   84.7    .992   -5.9 !    34.5
  300    .957  -10.2   1.674  163.0    .060   82.0    .986   -8.9 !    30.8
  400    .945  -13.3   1.650  157.8    .080   80.2    .978  -11.7 !    27.7
  500    .930  -16.4   1.632  152.6    .098   77.7    .969  -14.4 !    25.1
  600    .915  -19.4   1.609  147.7    .115   75.7    .959  -17.0 !    22.9
  700    .894  -22.3   1.578  142.5    .131   74.0    .947  -19.4 !    20.8
  800    .874  -24.7   1.543  137.8    .147   71.8    .934  -21.7 !    19.0
  900    .852  -27.1   1.514  132.9    .161   69.8    .920  -23.9 !    17.3
 1000    .828  -29.2   1.489  128.4    .174   68.1    .903  -25.9 !    15.8
 1200    .777  -33.9   1.435  119.3    .200   64.4    .868  -29.9 !    13.2
 1400    .733  -38.0   1.396  111.7    .224   61.7    .838  -33.7 !    11.5
 1600    .695  -40.7   1.331  105.0    .243   59.3    .811  -36.5 !    10.0
 1800    .650  -43.0   1.282   98.2    .260   57.4    .784  -39.0 !     8.7
 2000    .599  -45.1   1.233   91.3    .273   54.6    .745  -41.2 !     7.3
 2200    .550  -48.0   1.202   85.3    .288   52.3    .706  -44.1 !     6.2
 2400    .515  -50.9   1.182   80.1    .306   50.3    .676  -47.7 !     5.4
 2600    .496  -53.3   1.167   75.5    .322   48.9    .660  -50.7 !     5.1
 2800    .473  -53.1   1.126   71.5    .330   48.0    .646  -52.1 !     4.5
 3000    .435  -52.9   1.086   67.7    .336   47.4    .618  -53.2 !     3.7
