! Filename:       BFT25D.S2P                                 Version:   2.0
! Philips part #: BFT25                                      Date: Jul 1990
! Bias condition: Vce=1V, Ic=1mA
! 
#  MHz  S  MA  R  50
! Freq       S11            S21            S12            S22     !GUM [dB]
   40    .948   -2.8   3.158  176.0    .008   83.6    .998   -1.7 !    43.9
  100    .935   -7.2   3.098  168.9    .023   84.2    .993   -4.4 !    37.4
  200    .913  -13.0   3.061  160.5    .045   80.5    .972   -8.6 !    30.1
  300    .881  -19.7   2.917  151.2    .066   76.6    .952  -12.6 !    26.1
  400    .849  -24.9   2.753  143.5    .085   74.1    .930  -16.1 !    23.0
  500    .797  -30.4   2.722  135.8    .102   71.9    .899  -19.0 !    20.2
  600    .747  -34.0   2.526  129.3    .118   69.3    .878  -21.7 !    18.0
  700    .717  -36.3   2.364  123.6    .132   68.0    .848  -23.8 !    16.1
  800    .663  -40.7   2.237  116.7    .145   65.7    .829  -25.7 !    14.6
  900    .638  -43.0   2.112  112.1    .156   64.7    .814  -27.2 !    13.5
 1000    .584  -44.7   1.993  106.1    .168   63.4    .791  -28.8 !    12.1
 1200    .523  -49.3   1.797   97.1    .189   61.3    .756  -31.4 !    10.2
 1400    .463  -54.4   1.677   90.0    .211   59.6    .726  -34.1 !     8.8
 1600    .438  -53.3   1.548   84.9    .230   58.4    .707  -36.0 !     7.7
 1800    .396  -52.8   1.383   78.0    .244   57.0    .690  -37.8 !     6.4
 2000    .364  -56.7   1.351   72.8    .262   55.7    .671  -39.7 !     5.8
 2200    .295  -54.3   1.245   66.6    .279   54.2    .639  -41.7 !     4.6
 2400    .286  -57.4   1.222   62.5    .301   52.5    .615  -44.9 !     4.2
 2600    .263  -61.3   1.175   59.5    .315   51.3    .604  -47.8 !     3.7
 2800    .268  -60.1   1.120   56.6    .332   50.6    .597  -49.9 !     3.2
 3000    .238  -58.1   1.079   52.2    .346   48.8    .577  -51.3 !     2.7
