! Filename:       BFT25AE.S2P                                Version:   2.0
! Philips part #: BFT25A                                     Date: Aug 1990
! Bias condition: Vce=1V, Ic=2mA
!
#  MHz  S  MA  R  50
! Freq       S11            S21            S12            S22     !GUM [dB]
   40    .895   -3.4   4.989  174.7    .009   85.4    .987   -2.2 !    37.0
  100    .883   -8.5   4.915  167.0    .021   84.9    .979   -5.4 !    34.1
  200    .844  -16.2   4.662  155.8    .040   80.0    .952  -10.2 !    29.1
  300    .793  -22.7   4.342  145.5    .057   76.1    .917  -14.3 !    25.0
  400    .736  -28.1   3.984  136.5    .073   73.2    .880  -17.7 !    21.9
  500    .682  -32.2   3.657  128.8    .087   71.6    .847  -20.3 !    19.5
  600    .635  -35.8   3.353  122.2    .099   70.2    .818  -22.4 !    17.6
  700    .588  -38.2   3.070  116.1    .111   69.1    .795  -24.0 !    15.9
  800    .551  -39.9   2.821  111.1    .122   68.3    .774  -25.3 !    14.5
  900    .516  -41.0   2.613  106.2    .132   67.6    .756  -26.5 !    13.4
 1000    .483  -42.0   2.445  102.1    .142   66.9    .740  -27.4 !    12.4
 1200    .426  -43.6   2.155   94.3    .163   65.6    .709  -29.5 !    10.6
 1400    .390  -45.0   1.949   88.3    .185   64.7    .689  -32.0 !     9.3
 1600    .369  -45.0   1.763   83.2    .202   63.9    .676  -33.7 !     8.2
 1800    .339  -44.4   1.629   78.0    .221   63.0    .666  -35.4 !     7.3
 2000    .309  -43.2   1.515   72.8    .237   61.5    .644  -36.9 !     6.4
 2200    .276  -43.9   1.432   68.6    .255   60.1    .617  -39.3 !     5.5
 2400    .252  -45.7   1.370   64.9    .275   58.6    .598  -42.6 !     4.9
 2600    .244  -47.9   1.324   61.3    .294   57.3    .590  -45.8 !     4.6
 2800    .238  -45.4   1.257   58.2    .307   56.7    .585  -47.4 !     4.1
 3000    .219  -41.9   1.202   55.3    .319   56.1    .566  -48.4 !     3.5
