! Filename:       BFT25AG.S2P                                Version:   2.0
! Philips part #: BFT25A                                     Date: Aug 1990
! Bias condition: Vce=3V, Ic=0.25mA
!
#  MHz  S  MA  R  50
! Freq       S11            S21            S12            S22     !GUM [dB]
   40    .987   -1.1    .895  177.8    .008   86.0    .999   -1.0 !    41.6
  100    .987   -2.6    .895  174.3    .021   86.6    .998   -2.5 !    38.7
  200    .982   -5.1    .891  169.7    .041   85.2    .996   -5.0 !    34.5
  300    .980   -7.7    .891  164.8    .060   83.4    .992   -7.4 !    31.3
  400    .972  -10.1    .886  160.0    .081   81.5    .989   -9.9 !    28.1
  500    .964  -12.5    .887  155.3    .100   79.7    .984  -12.3 !    25.5
  600    .955  -14.9    .888  150.7    .118   77.7    .979  -14.6 !    23.4
  700    .946  -17.3    .882  146.0    .136   75.9    .973  -16.8 !    21.4
  800    .934  -19.4    .877  141.5    .153   74.1    .966  -18.9 !    19.5
  900    .920  -21.6    .875  136.7    .168   72.2    .957  -20.9 !    17.8
 1000    .904  -23.6    .878  132.4    .184   70.2    .947  -22.9 !    16.1
 1200    .871  -27.9    .876  123.3    .215   66.3    .921  -27.0 !    13.2
 1400    .838  -31.8    .887  116.0    .242   63.0    .900  -31.0 !    11.5
 1600    .810  -34.9    .872  109.1    .265   60.1    .878  -34.3 !     9.8
 1800    .768  -37.8    .869  101.8    .285   57.5    .854  -37.3 !     8.3
 2000    .726  -40.4    .864   94.6    .299   53.9    .817  -40.1 !     6.8
 2200    .679  -44.0    .868   88.3    .317   50.8    .778  -43.6 !     5.5
 2400    .645  -47.2    .875   82.7    .336   48.1    .749  -47.5 !     4.8
 2600    .622  -50.5    .885   77.9    .353   46.2    .732  -50.9 !     4.4
 2800    .597  -51.1    .868   73.8    .359   44.8    .715  -52.6 !     3.8
 3000    .555  -52.1    .851   69.5    .363   43.4    .682  -54.3 !     2.9
