! Filename:       BFT25AF.S2P                                Version:   2.0
! Philips part #: BFT25A                                     Date: Aug 1990
! Bias condition: Vce=3V, Ic=0.1mA
!
#  MHz  S  MA  R  50
! Freq       S11            S21            S12            S22     !GUM [dB]
   40    .994    -.9    .352  177.4    .009   88.7   1.000    -.9 !    41.7
  100    .993   -2.0    .353  173.1    .021   87.2    .999   -2.2 !    36.4
  200    .991   -4.0    .355  167.6    .041   85.9    .997   -4.3 !    31.2
  300    .991   -6.0    .358  161.4    .061   84.5    .995   -6.4 !    29.1
  400    .987   -7.9    .361  155.7    .082   82.6    .993   -8.6 !    26.0
  500    .982   -9.7    .369  150.3    .101   81.1    .992  -10.7 !    23.6
  600    .978  -11.8    .375  144.8    .120   79.6    .989  -12.7 !    21.5
  700    .972  -13.5    .383  139.5    .139   77.9    .986  -14.7 !    19.9
  800    .967  -15.2    .389  134.3    .156   76.1    .982  -16.6 !    18.0
  900    .958  -17.0    .399  129.1    .173   74.3    .977  -18.5 !    16.4
 1000    .948  -18.7    .410  124.5    .190   72.5    .970  -20.4 !    14.5
 1200    .929  -22.5    .432  115.1    .224   68.6    .954  -24.2 !    11.7
 1400    .908  -25.9    .461  107.9    .257   65.5    .941  -28.0 !    10.2
 1600    .891  -28.9    .476  101.1    .283   62.4    .926  -31.3 !     8.8
 1800    .861  -31.7    .499   93.9    .307   59.4    .907  -34.5 !     7.3
 2000    .826  -34.4    .515   87.0    .325   55.3    .875  -37.5 !     5.5
 2200    .791  -37.7    .541   81.1    .346   51.5    .843  -41.3 !     4.3
 2400    .765  -41.2    .565   76.2    .371   48.5    .819  -45.4 !     3.7
 2600    .751  -44.0    .589   71.6    .392   45.8    .805  -48.8 !     3.5
 2800    .725  -45.3    .592   67.4    .400   43.9    .788  -51.0 !     2.9
 3000    .688  -46.8    .596   63.7    .404   41.5    .756  -53.2 !     2.0
