! Filename:       BFT25AC.S2P                                Version:   2.0
! Philips part #: BFT25A                                     Date: Aug 1990
! Bias condition: Vce=1V, Ic=0.5mA
!
#  MHz  S  MA  R  50
! Freq       S11            S21            S12            S22     !GUM [dB]
   40    .971   -1.5   1.706  177.5    .009   85.6    .998   -1.2 !    42.0
  100    .970   -3.7   1.706  173.5    .022   85.9    .997   -3.1 !    38.5
  200    .961   -7.3   1.691  167.9    .042   84.5    .992   -6.1 !    33.6
  300    .953  -10.8   1.676  162.1    .063   81.8    .984   -9.1 !    29.9
  400    .939  -14.2   1.650  156.5    .082   79.4    .975  -12.1 !    26.7
  500    .921  -17.4   1.628  151.1    .101   77.3    .965  -14.9 !    24.1
  600    .905  -20.6   1.604  146.0    .119   75.0    .954  -17.5 !    22.0
  700    .882  -23.7   1.569  140.6    .135   73.1    .942  -19.9 !    20.0
  800    .863  -26.2   1.531  135.7    .151   70.8    .928  -22.2 !    18.2
  900    .836  -28.8   1.499  130.6    .165   69.1    .914  -24.4 !    16.5
 1000    .810  -31.2   1.475  126.0    .179   67.0    .896  -26.4 !    15.1
 1200    .756  -35.8   1.416  116.6    .205   63.3    .859  -30.4 !    12.5
 1400    .709  -40.0   1.372  108.9    .229   60.6    .828  -34.1 !    10.8
 1600    .670  -42.7   1.306  102.2    .247   58.4    .801  -37.0 !     9.4
 1800    .624  -45.2   1.257   95.1    .265   56.4    .775  -39.4 !     8.1
 2000    .573  -46.9   1.210   88.4    .276   53.7    .736  -41.5 !     6.8
 2200    .523  -49.7   1.179   82.4    .292   51.4    .697  -44.4 !     5.7
 2400    .486  -53.0   1.156   77.1    .309   49.5    .669  -48.0 !     5.0
 2600    .465  -55.5   1.143   72.4    .326   48.3    .654  -51.0 !     4.6
 2800    .444  -55.0   1.099   68.4    .334   47.4    .641  -52.5 !     4.1
 3000    .404  -54.2   1.065   64.6    .341   46.8    .612  -53.6 !     3.4
