! Filename:       BFT25AA.S2P                                Version:   2.0
! Philips part #: BFT25A                                     Date: Aug 1990
! Bias condition: Vce=1V, Ic=0.1mA
!
#  MHz  S  MA  R  50
! Freq       S11            S21            S12            S22     !GUM [dB]
   40    .993    -.9    .372  177.4    .009   86.4   1.000    -.9 !    43.9
  100    .992   -2.1    .373  172.8    .022   88.4    .999   -2.2 !    35.5
  200    .989   -4.2    .375  167.4    .043   86.0    .997   -4.4 !    30.7
  300    .987   -6.3    .377  161.3    .063   84.2    .995   -6.6 !    27.8
  400    .984   -8.2    .382  155.2    .084   82.4    .993   -8.9 !    25.5
  500    .978  -10.2    .388  149.8    .105   80.7    .990  -11.0 !    22.6
  600    .975  -12.2    .396  144.5    .124   79.1    .987  -13.1 !    21.0
  700    .969  -14.2    .403  139.1    .143   77.3    .984  -15.1 !    19.2
  800    .960  -16.0    .411  133.9    .161   75.5    .980  -17.1 !    17.3
  900    .952  -17.9    .421  128.6    .179   73.6    .975  -19.1 !    15.8
 1000    .942  -19.6    .435  124.0    .197   71.9    .967  -21.0 !    14.1
 1200    .922  -23.5    .454  114.1    .231   67.8    .950  -24.9 !    11.5
 1400    .899  -27.1    .485  106.9    .264   64.5    .935  -28.8 !     9.9
 1600    .879  -30.1    .500   99.8    .290   61.3    .918  -32.1 !     8.4
 1800    .847  -32.9    .522   93.0    .314   58.3    .898  -35.3 !     7.0
 2000    .811  -35.8    .537   85.9    .332   54.3    .865  -38.5 !     5.3
 2200    .776  -39.3    .562   79.9    .354   50.4    .833  -42.2 !     4.1
 2400    .747  -42.9    .586   74.5    .378   47.2    .807  -46.4 !     3.5
 2600    .729  -45.8    .611   70.4    .398   44.6    .792  -49.9 !     3.3
 2800    .707  -47.2    .612   66.6    .406   42.5    .775  -51.9 !     2.7
 3000    .667  -48.9    .614   62.2    .409   40.4    .743  -54.2 !     1.8
