! Filename:       BFT25A.S2P                                 Version:   2.0
! Philips part #: BFT25                                      Date: Jul 1990
! Bias condition: Vce=1V, Ic=0.1mA
! 
#  MHz  S  MA  R  50
! Freq       S11            S21            S12            S22     !GUM [dB]
   40    .991   -1.0    .323  176.5    .008   86.7    .999    -.9 !    34.6
  100    .987   -2.5    .323  171.2    .023   85.3    .999   -2.2 !    33.1
  200    .995   -5.2    .339  166.6    .044   85.5    .996   -4.3 !    31.6
  300    .975   -7.9    .334  155.8    .066   83.4    .995   -6.7 !    23.6
  400    .991  -11.4    .341  151.2    .087   81.6    .998   -8.9 !    32.1
  500    .969  -13.7    .364  144.9    .107   79.2    .991  -10.7 !    20.8
  600    .962  -15.9    .373  137.1    .128   77.3    .989  -13.1 !    19.3
  700    .961  -17.8    .380  134.2    .147   75.8    .984  -15.1 !    17.7
  800    .949  -21.5    .397  125.3    .167   73.5    .979  -17.3 !    15.8
  900    .932  -23.6    .394  121.1    .184   71.7    .978  -18.9 !    14.3
 1000    .922  -25.6    .410  114.4    .200   69.6    .960  -20.8 !    11.6
 1200    .892  -31.2    .440  104.6    .234   65.6    .949  -24.6 !     9.8
 1400    .856  -36.6    .474   95.4    .266   61.5    .936  -28.4 !     8.3
 1600    .831  -39.4    .490   91.6    .290   58.0    .919  -31.6 !     7.0
 1800    .790  -42.7    .489   81.8    .310   55.5    .901  -34.4 !     5.3
 2000    .756  -47.6    .524   77.2    .326   51.8    .878  -37.6 !     4.5
 2200    .680  -50.9    .530   69.0    .347   48.2    .845  -40.8 !     2.6
 2400    .658  -55.8    .566   64.1    .368   44.6    .823  -44.7 !     2.4
 2600    .633  -59.4    .570   61.3    .381   42.3    .810  -48.1 !     2.0
 2800    .600  -61.0    .577   60.1    .390   41.2    .796  -50.4 !     1.5
 3000    .576  -65.0    .577   53.8    .400   38.3    .772  -52.7 !      .9
