! Filename:       BFT25AJ.S2P                                Version:   2.0
! Philips part #: BFT25A                                     Date: Aug 1990
! Bias condition: Vce=3V, Ic=2mA
!
#  MHz  S  MA  R  50
! Freq       S11            S21            S12            S22     !GUM [dB]
   40    .905   -2.9   5.215  175.2    .008   86.7    .994   -2.0 !    40.8
  100    .896   -7.1   5.152  168.8    .020   84.5    .987   -5.1 !    37.2
  200    .868  -13.7   4.955  159.3    .038   81.9    .965   -9.9 !    31.6
  300    .829  -19.6   4.700  150.2    .055   78.2    .935  -14.1 !    27.5
  400    .784  -24.7   4.396  142.0    .072   75.9    .901  -17.8 !    24.3
  500    .736  -28.7   4.105  134.7    .086   73.0    .869  -20.8 !    21.8
  600    .695  -32.5   3.824  128.3    .098   71.6    .838  -23.2 !    19.8
  700    .650  -35.0   3.544  122.3    .111   70.2    .812  -25.2 !    18.0
  800    .615  -37.1   3.287  117.3    .122   69.0    .787  -26.7 !    16.6
  900    .579  -38.9   3.066  112.4    .132   68.3    .766  -28.1 !    15.3
 1000    .545  -40.0   2.884  108.2    .143   67.6    .744  -29.1 !    14.2
 1200    .484  -42.4   2.561  100.2    .163   65.8    .706  -31.4 !    12.3
 1400    .442  -44.1   2.323   93.9    .184   64.8    .679  -33.7 !    11.0
 1600    .417  -44.5   2.099   88.7    .201   63.9    .662  -35.1 !     9.8
 1800    .386  -44.4   1.937   83.5    .220   63.1    .649  -36.6 !     8.8
 2000    .351  -43.0   1.796   78.2    .234   61.4    .624  -37.6 !     7.8
 2200    .317  -44.2   1.692   73.8    .252   59.8    .594  -39.6 !     6.9
 2400    .295  -45.8   1.608   70.0    .273   58.7    .573  -42.6 !     6.3
 2600    .285  -48.6   1.551   66.4    .291   57.4    .564  -45.6 !     5.8
 2800    .279  -46.0   1.466   63.1    .304   56.7    .560  -46.7 !     5.3
 3000    .255  -42.9   1.398   60.4    .315   56.0    .542  -47.3 !     4.7
