! Filename:       BFT25AI.S2P                                Version:   2.0
! Philips part #: BFT25A                                     Date: Aug 1990
! Bias condition: Vce=3V, Ic=1mA
!
#  MHz  S  MA  R  50
! Freq       S11            S21            S12            S22     !GUM [dB]
   40    .950   -2.1   3.086  176.6    .008   83.9    .997   -1.5 !    41.4
  100    .945   -4.9   3.073  171.9    .020   85.2    .994   -3.8 !    38.3
  200    .931   -9.6   3.021  165.1    .040   83.4    .984   -7.6 !    33.3
  300    .914  -14.0   2.953  158.2    .058   80.5    .970  -11.1 !    29.5
  400    .889  -18.2   2.858  151.6    .077   77.5    .952  -14.5 !    26.2
  500    .859  -21.9   2.766  145.4    .093   75.4    .933  -17.6 !    23.5
  600    .830  -25.6   2.669  139.6    .109   73.4    .913  -20.4 !    21.4
  700    .798  -28.9   2.554  133.8    .123   71.5    .892  -22.8 !    19.5
  800    .767  -31.3   2.438  128.8    .136   69.5    .872  -24.9 !    17.8
  900    .733  -33.7   2.336  123.6    .148   68.1    .851  -26.9 !    16.3
 1000    .701  -35.6   2.247  119.0    .159   66.8    .828  -28.6 !    15.0
 1200    .636  -39.6   2.072  110.1    .181   63.9    .786  -31.9 !    12.8
 1400    .587  -42.9   1.939  102.9    .202   62.4    .753  -35.0 !    11.2
 1600    .551  -44.4   1.789   96.8    .219   60.8    .727  -37.0 !     9.9
 1800    .510  -45.7   1.679   90.8    .237   59.5    .706  -38.8 !     8.8
 2000    .465  -45.9   1.577   84.7    .249   57.4    .672  -40.2 !     7.6
 2200    .420  -48.1   1.505   79.4    .265   56.0    .637  -42.5 !     6.7
 2400    .390  -50.1   1.447   74.9    .284   54.5    .611  -45.7 !     6.0
 2600    .375  -52.6   1.408   70.9    .302   53.2    .599  -48.6 !     5.6
 2800    .361  -51.4   1.337   67.1    .313   52.6    .591  -49.7 !     5.0
 3000    .331  -49.3   1.282   63.9    .321   52.0    .568  -50.4 !     4.4
