! Filename:       BFT92F.S2P                                 Version:   2.0
! Philips part #: BFT92                                      Date: May 1990
! Bias condition: Vce=-10V, Ic=-2mA
!
#  MHz  S  MA  R  50
! Freq       S11            S21            S12            S22     !GUM [dB]
   40    .888   -6.8   4.886  172.7    .013   85.3    .989   -3.5 !    37.2
  100    .865  -16.5   4.731  163.3    .031   79.3    .973   -8.3 !    32.3
  200    .815  -32.1   4.453  150.1    .058   70.9    .924  -15.4 !    26.0
  300    .748  -47.4   4.204  138.1    .079   64.4    .865  -20.8 !    22.0
  400    .683  -60.9   3.868  128.5    .097   59.5    .812  -24.9 !    19.2
  500    .619  -72.3   3.518  119.8    .110   56.1    .768  -28.0 !    16.9
  600    .569  -82.8   3.240  112.3    .121   53.4    .734  -30.1 !    15.3
  700    .521  -91.7   2.984  106.1    .130   51.7    .702  -32.1 !    13.8
  800    .478  -99.4   2.750  100.4    .137   50.8    .677  -33.3 !    12.6
  900    .436 -107.1   2.521   95.2    .142   50.1    .654  -34.5 !    11.4
 1000    .403 -114.3   2.331   90.2    .148   49.8    .636  -35.4 !    10.4
 1200    .365 -129.4   2.042   82.3    .159   49.8    .608  -37.6 !     8.8
 1400    .349 -141.6   1.841   75.3    .169   50.5    .589  -39.9 !     7.7
 1600    .328 -150.5   1.687   69.1    .178   52.4    .573  -41.9 !     6.8
 1800    .308 -160.0   1.537   64.4    .189   54.1    .564  -44.0 !     5.8
 2000    .298 -170.9   1.428   59.3    .201   55.8    .548  -45.9 !     5.1
 2200    .307  178.0   1.332   54.9    .215   57.3    .528  -48.6 !     4.3
 2400    .326  169.5   1.282   50.1    .232   58.4    .513  -53.0 !     4.0
 2600    .335  165.5   1.201   46.0    .247   59.6    .506  -56.7 !     3.4
 2800    .338  158.6   1.166   43.3    .265   60.9    .506  -59.8 !     3.2
 3000    .344  149.8   1.114   39.8    .285   61.6    .490  -62.2 !     2.7
