! Filename:       BFT93H.S2P                                 Version:   2.0
! Philips part #: BFT93                                      Date: Aug 1990
! Bias condition: Vce=-10V, Ic=-30mA
!
#  MHz  S  MA  R  50
! Freq       S11            S21            S12            S22     !GUM [dB]
   40    .464  -44.5  30.411  151.4    .017   73.5    .777  -26.2 !    34.7
  100    .406  -91.1  21.158  126.3    .032   64.6    .553  -50.5 !    28.9
  200    .370 -128.2  12.731  107.6    .050   63.9    .346  -68.4 !    23.3
  300    .363 -145.9   8.907   98.4    .066   65.8    .252  -77.2 !    19.9
  400    .363 -155.9   6.831   92.1    .082   67.4    .204  -82.9 !    17.5
  500    .361 -162.5   5.533   87.5    .098   68.2    .177  -86.9 !    15.6
  600    .360 -167.5   4.671   83.6    .115   68.3    .160  -89.4 !    14.1
  700    .360 -171.9   4.045   80.2    .132   68.2    .149  -91.1 !    12.8
  800    .355 -175.8   3.579   77.0    .148   68.0    .140  -91.9 !    11.7
  900    .354 -179.9   3.215   74.0    .164   67.3    .133  -93.1 !    10.8
 1000    .357  176.5   2.913   71.3    .180   66.7    .127  -94.5 !    10.0
 1200    .367  170.3   2.471   66.2    .211   65.1    .117  -98.2 !     8.5
 1400    .380  165.7   2.176   61.4    .241   63.3    .113 -101.9 !     7.5
 1600    .376  161.5   1.944   56.7    .269   61.7    .111 -102.3 !     6.5
 1800    .376  156.9   1.774   52.8    .296   59.9    .107 -106.9 !     5.7
 2000    .387  150.6   1.646   49.3    .324   58.4    .095 -110.9 !     5.1
 2200    .412  144.9   1.538   45.9    .350   56.6    .089 -121.3 !     4.6
 2400    .434  141.5   1.446   42.1    .373   54.8    .095 -135.6 !     4.1
 2600    .440  139.1   1.358   38.6    .395   52.9    .105 -143.9 !     3.6
 2800    .443  134.8   1.308   35.5    .417   51.1    .109 -147.1 !     3.3
 3000    .458  129.0   1.261   32.7    .440   49.5    .106 -154.6 !     3.1
