! Filename:       BFT92WH.S2P                                Version:   4.0
! Philips part #: BFT92W                                     Date: Jun 1994
! Bias condition: Vce=10V, Ic=10mA
! 
#  MHz  S  MA  R  50
! Freq       S11            S21            S12            S22     !GUM [dB]
   40    .690  -16.0  16.214  166.0    .011   81.3    .951   -7.7 !    37.2
  100    .630  -38.4  14.527  149.4    .024   71.7    .867  -17.1 !    31.5
  200    .511  -68.6  11.454  129.4    .040   63.2    .712  -25.5 !    25.6
  300    .430  -90.7   8.994  116.6    .051   60.1    .603  -28.4 !    21.9
  400    .380 -107.1   7.260  107.9    .060   60.0    .536  -29.4 !    19.4
  500    .352 -119.2   6.046  101.8    .068   60.5    .494  -29.8 !    17.4
  600    .334 -128.9   5.176   96.9    .076   61.5    .470  -30.0 !    15.9
  700    .322 -136.8   4.513   92.7    .084   62.6    .455  -30.0 !    14.6
  800    .311 -143.6   4.002   89.1    .093   63.4    .446  -29.8 !    13.5
  900    .305 -150.0   3.589   85.9    .101   64.0    .438  -29.4 !    12.4
 1000    .302 -155.9   3.257   83.1    .108   64.4    .429  -29.2 !    11.6
 1200    .309 -166.1   2.757   77.9    .123   65.2    .409  -29.5 !    10.0
 1400    .323 -173.3   2.420   73.4    .140   65.7    .392  -31.8 !     8.9
 1600    .330 -178.7   2.148   69.2    .155   65.7    .386  -35.3 !     7.8
 1800    .333  175.8   1.935   65.8    .168   66.3    .385  -37.4 !     6.9
 2000    .344  168.7   1.773   62.2    .182   66.8    .378  -38.8 !     6.2
 2200    .368  163.1   1.645   59.3    .195   67.1    .360  -41.1 !     5.6
 2400    .394  159.6   1.538   55.6    .209   67.3    .343  -46.1 !     5.0
 2600    .410  158.1   1.431   53.3    .220   67.3    .341  -52.4 !     4.4
 2800    .413  155.2   1.374   50.6    .233   68.0    .351  -56.8 !     4.1
 3000    .415  150.8   1.302   47.9    .248   68.4    .355  -59.5 !     3.7
! Noise data:
! Freq.     Fmin        Gamma-opt         rn
  500       3.00     .290     43.1       .660
 1000       3.70     .280     78.7       .670
