! Filename:       BFT93D.S2P                                 Version:   2.0
! Philips part #: BFT93                                      Date: May 1990
! Bias condition: Vce=-5V, Ic=-30mA
!
#  MHz  S  MA  R  50
! Freq       S11            S21            S12            S22     !GUM [dB]
   40    .249  -76.4  28.471  150.1    .016   76.8    .775  -28.9 !    33.4
  100    .363 -121.6  19.318  125.0    .031   66.9    .539  -56.5 !    27.8
  200    .408 -149.9  11.461  106.0    .048   65.8    .332  -77.6 !    22.5
  300    .427 -161.2   7.980   97.3    .065   68.8    .245  -89.5 !    19.2
  400    .428 -167.0   6.120   91.2    .082   69.5    .202  -98.4 !    16.8
  500    .437 -174.3   4.984   86.9    .100   69.8    .178 -104.4 !    15.0
  600    .441 -178.2   4.224   81.8    .118   70.0    .164 -108.0 !    13.6
  700    .457  178.2   3.645   79.2    .133   69.6    .155 -110.5 !    12.4
  800    .446  176.6   3.180   75.6    .151   69.1    .146 -112.7 !    11.1
  900    .437  173.0   2.913   72.5    .168   68.2    .139 -114.7 !    10.3
 1000    .465  168.4   2.613   70.2    .183   67.4    .132 -116.0 !     9.5
 1200    .456  165.3   2.275   64.5    .215   66.2    .123 -121.8 !     8.2
 1400    .476  159.1   1.941   59.8    .247   64.5    .120 -127.1 !     6.9
 1600    .454  157.3   1.765   55.8    .277   62.3    .120 -128.2 !     6.0
 1800    .460  152.7   1.636   51.7    .306   60.8    .119 -131.8 !     5.4
 2000    .475  144.5   1.510   48.5    .336   58.9    .112 -138.6 !     4.7
 2200    .501  142.1   1.385   44.8    .363   57.3    .110 -149.6 !     4.1
 2400    .515  137.9   1.368   41.4    .390   55.1    .128 -156.8 !     4.1
 2600    .520  136.1   1.279   36.3    .409   53.2    .140 -162.2 !     3.6
 2800    .522  132.7   1.232   32.7    .433   51.3    .147 -163.7 !     3.3
 3000    .527  128.4   1.197   30.1    .461   49.7    .150 -171.2 !     3.1
