! Filename:       BFT93F.S2P                                 Version:   2.0
! Philips part #: BFT93                                      Date: May 1990
! Bias condition: Vce=-10V, Ic=-10mA
!
#  MHz  S  MA  R  50
! Freq       S11            S21            S12            S22     !GUM [dB]
   40    .692  -25.0  18.253  160.5    .020   77.8    .893  -16.8 !    35.0
  100    .602  -57.7  15.225  139.4    .042   65.0    .737  -36.0 !    29.0
  200    .481  -96.7  10.811  117.6    .063   57.3    .517  -53.3 !    23.2
  300    .429 -120.4   7.953  105.4    .078   56.5    .391  -61.3 !    19.6
  400    .407 -135.8   6.238   97.6    .092   57.5    .320  -66.1 !    17.2
  500    .391 -145.3   5.115   91.9    .105   58.6    .277  -69.1 !    15.2
  600    .383 -152.7   4.361   87.0    .119   59.6    .249  -71.0 !    13.8
  700    .378 -158.6   3.796   83.2    .133   60.2    .231  -72.1 !    12.5
  800    .373 -163.5   3.360   79.4    .148   60.7    .218  -72.5 !    11.4
  900    .360 -169.2   3.022   76.1    .162   60.9    .206  -73.0 !    10.4
 1000    .361 -174.0   2.749   72.8    .176   60.8    .197  -73.5 !     9.6
 1200    .371  178.4   2.334   67.4    .203   60.5    .180  -75.5 !     8.1
 1400    .383  172.7   2.058   62.1    .231   59.5    .171  -79.0 !     7.1
 1600    .376  167.9   1.868   57.0    .257   58.3    .169  -80.7 !     6.2
 1800    .382  162.3   1.705   53.1    .282   57.3    .164  -82.2 !     5.4
 2000    .391  156.3   1.578   49.0    .306   56.1    .153  -84.8 !     4.8
 2200    .409  150.3   1.472   45.4    .330   55.0    .138  -91.5 !     4.2
 2400    .433  147.4   1.406   41.4    .353   53.4    .138 -102.0 !     3.9
 2600    .447  144.2   1.307   37.4    .370   52.2    .143 -109.2 !     3.4
 2800    .451  141.5   1.271   35.0    .394   51.1    .147 -113.1 !     3.2
 3000    .462  135.1   1.228   31.5    .416   49.8    .140 -118.7 !     2.9
