! Filename:       BFT92J.S2P                                 Version:   2.0
! Philips part #: BFT92                                      Date: May 1990
! Bias condition: Vce=-10V, Ic=-20mA
!
#  MHz  S  MA  R  50
! Freq       S11            S21            S12            S22     !GUM [dB]
   40    .425  -24.7  20.196  161.5    .010   81.3    .924   -9.4 !    35.3
  100    .381  -57.5  16.760  140.7    .021   72.4    .810  -19.3 !    29.8
  200    .323  -94.3  11.792  119.7    .035   68.0    .651  -25.2 !    24.3
  300    .293 -118.5   8.733  107.8    .045   68.2    .566  -26.1 !    20.9
  400    .287 -132.3   6.869  100.3    .057   69.4    .522  -25.9 !    18.5
  500    .276 -141.6   5.614   94.7    .067   70.5    .497  -26.0 !    16.6
  600    .274 -148.8   4.791   89.9    .078   71.1    .485  -26.2 !    15.1
  700    .268 -154.7   4.163   86.4    .088   71.7    .477  -26.6 !    13.8
  800    .265 -159.8   3.681   82.7    .099   72.1    .474  -27.1 !    12.7
  900    .263 -166.2   3.290   79.7    .109   72.0    .470  -27.5 !    11.7
 1000    .262 -171.7   3.002   76.3    .120   72.1    .467  -28.2 !    10.9
 1200    .277 -179.9   2.540   71.3    .140   71.9    .461  -30.1 !     9.5
 1400    .295  174.5   2.232   66.2    .161   71.6    .456  -32.5 !     8.4
 1600    .292  169.4   2.011   61.6    .180   71.0    .456  -35.1 !     7.5
 1800    .295  163.0   1.815   57.7    .200   70.8    .456  -37.2 !     6.6
 2000    .307  155.1   1.667   54.0    .220   70.4    .448  -39.1 !     5.8
 2200    .334  149.2   1.549   50.2    .242   69.9    .431  -42.1 !     5.2
 2400    .360  145.3   1.475   46.2    .263   69.1    .418  -46.5 !     4.8
 2600    .372  142.9   1.374   42.7    .282   68.3    .413  -51.2 !     4.2
 2800    .370  139.3   1.327   40.2    .305   68.0    .414  -54.2 !     3.9
 3000    .392  131.6   1.261   37.0    .329   66.9    .403  -56.7 !     3.5
