! Filename:       BFT93G.S2P                                 Version:   2.0
! Philips part #: BFT93                                      Date: May 1990
! Bias condition: Vce=-10V, Ic=-20mA
!
#  MHz  S  MA  R  50
! Freq       S11            S21            S12            S22     !GUM [dB]
   40    .549  -36.2  26.346  154.8    .018   76.1    .822  -23.0 !    34.9
  100    .463  -77.9  19.643  130.4    .035   64.4    .615  -46.0 !    29.0
  200    .391 -117.6  12.403  110.4    .053   61.3    .395  -64.0 !    23.3
  300    .377 -137.9   8.783  100.3    .068   62.8    .290  -72.7 !    19.9
  400    .371 -149.3   6.770   93.7    .084   64.5    .234  -78.2 !    17.5
  500    .362 -157.3   5.498   88.8    .099   65.6    .202  -81.9 !    15.6
  600    .365 -162.4   4.666   84.7    .115   66.0    .183  -84.1 !    14.1
  700    .359 -167.9   4.040   81.2    .132   66.2    .170  -85.7 !    12.9
  800    .356 -171.3   3.586   77.7    .148   66.2    .160  -86.3 !    11.8
  900    .349 -176.4   3.213   75.1    .163   65.8    .151  -86.9 !    10.8
 1000    .351  179.4   2.919   71.8    .179   65.1    .143  -87.6 !    10.0
 1200    .368  172.7   2.469   67.1    .209   64.0    .130  -90.6 !     8.6
 1400    .379  168.2   2.177   61.9    .238   62.4    .124  -95.0 !     7.5
 1600    .377  164.1   1.973   57.3    .267   60.4    .123  -96.3 !     6.6
 1800    .373  159.3   1.794   53.4    .292   59.0    .118  -97.8 !     5.8
 2000    .388  153.1   1.657   49.7    .319   57.4    .106 -101.6 !     5.1
 2200    .407  148.1   1.545   46.1    .345   55.9    .095 -111.9 !     4.6
 2400    .434  144.3   1.475   42.3    .368   53.9    .101 -125.0 !     4.3
 2600    .439  142.1   1.369   38.6    .385   52.3    .110 -132.0 !     3.7
 2800    .443  139.2   1.330   36.0    .408   51.0    .114 -135.1 !     3.5
 3000    .459  133.0   1.280   32.6    .432   49.3    .109 -142.5 !     3.2
