! Filename:       BFT93WC.S2P                                Version:   4.0
! Philips part #: BFT93W                                     Date: Jun 1994
! Bias condition: Vce=5V, Ic=20mA
! 
#  MHz  S  MA  R  50
! Freq       S11            S21            S12            S22     !GUM [dB]
   40    .450  -49.1  25.274  154.6    .018   72.5    .830  -24.1 !    34.1
  100    .475  -99.1  18.682  130.2    .034   59.2    .608  -47.9 !    28.5
  200    .502 -135.9  11.661  110.7    .047   54.5    .379  -67.2 !    23.3
  300    .516 -151.8   8.244  101.0    .058   55.6    .270  -77.9 !    20.0
  400    .526 -161.1   6.342   94.7    .068   58.1    .215  -86.1 !    17.7
  500    .530 -167.1   5.156   90.2    .079   60.1    .185  -92.5 !    15.8
  600    .534 -171.9   4.350   86.3    .089   61.9    .169  -96.7 !    14.4
  700    .535 -175.7   3.768   83.0    .101   63.2    .157  -98.7 !    13.1
  800    .536 -179.1   3.326   80.1    .112   64.0    .147  -99.8 !    12.0
  900    .538  177.7   2.980   77.3    .123   64.8    .137 -100.5 !    11.1
 1000    .541  174.9   2.703   74.9    .134   65.4    .127 -101.9 !    10.2
 1200    .554  169.8   2.285   70.3    .154   66.2    .111 -109.1 !     8.8
 1400    .566  166.1   1.995   65.9    .175   66.6    .112 -118.8 !     7.7
 1600    .571  162.6   1.777   61.7    .195   66.0    .125 -122.9 !     6.8
 1800    .573  158.8   1.616   58.2    .214   66.0    .130 -123.1 !     6.0
 2000    .585  154.4   1.488   55.0    .234   66.1    .127 -126.2 !     5.3
 2200    .604  151.0   1.380   52.4    .252   66.2    .130 -135.1 !     4.8
 2400    .624  148.8   1.285   49.4    .268   66.2    .152 -143.0 !     4.4
 2600    .633  147.1   1.200   46.6    .282   65.5    .180 -144.7 !     3.9
 2800    .626  144.3   1.148   43.5    .299   65.0    .199 -143.3 !     3.5
 3000    .629  140.8   1.100   41.0    .319   64.7    .208 -143.7 !     3.2
! Noise data:
! Freq.     Fmin        Gamma-opt         rn
  500       2.80     .301    100.8       .610
 1000       3.60     .356    152.2       .280
