! Filename:       BFT93A.S2P                                 Version:   2.0
! Philips part #: BFT93                                      Date: May 1990
! Bias condition: Vce=-5V, Ic=-5mA
!
#  MHz  S  MA  R  50
! Freq       S11            S21            S12            S22     !GUM [dB]
   40    .733  -20.7  11.219  164.1    .024   79.1    .943  -13.3 !    33.9
  100    .676  -49.3   9.950  145.8    .053   65.3    .830  -29.6 !    27.7
  200    .579  -88.3   7.896  124.0    .083   53.6    .634  -46.3 !    22.0
  300    .524 -114.5   6.122  110.0    .100   48.7    .501  -55.5 !    18.4
  400    .503 -131.3   4.922  100.8    .112   47.6    .418  -61.1 !    15.9
  500    .486 -142.4   4.082   94.0    .123   47.6    .366  -64.8 !    14.0
  600    .477 -150.7   3.508   88.0    .133   48.2    .334  -67.1 !    12.5
  700    .471 -157.5   3.076   83.6    .143   49.5    .309  -69.2 !    11.3
  800    .462 -163.5   2.741   79.3    .154   50.7    .290  -70.4 !    10.2
  900    .455 -168.9   2.472   75.9    .165   51.7    .277  -71.7 !     9.2
 1000    .451 -174.3   2.258   71.9    .176   52.4    .266  -72.9 !     8.4
 1200    .460  177.3   1.929   65.9    .198   53.8    .247  -76.3 !     7.0
 1400    .472  171.2   1.713   59.9    .223   54.5    .239  -80.6 !     6.0
 1600    .464  165.9   1.563   54.5    .247   54.9    .234  -84.0 !     5.2
 1800    .461  159.8   1.437   50.3    .271   55.0    .230  -87.2 !     4.4
 2000    .474  152.8   1.336   46.2    .296   54.9    .219  -91.4 !     3.8
 2200    .494  147.5   1.254   42.7    .321   54.6    .208  -99.0 !     3.4
 2400    .513  143.4   1.200   38.4    .346   53.6    .210 -108.4 !     3.1
 2600    .521  141.1   1.120   34.5    .366   52.4    .217 -115.3 !     2.6
 2800    .531  136.8   1.093   32.0    .394   51.7    .223 -120.0 !     2.4
 3000    .537  131.1   1.059   29.1    .421   50.6    .219 -126.5 !     2.2
