! Filename:       BFT92C.S2P                                 Version:   2.0
! Philips part #: BFT92                                      Date: May 1990
! Bias condition: Vce=-5V, Ic=-10mA
!
#  MHz  S  MA  R  50
! Freq       S11            S21            S12            S22     !GUM [dB]
   40    .478  -20.4  15.696  164.7    .011   81.7    .947   -8.7 !    34.9
  100    .442  -49.2  13.810  146.4    .025   72.5    .854  -19.0 !    29.4
  200    .376  -86.4  10.546  125.4    .041   65.7    .693  -27.6 !    24.0
  300    .345 -111.8   8.101  112.3    .052   64.2    .591  -30.4 !    20.6
  400    .332 -127.7   6.478  103.6    .063   64.7    .531  -31.2 !    18.2
  500    .320 -138.3   5.361   97.3    .073   65.9    .495  -31.5 !    16.3
  600    .315 -146.6   4.588   92.1    .084   66.7    .475  -31.8 !    14.8
  700    .308 -153.3   4.006   88.0    .095   67.7    .461  -32.0 !    13.5
  800    .301 -159.1   3.558   84.0    .105   68.5    .453  -32.1 !    12.4
  900    .299 -165.3   3.188   80.5    .115   68.8    .448  -32.5 !    11.4
 1000    .293 -171.1   2.889   77.0    .126   69.0    .441  -33.1 !    10.5
 1200    .309 -179.7   2.456   71.6    .147   69.3    .431  -34.7 !     9.1
 1400    .318  174.6   2.173   66.0    .168   69.3    .425  -37.1 !     8.1
 1600    .317  168.9   1.959   61.2    .189   68.8    .426  -39.4 !     7.2
 1800    .319  162.5   1.770   57.4    .209   68.8    .422  -41.5 !     6.3
 2000    .333  155.1   1.634   53.2    .231   68.0    .414  -43.4 !     5.6
 2200    .351  149.1   1.516   49.4    .253   67.6    .396  -46.3 !     4.9
 2400    .381  144.7   1.446   45.1    .276   66.6    .386  -51.2 !     4.6
 2600    .388  142.7   1.347   41.6    .294   65.8    .380  -56.0 !     4.0
 2800    .392  138.3   1.298   39.0    .318   65.4    .381  -59.3 !     3.7
 3000    .407  132.0   1.245   35.7    .341   64.4    .370  -61.9 !     3.3
