! Filename:       BFT92E.S2P                                 Version:   2.0
! Philips part #: BFT92                                      Date: May 1990
! Bias condition: Vce=-5V, Ic=-20mA
!
#  MHz  S  MA  R  50
! Freq       S11            S21            S12            S22     !GUM [dB]
   40    .220  -43.8  18.038  160.5    .009   79.5    .903  -10.0 !    32.7
  100    .264  -89.6  14.776  138.6    .021   72.1    .783  -19.8 !    27.8
  200    .304 -127.2  10.187  117.5    .033   68.7    .627  -25.2 !    22.7
  300    .330 -145.5   7.467  105.7    .044   69.4    .548  -25.8 !    19.5
  400    .345 -155.5   5.856   98.1    .055   70.9    .509  -25.8 !    17.2
  500    .346 -162.2   4.782   92.5    .065   72.0    .488  -26.0 !    15.3
  600    .350 -167.5   4.074   87.6    .076   72.9    .478  -26.5 !    13.9
  700    .351 -171.8   3.538   83.9    .087   73.5    .472  -27.2 !    12.6
  800    .353 -176.3   3.137   80.0    .097   74.1    .468  -27.7 !    11.6
  900    .351  179.2   2.812   77.1    .108   74.2    .466  -28.9 !    10.6
 1000    .354  175.2   2.554   73.3    .119   74.2    .463  -29.8 !     9.8
 1200    .374  169.2   2.165   68.3    .140   74.4    .458  -32.3 !     8.4
 1400    .388  164.6   1.911   63.0    .162   74.2    .453  -35.3 !     7.3
 1600    .386  159.7   1.722   58.1    .183   73.7    .456  -38.5 !     6.4
 1800    .390  153.8   1.557   54.3    .205   73.6    .455  -41.2 !     5.6
 2000    .406  147.4   1.437   50.3    .228   73.0    .443  -43.8 !     4.9
 2200    .431  142.3   1.335   46.7    .252   72.6    .426  -47.5 !     4.3
 2400    .457  138.5   1.276   42.7    .277   71.4    .416  -53.0 !     4.0
 2600    .460  135.8   1.190   39.4    .299   70.4    .409  -58.0 !     3.3
 2800    .468  131.6   1.148   36.9    .326   69.7    .409  -62.0 !     3.1
 3000    .486  125.5   1.094   34.1    .353   68.0    .394  -65.3 !     2.7
