! Filename:       BFT93WG.S2P                                Version:   4.0
! Philips part #: BFT93W                                     Date: Jun 1994
! Bias condition: Vce=10V, Ic=20mA
! 
#  MHz  S  MA  R  50
! Freq       S11            S21            S12            S22     !GUM [dB]
   40    .655  -33.6  25.207  156.9    .018   74.2    .840  -20.3 !    35.8
  100    .568  -73.8  19.459  133.9    .035   61.0    .644  -41.3 !    29.8
  200    .487 -113.4  12.634  113.7    .050   54.9    .416  -58.0 !    24.0
  300    .463 -134.1   9.050  103.5    .061   55.1    .299  -66.3 !    20.6
  400    .456 -146.7   6.997   96.9    .072   56.9    .236  -72.0 !    18.2
  500    .453 -154.7   5.702   92.1    .082   58.5    .200  -76.3 !    16.3
  600    .453 -161.0   4.818   88.2    .093   60.0    .179  -79.0 !    14.8
  700    .451 -165.7   4.171   84.8    .104   61.0    .165  -79.9 !    13.5
  800    .451 -169.9   3.683   81.8    .115   61.8    .155  -79.9 !    12.4
  900    .452 -173.7   3.297   79.0    .126   62.4    .143  -79.0 !    11.4
 1000    .454 -177.3   2.986   76.6    .137   62.9    .132  -78.5 !    10.6
 1200    .467  176.6   2.521   71.9    .157   63.4    .110  -81.6 !     9.2
 1400    .482  172.4   2.200   67.6    .176   63.4    .103  -90.5 !     8.0
 1600    .490  168.8   1.956   63.6    .195   62.8    .110  -97.4 !     7.1
 1800    .493  164.8   1.774   60.1    .212   62.7    .114  -98.0 !     6.2
 2000    .505  159.8   1.630   56.8    .230   62.7    .109 -100.1 !     5.6
 2200    .528  155.9   1.509   54.1    .245   62.8    .103 -109.7 !     5.0
 2400    .550  153.6   1.405   51.0    .260   62.7    .115 -122.8 !     4.6
 2600    .563  151.9   1.312   48.1    .273   62.2    .141 -128.2 !     4.1
 2800    .562  149.2   1.253   45.2    .287   62.0    .160 -127.8 !     3.7
 3000    .565  145.8   1.199   42.6    .305   61.7    .169 -128.3 !     3.4
! Noise data:
! Freq.     Fmin        Gamma-opt         rn
  500       3.00     .240     98.0       .440
 1000       3.60     .320    131.0       .400
