! Filename:       BFT92G.S2P                                 Version:   2.0
! Philips part #: BFT92                                      Date: May 1990
! Bias condition: Vce=-10V, Ic=-5mA
!
#  MHz  S  MA  R  50
! Freq       S11            S21            S12            S22     !GUM [dB]
   40    .601  -16.3  16.073  165.5    .011   82.4    .954   -7.9 !    36.5
  100    .546  -39.0  14.325  148.3    .024   73.8    .871  -17.4 !    30.8
  200    .438  -69.5  11.218  127.9    .041   66.4    .721  -26.0 !    25.1
  300    .367  -92.4   8.755  114.8    .052   64.7    .619  -29.0 !    21.6
  400    .328 -108.3   7.064  106.1    .063   65.0    .557  -30.2 !    19.1
  500    .300 -119.6   5.868   99.7    .073   65.5    .520  -30.5 !    17.1
  600    .287 -128.5   5.029   94.4    .084   66.3    .497  -30.6 !    15.6
  700    .270 -135.8   4.389   90.3    .094   67.3    .482  -30.7 !    14.3
  800    .260 -141.9   3.896   86.5    .104   67.8    .474  -30.9 !    13.2
  900    .245 -149.5   3.493   82.9    .115   68.1    .467  -31.1 !    12.2
 1000    .240 -156.2   3.176   79.5    .125   68.2    .459  -31.4 !    11.3
 1200    .246 -167.5   2.691   74.3    .145   68.3    .448  -32.7 !     9.8
 1400    .254 -175.0   2.380   68.8    .166   68.2    .441  -34.8 !     8.8
 1600    .254  179.8   2.144   64.0    .185   67.7    .441  -36.7 !     7.9
 1800    .251  172.3   1.934   60.3    .204   67.7    .439  -38.3 !     6.9
 2000    .261  163.8   1.777   56.3    .223   67.1    .429  -39.8 !     6.2
 2200    .283  155.7   1.650   52.4    .244   66.5    .413  -42.1 !     5.5
 2400    .306  150.5   1.573   48.2    .265   65.6    .400  -46.7 !     5.1
 2600    .320  149.4   1.464   44.5    .282   64.8    .395  -50.8 !     4.5
 2800    .326  145.2   1.414   42.2    .302   64.6    .396  -53.3 !     4.2
 3000    .339  138.1   1.348   38.7    .324   63.7    .387  -55.6 !     3.8
