! Filename:       BFT93WF.S2P                                Version:   4.0
! Philips part #: BFT93W                                     Date: Jun 1994
! Bias condition: Vce=10V, Ic=10mA
! 
#  MHz  S  MA  R  50
! Freq       S11            S21            S12            S22     !GUM [dB]
   40    .744  -24.2  18.034  162.0    .019   77.2    .902  -15.2 !    35.9
  100    .666  -56.4  15.339  142.3    .040   63.6    .757  -33.0 !    30.0
  200    .556  -95.4  11.171  121.0    .059   53.5    .533  -49.6 !    24.0
  300    .507 -119.1   8.353  109.0    .071   50.8    .398  -57.9 !    20.5
  400    .485 -134.4   6.576  101.2    .081   51.0    .319  -63.2 !    18.0
  500    .474 -144.5   5.412   95.6    .090   52.2    .272  -66.9 !    16.1
  600    .469 -152.4   4.597   91.1    .099   53.7    .243  -69.2 !    14.6
  700    .465 -158.4   3.997   87.2    .108   54.9    .224  -70.3 !    13.3
  800    .461 -163.5   3.537   83.9    .118   56.1    .209  -70.3 !    12.2
  900    .459 -168.1   3.170   80.8    .128   57.0    .196  -69.7 !    11.2
 1000    .460 -172.3   2.875   78.2    .137   57.8    .183  -69.3 !    10.4
 1200    .469 -179.3   2.435   73.1    .155   59.1    .157  -71.0 !     8.9
 1400    .482  175.4   2.130   68.4    .173   59.8    .144  -77.4 !     7.8
 1600    .488  171.5   1.898   64.1    .191   59.7    .147  -83.7 !     6.8
 1800    .489  167.2   1.723   60.4    .207   59.9    .150  -85.2 !     6.0
 2000    .501  162.2   1.584   57.0    .224   60.3    .144  -87.1 !     5.3
 2200    .522  158.0   1.469   54.0    .239   60.6    .134  -94.3 !     4.8
 2400    .543  155.4   1.367   50.7    .253   60.7    .140 -106.3 !     4.3
 2600    .557  153.8   1.278   47.8    .264   60.3    .162 -113.7 !     3.9
 2800    .556  151.0   1.222   44.7    .278   60.4    .183 -115.3 !     3.5
 3000    .560  147.6   1.168   42.1    .295   60.4    .192 -116.6 !     3.1
! Noise data:
! Freq.     Fmin        Gamma-opt         rn
  500       2.40     .270     83.0       .400
 1000       2.90     .350    115.0       .350
