! Filename:       BFT92WF.S2P                                Version:   4.0
! Philips part #: BFT92W                                     Date: Jun 1994
! Bias condition: Vce=10V, Ic=2mA
! 
#  MHz  S  MA  R  50
! Freq       S11            S21            S12            S22     !GUM [dB]
   40    .909   -6.8   4.910  172.9    .012   85.1    .989   -3.2 !    37.9
  100    .889  -16.9   4.771  163.7    .029   78.7    .970   -8.1 !    32.7
  200    .833  -32.8   4.483  150.5    .055   69.2    .914  -15.0 !    26.0
  300    .767  -47.6   4.182  139.1    .075   61.8    .848  -20.2 !    21.8
  400    .697  -61.2   3.844  129.3    .090   56.6    .789  -24.2 !    18.8
  500    .638  -72.9   3.506  121.3    .102   52.9    .738  -27.3 !    16.6
  600    .582  -83.8   3.228  114.1    .111   50.8    .699  -29.3 !    14.9
  700    .535  -93.2   2.961  107.9    .118   49.4    .669  -30.7 !    13.5
  800    .494 -101.5   2.713  102.4    .124   48.6    .645  -31.7 !    12.2
  900    .460 -109.4   2.498   97.4    .128   48.0    .624  -32.3 !    11.1
 1000    .432 -116.7   2.308   93.3    .133   47.9    .605  -33.0 !    10.1
 1200    .398 -130.8   2.014   85.7    .141   48.1    .566  -34.5 !     8.5
 1400    .385 -142.8   1.810   79.3    .150   48.9    .540  -37.0 !     7.3
 1600    .376 -151.7   1.630   73.7    .159   49.8    .527  -40.2 !     6.3
 1800    .367 -159.8   1.485   69.4    .166   51.5    .519  -42.3 !     5.4
 2000    .362 -169.2   1.370   64.9    .175   53.2    .506  -44.2 !     4.6
 2200    .374 -177.7   1.283   61.2    .182   54.7    .483  -46.9 !     4.0
 2400    .394  176.0   1.207   56.7    .192   56.1    .465  -51.6 !     3.4
 2600    .410  172.5   1.133   53.9    .200   57.2    .463  -56.7 !     2.9
 2800    .411  168.4   1.098   50.9    .210   59.1    .471  -60.5 !     2.7
 3000    .412  163.3   1.041   48.1    .221   60.8    .471  -63.0 !     2.2
! Noise data:
! Freq.     Fmin        Gamma-opt         rn
  500       2.40     .450     30.3       .580
 1000       2.60     .440     55.9       .710
