! Filename:       BFT92D.S2P                                 Version:   2.0
! Philips part #: BFT92                                      Date: May 1990
! Bias condition: Vce=-5V, Ic=-15mA
!
#  MHz  S  MA  R  50
! Freq       S11            S21            S12            S22     !GUM [dB]
   40    .322  -30.3  18.549  162.4    .010   80.9    .927   -9.7 !    34.3
  100    .319  -69.0  15.534  142.0    .022   72.1    .816  -20.2 !    29.1
  200    .320 -109.4  11.046  120.9    .036   67.1    .651  -27.4 !    23.7
  300    .326 -130.7   8.228  108.7    .046   66.8    .557  -28.9 !    20.4
  400    .329 -144.0   6.473  100.7    .057   67.9    .507  -29.0 !    18.0
  500    .333 -152.5   5.323   94.8    .067   69.1    .479  -29.1 !    16.2
  600    .333 -159.0   4.520   90.0    .077   70.0    .462  -29.2 !    14.7
  700    .333 -164.2   3.929   85.9    .088   70.7    .453  -29.6 !    13.4
  800    .331 -169.0   3.482   82.3    .098   71.4    .448  -30.0 !    12.3
  900    .330 -173.6   3.125   78.9    .108   71.6    .443  -30.6 !    11.4
 1000    .332 -177.7   2.834   75.8    .119   71.7    .439  -31.4 !    10.5
 1200    .344  175.2   2.411   70.2    .139   71.8    .433  -33.3 !     9.1
 1400    .358  170.1   2.121   65.1    .160   71.6    .429  -35.9 !     8.0
 1600    .358  165.4   1.902   60.2    .180   71.3    .429  -38.3 !     7.1
 1800    .360  159.8   1.722   56.1    .200   71.1    .426  -40.8 !     6.2
 2000    .372  152.7   1.584   52.1    .221   70.4    .417  -43.4 !     5.5
 2200    .402  148.0   1.478   48.5    .243   70.1    .403  -46.7 !     4.9
 2400    .427  144.9   1.397   44.6    .266   69.1    .392  -51.6 !     4.5
 2600    .433  142.7   1.307   41.3    .286   68.3    .386  -56.4 !     3.9
 2800    .439  138.0   1.258   38.6    .309   67.8    .385  -60.1 !     3.6
 3000    .458  131.9   1.202   35.4    .334   66.6    .373  -63.7 !     3.3
