! Filename:       BFT92WD.S2P                                Version:   4.0
! Philips part #: BFT92W                                     Date: Jun 1994
! Bias condition: Vce=5V, Ic=15mA
! 
#  MHz  S  MA  R  50
! Freq       S11            S21            S12            S22     !GUM [dB]
   40    .443  -27.2  19.009  162.4    .010   78.6    .923   -9.8 !    34.8
  100    .415  -63.1  16.041  142.1    .022   69.1    .805  -20.2 !    29.5
  200    .380 -103.3  11.448  121.2    .035   62.4    .632  -26.8 !    24.1
  300    .371 -126.1   8.529  109.4    .044   61.7    .534  -27.9 !    20.7
  400    .370 -140.4   6.711  101.7    .052   63.0    .481  -27.7 !    18.3
  500    .369 -149.5   5.510   96.1    .061   64.5    .451  -27.7 !    16.4
  600    .372 -156.6   4.679   91.7    .069   65.9    .435  -27.9 !    15.0
  700    .372 -162.1   4.061   87.9    .078   66.8    .427  -28.0 !    13.7
  800    .374 -167.1   3.590   84.5    .086   67.9    .422  -28.1 !    12.6
  900    .375 -171.4   3.209   81.4    .094   68.6    .418  -28.1 !    11.6
 1000    .379 -175.6   2.909   78.8    .102   69.2    .413  -28.2 !    10.8
 1200    .395  177.6   2.457   73.8    .118   70.0    .396  -29.2 !     9.3
 1400    .413  172.6   2.151   69.3    .134   70.7    .383  -32.3 !     8.2
 1600    .422  168.5   1.908   65.1    .149   71.0    .379  -36.5 !     7.1
 1800    .426  163.8   1.719   61.7    .164   71.7    .380  -39.3 !     6.3
 2000    .440  158.2   1.575   58.2    .180   72.2    .375  -41.4 !     5.5
 2200    .467  153.8   1.460   55.4    .194   72.8    .357  -44.6 !     4.9
 2400    .490  151.2   1.362   51.8    .210   73.2    .341  -50.6 !     4.4
 2600    .502  149.5   1.267   49.5    .224   73.1    .342  -57.6 !     3.9
 2800    .502  146.4   1.213   46.9    .239   73.6    .354  -62.3 !     3.5
 3000    .503  142.0   1.150   44.3    .257   73.7    .358  -65.5 !     3.1
! Noise data:
! Freq.     Fmin        Gamma-opt         rn
  500       3.40     .150    109.0       .460
 1000       4.50     .210    136.0       .570
