! Filename:       BFT93C.S2P                                 Version:   2.0
! Philips part #: BFT93                                      Date: May 1990
! Bias condition: Vce=-5V, Ic=-20mA
!
#  MHz  S  MA  R  50
! Freq       S11            S21            S12            S22     !GUM [dB]
   40    .359  -52.0  25.209  153.5    .018   74.2    .824  -26.0 !    33.6
  100    .387 -102.8  18.319  128.3    .035   63.9    .600  -51.7 !    27.9
  200    .411 -139.4  11.309  108.6    .052   61.9    .378  -72.4 !    22.5
  300    .429 -154.6   7.936   98.7    .068   63.9    .277  -83.8 !    19.2
  400    .438 -163.3   6.101   92.3    .084   65.3    .226  -91.6 !    16.9
  500    .433 -169.1   4.962   87.4    .100   66.5    .199  -97.2 !    15.0
  600    .437 -173.6   4.208   83.1    .117   66.8    .181 -100.8 !    13.5
  700    .433 -177.4   3.654   79.8    .133   67.2    .168 -103.6 !    12.3
  800    .430  179.4   3.243   76.2    .150   67.1    .158 -105.3 !    11.2
  900    .428  174.8   2.912   73.3    .167   66.6    .150 -107.1 !    10.3
 1000    .431  171.3   2.653   70.1    .183   66.0    .143 -108.9 !     9.5
 1200    .447  166.0   2.246   65.4    .214   64.8    .132 -114.1 !     8.1
 1400    .460  161.6   1.984   60.1    .245   63.2    .130 -119.4 !     7.1
 1600    .451  157.7   1.800   55.2    .275   61.1    .128 -121.3 !     6.2
 1800    .449  152.5   1.643   51.3    .303   59.5    .124 -124.1 !     5.4
 2000    .463  147.1   1.525   47.5    .332   57.9    .116 -130.3 !     4.8
 2200    .481  142.2   1.431   44.2    .359   56.5    .114 -141.8 !     4.3
 2400    .500  139.3   1.364   40.3    .384   54.5    .128 -151.0 !     4.0
 2600    .512  137.2   1.271   36.7    .402   52.5    .142 -155.5 !     3.5
 2800    .510  133.8   1.234   34.0    .430   50.7    .147 -157.9 !     3.2
 3000    .525  128.4   1.205   30.8    .455   49.0    .148 -165.1 !     3.1
