! Filename:       BFT93B.S2P                                 Version:   2.0
! Philips part #: BFT93                                      Date: May 1990
! Bias condition: Vce=-5V, Ic=-10mA
!
#  MHz  S  MA  R  50
! Freq       S11            S21            S12            S22     !GUM [dB]
   40    .554  -31.9  18.154  159.0    .021   76.3    .894  -19.7 !    33.7
  100    .508  -72.9  14.783  136.5    .044   62.8    .715  -41.3 !    27.8
  200    .461 -115.5  10.122  114.8    .064   55.7    .486  -60.6 !    22.3
  300    .450 -137.8   7.342  103.1    .078   55.6    .363  -70.6 !    18.9
  400    .454 -150.2   5.718   95.5    .092   57.1    .295  -77.0 !    16.5
  500    .443 -158.6   4.676   89.9    .106   58.5    .255  -81.4 !    14.6
  600    .444 -164.5   3.982   85.0    .120   59.6    .230  -84.5 !    13.2
  700    .444 -169.8   3.462   81.3    .134   60.5    .212  -86.6 !    11.9
  800    .438 -173.9   3.090   77.6    .149   61.2    .200  -87.9 !    10.9
  900    .433 -178.7   2.768   74.3    .164   61.4    .188  -89.2 !     9.9
 1000    .433  176.8   2.519   71.1    .179   61.4    .179  -90.6 !     9.1
 1200    .444  170.6   2.144   65.7    .207   61.1    .165  -94.6 !     7.7
 1400    .455  165.2   1.900   60.1    .237   60.4    .159  -99.4 !     6.7
 1600    .447  160.5   1.725   55.1    .265   59.1    .157 -101.8 !     5.8
 1800    .448  155.1   1.582   51.1    .292   58.1    .153 -104.8 !     5.1
 2000    .462  149.5   1.474   47.3    .319   56.5    .143 -109.6 !     4.5
 2200    .477  144.1   1.374   43.8    .346   55.7    .135 -119.4 !     4.0
 2400    .498  141.1   1.315   39.7    .372   53.9    .144 -129.7 !     3.7
 2600    .509  138.3   1.227   35.8    .390   52.4    .155 -136.1 !     3.2
 2800    .515  135.3   1.196   33.4    .418   50.9    .161 -139.5 !     3.0
 3000    .523  130.0   1.161   30.1    .442   49.4    .159 -146.2 !     2.8
