! Filename:       BFT93WA.S2P                                Version:   4.0
! Philips part #: BFT93W                                     Date: Jun 1994
! Bias condition: Vce=5V, Ic=5mA
! 
#  MHz  S  MA  R  50
! Freq       S11            S21            S12            S22     !GUM [dB]
   40    .759  -20.5  11.294  165.0    .023   78.5    .945  -12.3 !    34.5
  100    .711  -49.0  10.079  147.7    .050   64.5    .834  -27.8 !    28.3
  200    .630  -88.0   8.082  126.7    .076   51.2    .631  -44.0 !    22.5
  300    .586 -113.6   6.355  113.1    .090   45.1    .491  -52.8 !    19.1
  400    .566 -130.5   5.116  104.1    .099   42.9    .403  -58.5 !    16.6
  500    .557 -141.8   4.266   97.5    .107   42.8    .349  -62.5 !    14.8
  600    .551 -150.5   3.653   92.2    .113   43.7    .316  -65.2 !    13.3
  700    .546 -157.1   3.193   87.7    .120   44.9    .293  -66.8 !    12.0
  800    .543 -162.7   2.838   83.9    .127   46.2    .277  -67.7 !    10.9
  900    .541 -167.6   2.551   80.4    .133   47.6    .263  -68.1 !     9.9
 1000    .541 -172.0   2.323   77.4    .140   49.1    .249  -68.7 !     9.1
 1200    .549 -179.4   1.975   71.7    .153   51.6    .223  -71.8 !     7.7
 1400    .559  174.8   1.737   66.4    .168   53.8    .212  -78.3 !     6.6
 1600    .565  170.3   1.555   61.7    .183   55.2    .215  -84.5 !     5.7
 1800    .566  165.6   1.420   57.7    .197   56.8    .220  -87.5 !     4.9
 2000    .575  160.5   1.310   54.2    .213   58.3    .215  -91.0 !     4.3
 2200    .594  156.3   1.217   51.1    .228   59.7    .208  -98.1 !     3.8
 2400    .613  153.7   1.135   47.7    .242   60.6    .217 -107.7 !     3.4
 2600    .623  151.4   1.064   44.8    .255   60.9    .242 -114.1 !     2.9
 2800    .618  148.2   1.019   41.7    .271   61.5    .264 -116.9 !     2.6
 3000    .621  144.5    .975   39.3    .289   61.9    .275 -119.3 !     2.2
! Noise data:
! Freq.     Fmin        Gamma-opt         rn
  500       1.80     .307     86.5       .320
 1000       2.55     .358    121.0       .280
