! Filename:       BFT92WI.S2P                                Version:   4.0
! Philips part #: BFT92W                                     Date: Jun 1994
! Bias condition: Vce=10V, Ic=15mA
! 
#  MHz  S  MA  R  50
! Freq       S11            S21            S12            S22     !GUM [dB]
   40    .623  -19.9  19.256  163.6    .010   80.7    .933   -8.9 !    36.7
  100    .554  -46.6  16.583  144.7    .023   70.2    .828  -18.8 !    31.0
  200    .441  -79.9  12.214  124.1    .037   63.1    .662  -25.9 !    25.2
  300    .377 -102.3   9.243  112.1    .047   61.6    .561  -27.4 !    21.6
  400    .344 -118.2   7.328  104.1    .055   62.2    .503  -27.5 !    19.1
  500    .327 -129.2   6.041   98.5    .064   63.0    .470  -27.6 !    17.2
  600    .318 -138.0   5.141   94.0    .073   64.4    .451  -27.7 !    15.7
  700    .311 -145.0   4.465   90.2    .082   65.3    .441  -27.7 !    14.4
  800    .306 -151.3   3.952   86.9    .090   66.0    .435  -27.6 !    13.3
  900    .305 -157.0   3.538   83.8    .098   66.3    .429  -27.4 !    12.3
 1000    .305 -162.1   3.206   81.1    .106   66.7    .423  -27.3 !    11.4
 1200    .317 -171.2   2.710   76.2    .122   67.2    .405  -27.8 !     9.9
 1400    .335 -177.5   2.374   71.9    .138   67.5    .390  -30.4 !     8.7
 1600    .344  177.6   2.105   67.7    .153   67.5    .385  -34.2 !     7.7
 1800    .349  172.3   1.896   64.4    .166   68.1    .385  -36.6 !     6.8
 2000    .361  165.6   1.736   61.0    .180   68.5    .379  -38.1 !     6.1
 2200    .388  160.3   1.610   58.2    .193   69.0    .361  -40.6 !     5.5
 2400    .414  157.1   1.505   54.6    .208   69.2    .344  -45.9 !     4.9
 2600    .429  155.5   1.400   52.2    .220   69.3    .342  -52.4 !     4.3
 2800    .431  152.5   1.343   49.7    .233   69.9    .352  -56.9 !     4.0
 3000    .434  148.1   1.272   47.0    .249   70.2    .356  -59.7 !     3.6
! Noise data:
! Freq.     Fmin        Gamma-opt         rn
  500       3.40     .220     59.1       .610
 1000       4.20     .240     94.2       .730
