! Filename:       BFT92WC.S2P                                Version:   4.0
! Philips part #: BFT92W                                     Date: Jun 1994
! Bias condition: Vce=5V, Ic=10mA
! 
#  MHz  S  MA  R  50
! Freq       S11            S21            S12            S22     !GUM [dB]
   40    .559  -20.3  16.282  164.9    .011   80.1    .945   -8.6 !    35.6
  100    .515  -48.9  14.363  147.0    .024   70.2    .848  -18.6 !    30.0
  200    .439  -85.8  10.976  126.3    .039   61.8    .682  -26.8 !    24.5
  300    .400 -110.3   8.449  113.6    .049   59.2    .574  -29.2 !    21.0
  400    .382 -126.9   6.752  105.2    .057   59.7    .511  -29.8 !    18.6
  500    .373 -138.1   5.586   99.2    .065   60.8    .473  -30.1 !    16.7
  600    .368 -146.9   4.770   94.3    .073   62.3    .452  -30.3 !    15.2
  700    .364 -153.6   4.151   90.3    .081   63.5    .439  -30.3 !    13.9
  800    .362 -159.5   3.677   86.8    .090   64.6    .432  -30.2 !    12.8
  900    .361 -164.7   3.295   83.5    .097   65.4    .425  -30.1 !    11.8
 1000    .363 -169.6   2.987   80.7    .105   66.1    .418  -30.0 !    10.9
 1200    .374 -177.7   2.529   75.5    .120   67.3    .399  -30.7 !     9.5
 1400    .389  176.5   2.218   70.9    .136   68.2    .384  -33.5 !     8.3
 1600    .398  172.0   1.968   66.6    .152   68.4    .379  -37.4 !     7.3
 1800    .402  167.0   1.776   63.1    .166   69.2    .379  -40.0 !     6.4
 2000    .414  161.0   1.626   59.5    .181   69.8    .373  -41.7 !     5.7
 2200    .439  156.4   1.509   56.6    .196   70.3    .355  -44.7 !     5.1
 2400    .463  153.5   1.409   53.0    .211   70.7    .339  -50.4 !     4.6
 2600    .476  151.9   1.311   50.6    .224   70.6    .340  -57.2 !     4.0
 2800    .478  148.9   1.258   47.9    .238   71.2    .351  -61.9 !     3.7
 3000    .479  144.7   1.191   45.2    .256   71.5    .356  -64.9 !     3.2
! Noise data:
! Freq.     Fmin        Gamma-opt         rn
  500       3.00     .150     76.0       .440
 1000       3.90     .200    113.0       .530
