! Filename:       BFT92I.S2P                                 Version:   2.0
! Philips part #: BFT92                                      Date: May 1990
! Bias condition: Vce=-10V, Ic=-15mA
!
#  MHz  S  MA  R  50
! Freq       S11            S21            S12            S22     !GUM [dB]
   40    .475  -21.7  19.699  163.2    .010   81.5    .937   -9.0 !    36.2
  100    .428  -51.1  16.745  143.8    .022   72.4    .836  -19.1 !    30.6
  200    .355  -86.3  12.160  123.0    .036   67.0    .675  -26.6 !    24.9
  300    .316 -109.2   9.143  110.8    .048   66.7    .579  -28.4 !    21.5
  400    .297 -124.4   7.231  102.7    .057   67.3    .525  -28.5 !    19.0
  500    .287 -135.0   5.962   96.8    .068   68.2    .494  -28.5 !    17.1
  600    .281 -143.0   5.069   92.1    .078   69.1    .476  -28.6 !    15.6
  700    .275 -149.2   4.409   88.1    .088   69.7    .465  -28.8 !    14.3
  800    .269 -155.1   3.904   84.5    .098   70.2    .459  -29.1 !    13.2
  900    .264 -160.7   3.504   81.1    .109   70.3    .453  -29.4 !    12.2
 1000    .265 -165.8   3.177   78.1    .119   70.4    .449  -30.1 !    11.3
 1200    .273 -174.7   2.700   72.7    .138   70.3    .442  -31.6 !     9.9
 1400    .286  179.0   2.375   67.8    .158   70.2    .437  -33.6 !     8.8
 1600    .285  174.0   2.123   63.1    .177   69.7    .437  -35.5 !     7.8
 1800    .284  168.0   1.918   59.1    .195   69.4    .434  -37.6 !     6.9
 2000    .296  159.9   1.762   55.1    .215   68.8    .425  -39.6 !     6.2
 2200    .325  153.8   1.642   51.7    .235   68.2    .411  -42.3 !     5.6
 2400    .351  150.6   1.554   47.6    .256   67.4    .400  -46.5 !     5.2
 2600    .359  148.9   1.451   44.4    .273   66.7    .394  -50.8 !     4.6
 2800    .365  144.1   1.396   41.8    .294   66.5    .393  -53.9 !     4.2
 3000    .381  137.2   1.334   38.4    .316   65.6    .382  -56.7 !     3.9
