! Filename:       BFT93WB.S2P                                Version:   4.0
! Philips part #: BFT93W                                     Date: Jun 1994
! Bias condition: Vce=5V, Ic=10mA
! 
#  MHz  S  MA  R  50
! Freq       S11            S21            S12            S22     !GUM [dB]
   40    .608  -31.5  18.195  160.2    .020   75.6    .900  -18.0 !    34.4
  100    .571  -72.1  15.044  138.8    .041   60.6    .725  -38.4 !    28.5
  200    .538 -114.5  10.475  117.4    .059   51.1    .490  -56.6 !    23.1
  300    .531 -136.1   7.676  106.0    .070   49.3    .360  -66.3 !    19.7
  400    .531 -149.0   5.989   98.6    .079   50.2    .287  -73.0 !    17.4
  500    .532 -157.3   4.907   93.2    .088   51.8    .245  -77.9 !    15.5
  600    .534 -163.6   4.161   88.9    .097   53.8    .221  -81.4 !    14.1
  700    .533 -168.6   3.613   85.1    .106   55.4    .204  -83.2 !    12.8
  800    .532 -172.9   3.195   81.8    .116   56.9    .192  -84.2 !    11.7
  900    .534 -176.8   2.866   78.8    .125   58.1    .179  -84.5 !    10.7
 1000    .535  179.7   2.603   76.2    .135   59.3    .167  -85.3 !     9.9
 1200    .545  173.7   2.206   71.2    .153   61.0    .145  -90.1 !     8.5
 1400    .557  169.2   1.931   66.6    .172   62.0    .140  -98.7 !     7.4
 1600    .561  165.5   1.724   62.2    .191   62.3    .149 -104.6 !     6.5
 1800    .563  161.2   1.570   58.5    .208   62.7    .154 -106.3 !     5.7
 2000    .574  156.6   1.447   55.2    .227   63.2    .150 -109.4 !     5.0
 2200    .593  153.0   1.343   52.4    .244   63.7    .148 -117.9 !     4.5
 2400    .612  150.6   1.251   49.2    .260   64.0    .165 -127.5 !     4.1
 2600    .620  148.8   1.171   46.3    .274   63.5    .192 -131.8 !     3.6
 2800    .616  146.0   1.122   43.2    .290   63.3    .213 -132.1 !     3.3
 3000    .618  142.3   1.074   40.7    .309   63.2    .223 -133.3 !     2.9
! Noise data:
! Freq.     Fmin        Gamma-opt         rn
  500       2.20     .304     94.7       .430
 1000       2.90     .321    136.9       .270
