! Filename:       BFT93WD.S2P                                Version:   4.0
! Philips part #: BFT93W                                     Date: Jun 1994
! Bias condition: Vce=5V, Ic=30mA
! 
#  MHz  S  MA  R  50
! Freq       S11            S21            S12            S22     !GUM [dB]
   40    .382  -62.3  28.063  151.4    .016   71.2    .781  -27.1 !    33.7
  100    .453 -113.1  19.479  126.1    .030   58.8    .543  -51.8 !    28.3
  200    .502 -144.8  11.682  107.7    .043   56.8    .327  -70.7 !    23.1
  300    .521 -158.0   8.162   98.8    .054   58.9    .232  -81.5 !    19.8
  400    .532 -165.8   6.248   92.9    .065   61.4    .185  -89.9 !    17.5
  500    .537 -170.8   5.069   88.6    .076   63.4    .161  -96.5 !    15.7
  600    .542 -174.9   4.269   84.9    .088   65.0    .148 -100.5 !    14.2
  700    .543 -178.2   3.692   81.7    .099   65.8    .139 -102.3 !    13.0
  800    .545  178.7   3.258   78.8    .111   66.4    .131 -103.2 !    11.9
  900    .548  176.0   2.917   76.1    .122   67.0    .123 -103.6 !    10.9
 1000    .552  173.2   2.644   73.8    .133   67.4    .114 -104.8 !    10.1
 1200    .565  168.6   2.233   69.2    .154   68.0    .101 -112.5 !     8.7
 1400    .577  165.0   1.948   64.9    .175   68.2    .105 -121.9 !     7.6
 1600    .584  161.7   1.734   60.8    .195   67.5    .119 -125.4 !     6.7
 1800    .586  157.9   1.577   57.3    .214   67.3    .125 -125.0 !     5.8
 2000    .598  153.6   1.451   54.2    .234   67.3    .124 -128.3 !     5.2
 2200    .620  150.3   1.345   51.5    .252   67.5    .129 -137.0 !     4.8
 2400    .639  148.1   1.251   48.7    .269   67.5    .152 -144.6 !     4.3
 2600    .646  146.3   1.169   46.0    .284   66.6    .181 -146.1 !     3.8
 2800    .642  143.4   1.118   43.0    .300   66.2    .200 -144.7 !     3.4
 3000    .644  139.8   1.071   40.5    .321   65.7    .210 -145.0 !     3.1
! Noise data:
! Freq.     Fmin        Gamma-opt         rn
  500       3.40     .308    104.2       .830
 1000       4.20     .380    164.0       .310
