! Filename:       BFT92WJ.S2P                                Version:   4.0
! Philips part #: BFT92W                                     Date: Jun 1994
! Bias condition: Vce=10V, Ic=20mA
! 
#  MHz  S  MA  R  50
! Freq       S11            S21            S12            S22     !GUM [dB]
   40    .578  -23.1  20.594  161.8    .010   78.3    .918   -9.4 !    36.1
  100    .506  -53.0  17.166  141.4    .022   68.8    .801  -19.2 !    30.4
  200    .403  -87.9  12.095  120.8    .035   63.3    .636  -24.9 !    24.7
  300    .354 -110.1   8.970  109.3    .044   62.5    .545  -25.5 !    21.2
  400    .331 -125.4   7.047  101.8    .053   63.5    .496  -25.2 !    18.7
  500    .321 -135.6   5.781   96.4    .063   64.6    .468  -25.2 !    16.8
  600    .317 -143.7   4.906   92.2    .071   65.8    .453  -25.5 !    15.3
  700    .314 -150.1   4.255   88.5    .080   66.4    .446  -25.7 !    14.0
  800    .313 -155.6   3.763   85.3    .089   67.1    .442  -25.8 !    12.9
  900    .314 -160.8   3.365   82.2    .097   67.4    .438  -25.8 !    11.9
 1000    .316 -165.8   3.050   79.6    .105   67.7    .434  -26.0 !    11.0
 1200    .332 -174.1   2.574   74.9    .120   68.1    .417  -26.9 !     9.5
 1400    .351  179.9   2.257   70.6    .135   68.5    .403  -29.7 !     8.4
 1600    .362  175.3   2.001   66.5    .151   68.6    .398  -33.7 !     7.4
 1800    .367  169.9   1.804   63.2    .163   69.3    .398  -36.4 !     6.5
 2000    .382  163.4   1.653   59.7    .178   69.8    .392  -38.2 !     5.8
 2200    .408  158.5   1.533   57.0    .191   70.4    .373  -41.0 !     5.2
 2400    .434  155.2   1.432   53.5    .206   70.7    .356  -46.4 !     4.6
 2600    .448  153.5   1.332   51.1    .219   70.7    .355  -52.9 !     4.0
 2800    .449  150.4   1.279   48.5    .233   71.4    .364  -57.5 !     3.7
 3000    .452  145.9   1.211   45.9    .250   71.8    .368  -60.4 !     3.3
! Noise data:
! Freq.     Fmin        Gamma-opt         rn
  500       3.40     .198     66.9       .680
 1000       4.80     .212    102.9       .860
