! Filename:       BFT92WA.S2P                                Version:   4.0
! Philips part #: BFT92W                                     Date: Jun 1994
! Bias condition: Vce=5V, Ic=2mA
! 
#  MHz  S  MA  R  50
! Freq       S11            S21            S12            S22     !GUM [dB]
   40    .882   -7.7   5.064  172.4    .013   84.7    .988   -3.6 !    36.7
  100    .860  -19.2   4.899  162.4    .032   77.1    .966   -9.1 !    31.4
  200    .801  -37.2   4.574  148.5    .058   67.3    .899  -16.6 !    24.8
  300    .732  -54.1   4.229  136.5    .079   59.4    .827  -22.0 !    20.9
  400    .665  -69.3   3.847  126.4    .093   53.9    .763  -26.1 !    18.0
  500    .610  -82.3   3.477  118.2    .104   50.3    .709  -29.1 !    15.9
  600    .561  -94.2   3.176  111.0    .113   48.4    .670  -31.1 !    14.3
  700    .521 -104.3   2.892  104.8    .119   47.3    .640  -32.4 !    12.9
  800    .487 -113.1   2.638   99.4    .124   46.6    .617  -33.3 !    11.7
  900    .461 -121.3   2.418   94.5    .129   46.3    .597  -34.0 !    10.6
 1000    .439 -128.8   2.228   90.5    .132   46.4    .578  -34.6 !     9.7
 1200    .417 -142.8   1.937   83.1    .140   47.2    .542  -36.2 !     8.1
 1400    .412 -154.0   1.734   76.7    .148   48.6    .518  -39.0 !     6.9
 1600    .410 -162.5   1.559   71.2    .157   50.1    .506  -42.5 !     5.9
 1800    .404 -170.2   1.422   66.9    .164   52.4    .499  -44.9 !     5.1
 2000    .404 -178.7   1.313   62.4    .173   54.5    .486  -47.0 !     4.3
 2200    .420  173.8   1.228   58.8    .182   56.5    .464  -50.1 !     3.7
 2400    .440  168.5   1.153   54.4    .192   58.2    .447  -55.3 !     3.1
 2600    .454  165.4   1.082   51.7    .202   59.7    .447  -60.9 !     2.7
 2800    .455  161.2   1.047   48.8    .214   61.7    .456  -64.8 !     2.4
 3000    .455  156.1    .996   46.1    .227   63.4    .457  -67.6 !     2.0
! Noise data:
! Freq.     Fmin        Gamma-opt         rn
  500       1.90     .380     40.0       .440
 1000       2.70     .370     68.0       .560
