! Filename:       BFT92B.S2P                                 Version:   2.0
! Philips part #: BFT92                                      Date: May 1990
! Bias condition: Vce=-5V, Ic=-5mA
!
#  MHz  S  MA  R  50
! Freq       S11            S21            S12            S22     !GUM [dB]
   40    .687  -12.9  10.480  168.4    .012   83.2    .972   -6.5 !    35.7
  100    .648  -31.4   9.739  154.2    .029   73.9    .917  -15.0 !    30.1
  200    .556  -59.4   8.379  135.4    .050   65.0    .793  -24.5 !    24.4
  300    .476  -82.7   6.984  121.4    .065   60.6    .691  -29.5 !    20.8
  400    .428 -100.1   5.849  111.7    .076   58.8    .620  -32.1 !    18.3
  500    .388 -112.9   4.956  104.1    .086   58.4    .571  -33.6 !    16.3
  600    .366 -123.3   4.314   97.9    .095   58.9    .541  -34.3 !    14.8
  700    .348 -132.2   3.795   93.2    .104   59.7    .518  -34.9 !    13.5
  800    .332 -139.6   3.403   88.6    .113   60.6    .502  -35.4 !    12.4
  900    .315 -147.0   3.056   84.6    .121   61.3    .490  -35.7 !    11.4
 1000    .306 -153.6   2.795   80.5    .131   62.0    .478  -36.1 !    10.5
 1200    .309 -166.0   2.381   74.6    .149   63.0    .464  -37.7 !     9.0
 1400    .312 -174.0   2.115   68.7    .169   63.7    .452  -39.9 !     7.9
 1600    .310  179.1   1.909   63.5    .187   64.1    .449  -41.7 !     7.0
 1800    .306  171.5   1.738   59.4    .207   64.6    .445  -43.8 !     6.2
 2000    .311  162.7   1.598   55.0    .226   64.6    .433  -45.5 !     5.4
 2200    .336  155.3   1.491   51.0    .247   64.6    .415  -48.3 !     4.8
 2400    .356  150.4   1.424   46.6    .268   63.8    .404  -53.2 !     4.4
 2600    .362  147.6   1.325   42.9    .287   63.4    .396  -57.5 !     3.8
 2800    .371  143.5   1.288   40.3    .309   63.2    .397  -60.5 !     3.6
 3000    .384  135.8   1.227   36.7    .331   62.5    .383  -63.2 !     3.2
