! Filename:       BFT92WE.S2P                                Version:   4.0
! Philips part #: BFT92W                                     Date: Jun 1994
! Bias condition: Vce=5V, Ic=20mA
! 
#  MHz  S  MA  R  50
! Freq       S11            S21            S12            S22     !GUM [dB]
   40    .357  -34.6  19.994  160.4    .010   78.8    .901  -10.4 !    33.9
  100    .357  -76.9  16.278  138.7    .020   68.5    .771  -20.6 !    28.7
  200    .361 -116.9  11.134  118.0    .032   63.1    .604  -25.7 !    23.5
  300    .370 -137.1   8.146  106.7    .041   63.0    .518  -25.7 !    20.2
  400    .377 -149.2   6.360   99.4    .050   65.3    .473  -25.4 !    17.8
  500    .382 -156.8   5.198   94.1    .058   66.4    .449  -25.4 !    16.0
  600    .388 -162.7   4.401   89.8    .067   68.1    .437  -25.8 !    14.5
  700    .391 -167.4   3.815   86.2    .075   68.9    .431  -26.2 !    13.2
  800    .393 -171.6   3.371   82.9    .083   69.8    .428  -26.5 !    12.2
  900    .397 -175.6   3.017   79.9    .091   70.3    .426  -26.7 !    11.2
 1000    .402 -179.3   2.729   77.3    .100   70.9    .422  -27.1 !    10.3
 1200    .420  174.6   2.305   72.3    .115   71.8    .407  -28.5 !     8.9
 1400    .438  170.0   2.018   67.9    .131   72.6    .393  -31.9 !     7.8
 1600    .448  165.9   1.789   63.7    .147   72.9    .390  -36.4 !     6.7
 1800    .454  161.3   1.614   60.3    .162   73.7    .391  -39.5 !     5.9
 2000    .470  155.9   1.478   56.9    .178   74.3    .385  -41.9 !     5.2
 2200    .495  151.8   1.371   54.1    .193   74.9    .367  -45.4 !     4.6
 2400    .518  149.1   1.277   50.7    .210   75.2    .352  -51.6 !     4.1
 2600    .528  147.4   1.188   48.4    .224   75.2    .353  -58.6 !     3.5
 2800    .528  144.1   1.139   45.9    .240   75.6    .365  -63.5 !     3.2
 3000    .529  139.8   1.079   43.3    .259   75.8    .369  -66.8 !     2.7
! Noise data:
! Freq.     Fmin        Gamma-opt         rn
  500       3.90     .170    139.0       .430
 1000       5.00     .230    153.0       .590
