! Filename:       BFT92WG.S2P                                Version:   4.0
! Philips part #: BFT92W                                     Date: Jun 1994
! Bias condition: Vce=10V, Ic=5mA
! 
#  MHz  S  MA  R  50
! Freq       S11            S21            S12            S22     !GUM [dB]
   40    .801  -11.0  10.511  169.5    .011   83.0    .973   -5.5 !    37.6
  100    .760  -26.8   9.857  156.6    .027   74.7    .924  -13.1 !    32.0
  200    .660  -50.7   8.622  139.3    .046   64.8    .809  -21.9 !    25.8
  300    .565  -70.7   7.363  126.1    .060   59.0    .707  -26.6 !    22.0
  400    .491  -86.8   6.243  116.2    .070   56.4    .632  -29.2 !    19.3
  500    .442  -99.4   5.357  108.9    .079   55.7    .580  -30.8 !    17.3
  600    .405 -110.5   4.680  103.0    .086   55.9    .545  -31.6 !    15.7
  700    .376 -119.4   4.131   98.1    .093   56.4    .522  -32.0 !    14.4
  800    .355 -127.3   3.692   93.8    .100   57.1    .507  -32.1 !    13.2
  900    .339 -134.5   3.329   90.0    .107   57.7    .493  -31.9 !    12.2
 1000    .327 -141.2   3.035   86.8    .114   58.3    .480  -31.8 !    11.3
 1200    .320 -153.7   2.589   80.9    .127   59.5    .453  -32.3 !     9.7
 1400    .326 -163.0   2.282   75.8    .141   60.5    .432  -34.4 !     8.6
 1600    .330 -169.7   2.033   71.1    .155   61.0    .424  -37.6 !     7.5
 1800    .328 -176.1   1.838   67.5    .167   62.0    .421  -39.6 !     6.6
 2000    .334  175.9   1.686   63.6    .180   62.7    .412  -40.9 !     5.9
 2200    .355  169.1   1.567   60.4    .192   63.4    .392  -43.2 !     5.2
 2400    .379  164.9   1.467   56.5    .205   63.8    .375  -48.1 !     4.7
 2600    .396  162.9   1.369   53.9    .216   64.1    .373  -53.8 !     4.1
 2800    .399  159.9   1.318   51.2    .227   65.0    .383  -57.9 !     3.8
 3000    .400  155.2   1.248   48.4    .241   65.6    .385  -60.4 !     3.4
! Noise data:
! Freq.     Fmin        Gamma-opt         rn
  500       2.50     .350     35.5       .560
 1000       3.00     .350     64.3       .650
