! Filename:       BFT93E.S2P                                 Version:   2.0
! Philips part #: BFT93                                      Date: May 1990
! Bias condition: Vce=-10V, Ic=-5mA
!
#  MHz  S  MA  R  50
! Freq       S11            S21            S12            S22     !GUM [dB]
   40    .813  -17.3  11.178  165.2    .021   80.7    .940  -11.4 !    35.0
  100    .748  -41.1  10.039  148.0    .049   68.0    .845  -25.7 !    29.0
  200    .619  -74.9   8.187  126.9    .078   56.8    .665  -40.7 !    22.9
  300    .532 -100.1   6.481  112.8    .096   51.7    .537  -48.6 !    19.2
  400    .487 -117.0   5.278  103.3    .108   50.1    .452  -53.3 !    16.6
  500    .452 -128.9   4.384   96.4    .120   49.9    .399  -56.0 !    14.6
  600    .434 -138.5   3.789   90.3    .131   50.3    .367  -57.7 !    13.1
  700    .422 -146.0   3.313   85.8    .142   51.1    .340  -59.1 !    11.8
  800    .407 -152.3   2.955   81.4    .153   52.0    .322  -59.9 !    10.7
  900    .396 -158.4   2.667   77.6    .164   52.5    .308  -60.7 !     9.7
 1000    .389 -164.3   2.433   73.7    .176   53.0    .295  -61.2 !     8.8
 1200    .395 -173.5   2.072   67.7    .197   53.7    .278  -63.3 !     7.4
 1400    .405  178.8   1.842   61.6    .220   54.2    .266  -66.5 !     6.4
 1600    .400  173.7   1.676   56.3    .242   54.0    .261  -69.1 !     5.5
 1800    .401  167.4   1.537   51.8    .264   54.0    .256  -71.4 !     4.8
 2000    .410  160.6   1.424   47.7    .285   53.7    .244  -74.4 !     4.1
 2200    .427  154.7   1.328   44.0    .307   53.5    .230  -79.6 !     3.6
 2400    .449  149.5   1.265   39.6    .329   52.7    .225  -87.5 !     3.2
 2600    .465  147.0   1.178   35.7    .346   52.0    .228  -94.2 !     2.7
 2800    .472  143.4   1.153   33.0    .368   51.5    .232  -98.6 !     2.6
 3000    .483  137.2   1.110   29.9    .393   50.8    .224 -103.7 !     2.3
