! Filename:       BFT93WH.S2P                                Version:   4.0
! Philips part #: BFT93W                                     Date: Jun 1994
! Bias condition: Vce=10V, Ic=30mA
! 
#  MHz  S  MA  R  50
! Freq       S11            S21            S12            S22     !GUM [dB]
   40    .617  -39.1  28.045  153.9    .017   73.1    .797  -22.6 !    35.4
  100    .529  -82.4  20.389  129.6    .032   60.3    .583  -44.1 !    29.4
  200    .464 -120.8  12.630  110.4    .047   56.4    .364  -59.3 !    23.7
  300    .449 -139.7   8.920  101.0    .058   57.3    .259  -66.3 !    20.3
  400    .446 -151.0   6.853   94.8    .069   59.4    .204  -71.2 !    17.9
  500    .446 -158.1   5.569   90.3    .081   60.9    .174  -75.0 !    16.0
  600    .448 -163.5   4.694   86.5    .092   62.2    .158  -77.2 !    14.5
  700    .449 -167.8   4.060   83.3    .103   63.0    .147  -77.7 !    13.2
  800    .450 -171.7   3.579   80.4    .115   63.6    .139  -77.1 !    12.1
  900    .452 -175.1   3.204   77.7    .126   63.8    .131  -75.9 !    11.2
 1000    .456 -178.5   2.902   75.4    .136   64.1    .122  -75.0 !    10.3
 1200    .472  175.9   2.448   70.8    .157   64.3    .103  -77.7 !     8.9
 1400    .488  171.7   2.134   66.6    .176   64.2    .097  -87.1 !     7.8
 1600    .498  168.1   1.898   62.5    .194   63.6    .106  -94.6 !     6.9
 1800    .502  164.0   1.721   59.1    .211   63.4    .112  -95.7 !     6.0
 2000    .516  159.3   1.580   56.0    .229   63.5    .108  -98.0 !     5.4
 2200    .539  155.4   1.464   53.2    .245   63.7    .103 -108.1 !     4.8
 2400    .562  152.9   1.362   50.2    .260   63.6    .116 -121.5 !     4.4
 2600    .575  151.2   1.273   47.4    .272   63.0    .141 -127.4 !     3.9
 2800    .573  148.4   1.217   44.5    .287   62.9    .162 -127.3 !     3.5
 3000    .576  144.7   1.164   42.0    .305   62.6    .172 -128.1 !     3.2
! Noise data:
! Freq.     Fmin        Gamma-opt         rn
  500       3.60     .250    101.0       .550
 1000       4.20     .310    143.0       .480
