! Filename:       BFT92A.S2P                                 Version:   2.0
! Philips part #: BFT92                                      Date: May 1990
! Bias condition: Vce=-5V, Ic=-2mA
!
#  MHz  S  MA  R  50
! Freq       S11            S21            S12            S22     !GUM [dB]
   40    .859   -7.6   5.019  172.2    .014   84.9    .988   -4.0 !    36.1
  100    .839  -18.4   4.831  162.1    .034   78.5    .969   -9.4 !    31.0
  200    .781  -36.5   4.528  148.0    .062   69.2    .910  -17.1 !    24.9
  300    .711  -53.6   4.217  135.6    .085   62.0    .845  -22.8 !    21.0
  400    .649  -68.5   3.862  125.6    .102   57.0    .788  -27.2 !    18.3
  500    .590  -81.0   3.485  116.9    .116   53.5    .739  -30.3 !    16.1
  600    .543  -92.5   3.192  109.3    .127   51.0    .705  -32.5 !    14.6
  700    .501 -102.2   2.901  103.1    .135   49.5    .673  -34.5 !    13.1
  800    .466 -110.6   2.664   97.2    .141   48.5    .648  -35.7 !    11.9
  900    .429 -118.4   2.438   92.3    .147   48.0    .625  -37.0 !    10.8
 1000    .401 -126.0   2.255   87.3    .152   47.9    .605  -37.9 !     9.8
 1200    .378 -141.0   1.961   79.5    .162   48.1    .579  -40.3 !     8.3
 1400    .366 -152.8   1.773   72.4    .172   49.5    .560  -42.9 !     7.2
 1600    .354 -162.6   1.621   66.5    .181   51.8    .544  -45.0 !     6.3
 1800    .341 -171.1   1.483   61.7    .194   54.1    .536  -47.1 !     5.4
 2000    .342  178.0   1.372   57.0    .207   55.9    .520  -49.4 !     4.7
 2200    .350  168.7   1.283   52.2    .222   57.7    .499  -52.8 !     4.0
 2400    .371  161.9   1.230   47.7    .241   58.9    .485  -57.3 !     3.6
 2600    .379  157.3   1.156   43.6    .258   59.9    .476  -61.5 !     3.0
 2800    .386  151.7   1.124   40.8    .279   61.1    .477  -64.7 !     2.8
 3000    .395  143.2   1.075   37.6    .302   61.5    .459  -67.8 !     2.4
