! Filename:       BFT93WE.S2P                                Version:   4.0
! Philips part #: BFT93W                                     Date: Jun 1994
! Bias condition: Vce=8V, Ic=5mA
! 
#  MHz  S  MA  R  50
! Freq       S11            S21            S12            S22     !GUM [dB]
   40    .837  -16.8  11.098  166.4    .020   80.4    .947  -10.2 !    36.0
  100    .781  -40.2  10.061  150.4    .046   67.6    .856  -23.6 !    29.9
  200    .670  -73.9   8.331  130.4    .073   54.7    .674  -38.2 !    23.6
  300    .592  -98.6   6.727  116.7    .088   48.3    .537  -46.3 !    19.9
  400    .547 -116.1   5.490  107.3    .098   45.8    .447  -51.2 !    17.3
  500    .523 -128.7   4.616  100.5    .106   45.2    .389  -54.5 !    15.4
  600    .507 -138.6   3.971   94.9    .114   45.6    .352  -56.5 !    13.8
  700    .495 -146.1   3.476   90.3    .121   46.4    .327  -57.6 !    12.5
  800    .487 -152.5   3.094   86.3    .129   47.3    .309  -58.0 !    11.4
  900    .481 -158.1   2.782   82.6    .136   48.2    .294  -57.8 !    10.4
 1000    .478 -163.1   2.532   79.5    .143   49.3    .279  -57.8 !     9.5
 1200    .483 -171.8   2.155   73.7    .156   51.0    .250  -59.2 !     8.1
 1400    .493 -178.2   1.895   68.4    .171   52.4    .234  -63.8 !     7.0
 1600    .499  176.9   1.694   63.6    .185   53.2    .232  -69.2 !     6.1
 1800    .501  172.0   1.541   59.6    .198   54.4    .233  -71.8 !     5.3
 2000    .509  166.5   1.418   55.9    .212   55.5    .227  -74.1 !     4.6
 2200    .529  161.8   1.317   52.6    .224   56.5    .215  -79.5 !     4.0
 2400    .550  158.8   1.228   49.0    .236   57.2    .215  -88.7 !     3.6
 2600    .564  156.7   1.148   45.9    .246   57.5    .232  -96.4 !     3.1
 2800    .564  153.7   1.100   42.8    .259   58.2    .253 -100.1 !     2.8
 3000    .569  150.0   1.051   40.2    .274   58.9    .262 -102.7 !     2.4
! Noise data:
! Freq.     Fmin        Gamma-opt         rn
  500       2.00     .340     73.0       .440
 1000       2.50     .380    105.0       .360
