! Filename:       BFT92WB.S2P                                Version:   4.0
! Philips part #: BFT92W                                     Date: Jun 1994
! Bias condition: Vce=5V, Ic=5mA
! 
#  MHz  S  MA  R  50
! Freq       S11            S21            S12            S22     !GUM [dB]
   40    .733  -13.0  10.716  168.7    .012   82.5    .970   -6.2 !    36.2
  100    .693  -32.0   9.962  154.7    .028   72.9    .913  -14.5 !    30.6
  200    .597  -60.4   8.548  136.3    .047   62.6    .782  -23.5 !    24.7
  300    .519  -83.4   7.152  122.8    .060   56.9    .676  -28.0 !    21.1
  400    .464 -101.3   5.979  113.0    .069   54.8    .601  -30.4 !    18.5
  500    .432 -114.7   5.080  105.8    .077   54.4    .551  -31.7 !    16.6
  600    .409 -125.9   4.408  100.1    .084   55.0    .520  -32.4 !    15.0
  700    .392 -134.6   3.878   95.3    .091   55.9    .499  -32.8 !    13.7
  800    .379 -142.3   3.459   91.1    .098   57.0    .485  -32.9 !    12.6
  900    .370 -149.1   3.111   87.4    .105   57.9    .474  -32.8 !    11.6
 1000    .365 -155.3   2.831   84.2    .111   58.9    .462  -32.8 !    10.7
 1200    .368 -166.1   2.412   78.4    .125   60.6    .437  -33.5 !     9.2
 1400    .378 -173.9   2.125   73.3    .139   61.9    .418  -36.1 !     8.1
 1600    .384 -179.6   1.893   68.6    .153   62.8    .411  -39.7 !     7.0
 1800    .383  174.3   1.713   64.9    .166   64.0    .409  -42.0 !     6.2
 2000    .393  167.5   1.573   61.1    .180   65.0    .401  -43.7 !     5.4
 2200    .414  161.8   1.462   57.9    .193   65.9    .382  -46.6 !     4.8
 2400    .438  158.2   1.368   54.1    .207   66.5    .366  -52.0 !     4.3
 2600    .451  156.3   1.276   51.5    .219   66.8    .366  -58.3 !     3.7
 2800    .453  153.2   1.228   48.7    .233   67.7    .377  -62.6 !     3.4
 3000    .454  148.8   1.164   45.9    .249   68.2    .380  -65.4 !     3.0
! Noise data:
! Freq.     Fmin        Gamma-opt         rn
  500       2.40     .230     54.0       .390
 1000       3.10     .260     82.0       .510
