! Date/Time: Fri 23/May/2008 12:33:05
! BFU725F_2V8mA
! bias mode 1: Vout= 2.0006 V, Iout= 7.9980 mA, Vin= 0.7975 V, Iin= 0.0161 mA
! Date/time Tue May 06 16:22:22 2008
# MHz S MA R 50
!  Freq-MHz   S11-mag  S11-arg   S21-mag  S21-arg   S12-mag  S12-arg   S22-mag  S22-arg
         40   0.94907    -2.69     23.73   176.49 0.0019429    88.71   0.99844    -1.61
         50   0.94396    -3.24    23.693   175.97 0.0022269    88.75   0.99819    -2.03
         60   0.94849    -3.77      23.7   175.56 0.0024988    86.16   0.99577    -2.40
         70   0.94947    -4.57    23.689   175.08 0.0031477    89.80   0.99882    -3.03
         80   0.94637    -5.19    23.716   174.81 0.0035462    86.56   0.99656    -3.49
         90   0.94384    -5.85    23.727   174.41 0.0040556    86.60   0.99668    -4.00
        100   0.94564    -6.63    23.742   173.88 0.0046273    85.46   0.99592    -4.58
        120   0.94104    -7.82    23.613   173.05 0.0053048    83.72   0.99373    -5.37
        140   0.94057    -9.25    23.638   172.13 0.0062282    84.11   0.99384    -6.35
        160   0.94067   -10.50    23.587   171.14 0.0069975    83.68   0.99261    -7.21
        180   0.93712   -11.81    23.544   170.23 0.0078142    82.31   0.98999    -8.07
        200   0.93622   -13.11    23.485   169.19 0.0087607    82.02   0.98881    -9.05
        220   0.93406   -14.52    23.464   168.31 0.0096629    80.91   0.98614    -9.97
        240   0.93378   -15.81    23.454   167.32  0.010502    80.66   0.98512   -10.88
        260   0.93265   -17.09    23.374   166.35  0.011283    79.60   0.98187   -11.74
        280   0.93081   -18.48    23.379   165.36  0.012237    78.96   0.97951   -12.70
        300   0.92844   -19.75    23.277   164.34  0.013041    78.12    0.9769   -13.57
        320   0.92677   -20.94    23.183   163.45  0.013853    77.39   0.97415   -14.41
        340   0.92325   -22.22    23.077   162.50  0.014662    76.67   0.97147   -15.29
        360   0.92101   -23.49    22.973   161.64   0.01551    75.84   0.96842   -16.19
        380   0.91771   -24.78    22.895   160.60   0.01632    75.10   0.96506   -17.07
        400   0.91378   -26.08    22.845   159.69  0.017093    74.52   0.96185   -17.92
        420   0.91007   -27.36    22.762   158.61  0.017873    73.77   0.95848   -18.75
        440   0.90749   -28.59    22.644   157.68  0.018652    72.95   0.95397   -19.61
        460   0.90602   -29.89    22.588   156.82  0.019459    72.24   0.95006   -20.47
        480   0.90347   -31.13    22.518   155.85  0.020205    71.65    0.9467   -21.31
        500   0.90024   -32.39     22.43   154.85  0.020948    70.95   0.94258   -22.11
        550   0.88978   -35.21    22.008   152.43  0.022823    69.19   0.93306   -24.18
        600   0.87976   -38.16    21.707   150.30   0.02461    67.44   0.92123   -26.26
        650   0.87237   -41.12    21.425   148.29  0.026306    65.76   0.90855   -28.21
        700   0.86465   -44.19     21.23   146.22  0.027964    64.14    0.8963   -30.19
        750   0.85506   -46.97    20.879   144.19   0.02952    62.46   0.88316   -32.07
        800   0.84604   -49.54    20.439   142.36  0.031049    60.94   0.87091   -33.98
        850   0.83756   -52.37    20.151   140.53  0.032491    59.64   0.85587   -35.70
        900   0.82905   -55.38     20.01   138.50  0.033924    58.27   0.84326   -37.33
        950   0.81901   -58.11    19.725   136.53  0.035304    56.86    0.8312   -39.02
       1000   0.80743   -60.85    19.421   134.66  0.036597    55.41   0.81852   -40.71
       1050    0.7971   -63.42    19.084   132.84  0.037797    54.09   0.80434   -42.37
       1100   0.78785   -66.00    18.802   131.03  0.038919    52.98   0.79043   -43.86
       1150   0.77843   -68.52    18.513   129.22  0.040084    51.71   0.77746   -45.43
       1200   0.76804   -70.97    18.187   127.56  0.041175    50.44   0.76531   -46.91
       1250   0.75894   -73.27    17.839   125.97  0.042146    49.32   0.75316   -48.42
       1300   0.75004   -75.95    17.604   124.28   0.04307    48.30   0.73855   -49.79
       1350   0.74008   -78.34    17.346   122.60  0.044016    47.26   0.72566   -51.16
       1400    0.7306   -80.59    17.032   121.04  0.044895    46.21   0.71333   -52.45
       1450   0.72083   -82.85    16.726   119.52   0.04572    45.20   0.70074   -53.78
       1500   0.71386   -85.09    16.452   118.05  0.046527    44.24   0.68849   -55.12
       1550   0.70666   -87.32    16.181   116.60   0.04726    43.35   0.67517   -56.35
       1600   0.69688   -89.41    15.905   115.12  0.047973    42.44   0.66377   -57.49
       1650   0.68767   -91.63    15.642   113.71  0.048675    41.57   0.65317   -58.68
       1700   0.67991   -93.78     15.38   112.34  0.049327    40.72   0.64258   -59.88
       1750     0.673   -95.82    15.124   110.93  0.049955    39.94   0.63171   -60.98
       1800    0.6648   -97.76    14.862   109.61  0.050571    39.17   0.62144   -62.02
       1850   0.65677   -99.74     14.62   108.33  0.051154    38.42   0.61097   -63.06
       1900   0.65013  -101.80    14.388   107.03  0.051729    37.72    0.6002   -64.11
       1950    0.6442  -103.66    14.157   105.78  0.052251    37.08   0.59023   -65.10
       2000   0.63623  -105.50    13.913   104.52  0.052743    36.37   0.58034   -66.13
       2050   0.62923  -107.30    13.665   103.31  0.053254    35.67   0.57039   -67.19
       2100     0.624  -109.07    13.452   102.21  0.053738    35.10   0.56192   -68.10
       2150   0.61885  -110.87    13.249   101.06  0.054228    34.51   0.55357   -69.07
       2200   0.61356  -112.59    13.043    99.93  0.054667    33.94   0.54474   -69.92
       2250   0.60752  -114.38    12.831    98.83  0.055054    33.35    0.5363   -70.72
       2300   0.60208  -116.19    12.637    97.72  0.055497    32.79    0.5284   -71.70
       2350   0.59814  -117.84    12.451    96.61  0.055942    32.25    0.5204   -72.68
       2400   0.59305  -119.41    12.256    95.52  0.056307    31.69   0.51195   -73.54
       2450   0.58711  -121.04    12.048    94.50  0.056646    31.15   0.50409   -74.38
       2500    0.5827  -122.79    11.862    93.50  0.057049    30.61   0.49661   -75.24
       2600   0.57501  -125.76    11.512    91.51  0.057682    29.65   0.48184   -76.94
       2700   0.56554  -128.82    11.165    89.65  0.058262    28.74   0.46902   -78.62
       2800   0.56056  -131.69    10.846    87.80  0.058792    27.95   0.45526   -80.05
       2900   0.55267  -134.73    10.551    85.99  0.059402    27.19   0.44234   -81.67
       3000   0.54728  -137.53    10.262    84.23  0.059913    26.41   0.42952   -83.31
       3100   0.54064  -140.30    9.9956    82.51  0.060382    25.75   0.41672   -84.70
       3200   0.53817  -143.04    9.7374    80.85  0.060958    25.18   0.40648   -85.99
       3300   0.53081  -145.75    9.4849    79.21  0.061467    24.50   0.39632   -87.45
       3400   0.52846  -148.20    9.2594    77.62  0.061975    23.94   0.38661   -88.69
       3500   0.52366  -150.67    9.0377    76.01   0.06248    23.39   0.37571   -90.13
       3600   0.51969  -153.33    8.8191    74.38  0.062922    22.81   0.36722   -91.70
       3700   0.51562  -155.66    8.6211    72.85  0.063455    22.32   0.35921   -92.89
       3800   0.51422  -158.11    8.4288    71.30  0.063946    21.81   0.34938   -94.08
       3900   0.50915  -160.44    8.2332    69.73  0.064395    21.33   0.34093   -95.61
       4000   0.50725  -162.80    8.0506    68.29  0.064858    20.82   0.33415   -96.97
       4100   0.50397  -164.91    7.8806    66.77  0.065329    20.36   0.32606   -98.22
       4200   0.50289  -167.24    7.7139    65.31  0.065825    19.91    0.3192   -99.67
       4300   0.49944  -169.21    7.5485    63.90  0.066184    19.50   0.31283  -100.85
       4400   0.49911  -171.49     7.402    62.50  0.066726    19.13   0.30421  -102.06
       4500   0.49781  -173.38    7.2534    61.04  0.067175    18.65   0.29732  -103.81
       4600   0.49586  -175.66    7.1042    59.61  0.067615    18.27   0.29312  -105.13
       4700   0.49556  -177.52    6.9687    58.22  0.068082    17.83   0.28568  -106.27
       4800   0.49442  -179.69    6.8312    56.85  0.068526    17.43   0.27808  -107.72
       4900   0.49275   178.41    6.7016    55.45  0.068941    17.06   0.27383  -109.29
       5000   0.49178   176.52     6.577    54.13  0.069429    16.71    0.2677  -110.34
       5200   0.49136   172.71    6.3364    51.51  0.070342    16.05   0.25826  -113.39
       5400   0.49164   168.93    6.1231    48.87  0.071329    15.38   0.24535  -116.48
       5600   0.49068   165.47    5.9121    46.31  0.072255    14.70   0.23899  -119.15
       5800   0.49152   161.98    5.7206    43.67  0.073212    13.97   0.22905  -122.74
       6000   0.49428   158.66    5.5381    41.14  0.074233    13.31   0.21867  -126.02
       6200    0.4943   155.41    5.3618    38.70  0.075319    12.75   0.21351  -128.70
       6400   0.49731   151.97    5.1944    36.16  0.076263    12.07   0.20435  -133.12
       6600   0.50022   148.98    5.0421    33.74  0.077383    11.43   0.19702  -136.00
       6800   0.50361   145.97    4.8971    31.25  0.078599    10.77    0.1936  -139.60
       7000   0.50628   142.96    4.7544    28.86  0.079619    10.11     0.186  -144.53
       7200   0.50936   140.29    4.6306    26.53  0.080944     9.52   0.17974  -147.05
       7400   0.51227   137.36    4.5001    24.14  0.082047     8.87   0.17634  -151.54
       7600    0.5175   134.88    4.3914    21.89  0.083645     8.19   0.17393  -156.16
       7800    0.5219   132.17    4.2806    19.48  0.084918     7.46   0.16848  -160.26
       8000   0.52893   129.21    4.1703    17.07  0.086161     6.72   0.16816  -165.00
       8200   0.53393   126.69    4.0748    14.78  0.087818     5.94   0.16482  -170.43
       8400   0.53726   124.12     3.977    12.39  0.089133     5.13   0.16518  -174.30
       8600   0.54187   121.44    3.8736    10.03    0.0904     4.17   0.16499   179.93
       8800   0.54749   119.01    3.7804     7.83  0.091758     3.57   0.16348   174.65
       9000   0.55374   116.68     3.702     5.54  0.093351     2.59   0.16574   170.80
       9200   0.55922   114.20    3.6232     3.13   0.09493     1.70   0.17017   165.06
       9400   0.56601   111.58    3.5351     0.76  0.096377     0.77   0.17174   159.56
       9600   0.57104   109.18    3.4493    -1.56  0.097694    -0.31   0.17363   155.29
       9800    0.5764   107.00    3.3842    -3.62  0.099243    -1.10   0.18026   150.40
      10000    0.5824   104.78    3.3278    -6.02   0.10141    -2.01   0.18354   146.65
      10500    0.6033    99.14    3.1425   -12.11   0.10527    -5.19   0.20489   135.54
      11000   0.61758    93.57    2.9815   -17.75   0.10889    -8.18   0.22623   124.05
      11500   0.64168    88.78    2.8437   -23.45   0.11284   -10.86   0.24652   115.40
      12000   0.66175    83.51    2.6849   -29.24   0.11665   -14.00   0.27783   107.38
      12500   0.67844    78.70    2.5532   -34.98   0.12006   -17.52   0.30829    99.51
      13000    0.6965    73.88    2.4266   -40.56   0.12345   -21.25   0.33882    92.85
      13500   0.73017    69.29    2.3226   -46.27   0.12682   -24.89   0.37363    86.73
      14000   0.73763    63.84    2.2012   -52.18   0.12899   -29.12   0.41412    80.19
      14500   0.76022    59.04    2.0908   -57.92   0.13004   -32.74   0.44669    74.24
      15000   0.78312    55.41    1.9744   -63.07   0.13294   -36.20   0.48307    69.64
      15500   0.79497    50.13    1.8683   -68.92   0.13463   -40.48   0.52227    64.31
      16000   0.82105    46.64    1.7796   -74.18   0.13369   -44.68   0.55783    59.35
      16500   0.84636    42.98    1.6815   -79.77    0.1332   -47.55   0.59336    54.33
      17000   0.86035    37.34    1.5821   -85.66    0.1345   -51.78   0.62093    49.67
      17500   0.88218    33.59    1.4975   -91.40   0.13129   -54.93   0.65613    45.35
      18000   0.88215    29.29    1.3759   -96.69   0.13118   -56.30   0.67394    39.91
      18500   0.87862    25.63    1.2904  -100.91   0.13488   -59.64   0.68984    37.46
      19000   0.89604    23.03    1.2141  -104.79   0.13796   -62.35   0.72373    34.17
      19500   0.91006    19.01     1.143  -110.16   0.14016   -68.10   0.73109    29.40
      20000   0.93245    14.58    1.0699  -114.01   0.13432   -68.59   0.76199    28.89
      20500   0.92445     9.96    1.0091  -118.31   0.14698   -73.73   0.78956    25.05
      21000   0.91274     7.26   0.96459  -122.84   0.15156   -79.27   0.80103    22.33
      21500   0.88625     5.50   0.91386  -126.34   0.14853   -87.26   0.84691    20.99
      22000   0.88742     3.37   0.84411  -131.28   0.13962   -93.70   0.85023    15.26
      22500   0.91664     1.29   0.80299  -134.82   0.12756   -95.91   0.85546    15.38
      23000   0.92023    -1.51     0.756  -139.35   0.12853   -97.73   0.89626    12.00
      23500   0.93204    -4.87   0.69866  -144.15   0.12153  -101.80   0.89728     8.95
      24000   0.94366    -8.49   0.64251  -148.32   0.12174  -106.13   0.93493     7.90
      24500   0.88679    -5.55   0.62595  -148.62   0.11415  -104.72   0.93209     2.93
      25000   0.95354    -4.08   0.61051  -150.19   0.11823  -105.53   0.91937     2.55
