! Title: BGA2001 
! Bias: Vce=2V; Ic=2.8mA controlled / noise data included
! Company: Philips Semiconductors NL
! User: Quality&Reliability T&D
! Measure time: 23 Oct 1998 / 08:33:35
#  MHz  S  MA  R 50
! Freq       S11             S21             S12             S22    :
  100  0.86858 -6.168  7.20785 173.34 0.005642 59.844  0.93397 -5.413
  200  0.87044 -12.62  7.04996 167.28 0.011133 81.830  0.92206 -10.53
  300  0.86052 -19.45  6.94236 161.45 0.018944 79.788  0.90146 -15.48
  400  0.84524 -26.01  6.77414 156.04 0.025664 75.339  0.87684 -19.92
  500  0.82874 -32.20  6.54369 151.02 0.031554 71.461  0.85540 -24.03
  600  0.80952 -38.33  6.37452 146.22 0.036963 67.881  0.83132 -27.92
  700  0.78950 -44.15  6.15610 141.64 0.041761 64.642  0.80840 -31.53
  800  0.76542 -50.09  6.00689 137.02 0.046118 61.536  0.78386 -34.99
  900  0.74156 -55.78  5.79076 132.36 0.049788 58.734  0.75903 -38.26
 1000  0.71879 -61.37  5.56144 128.30 0.053130 56.328  0.73439 -41.58
 1200  0.67849 -72.66  5.19844 120.48 0.058879 51.989  0.68727 -47.93
 1400  0.64629 -83.51  4.91862 113.34 0.063665 48.435  0.64929 -53.84
 1600  0.61731 -92.90  4.54874 106.78 0.066635 46.088  0.61463 -58.88
 1800  0.58456 -101.8  4.17594 101.28 0.068500 45.056  0.57610 -63.11
 2000  0.55174 -111.5  3.89976 95.421 0.070248 43.268  0.53232 -67.79
 2200  0.53640 -121.9  3.65908 89.813 0.071700 41.661  0.49625 -73.82
 2400  0.54031 -130.7  3.42551 84.487 0.073068 41.245  0.47760 -80.24
 2600  0.54727 -137.2  3.20663 79.855 0.074634 42.286  0.47211 -85.09
 2800  0.54039 -142.9  3.06731 75.971 0.076876 42.408  0.46027 -88.23
 3000  0.52734 -149.3  2.90556 72.130 0.078467 43.231  0.43489 -91.53
! Noise data:
!Freq   Fmin    Gamma-opt       rn
  900   1.19    0.43    19      0.33
 1000   1.22    0.42    18      0.32
 1800   1.134   0.398   62.94   0.265
 2000   1.181   0.359   74.05   0.262
 2200   1.384   0.299   83.76   0.228
 2400   1.525   0.289   94.61   0.217