! Title: BGA2001 
! Bias: Vce=4V; Ic=7.0mA controlled / noise data included
! Company: Philips Semiconductors NL
! User: Quality&Reliability T&D
! Measure time: 23 Oct 1998 / 08:34:25
#  MHz  S  MA  R 50
! Freq       S11             S21             S12             S22    :
  100  0.79450 -8.533 13.93928 171.66 0.005287 67.174  0.86690 -5.100
  200  0.78662 -17.07 13.61206 164.33 0.009872 74.852  0.86064 -10.30
  300  0.76840 -25.90 13.29339 157.07 0.015273 74.515  0.84470 -15.67
  400  0.74260 -34.35 12.79823 150.28 0.020028 71.410  0.82012 -20.66
  500  0.71443 -42.20 12.18507 144.11 0.024207 68.128  0.79375 -25.26
  600  0.68330 -49.79 11.64750 138.32 0.027868 65.233  0.76514 -29.34
  700  0.65219 -56.82 11.05027 132.97 0.031012 62.721  0.73641 -32.96
  800  0.61785 -63.76 10.53045 127.79 0.033802 60.458  0.70683 -36.25
  900  0.58689 -70.20  9.94192 122.91 0.036042 58.792  0.67760 -39.24
 1000  0.55798 -76.57  9.38668 118.63 0.038273 57.450  0.64952 -42.15
 1200  0.51159 -88.93  8.45133 110.80 0.041899 55.451  0.59951 -47.58
 1400  0.47906 -100.2  7.70897 104.03 0.045158 54.413  0.56252 -52.50
 1600  0.45214 -109.6  6.94569 97.995 0.047767 54.452  0.53126 -56.51
 1800  0.42395 -118.7  6.25793 93.015 0.050233 55.582  0.49808 -59.68
 2000  0.40176 -128.7  5.73738 88.000 0.052799 55.899  0.46040 -63.38
 2200  0.39827 -138.9  5.29391 83.305 0.055533 56.121  0.42856 -68.72
 2400  0.40930 -146.5  4.89334 78.794 0.058621 56.993  0.41299 -74.79
 2600  0.41770 -151.4  4.53884 74.757 0.062278 58.641  0.41151 -79.41
 2800  0.41258 -156.1  4.29000 71.461 0.066218 59.217  0.40515 -82.10
 3000  0.40483 -162.0  4.03588 68.211 0.069989 60.006  0.38450 -84.72
! Noise data:
!Freq   Fmin    Gamma-opt       rn
  900   1.47    0.26    20.2    0.3
 1000   1.55    0.23    16.8    0.27
 1800   1.45    0.239   72.9    0.263
 2000   1.499   0.188   72.27   0.212
 2200   1.612   0.167   82.61   0.213
 2400   1.669   0.17    103.17  0.217