! Bias: Vs=5.00 V; Is=23.5 mA                
#  MHz  S  MA  R 50                
! Freq  S11              S21               S12               S22  
100   0.23362  32.281  12.90523  21.565  0.036496  16.408  0.16296  61.578
200   0.25252  11.824  13.22858  4.852   0.032314  5.728   0.13501  60.573
300   0.2566   3.412   13.34067  -3.851  0.030488  -1.061  0.11415  52.703
400   0.25838  -2.149  13.4358   -10.31  0.029604  -5.865  0.10353  41.717
500   0.25953  -5.814  13.46858  -15.9   0.028477  -8.879  0.09026  29.414
600   0.2599   -8.784  13.51088  -21.14  0.027122  -11.45  0.08508  16.95
700   0.26163  -10.98  13.54721  -26.1   0.025883  -13.67  0.08593  6.415
800   0.26278  -12.76  13.56715  -30.93  0.024611  -15.08  0.08889  -1.879
900   0.26476  -14.15  13.60149  -35.72  0.023332  -16.06  0.09234  -8.569
1000  0.26695  -14.88  13.65916  -40.37  0.022107  -16.33  0.09716  -13.36
1100  0.27025  -15.91  13.69536  -45.03  0.021001  -16.08  0.10044  -17.83
1200  0.27404  -16.3   13.74736  -49.83  0.019986  -15.67  0.10279  -20.25
1300  0.27665  -16.41  13.81623  -54.56  0.01906   -14.67  0.10399  -22.01
1400  0.27921  -16.51  13.85661  -59.47  0.018217  -13.42  0.10385  -23.24
1500  0.28269  -16.56  13.93846  -64.49  0.017635  -12     0.10222  -24.06
1600  0.28486  -16.78  14.03414  -69.5   0.017049  -9.927  0.09915  -24.08
1700  0.28616  -16.8   14.09216  -74.77  0.016558  -8.202  0.09516  -23.18
1800  0.28749  -17.25  14.16012  -80.23  0.016409  -5.968  0.08963  -20.58
1900  0.2873   -17.34  14.22938  -85.84  0.016084  -3.573  0.08263  -18.16
2000  0.28601  -17.76  14.23586  -91.65  0.015912  -2.04   0.07679  -14.48
2100  0.28078  -18.27  14.21464  -97.77  0.015947  -0.137  0.06966  -10.11
2200  0.27487  -18.98  14.1443   -103.9  0.015829  1.077   0.06246  -4.507
2300  0.26473  -19.84  13.96359  -110.4  0.01596   1.887   0.05402  2.457
2400  0.25176  -19.94  13.70546  -117    0.016054  3.361   0.04455  11.808
2500  0.23367  -19.83  13.31354  -123.4  0.015874  3.21    0.03229  25.885
2600  0.21405  -17.09  12.75365  -129.7  0.015801  3.145   0.02367  98.126
2700  0.206    -15.19  12.37591  -133.6  0.015782  6.624   0.05109  84.997
2800  0.19288  -11.85  11.96153  -138.7  0.015406  7.602   0.05778  104.35
2900  0.18788  -8.291  11.63887  -143.1  0.015116  8.457   0.07602  114.89
3000  0.18347  -6.228  11.33015  -147.6  0.015049  11.411  0.09485  119.98
3100  0.17953  -5.304  11.15202  -151.5  0.014709  14.435  0.1134   122.12
3200  0.17459  -6.327  10.94943  -156.3  0.015098  15.52   0.12948  123.28
3300  0.167    -9.341  10.79723  -162    0.01567   18.578  0.14475  125.11
3400  0.15344  -14.14  10.65459  -167.3  0.015529  20.649  0.15325  126.56
3500  0.13316  -20.99  10.44706  -173.2  0.016489  21.387  0.16276  128.4
3600  0.10799  -26.12  10.28106  -179.1  0.017107  23.92   0.16627  131.67
3700  0.08377  -32.36  9.93032   176.01  0.017267  23.273  0.16551  135.42
3800  0.05984  -39.66  9.56897   169.99  0.018529  23.226  0.16317  140.54
3900  0.03687  -43.9   9.33214   163.53  0.018778  23.67   0.15826  147.5
4000  0.02595  -28.87  8.97718   157.28  0.019276  18.403  0.14602  157.03