! Bias: Vs=5 V; Is=12.6 mA                           
#  MHz  S  MA  R 50
! Freq  S11              S21              S12               S22    
100   0.14563  -3.502  4.4867   -1.843  0.062206  -2.939  0.13029  -174.5
200   0.15253  5.557   4.4944   -6.788  0.061179  -8.095  0.1264   169.58
300   0.16913  9.312   4.49364  -11.17  0.059561  -12.37  0.12338  158.46
400   0.18735  10.061  4.48413  -15.22  0.057514  -16.61  0.11957  148.02
500   0.20818  9.035   4.47716  -19.2   0.055085  -19.96  0.11502  137.74
600   0.22695  8.206   4.48626  -22.94  0.052405  -22.85  0.11288  126.58
700   0.24116  5.49    4.48878  -26.84  0.04985   -25.45  0.11119  115.67
800   0.26122  2.635   4.49859  -30.57  0.047445  -27.72  0.11286  104.24
900   0.27458  0.248   4.50899  -34.38  0.04449   -29.12  0.11518  92.979
1000  0.28776  -2.465  4.53908  -38.34  0.041873  -31.17  0.12236  82.57
1100  0.29931  -5.289  4.56953  -42.2   0.038911  -32.33  0.12956  73.031
1200  0.30888  -8.179  4.60522  -46.14  0.036666  -32.98  0.14066  65.815
1300  0.31425  -10.54  4.64567  -50.29  0.034408  -33.02  0.15118  59.218
1400  0.32055  -13.16  4.6862   -54.45  0.032515  -33.25  0.16341  53.911
1500  0.32227  -16.01  4.74165  -58.74  0.0305    -32.51  0.1748   48.996
1600  0.32492  -17.85  4.79293  -63.29  0.029039  -32.38  0.18689  45.122
1700  0.31972  -20.49  4.85502  -68.06  0.027453  -31.32  0.19802  41.658
1800  0.31849  -22.43  4.9219   -72.67  0.026245  -29.24  0.20662  38.894
1900  0.30913  -24.4   4.95343  -77.92  0.024887  -28.67  0.21396  35.889
2000  0.30085  -26.75  4.99734  -83.08  0.023956  -26.62  0.22092  33.706
2100  0.29005  -29.18  5.04269  -88.52  0.022735  -25.18  0.22513  31.381
2200  0.27106  -31.57  5.07557  -93.96  0.022284  -22.2   0.22754  29.699
2300  0.25049  -33.78  5.04531  -99.78  0.021545  -19.92  0.2278   27.823
2400  0.23157  -35.78  5.06686  -106.1  0.021348  -17.95  0.22679  26.622
2500  0.20792  -37.96  4.99955  -111.7  0.021447  -15.76  0.22236  25.049
2600  0.18594  -40.38  4.91437  -118.1  0.021767  -13.86  0.21806  23.868
2700  0.15885  -41.98  4.84049  -124.1  0.022351  -13.55  0.20902  22.78
2800  0.13159  -44.34  4.67976  -129.6  0.022763  -12.7   0.1966   22.06
2900  0.10259  -45.8   4.48787  -135.6  0.022862  -14.81  0.18078  21.611
3000  0.07266  -41.67  4.31395  -140.5  0.022411  -17.06  0.16355  22.273