! Title: BGA2001 
! Bias: Vce=3.0V,Ic=5.8mA
! Company: Philips Semiconductors NL
! User: Quality&Reliability T&D
! Measure time: 23 Oct 1998 / 09:20:22
#  MHz  S  MA  R 50
! Freq       S11             S21             S12             S22    :
  100  0.78761 -7.873 13.22657 171.67 0.005002 57.901  0.91664 -5.887
  200  0.78960 -16.10 12.89718 164.20 0.009403 78.895  0.90700 -11.75
  300  0.77505 -25.15 12.54156 156.84 0.015943 78.091  0.88198 -17.78
  400  0.74999 -33.57 12.02835 150.21 0.021442 73.462  0.84701 -22.99
  500  0.72328 -41.34 11.43834 144.23 0.026155 69.399  0.81348 -27.60
  600  0.69405 -48.76 10.93193 138.65 0.030073 65.984  0.77977 -31.72
  700  0.66504 -55.67 10.38095 133.49 0.033475 63.087  0.74740 -35.36
  800  0.63338 -62.44  9.90445 128.43 0.036444 60.572  0.71463 -38.72
  900  0.60417 -68.75  9.36660 123.64 0.038953 58.640  0.68275 -41.80
 1000  0.57738 -75.00  8.86065 119.47 0.041268 57.035  0.65272 -44.86
 1200  0.53440 -87.12  8.01211 111.72 0.045146 54.627  0.59967 -50.64
 1400  0.50369 -98.13  7.32614 104.88 0.048556 53.108  0.55969 -55.91
 1600  0.47856 -107.2  6.61492 98.907 0.051086 52.863  0.52486 -60.13
 1800  0.45190 -115.7  5.97636 93.985 0.053520 53.837  0.48787 -63.50
 2000  0.42968 -125.2  5.48631 88.932 0.055939 53.871  0.44659 -67.62
 2200  0.42479 -134.9  5.06953 84.132 0.058686 53.924  0.41245 -73.44
 2400  0.43539 -142.2  4.69175 79.588 0.061550 54.703  0.39529 -80.01
 2600  0.44497 -147.1  4.35911 75.575 0.064952 56.273  0.39198 -84.93
 2800  0.44139 -151.4  4.12612 72.205 0.068911 56.813  0.38329 -87.92
 3000  0.43293 -156.7  3.88229 68.883 0.072593 57.581  0.36036 -91.01