! Title: BGA2001 
! Bias: Vce=3V; Ic=5.0mA controlled / noise data included
! Company: Philips Semiconductors NL
! User: Quality&Reliability T&D
! Measure time: 23 Oct 1998 / 08:34:00
#  MHz  S  MA  R 50
! Freq       S11             S21             S12             S22    :
  100  0.81078 -7.492 11.74236 172.12 0.005104 59.247  0.91702 -5.569
  200  0.81148 -15.21 11.47149 165.04 0.009497 78.396  0.90821 -11.07
  300  0.79804 -23.62 11.21011 158.08 0.016047 78.321  0.88668 -16.68
  400  0.77518 -31.58 10.81054 151.71 0.021666 74.040  0.85612 -21.67
  500  0.75034 -38.98 10.32191 145.92 0.026508 69.896  0.82648 -26.16
  600  0.72220 -46.12  9.92108 140.48 0.030606 66.408  0.79603 -30.19
  700  0.69450 -52.80  9.46145 135.43 0.034222 63.492  0.76645 -33.80
  800  0.66301 -59.48  9.08979 130.40 0.037362 60.889  0.73646 -37.15
  900  0.63373 -65.74  8.63417 125.59 0.039977 58.716  0.70702 -40.22
 1000  0.60627 -71.93  8.19862 121.39 0.042476 56.954  0.67846 -43.26
 1200  0.56064 -84.05  7.46663 113.52 0.046470 54.077  0.62722 -48.99
 1400  0.52690 -95.32  6.88261 106.59 0.049972 52.144  0.58830 -54.23
 1600  0.49871 -104.8  6.24361 100.37 0.052493 51.539  0.55471 -58.55
 1800  0.46860 -113.8  5.65351 95.240 0.054642 52.049  0.51895 -62.03
 2000  0.44293 -123.8  5.20801 89.968 0.056881 51.893  0.47858 -66.03
 2200  0.43598 -134.1  4.82603 84.994 0.059205 51.724  0.44522 -71.60
 2400  0.44467 -142.1  4.47238 80.264 0.061769 52.470  0.42870 -77.79
 2600  0.45267 -147.6  4.15704 76.063 0.064869 54.072  0.42593 -82.42
 2800  0.44695 -152.6  3.94112 72.586 0.068443 54.684  0.41760 -85.20
 3000  0.43777 -158.7  3.71242 69.147 0.071731 55.620  0.39526 -88.05
! Noise data:
!Freq   Fmin    Gamma-opt       rn
  900   1.34    0.33    20.6    0.28
 1000   1.36    0.31    20.5    0.3
 1800   1.299   0.279   66.18   0.234
 2000   1.331   0.27    72.85   0.234
 2200   1.442   0.222   84.7    0.231
 2400   1.557   0.207   101.73  0.209