! Title: BGA2003
! Bias: V(Vs_Out)=2.5V; I(CTRL)=2mA controlled / noise data included
! Company: Philips Semiconductors NL
! User: Quality&Reliability DiscreteSemiConductors-Nijmegen
! Measure time: 15 Jan 1999 / 14:06:51
#  MHz  S  MA  R 50
! Freq       S11             S21             S12             S22    :
  100   0.84285 -5.925  6.2372  172.43  0.006583   85.503  0.98935 -4.341
  200   0.82652 -11.64  6.10717 165.57  0.013014   82.941  0.97813 -8.66
  300   0.80449 -17.12  6.01818 159.21  0.01912    79.359  0.96296 -12.78
  400   0.78137 -22.73  5.89178 153.2   0.024827   76.603  0.9444  -16.74
  500   0.75707 -28.05  5.67776 147.77  0.029931   74.301  0.92282 -20.55
  600   0.73034 -33.11  5.51333 142.71  0.03462    72.335  0.89869 -24.01
  700   0.70456 -37.74  5.28821 137.91  0.038681   70.639  0.873   -27.2
  800   0.67532 -42.06  5.11078 133.13  0.042197   69.261  0.84448 -30.13
  900   0.64573 -46     4.86574 128.45  0.045205   67.975  0.816   -32.92
 1000   0.61534 -49.81  4.63088 124.44  0.048048   67.54   0.7881  -35.66
 1200   0.55564 -57.37  4.23969 116.61  0.053572   67.346  0.73766 -41.11
 1400   0.50496 -64.79  3.95872 109.48  0.058924   68.261  0.69946 -46.05
 1600   0.4643  -71.46  3.60524 103.4   0.063495   70.468  0.66738 -49.79
 1800   0.42338 -77.67  3.28942 98.769  0.068273   73.293  0.62649 -53.19
 2000   0.38478 -84.92  3.06843 93.092  0.074444   74.443  0.58117 -58.02
 2200   0.35955 -93.7   2.90064 87.892  0.082145   75.933  0.55587 -64.69
 2400   0.35409 -100.8  2.72369 83.476  0.095076   77.694  0.56481 -70.12
 2600   0.36444 -106.4  2.5353  80.628  0.10206    79.139  0.57445 -73.29
 2800   0.35354 -111    2.42884 76.935  0.10931    80.333  0.55183 -74.67
 3000   0.33148 -117.2  2.28594 73.135  0.11621    80.931  0.50655 -78.21
!       Noise   data:
!Freq   Fmin    Gamma-opt       rn
  900   1.419   0.35    21.25   0.3
 1000   1.56    0.31    28.18   0.24
 1800   1.6     0.18    88.1    0.14
 2000   1.65    0.24    76.41   0.23
 2400   1.73    0.22    91.9    0.22