! Title: BGA2001 
! Bias: Vce=1V; Ic=.5mA controlled
! Company: Philips Semiconductors NL
! User: Quality&Reliability T&D
! Measure time: 23 Oct 1998 / 08:33:08
#  MHz  S  MA  R 50
! Freq       S11             S21             S12             S22    :
  100  0.94713 -4.378  1.42331 174.89 0.005260 52.824  0.94941 -4.783
  200  0.94477 -8.747  1.37748 170.27 0.014841 84.025  0.93296 -8.866
  300  0.94121 -13.08  1.35569 165.91 0.024451 80.574  0.91613 -12.52
  400  0.93621 -17.41  1.34141 161.73 0.032951 77.100  0.89998 -15.92
  500  0.93087 -21.71  1.32597 157.78 0.041128 74.062  0.88615 -19.13
  600  0.92503 -25.98  1.30604 153.93 0.048885 71.135  0.87387 -22.27
  700  0.91795 -30.23  1.28941 150.07 0.056125 68.246  0.86144 -25.28
  800  0.90909 -34.47  1.27031 146.17 0.063139 65.339  0.84687 -28.32
  900  0.89855 -38.77  1.25890 141.98 0.069510 62.372  0.83239 -31.27
 1000  0.88796 -43.12  1.23726 138.17 0.075547 59.666  0.81832 -34.33
 1200  0.87025 -51.93  1.20166 130.91 0.086971 54.306  0.78818 -40.34
 1400  0.85790 -60.68  1.18218 124.17 0.097678 49.339  0.76411 -46.19
 1600  0.84313 -68.88  1.14242 117.41  0.10498 44.859  0.73936 -51.54
 1800  0.81972 -76.86  1.08721 111.37  0.10941 41.421  0.70754 -56.35
 2000  0.79169 -85.55  1.05236 104.71  0.11436 36.730  0.66863 -61.60
 2200  0.77490 -95.16  1.02722 98.174  0.11848 31.841  0.63621 -67.86
 2400  0.77821 -104.3  0.99872 91.786  0.12081 28.049  0.61947 -74.38
 2600  0.78886 -111.8  0.96378 86.318  0.12108 26.037  0.61396 -79.56
 2800  0.78621 -118.3  0.94879 81.827  0.12301 23.073  0.60021 -83.37
 3000  0.76975 -125.2  0.92119 77.086  0.12172 20.849  0.57247 -87.37
! Noise data:
!Freq   Fmin    Gamma-opt       rn
  900   1.46    0.71    23.8    0.95
 1000   1.61    0.7     25.8    0.91
 1800   1.331   0.622   72.15   0.659
 2000   1.625   0.606   84.7    0.598
 2200   2.181   0.552   94.89   0.515
 2400   2.473   0.577   102.89  0.484