! Title: BGA2001 
! Bias: Vce=2.5V,Ic=4.4mA
! Company: Philips Semiconductors NL
! User: Quality&Reliability T&D
! Measure time: 23 Oct 1998 / 09:19:57
#  MHz  S  MA  R 50
! Freq       S11             S21             S12             S22    :
  100  0.82020 -7.156 10.72705 172.34 0.005248 58.530  0.92547 -5.808
  200  0.82334 -14.66 10.47662 165.43 0.010153 80.618  0.91495 -11.42
  300  0.81069 -22.83 10.22288 158.70 0.017318 78.874  0.89131 -17.06
  400  0.78976 -30.47  9.86585 152.55 0.023303 74.249  0.86004 -22.03
  500  0.76724 -37.64  9.45067 146.95 0.028568 70.194  0.83079 -26.51
  600  0.74200 -44.54  9.09967 141.66 0.033046 66.570  0.80095 -30.62
  700  0.71654 -51.02  8.70496 136.71 0.037014 63.473  0.77171 -34.32
  800  0.68784 -57.46  8.37397 131.81 0.040515 60.611  0.74153 -37.82
  900  0.65994 -63.53  7.97944 127.05 0.043353 58.337  0.71140 -41.06
 1000  0.63472 -69.52  7.59670 122.90 0.046041 56.367  0.68251 -44.32
 1200  0.59182 -81.31  6.95282 115.08 0.050544 53.081  0.63013 -50.52
 1400  0.55979 -92.18  6.43083 108.09 0.054271 50.679  0.58940 -56.21
 1600  0.53295 -101.3  5.85182 101.86 0.056791 49.604  0.55295 -60.83
 1800  0.50360 -109.9  5.31641 96.751 0.058866 49.850  0.51393 -64.61
 2000  0.47736 -119.3  4.90943 91.405 0.060954 49.289  0.47046 -69.05
 2200  0.46832 -129.0  4.55882 86.300 0.063090 48.868  0.43463 -75.13
 2400  0.47609 -136.9  4.23262 81.492 0.065381 49.311  0.41629 -81.78
 2600  0.48506 -142.3  3.94380 77.290 0.068140 50.869  0.41155 -86.79
 2800  0.48069 -146.9  3.74693 73.706 0.071516 51.377  0.40123 -89.95
 3000  0.47060 -152.5  3.53131 70.198 0.074470 52.304  0.37682 -93.27