! Title: BGA2003
! Bias: V(Vs_Out)=2.5V; I(CTRL)=15mA controlled / noise data included
! Company: Philips Semiconductors NL
! User: Quality&Reliability DiscreteSemiConductors-Nijmegen
! Measure time: 15 Jan 1999 / 14:08:01
#  MHz  S  MA  R 50
! Freq       S11             S21             S12             S22    :
  100   0.482   -9.567  27.24468   161.02  0.005205  85.547  0.93869 -7.957
  200   0.43463 -17.23  24.22103   145.7   0.00998   84.016  0.88094 -14.81
  300   0.38502 -21.97  21.01579   133.85  0.014436  83.034  0.81528 -19.44
  400   0.34602 -25.23  18.15884   124.77  0.018761  82.743  0.76181 -22.55
  500   0.31704 -27.47  15.74241   117.98  0.022887  82.99   0.71962 -24.79
  600   0.297   -28.85  13.82193   112.65  0.027     83.209  0.68723 -26.46
  700   0.28347 -29.68  12.231     108.32  0.031188  83.553  0.66201 -27.79
  800   0.27309 -29.95  10.95279   104.61  0.03529   83.745  0.64018 -29.02
  900   0.264   -29.99  9.84287    101.25  0.039476  83.778  0.61988 -30.26
 1000   0.2545  -30.09  8.92574    98.608  0.043769  83.889  0.60139 -31.63
 1200   0.2352  -31.26  7.55496    93.802  0.052795  83.999  0.57058 -35.25
 1400   0.22014 -34.28  6.62209    89.869  0.062007  84.007  0.55196 -39.21
 1600   0.21098 -37.65  5.78463    86.436  0.070876  83.889  0.53935 -42.18
 1800   0.19903 -40.09  5.12397    84.057  0.079568  83.592  0.51585 -44.68
 2000   0.17942 -43.81  4.67579    80.9    0.089158  82.475  0.48011 -48.89
 2200   0.16036 -52.33  4.33916    78.096  0.099612  81.728  0.45829 -55.92
 2400   0.16565 -62.48  4.00695    75.786  0.11346   80.732  0.47513 -62.59
 2600   0.18315 -73.58  3.70101    74.457  0.12005   80.205  0.49096 -66.46
 2800   0.18635 -77.09  3.5085     72.372  0.12772   79.871  0.47805 -67.24
 3000   0.17209 -80.68  3.29193    69.981  0.13506   79.002  0.43675 -69.79
!       Noise   data:
!Freq   Fmin    Gamma-opt       rn
  900   2.03    0.08    -169.96 0.17
 1000   2.03    0.11    -154.72 0.17
 1800   2.03    0.15    -122.31 0.2
 2000   2.06    0.16    -122.98 0.21
 2400   2.36    0.13    -117.62 0.27