! Bias: Vs=3.00 V; Is=33.4 mA                
#  MHz  S  MA  R 50
! Freq  S11               S21               S12               S22  
100   0.093281  62.117  10.33666  25.988  0.029532  13.715  0.50404  29.787
200   0.097226  25.334  11.26692  5.91    0.026879  6.556   0.35904  16.092
300   0.097782  11.116  11.54276  -5.313  0.025339  3.031   0.32221  1.604
400   0.10224   5.155   11.69308  -13.69  0.024378  0.87    0.31417  -10.34
500   0.10663   0.998   11.74315  -20.59  0.023546  0.636   0.31738  -20.64
600   0.10707   -1.282  11.80648  -27.51  0.02288   1.273   0.32541  -29.56
700   0.11351   -2.739  11.79361  -34.08  0.022181  2.654   0.33646  -37.52
800   0.12009   -0.985  11.8515   -40.46  0.021763  3.809   0.34755  -44.52
900   0.12651   0.674   11.9295   -46.82  0.021791  5.833   0.35718  -50.88
1000  0.13693   1.692   11.93109  -53     0.021741  8.643   0.36485  -56.69
1100  0.14616   2.705   11.96588  -59.47  0.021992  10.277  0.37044  -62.61
1200  0.15676   3.594   11.99022  -65.95  0.022295  11.841  0.37169  -68.24
1300  0.17004   3.602   11.9797   -72.47  0.022893  14.017  0.37062  -73.88
1400  0.17873   4.299   12.0369   -79.54  0.023415  13.892  0.3672   -79.76
1500  0.19444   3.937   11.98138  -86.2   0.024211  15.006  0.36209  -85.92
1600  0.20322   3.166   11.95376  -93.52  0.024921  15.565  0.35425  -92.62
1700  0.2123    2.226   11.93365  -100.9  0.025591  14.529  0.34695  -99.77
1800  0.2156    0.0324  11.75585  -108.7  0.026453  13.778  0.33802  -107.7
1900  0.21681   -0.788  11.56271  -116.6  0.026267  13.338  0.3306   -116.1
2000  0.20901   -2.617  11.22467  -124.7  0.026762  11.107  0.32517  -125.3
2100  0.19774   -4.025  10.86319  -132.7  0.026897  10.802  0.32192  -134.9
2200  0.18846   -5.529  10.49954  -140.3  0.026531  9.411   0.32259  -145.1
2300  0.16952   -3.879  9.80706   -148.2  0.026566  7.346   0.32786  -154.8
2400  0.14965   -1.87   9.29912   -156.2  0.026058  6.749   0.33529  -164.4
2500  0.13079   3.026   8.6353    -162.6  0.024716  5.8     0.34756  -173.5
2600  0.11394   11.819  7.83884   -169.3  0.023883  3.622   0.37019  178.55
2700  0.10568   23.85   7.34938   -174.3  0.022878  6.77    0.37928  170.73
2800  0.11394   36.354  6.79327   -178.5  0.021392  6.039   0.39826  165.21
2900  0.12256   44.579  6.27562   177.69  0.020621  8.037   0.42212  160.31
3000  0.13292   50.282  5.93488   174.23  0.019874  12.498  0.44613  156.51