! Title: BGA2001 
! Bias: Vce=1.5V; Ic=1.7mA controlled / noise data included
! Company: Philips Semiconductors NL
! User: Quality&Reliability T&D
! Measure time: 23 Oct 1998 / 08:33:22
#  MHz  S  MA  R 50
! Freq       S11             S21             S12             S22    :
  100  0.90308 -5.393  4.59907 174.07 0.006056 57.377  0.93989 -5.149
  200  0.90409 -11.08  4.50023 168.67 0.012597 82.903  0.92668 -9.924
  300  0.89650 -16.91  4.44681 163.51 0.021265 79.953  0.90767 -14.36
  400  0.88587 -22.55  4.36744 158.67 0.028657 75.885  0.88676 -18.40
  500  0.87423 -28.00  4.24875 154.15 0.035459 72.223  0.86940 -22.18
  600  0.86058 -33.42  4.17128 149.76 0.041794 68.842  0.85030 -25.85
  700  0.84588 -38.65  4.05775 145.52 0.047527 65.644  0.83288 -29.32
  800  0.82821 -43.99  3.99018 141.23 0.052926 62.548  0.81187 -32.70
  900  0.80947 -49.20  3.88666 136.74 0.057559 59.531  0.79117 -35.95
 1000  0.79095 -54.34  3.76021 132.80 0.061752 56.926  0.77025 -39.27
 1200  0.75828 -64.81  3.56979 125.22 0.069442 51.853  0.72920 -45.73
 1400  0.73152 -75.08  3.43880 118.20 0.075987 47.431  0.69497 -51.85
 1600  0.70592 -84.22  3.23192 111.50 0.080003 44.005  0.66259 -57.20
 1800  0.67467 -92.91  2.99803 105.80 0.082189 41.822  0.62488 -61.83
 2000  0.64077 -102.3  2.83473 99.613 0.084284 38.772  0.58066 -66.86
 2200  0.62181 -112.6  2.69418 93.567 0.085864 35.839  0.54432 -73.12
 2400  0.62330 -121.7  2.54712 87.825 0.086767 34.085  0.52500 -79.68
 2600  0.63052 -128.8  2.40233 82.878 0.087210 34.130  0.51835 -84.71
 2800  0.62340 -135.0  2.31813 78.716 0.088574 33.245  0.50472 -88.14
 3000  0.60804 -141.6  2.20951 74.500 0.088596 33.294  0.47758 -91.75
! Noise data:
!Freq   Fmin    Gamma-opt       rn
  900   1.15    0.51    20.7    0.4
 1000   1.22    0.5     21.6    0.39
 1800   1.096   0.449   67.3    0.326
 2000   1.197   0.425   76.26   0.289
 2200   1.453   0.366   86.76   0.257
 2400   1.622   0.356   99.07   0.244