! Title: BGA2001 
! Bias: Vce=4.5V; Ic=8.0mA controlled / noise data included
! Company: Philips Semiconductors NL
! User: Quality&Reliability T&D
! Measure time: 23 Oct 1998 / 08:34:37
#  MHz  S  MA  R 50
! Freq       S11             S21             S12             S22    :
  100  0.79027 -8.769 14.81035 171.38 0.005485 59.550  0.85189 -5.085
  200  0.78137 -17.54 14.43955 163.90 0.009902 70.213  0.84598 -10.31
  300  0.76161 -26.58 14.07410 156.49 0.014914 71.020  0.82829 -15.69
  400  0.73422 -35.21 13.52204 149.58 0.019514 68.663  0.80429 -20.65
  500  0.70457 -43.24 12.85133 143.31 0.023592 66.253  0.77768 -25.18
  600  0.67201 -50.91 12.25126 137.45 0.026979 63.669  0.74896 -29.22
  700  0.63963 -58.05 11.59696 132.05 0.029925 61.493  0.72059 -32.75
  800  0.60483 -65.01 11.02520 126.85 0.032585 59.580  0.69147 -35.94
  900  0.57306 -71.50 10.38379 121.97 0.034804 58.146  0.66271 -38.83
 1000  0.54355 -77.91  9.78534 117.69 0.036904 57.060  0.63533 -41.66
 1200  0.49699 -90.31  8.77962 109.91 0.040479 55.522  0.58671 -46.91
 1400  0.46475 -101.6  7.97988 103.21 0.043685 54.767  0.55105 -51.70
 1600  0.43862 -111.0  7.18016 97.247 0.046327 55.056  0.52120 -55.58
 1800  0.41066 -119.9  6.45978 92.350 0.048920 56.340  0.48928 -58.62
 2000  0.38937 -130.0  5.91385 87.442 0.051552 56.854  0.45268 -62.24
 2200  0.38676 -140.2  5.44939 82.807 0.054490 57.194  0.42173 -67.48
 2400  0.39827 -147.6  5.03455 78.382 0.057672 58.185  0.40652 -73.53
 2600  0.40673 -152.4  4.66599 74.402 0.061474 59.759  0.40541 -78.17
 2800  0.40168 -156.9  4.40583 71.175 0.065491 60.362  0.39977 -80.82
 3000  0.39412 -162.9  4.14305 67.953 0.069433 61.102  0.37991 -83.38
! Noise data:
!Freq   Fmin    Gamma-opt       rn
  900   1.61    0.23    21.6    0.31
 1000   1.67    0.2     19.6    0.28
 1800   1.575   0.204   73.63   0.262
 2000   1.625   0.169   75.08   0.221
 2200   1.728   0.141   83.15   0.222
 2400   1.775   0.156   107.34  0.223