! Bias: Vs=5.00 V; Is=23.8 mA                
#  MHz  S  MA  R 50
! Freq  S11              S21               S12               S22  
100   0.24807  33.204  13.12818  18.886  0.033934  18.979  0.33203   77.973
200   0.27028  15.233  13.93916  1.305   0.029799  7.84    0.16144   92.476
300   0.27599  9.348   14.16596  -8.314  0.028052  0.958   0.087835  104.68
400   0.28518  5.613   14.23399  -16.2   0.027201  -3.208  0.047023  127.59
500   0.29331  3.34    14.2971   -22.99  0.02656   -6.236  0.035231  177.69
600   0.30074  1.998   14.37027  -29.6   0.025731  -8.356  0.051688  -147.7
700   0.31514  1.171   14.33658  -35.98  0.024985  -10.12  0.075179  -136.5
800   0.32672  0.099   14.41806  -42.25  0.024349  -11.95  0.098106  -134.1
900   0.33881  -0.821  14.52109  -48.53  0.023859  -13.59  0.11807   -135.8
1000  0.35611  -1.702  14.56623  -54.66  0.023102  -14.59  0.13562   -139.8
1100  0.37517  -3.544  14.6138   -61.06  0.022381  -15.87  0.15273   -145.4
1200  0.38865  -4.465  14.68345  -67.44  0.021894  -17.14  0.16792   -152.8
1300  0.40729  -5.829  14.72158  -73.9   0.021378  -18.05  0.18192   -160.7
1400  0.41966  -7.778  14.8289   -80.86  0.021002  -20.38  0.19808   -169.9
1500  0.43646  -9.614  14.8609   -87.54  0.020013  -22.33  0.21602   -178.9
1600  0.44966  -12.12  14.91142  -94.49  0.019296  -24.4   0.23691   171.67
1700  0.45978  -14.46  14.98022  -101.9  0.01833   -26.91  0.26053   162.5
1800  0.46509  -17.78  14.94197  -109.4  0.017742  -29.44  0.28834   153.53
1900  0.46664  -20.91  14.88145  -117.1  0.016054  -33.19  0.31617   145.41
2000  0.4598   -24.85  14.68875  -124.9  0.014946  -36.3   0.3477    137.69
2100  0.44923  -28.52  14.47978  -132.9  0.013611  -37.68  0.3781    130.59
2200  0.43684  -32.59  14.38953  -140.7  0.011935  -41.31  0.40964   124.25
2300  0.41206  -36.99  13.87829  -148.8  0.01042   -46.22  0.43832   118.29
2400  0.38779  -40.66  13.53315  -157.9  0.008281  -43.81  0.46607   113.16
2500  0.35747  -45.25  13.12489  -165.9  0.006424  -45.45  0.49057   108.74
2600  0.32424  -50.49  12.35558  -174.5  0.004771  -48.94  0.51421   105.97
2700  0.28706  -54.19  11.72466  177.54  0.002874  -42.09  0.54564   101.03
2800  0.25311  -57.33  11.04982  169.32  0.001464  -17.41  0.56131   98.306
2900  0.21853  -62.01  10.18546  162.16  0.001528  63.903  0.58032   95.968
3000  0.18665  -65.52  9.27457   154.99  0.002799  94.009  0.59748   93.631