! Title: BGA2001 
! Bias: Vce=1V,Ic=.6mA
! Company: Philips Semiconductors NL
! User: Quality&Reliability T&D
! Measure time: 23 Oct 1998 / 09:07:58
#  MHz  S  MA  R 50
! Freq       S11             S21             S12             S22    :
  100  0.93733 -4.590  2.11035 174.73 0.005179 53.656  0.94707 -4.860
  200  0.93549 -9.338  2.07254 169.94 0.014993 83.484  0.93150 -9.185
  300  0.93074 -14.04  2.03488 165.41 0.024605 79.958  0.91400 -13.11
  400  0.92450 -18.66  1.99995 161.13 0.033062 76.498  0.89699 -16.67
  500  0.91818 -23.27  1.97645 157.05 0.041196 73.387  0.88196 -20.08
  600  0.91080 -27.81  1.94145 153.09 0.048829 70.371  0.86707 -23.40
  700  0.90161 -32.32  1.91425 149.14 0.055961 67.386  0.85415 -26.58
  800  0.89137 -36.75  1.87728 145.19 0.062824 64.373  0.83788 -29.76
  900  0.87908 -41.23  1.84372 140.97 0.068876 61.324  0.82093 -32.88
 1000  0.86680 -45.74  1.80728 137.15 0.074711 58.686  0.80408 -36.06
 1200  0.84549 -54.88  1.74522 129.89 0.085549 53.289  0.77161 -42.46
 1400  0.83019 -63.78  1.69635 123.13 0.095512 48.251  0.74462 -48.66
 1600  0.81394 -71.97  1.61779 116.48  0.10201 43.994  0.71571 -54.18
 1800  0.78933 -79.87  1.52726 110.66  0.10577 40.808  0.67998 -59.10
 2000  0.76027 -88.42  1.46546 104.16  0.10995 36.342  0.63828 -64.60
 2200  0.74314 -97.78  1.41379 97.821  0.11333 31.783  0.60309 -71.20
 2400  0.74599 -106.5  1.36038 91.669  0.11512 28.370  0.58363 -78.08
 2600  0.75612 -113.7  1.30350 86.427  0.11508 26.813  0.57580 -83.60
 2800  0.75388 -119.7  1.27431 82.038  0.11671 24.229  0.56131 -87.69
 3000  0.73780 -126.0  1.22704 77.457  0.11555 22.493  0.53275 -91.95