! Bias: Vs=Vc=3.00 V; Is=7.0 mA; 
#  MHZ  S  MA  R 50        
! Freq  S11              S21               S12               S22
100   0.77597  -8.39   12.52747  171.15  0.005839  84.9    0.74281  -6.684
200   0.76135  -16.37  12.15426  163.12  0.011397  79.397  0.73148  -13.15
300   0.73949  -24.12  11.69007  155.66  0.016094  76.415  0.71197  -19.31
400   0.70908  -31.51  11.21317  148.63  0.020913  72.234  0.68905  -24.85
500   0.67815  -38.47  10.69216  142.22  0.025077  69.166  0.65987  -30.36
600   0.64629  -44.97  10.13945  136.46  0.028482  66.032  0.63126  -34.9
700   0.6128   -50.81  9.56793   131.18  0.031843  63.639  0.60539  -39.48
800   0.58197  -56.47  9.06116   126.13  0.034788  61.821  0.57373  -43.4
900   0.54955  -61.69  8.57408   121.49  0.036993  60.468  0.55107  -46.81
1000  0.5199   -66.59  8.13112   117.37  0.039501  58.862  0.5191   -50.54
1100  0.49226  -71.23  7.66372   113.51  0.041341  58.745  0.49394  -53.25
1200  0.46199  -75.41  7.25449   109.59  0.043487  58.074  0.46955  -57.19
1300  0.43287  -79.82  6.89668   106.32  0.045628  57.617  0.4409   -60.14
1400  0.40145  -83.99  6.46106   103.16  0.047803  57.922  0.42841  -64.08
1500  0.37683  -88.4   6.13667   99.459  0.049388  57.407  0.40469  -67.27
1600  0.35001  -93.12  5.86948   96.391  0.051619  57.261  0.39633  -70.03
1700  0.33177  -97.06  5.54159   93.817  0.05362   57.463  0.38241  -73.75
1800  0.31395  -102    5.25677   90.468  0.054667  57.371  0.36968  -75.33
1900  0.29661  -106    5.01073   87.814  0.056871  57.296  0.36306  -78.78
2000  0.28955  -110.6  4.77883   85.584  0.058476  58.107  0.34837  -80.47
2100  0.27831  -115.6  4.55786   83.106  0.060419  57.702  0.34989  -82.6
2200  0.27805  -118.5  4.39441   81.167  0.062481  57.663  0.3363   -85.37
2300  0.27813  -123.2  4.21103   79.291  0.064595  58.32   0.34041  -85.86
2400  0.27694  -125    4.05182   77.281  0.066583  58.086  0.3335   -89.83
2500  0.2854   -127.7  3.93972   75.67   0.068401  59.395  0.3268   -89.4
2600  0.28669  -131.9  3.79373   74.349  0.072509  60.983  0.31609  -92.61
2700  0.28947  -133.1  3.67348   72.51   0.075887  61.136  0.29595  -91.89
2800  0.29331  -136.5  3.57144   70.272  0.076292  60.217  0.30847  -94.44
2900  0.28328  -137.5  3.45367   69.072  0.079483  60.709  0.28208  -98.97
3000  0.28728  -141.6  3.32643   67.391  0.083865  61.361  0.27249  -99.52