! Title: BGA2003
! Bias: V(Vs_Out)=2.5V; I(CTRL)=4mA controlled / noise data included
! Company: Philips Semiconductors NL
! User: Quality&Reliability DiscreteSemiConductors-Nijmegen
! Measure time: 15 Jan 1999 / 14:07:03
#  MHz  S  MA  R 50
! Freq       S11             S21             S12             S22    :
  100   0.76647  -7.41    11.32072   169.6   0.006252   84.521   0.97898  -5.38
  200   0.73871  -14.46   10.9003    160.42  0.012238   81.853   0.95833  -10.63
  300   0.70105  -20.92   10.4794    152.15  0.017834   78.426   0.92911  -15.39
  400   0.66217  -27.12    9.96441   144.62  0.022816   76.162   0.89654  -19.63
  500   0.62346  -32.69    9.34304   138.11  0.027242   74.666   0.86179  -23.43
  600   0.58509  -37.55    8.7916    132.26  0.031287   73.674   0.8268   -26.65
  700   0.55056  -41.6     8.20349   127.02  0.034993   73.098   0.79437  -29.37
  800   0.51602  -44.99    7.68236   122.1   0.038312   72.758   0.76263  -31.75
  900   0.48447  -47.81    7.13156   117.54  0.041425   72.699   0.73215  -33.93
 1000   0.45372  -50.42    6.64184   113.73  0.044682   73.187   0.70388  -36.06
 1200   0.39871  -55.46    5.84417   106.7   0.051446   74.218   0.65666  -40.51
 1400   0.35728  -60.59    5.27195   100.68  0.058655   75.557   0.6246   -44.72
 1600   0.32711  -65.13    4.69193   95.644  0.065605   77.252   0.60013  -47.79
 1800   0.29728  -69.17    4.20921   91.944  0.072694   78.78    0.56684  -50.54
 2000   0.26687  -74.75    3.87313   87.399  0.080907   78.879   0.52631  -54.97
 2200   0.24705  -83.19    3.61848   83.297  0.09024    79.162   0.50359  -61.7
 2400   0.24934  -89.95    3.36569   79.848  0.10389    79.376   0.51731  -67.46
 2600   0.26629  -96.06    3.11966   77.746  0.11096    79.684   0.53068  -70.83
 2800   0.26221  -99.55    2.97071   74.811  0.11848    79.98    0.5126   -71.86
 3000   0.24369  -104.7    2.78927   71.699  0.12565    79.763   0.4695   -74.96
!       Noise   data:
!Freq   Fmin    Gamma-opt       rn
  900   1.43    0.22    14.67   0.24
 1000   1.44    0.21    17.37   0.29
 1800   1.47    0.11    66.91   0.2
 2000   1.51    0.15    97.18   0.23
 2400   1.7     0.09    85.4    0.21