! Title: BGA2003
! Bias: V(Vs_Out)=2.5V; I(CTRL)=8mA controlled / noise data included
! Company: Philips Semiconductors NL
! User: Quality&Reliability DiscreteSemiConductors-Nijmegen
! Measure time: 15 Jan 1999 / 14:07:26
#  MHz  S  MA  R 50
! Freq       S11             S21             S12             S22    :
  100   0.63947 -9.039  18.95959   165.51  0.005732   83.863  0.96041 -6.745
  200   0.59726 -17.23  17.67077   153.2   0.011147   81.717  0.92189 -13.01
  300   0.54425 -23.84  16.21736   142.75  0.015996   79.544  0.87262 -18.08
  400   0.49501 -29.36  14.70714   133.93  0.020499   78.351  0.82426 -22.03
  500   0.45199 -33.73  13.22969   126.84  0.024633   77.996  0.78068 -25.17
  600   0.41638 -36.91  11.95273   120.94  0.028543   78.099  0.74341 -27.58
  700   0.38792 -39.16  10.80032   115.97  0.032362   78.413  0.71203 -29.48
  800   0.36375 -40.56  9.82141    111.63  0.035994   78.681  0.68384 -31.12
  900   0.34268 -41.53  8.92513    107.66  0.039853   79.005  0.65805 -32.64
 1000   0.32255 -42.33  8.16735    104.49  0.043694   79.558  0.63454 -34.22
 1200   0.28759 -44.42  6.99868    98.736  0.052048   80.261  0.59684 -37.98
 1400   0.26282 -47.53  6.18364    93.951  0.06062    80.872  0.57321 -41.9
 1600   0.24638 -50.64  5.43409    89.928  0.068951   81.489  0.5565  -44.79
 1800   0.22841 -53.16  4.83136    87.048  0.077256   81.859  0.5295  -47.3
 2000   0.2054  -57.32  4.41892    83.401  0.086517   81.087  0.49229 -51.55
 2200   0.18728 -65.69  4.10736    80.116  0.096611   80.656  0.47079 -58.51
 2400   0.19309 -73.87  3.80031    77.414  0.1104     80.031  0.48692 -64.79
 2600   0.21178 -82.34  3.51541    75.83   0.11718    79.762  0.5021  -68.45
 2800   0.21262 -85.54  3.3365     73.419  0.12485    79.607  0.48738 -69.3
 3000   0.19698 -89.54  3.13048    70.797  0.1321     78.946  0.44551 -72.08
!       Noise   data:
!Freq   Fmin    Gamma-opt       rn
  900   1.67    0.06    15.16   0.19
 1000   1.69    0.04    -14.33  0.19
 1800   1.7     0.009   132.58  0.2
 2000   1.71    0.01    166.16  0.2
 2400   1.97    0.08    -69.69  0.19