! Bias: Vs=3.00 V; Is=5.66 mA 
#  MHz  S  MA  R 50
! Freq  S11               S21               S12               S22  
100   0.082339  -6.058  5.47004   14.759  4.97E-04  -92.64  0.32715  -3.589
200   0.089344  1.505   6.87024   17.103  7.87E-04  -91.63  0.32763  -2.304
300   0.099992  4.078   8.39903   12.766  9.61E-04  -94.51  0.33039  -1.964
400   0.10677   1.621   9.73658   5.277   0.001645  -108.6  0.33688  -1.542
500   0.11759   -1.173  10.78986  -3.56   0.001595  -113.9  0.34812  -1.655
600   0.12257   -2.565  11.58694  -12.73  0.001689  -119.4  0.36332  -1.8
700   0.12664   -5.802  12.08966  -22.08  0.0021    -116.5  0.3802   -2.758
800   0.12902   -8.769  12.37273  -31.11  0.002337  -113    0.39884  -3.931
900   0.12792   -9.693  12.48904  -39.99  0.002648  -125.7  0.41966  -6.025
1000  0.12635   -11.24  12.51928  -48.7   0.003632  -129.6  0.44177  -8.067
1100  0.12264   -11.36  12.42936  -57.09  0.004591  -135.9  0.4623   -11.25
1200  0.11634   -9.574  12.23291  -65.32  0.005512  -140.5  0.47492  -14.54
1300  0.11382   -2.636  11.94773  -73.64  0.005948  -147.3  0.48192  -18.1
1400  0.11643   1.804   11.5505   -81.52  0.006596  -151.4  0.483    -21.47
1500  0.11607   8.657   11.14552  -89.24  0.007379  -157.3  0.4791   -24.92
1600  0.12552   14.913  10.66445  -96.69  0.007794  -163.4  0.46932  -28.1
1700  0.14015   19.243  10.16913  -104.2  0.008501  -169.7  0.45374  -31.14
1800  0.15177   23.659  9.67757   -111.1  0.008715  -176.5  0.43106  -34.03
1900  0.1655    26.299  9.10711   -118    0.009748  179.02  0.40774  -36.84
2000  0.18258   27.689  8.55655   -124.5  0.010258  172.86  0.37882  -38.74
2100  0.19431   28.32   8.02915   -130.9  0.010874  165.24  0.35017  -40.24
2200  0.20634   29.316  7.54807   -136.9  0.01124   160.72  0.31996  -41.11
2300  0.21623   28.138  6.99159   -142.5  0.011272  154.23  0.29178  -41.38
2400  0.22422   28.365  6.53628   -148.4  0.010787  146.89  0.26441  -40.43
2500  0.22745   27.796  6.0684    -153.3  0.010403  141.29  0.24272  -39.49
2600  0.22777   26.661  5.61208   -158.5  0.008842  131.13  0.22542  -37.88
2700  0.22038   28.087  5.23238   -163.3  0.007395  125.93  0.20799  -37.51
2800  0.21931   28.691  4.8007    -167.7  0.005483  123.86  0.18502  -38.37
2900  0.21437   33.436  4.35827   -172.2  0.002991  149.03  0.15825  -38.8
3000  0.22247   37.201  3.95678   -175.6  0.003845  -160.7  0.12693  -37.56