! Bias: Vs=5.00 V; Is=15.9 mA                
#  MHz  S  MA  R 50                
! Freq  S11                S21               S12                S22  
100   0.18256  102.779   12.696  13.487    0.02947  28.750    0.39239  91.486
200   0.12346  87.553    13.134  -5.273    0.03544  -2.202    0.26785  62.373
300   0.10794  70.505    13.358  -19.526   0.03586  -18.083   0.23399  42.339
400   0.10785  58.585    13.471  -31.738   0.03530  -22.543   0.22725  24.645
500   0.11212  48.135    13.521  -42.516   0.03465  -35.173   0.22429  10.210
600   0.11473  40.141    13.579  -53.096   0.03317  -43.064   0.22799  -3.494
700   0.12254  32.182    13.672  -63.242   0.03412  -49.484   0.23384  -18.155
800   0.13018  24.286    13.675  -73.607   0.03319  -59.635   0.23497  -31.111
900   0.13814  16.951    13.834  -83.918   0.03131  -65.499   0.23666  -45.391
1000  0.14498  9.658     13.917  -94.020   0.02905  -76.100   0.23982  -60.547
1100  0.15366  0.398     14.017  -104.361  0.02883  -82.423   0.23995  -75.932
1200  0.16092  -7.519    14.109  -114.550  0.02819  -88.340   0.24214  -91.569
1300  0.17125  -15.937   14.170  -124.878  0.02611  -92.445   0.23963  -107.675
1400  0.17935  -23.360   14.281  -135.312  0.02519  -101.273  0.24309  -124.548
1500  0.19103  -32.041   14.304  -145.886  0.02408  -103.941  0.24156  -141.433
1600  0.20199  -41.013   14.382  -156.704  0.02226  -110.334  0.24499  -158.622
1700  0.20999  -50.915   14.362  -167.423  0.02142  -116.130  0.24966  -175.631
1800  0.21827  -60.713   14.269  -178.384  0.01961  -121.019  0.25560  167.598
1900  0.22593  -70.721   14.271  170.972   0.01904  -122.440  0.26058  151.714
2000  0.23396  -81.483   14.067  160.150   0.01809  -127.677  0.26983  136.117
2100  0.23763  -91.772   14.027  148.860   0.01759  -128.521  0.27799  120.924
2200  0.24290  -103.111  13.840  138.238   0.01720  -137.821  0.28361  106.099
2300  0.24551  -114.160  13.597  126.750   0.01682  -136.832  0.28668  92.096
2400  0.24658  -125.520  13.464  115.759   0.01632  -138.872  0.29058  77.952
2500  0.24913  -136.716  13.059  104.446   0.01607  -144.115  0.28908  64.107
2600  0.24907  -148.871  12.746  93.386    0.01551  -147.662  0.28150  50.686
2700  0.24604  -160.312  12.235  82.490    0.01525  -147.857  0.26625  37.465
2800  0.24367  -172.646  11.876  71.028    0.01495  -152.199  0.25135  24.406
2900  0.23940  175.223   11.367  61.139    0.01521  -152.538  0.23284  12.336
3000  0.23327  163.904   10.940  50.427    0.01552  -163.872  0.21143  -0.674
3100  0.22802  152.137   10.589  40.519    0.01573  -165.153  0.18694  -11.781
3200  0.22205  140.775   10.056  30.759    0.01626  -170.564  0.16553  -23.994
3300  0.21616  129.026   9.770   21.503    0.01652  -170.042  0.13773  -35.543
3400  0.20749  117.053   9.576   11.983    0.01666  -176.541  0.11873  -46.281
3500  0.20134  105.822   9.390   2.211     0.01678  177.074   0.09920  -57.236
3600  0.19165  94.644    9.199   -7.678    0.01698  176.939   0.08335  -72.367
3700  0.18564  83.036    9.070   -17.657   0.01702  168.255   0.06817  -89.400
3800  0.17578  71.955    8.913   -27.731   0.01709  165.823   0.05855  -109.980
3900  0.17139  61.637    8.765   -38.232   0.01730  163.806   0.05485  -135.433
4000  0.16377  49.894    8.618   -48.909   0.01741  157.610   0.05523  -163.713