! Title: BGA2001 
! Bias: Vce=1.5V,Ic=1.9mA
! Company: Philips Semiconductors NL
! User: Quality&Reliability T&D
! Measure time: 23 Oct 1998 / 09:09:17
#  MHz  S  MA  R 50
! Freq       S11             S21             S12             S22    :
  100  0.89233 -5.607  5.32051 173.87 0.006081 57.141  0.93790 -5.235
  200  0.89432 -11.58  5.20049 168.24 0.012721 82.769  0.92549 -10.19
  300  0.88610 -17.70  5.10400 162.88 0.021381 79.533  0.90551 -14.88
  400  0.87430 -23.57  4.99336 157.88 0.028706 75.426  0.88387 -19.07
  500  0.86161 -29.27  4.86776 153.16 0.035544 71.762  0.86337 -23.04
  600  0.84690 -34.86  4.74854 148.68 0.041772 68.310  0.84339 -26.81
  700  0.83079 -40.26  4.61907 144.30 0.047480 65.092  0.82409 -30.35
  800  0.81255 -45.65  4.50658 139.96 0.052633 61.979  0.80158 -33.87
  900  0.79250 -50.96  4.37544 135.44 0.057087 58.980  0.77845 -37.23
 1000  0.77332 -56.18  4.22829 131.47 0.061249 56.448  0.75576 -40.65
 1200  0.73974 -66.75  3.99085 123.85 0.068577 51.480  0.71200 -47.35
 1400  0.71348 -76.84  3.80299 116.82 0.074735 47.149  0.67582 -53.68
 1600  0.68851 -85.75  3.55153 110.24 0.078458 43.976  0.64051 -59.10
 1800  0.65782 -94.14  3.28689 104.70 0.080595 42.157  0.60018 -63.76
 2000  0.62590 -103.2  3.09056 98.648 0.082540 39.345  0.55440 -68.99
 2200  0.60880 -113.0  2.92318 92.805 0.084130 36.654  0.51656 -75.53
 2400  0.61099 -121.6  2.75715 87.219 0.085064 35.197  0.49563 -82.44
 2600  0.61920 -128.2  2.59471 82.458 0.085727 35.450  0.48796 -87.77
 2800  0.61408 -133.8  2.49604 78.387 0.087256 34.851  0.47378 -91.48
 3000  0.59956 -139.9  2.37405 74.293 0.087709 35.058  0.44624 -95.40