! Bias: Vs=5.00 V; Is=8.0 mA                
#  MHz  S  MA  R 50                
! Freq  S11                S21               S12                S22  
100   0.07438  13.785    8.465   22.908    0.00386  -66.394   0.45050  79.887
200   0.07634  13.702    9.420   7.359     0.00311  -122.269  0.35418  40.709
300   0.10309  8.610     10.539  -3.690    0.00232  46.302    0.32309  16.501
400   0.12375  -1.403    11.565  -14.922   0.00201  -40.514   0.31257  -0.380
500   0.13921  -15.041   12.499  -25.953   0.00180  -138.329  0.30567  -13.252
600   0.14551  -31.326   13.313  -37.780   0.00166  -156.393  0.30380  -25.368
700   0.14228  -49.240   14.033  -49.162   0.00162  176.578   0.30694  -36.672
800   0.13496  -67.110   14.569  -61.088   0.00169  -164.445  0.30873  -46.770
900   0.12591  -87.340   15.172  -73.045   0.00181  168.352   0.31399  -57.709
1000  0.11406  -111.250  15.617  -84.670   0.00215  -174.859  0.31921  -68.718
1100  0.10817  -138.164  16.031  -96.497   0.00243  148.801   0.32740  -79.435
1200  0.10196  -168.856  16.456  -107.917  0.00290  139.814   0.33562  -91.584
1300  0.10910  160.080   16.727  -119.892  0.00349  133.940   0.34391  -103.711
1400  0.12566  129.972   17.057  -131.630  0.00405  123.527   0.35358  -116.548
1500  0.14560  105.846   17.219  -143.375  0.00472  121.746   0.35669  -128.284
1600  0.16736  85.791    17.496  -155.230  0.00555  107.076   0.36689  -140.754
1700  0.19244  67.904    17.635  -166.975  0.00645  91.969    0.38447  -153.872
1800  0.23472  51.431    17.902  -179.666  0.00750  105.942   0.40406  -167.968
1900  0.26353  33.165    18.111  168.435   0.00855  93.405    0.41556  177.475
2000  0.28594  16.467    17.866  155.599   0.00978  90.102    0.42512  163.317
2100  0.31060  1.545     18.086  143.057   0.01056  75.516    0.44002  149.507
2200  0.33967  -11.742   17.965  130.560   0.01174  75.198    0.45919  135.039
2300  0.37667  -29.250   17.739  116.237   0.01249  63.589    0.46669  118.901
2400  0.39375  -47.585   17.324  103.330   0.01393  53.108    0.45999  103.111
2500  0.39504  -65.874   16.446  89.993    0.01492  34.487    0.44433  88.530
2600  0.38435  -81.558   15.879  77.848    0.01594  21.701    0.42816  75.830
2700  0.38100  -96.864   14.985  65.416    0.01643  6.004     0.41398  62.670
2800  0.37618  -112.353  14.441  52.771    0.01679  4.656     0.39370  50.162
2900  0.36878  -127.977  13.356  41.894    0.01754  -3.286    0.37380  38.277
3000  0.35859  -142.580  12.678  30.515    0.01786  -19.190   0.34970  26.668
3100  0.35145  -157.839  12.072  20.529    0.01890  -22.910   0.32928  16.680
3200  0.34556  -171.726  11.276  10.048    0.01922  -32.225   0.30875  6.504
3300  0.33884  173.512   10.839  0.103     0.01951  -41.121   0.29201  -2.863
3400  0.33312  160.225   10.435  -9.842    0.02055  -49.161   0.27967  -12.631
3500  0.33386  146.479   10.078  -19.827   0.02089  -52.784   0.26413  -22.854
3600  0.33127  133.864   9.743   -30.365   0.02091  -59.654   0.24848  -33.648
3700  0.33463  121.086   9.484   -40.250   0.02144  -67.645   0.23126  -44.457
3800  0.33750  108.480   9.072   -50.740   0.02214  -78.781   0.21362  -56.424
3900  0.34191  96.470    8.782   -61.838   0.02207  -88.970   0.19249  -67.702
4000  0.34465  84.752    8.514   -71.865   0.02279  -94.875   0.16864  -80.248