! Title: BGA2001 
! Bias: Vce=3.5V,Ic=7.2mA
! Company: Philips Semiconductors NL
! User: Quality&Reliability T&D
! Measure time: 23 Oct 1998 / 09:20:53
#  MHz  S  MA  R 50
! Freq       S11             S21             S12             S22    :
  100  0.78767 -7.872 13.22546 171.67 0.005022 57.784  0.91660 -5.884
  200  0.78947 -16.10 12.89731 164.20 0.009435 78.615  0.90719 -11.74
  300  0.77500 -25.16 12.54041 156.86 0.015917 78.049  0.88185 -17.77
  400  0.74996 -33.56 12.02877 150.21 0.021479 73.515  0.84697 -22.99
  500  0.72343 -41.33 11.43964 144.24 0.026119 69.324  0.81356 -27.61
  600  0.69427 -48.76 10.93193 138.65 0.030070 65.981  0.77971 -31.72
  700  0.66521 -55.65 10.38201 133.48 0.033498 63.085  0.74718 -35.36
  800  0.63368 -62.45  9.90385 128.43 0.036476 60.593  0.71458 -38.72
  900  0.60414 -68.77  9.36660 123.64 0.038975 58.677  0.68279 -41.80
 1000  0.57735 -74.99  8.85829 119.47 0.041215 57.104  0.65268 -44.86
 1200  0.53448 -87.13  8.01247 111.71 0.045130 54.714  0.59951 -50.63
 1400  0.50390 -98.12  7.32764 104.90 0.048582 53.171  0.55956 -55.92
 1600  0.47853 -107.2  6.61549 98.897 0.051075 52.902  0.52474 -60.13
 1800  0.45177 -115.7  5.97841 93.997 0.053572 53.776  0.48780 -63.50
 2000  0.42960 -125.2  5.48631 88.932 0.056001 53.864  0.44648 -67.60
 2200  0.42483 -134.9  5.07000 84.135 0.058621 53.929  0.41242 -73.43
 2400  0.43531 -142.2  4.69184 79.582 0.061564 54.643  0.39520 -80.00
 2600  0.44492 -147.0  4.35864 75.573 0.064987 56.269  0.39187 -84.92
 2800  0.44139 -151.4  4.12691 72.226 0.068912 56.776  0.38322 -87.92
 3000  0.43292 -156.7  3.88401 68.877 0.072560 57.600  0.36033 -91.00