! Title: BGA2003
! Bias: V(Vs_Out)=2.5V; I(CTRL)=25mA controlled / noise data included
! Company: Philips Semiconductors NL
! User: Quality&Reliability DiscreteSemiConductors-Nijmegen
! Measure time: 15 Jan 1999 / 14:08:12
#  MHz  S  MA  R 50
! Freq       S11             S21             S12             S22    :
  100   0.33967 -8.091  33.14282  157.6   0.00475   87.149  0.92127 -8.573
  200   0.30336 -13.38  28.21514  140.26  0.009172  86.847  0.85022 -15.51
  300   0.27188 -15.5   23.46953  127.92  0.013466  86.305  0.77913 -19.53
  400   0.25059 -17.07  19.67452  119.08  0.017812  86.482  0.72721 -21.94
  500   0.23654 -18.46  16.70466  112.74  0.022072  86.46   0.68966 -23.64
  600   0.22829 -19.61  14.45956  107.9   0.026342  86.698  0.66268 -24.98
  700   0.22392 -20.55  12.67142  104.01  0.030596  86.741  0.64204 -26.13
  800   0.22109 -21.04  11.26927  100.7   0.034892  86.641  0.6243  -27.24
  900   0.21797 -21.3   10.08095  97.671  0.039205  86.581  0.60724 -28.43
 1000   0.21317 -21.59  9.10952   95.318  0.043699  86.497  0.59149 -29.8
 1200   0.20005 -23.22  7.66938   91.001  0.052968  86.118  0.56413 -33.46
 1400   0.18819 -26.92  6.69875   87.454  0.062351  85.797  0.54742 -37.51
 1600   0.1811  -31.14  5.84052   84.312  0.071384  85.448  0.53644 -40.56
 1800   0.1711  -34.03  5.16453   82.137  0.080371  84.861  0.51421 -43.1
 2000   0.15229 -37.91  4.70921   79.18   0.090129  83.631  0.47923 -47.27
 2200   0.13229 -47.56  4.36529   76.566  0.10065   82.769  0.45713 -54.32
 2400   0.1371  -60.19  4.02736   74.408  0.11457   81.595  0.47346 -61.14
 2600   0.15484 -73.46  3.71568   73.137  0.12106   80.931  0.48904 -65.09
 2800   0.15907 -77.43  3.52292   71.126  0.12879   80.562  0.47717 -65.84
 3000   0.14532 -81.52  3.30304   68.816  0.1363    79.665  0.43638 -68.25
!       Noise   data:
!Freq   Fmin    Gamma-opt       rn
  900   2.4     0.22    -160.1  0.15
 1000   2.41    0.25    -160.1  0.15
 1800   2.45    0.28    -124.69 0.23
 2000   2.5     0.24    -124.61 0.26
 2400   2.93    0.22    -123.25 0.29