! Title: BGA2003
! Bias: V(Vs_Out)=2.5V; I(CTRL)=10mA controlled / noise data included
! Company: Philips Semiconductors NL
! User: Quality&Reliability DiscreteSemiConductors-Nijmegen
! Measure time: 15 Jan 1999 / 14:07:37
#  MHz  S  MA  R 50
! Freq       S11             S21             S12             S22    :
  100   0.58765 -9.43   21.85015   163.96  0.00555   83.961  0.9525  -7.204
  200   0.54158 -17.66  20.05743   150.55  0.010734  82.359  0.90746 -13.74
  300   0.48698 -23.87  18.06478   139.5   0.015464  80.358  0.85196 -18.71
  400   0.43912 -28.73  16.09626   130.48  0.019843  79.704  0.80026 -22.43
  500   0.39966 -32.38  14.27094   123.44  0.023928  79.598  0.75616 -25.24
  600   0.36881 -34.81  12.74727   117.71  0.027892  79.842  0.72019 -27.36
  700   0.34539 -36.42  11.41722   112.95  0.031853  80.337  0.69056 -29.01
  800   0.32609 -37.24  10.3138    108.85  0.035698  80.658  0.66474 -30.46
  900   0.30954 -37.74  9.32918    105.11  0.039669  80.934  0.6409  -31.86
 1000   0.29377 -38.14  8.50281    102.13  0.043797  81.286  0.61939 -33.33
 1200   0.26512 -39.63  7.2474     96.759  0.05233   81.737  0.5844  -37.01
 1400   0.24469 -42.55  6.38195    92.322  0.061242  82.127  0.56295 -40.91
 1600   0.23164 -45.55  5.59336    88.542  0.069876  82.386  0.54802 -43.82
 1800   0.21647 -47.97  4.96451    85.877  0.07832   82.488  0.52249 -46.31
 2000   0.19496 -51.81  4.53606    82.435  0.087765  81.595  0.48598 -50.54
 2200   0.17654 -60.22  4.21169    79.334  0.098031  81.002  0.46442 -57.55
 2400   0.18255 -69.08  3.89514    76.801  0.11188   80.224  0.48091 -64
 2600   0.20095 -78.45  3.59988    75.339  0.1185    79.821  0.49649 -67.75
 2800   0.20273 -81.76  3.41593    73.08   0.12621   79.594  0.48275 -68.55
 3000   0.18775 -85.49  3.2037     70.55   0.13353   78.858  0.4409  -71.24
!       Noise   data:
!Freq   Fmin    Gamma-opt       rn
  900   1.79    0.01    21.1    0.18
 1000   1.8     0.03    -104.46 0.18
 1800   1.81    0.05    -121.52 0.2
 2000   1.82    0.05    -130.72 0.2
 2400   2.11    0.07    -116.93 0.23