! Title: BGA2001 
! Bias: Vce=3.5V; Ic=6.0mA controlled / noise data included
! Company: Philips Semiconductors NL
! User: Quality&Reliability T&D
! Measure time: 23 Oct 1998 / 08:34:12
#  MHz  S  MA  R 50
! Freq       S11             S21             S12             S22    :
  100  0.80113 -8.184 12.99109 171.94 0.005201 68.511  0.88376 -5.129
  200  0.79530 -16.39 12.70385 164.76 0.009944 77.128  0.87885 -10.35
  300  0.77920 -24.99 12.42733 157.63 0.015610 76.468  0.86280 -15.80
  400  0.75495 -33.25 11.98656 150.96 0.020709 72.991  0.83769 -20.87
  500  0.72823 -40.94 11.42662 144.91 0.025186 69.284  0.81060 -25.52
  600  0.69819 -48.36 10.94995 139.23 0.029019 66.026  0.78126 -29.67
  700  0.66839 -55.28 10.41117 133.96 0.032396 63.325  0.75181 -33.34
  800  0.63515 -62.13  9.94971 128.82 0.035234 60.843  0.72161 -36.70
  900  0.60486 -68.49  9.41572 123.96 0.037683 58.944  0.69187 -39.76
 1000  0.57629 -74.81  8.90967 119.69 0.039914 57.340  0.66316 -42.76
 1200  0.53047 -87.09  8.05540 111.85 0.043715 54.963  0.61200 -48.32
 1400  0.49739 -98.39  7.37700 105.00 0.047005 53.584  0.57378 -53.38
 1600  0.47014 -107.8  6.66520 98.886 0.049547 53.301  0.54127 -57.51
 1800  0.44124 -116.9  6.01671 93.844 0.051908 54.240  0.50675 -60.79
 2000  0.41758 -126.9  5.52425 88.757 0.054304 54.394  0.46777 -64.62
 2200  0.41274 -137.1  5.10506 83.928 0.056937 54.459  0.43534 -70.05
 2400  0.42311 -144.9  4.72375 79.331 0.059790 55.249  0.41930 -76.17
 2600  0.43119 -150.0  4.38459 75.232 0.063235 56.960  0.41735 -80.78
 2800  0.42599 -154.8  4.14985 71.860 0.067066 57.563  0.41013 -83.50
 3000  0.41750 -160.8  3.90434 68.535 0.070664 58.361  0.38877 -86.21
! Noise data:
!Freq   Fmin    Gamma-opt       rn
  900   1.38    0.29    19.5    0.29
 1000   1.46    0.27    19      0.27
 1800   1.363   0.264   71.28   0.255
 2000   1.41    0.23    70.92   0.226
 2200   1.524   0.192   80.92   0.218
 2400   1.603   0.187   102.77  0.204