! Bias Vs=5.00 V; Is=12.6 mA                
#  MHz  S  MA  R 50
! Freq  S11               S21               S12               S22  
100   0.046367  -13.52  10.9196   -1.742  0.033647  -2.339  0.077233  -170
200   0.054567  22.942  10.95516  -6.914  0.033143  -7.217  0.073005  166.22
300   0.072958  35.739  10.98327  -11.36  0.032284  -11.45  0.071785  148.42
400   0.09355   39.819  11.01477  -15.63  0.031168  -15.29  0.071968  131.92
500   0.11305   39.891  11.06358  -19.87  0.02984   -18.71  0.07266   116.76
600   0.13319   38.256  11.1194   -24.08  0.028299  -21.51  0.074222  103.07
700   0.155     35.751  11.18269  -28.35  0.026642  -24.1   0.07675   87.744
800   0.17288   33.45   11.26273  -32.6   0.024992  -26.39  0.080855  74.302
900   0.19117   31.108  11.36973  -36.92  0.023312  -28.2   0.089412  60.39
1000  0.20487   29.165  11.51763  -41.35  0.021441  -29.89  0.098019  48.136
1100  0.22207   27.021  11.63856  -46.07  0.019622  -30.82  0.10685   37.206
1200  0.23866   24.628  11.78624  -50.88  0.017863  -30.54  0.11284   27.516
1300  0.2566    22.573  11.91149  -55.8   0.016338  -29.5   0.12074   19.74
1400  0.27277   20.348  12.03817  -61.03  0.014905  -27.82  0.12766   11.927
1500  0.289     18.154  12.20957  -66.35  0.013676  -24.95  0.13359   5.854
1600  0.30307   15.956  12.34106  -71.84  0.012663  -21.3   0.13867   -1.154
1700  0.31583   13.506  12.45917  -77.67  0.01189   -17     0.13981   -6.926
1800  0.32773   10.864  12.57961  -83.73  0.011376  -11.51  0.14143   -12.69
1900  0.33753   7.962   12.64016  -89.9   0.011083  -6.353  0.13681   -18.76
2000  0.34708   4.963   12.63841  -96.56  0.011161  -1.168  0.13195   -24.37
2100  0.35222   1.683   12.6211   -103.4  0.011345  3.409   0.12367   -30.04
2200  0.35455   -1.741  12.49141  -110.3  0.011618  7.426   0.11235   -35.66
2300  0.35326   -5.515  12.29521  -117.7  0.012134  9.967   0.099431  -42.47
2400  0.34436   -9.323  12.04383  -125    0.012613  12.041  0.083064  -48.87
2500  0.33158   -13.52  11.63777  -132.3  0.013098  13      0.065177  -57.81
2600  0.31272   -17.67  11.14474  -139.9  0.013475  13.057  0.047037  -69.32
2700  0.28776   -21.39  10.6068   -146.8  0.01385   12.81   0.030496  -87.25
2800  0.25937   -24.33  9.91943   -153.1  0.013847  12.376  0.018329  -131.9
2900  0.23106   -26.38  9.21267   -159.2  0.013828  12.442  0.02274   171.1
3000  0.20388   -26.98  8.59223   -164.2  0.013609  11.824  0.036567  148.37
3100  0.18079   -26.9   7.97576   -168    0.013239  12.235  0.047614  140.06
3200  0.16268   -25.23  7.40524   -172    0.012702  12.512  0.058268  134.41
3300  0.14834   -24.19  6.99575   -175.2  0.012222  14.314  0.066131  131.48
3400  0.13282   -25.08  6.61735   -177.6  0.011934  18.494  0.07276   131.65
3500  0.11895   -26.67  6.29409   178.92  0.011651  20.763  0.075669  134.58
3600  0.10389   -28.96  6.0839    176.07  0.011694  24.083  0.081738  139.73
3700  0.090206  -33.23  5.80861   173.45  0.011721  27.751  0.090427  145.16
3800  0.077436  -39.63  5.59683   169.85  0.011824  30.855  0.10088   152.39
3900  0.0656    -47     5.43925   167.08  0.01228   34.236  0.11536   156.36
4000  0.054216  -60.13  5.20154   163.9   0.012681  37.111  0.12886   160.07