! Title: BGA2001 
! Bias: Vce=2.0V,Ic=3.1mA
! Company: Philips Semiconductors NL
! User: Quality&Reliability T&D
! Measure time: 23 Oct 1998 / 09:19:30
#  MHz  S  MA  R 50
! Freq       S11             S21             S12             S22    :
  100  0.85499 -6.433  8.10973 173.09 0.005657 59.333  0.93131 -5.553
  200  0.85785 -13.21  7.92987 166.78 0.011250 81.717  0.92060 -10.88
  300  0.84721 -20.42  7.76411 160.68 0.019052 79.385  0.89836 -16.11
  400  0.83078 -27.23  7.54614 155.08 0.025668 74.865  0.87143 -20.75
  500  0.81259 -33.73  7.28605 149.88 0.031549 70.857  0.84699 -25.04
  600  0.79239 -40.05  7.06342 144.96 0.036870 67.254  0.82177 -29.04
  700  0.77096 -46.03  6.81028 140.26 0.041516 64.093  0.79675 -32.75
  800  0.74678 -52.03  6.59841 135.60 0.045688 61.068  0.76996 -36.32
  900  0.72188 -57.79  6.34112 130.91 0.049196 58.398  0.74270 -39.68
 1000  0.69885 -63.46  6.07901 126.82 0.052401 56.007  0.71628 -43.06
 1200  0.65892 -74.78  5.64209 119.02 0.057892 51.853  0.66661 -49.62
 1400  0.62815 -85.40  5.28993 111.92 0.062435 48.515  0.62668 -55.70
 1600  0.60059 -94.49  4.86997 105.51 0.065244 46.450  0.58971 -60.73
 1800  0.56962 -103.0  4.45701 100.21 0.067098 45.749  0.54907 -64.96
 2000  0.53965 -112.3  4.14409 94.494 0.068896 44.314  0.50391 -69.81
 2200  0.52618 -122.1  3.87601 89.062 0.070580 42.989  0.46684 -76.12
 2400  0.53119 -130.4  3.62009 83.903 0.072171 42.732  0.44700 -82.92
 2600  0.53944 -136.4  3.38713 79.480 0.073988 43.983  0.44091 -88.06
 2800  0.53459 -141.5  3.23540 75.654 0.076495 44.208  0.42841 -91.45
 3000  0.52245 -147.3  3.05953 71.904 0.078562 45.030  0.40268 -95.06