! Title: BGA2001 
! Bias: Vce=4.5V,Ic=11.0mA
! Company: Philips Semiconductors NL
! User: Quality&Reliability T&D
! Measure time: 23 Oct 1998 / 09:22:01
#  MHz  S  MA  R 50
! Freq       S11             S21             S12             S22    :
  100  0.72913 -9.864 17.99496 170.46 0.005239 61.788  0.84714 -5.615
  200  0.71948 -19.79 17.47174 162.20 0.009434 71.061  0.83797 -11.43
  300  0.69648 -30.01 16.90376 154.03 0.014291 71.350  0.81529 -17.35
  400  0.66572 -39.62 16.07345 146.55 0.018549 68.906  0.78468 -22.68
  500  0.63372 -48.42 15.12825 139.90 0.022308 66.217  0.75157 -27.40
  600  0.59892 -56.71 14.26554 133.78 0.025377 63.897  0.71752 -31.46
  700  0.56605 -64.28 13.37129 128.24 0.028133 62.082  0.68478 -34.93
  800  0.53149 -71.56 12.57211 123.01 0.030453 60.426  0.65230 -38.02
  900  0.50178 -78.26 11.74374 118.21 0.032461 59.546  0.62135 -40.77
 1000  0.47511 -84.85 10.98811 114.04 0.034464 58.778  0.59238 -43.45
 1200  0.43635 -97.44  9.73530 106.55 0.037998 58.186  0.54304 -48.51
 1400  0.41140 -108.5  8.74655 100.16 0.041257 58.061  0.50738 -53.16
 1600  0.39138 -117.3  7.81039 94.584 0.044250 58.895  0.47796 -56.79
 1800  0.37019 -125.7  6.99927 90.012 0.047416 60.515  0.44639 -59.54
 2000  0.35578 -135.3  6.38379 85.462 0.050619 61.198  0.40983 -63.09
 2200  0.35905 -144.6  5.86329 81.164 0.054072 61.535  0.37860 -68.57
 2400  0.37363 -151.0  5.39879 77.038 0.057853 62.392  0.36324 -75.06
 2600  0.38419 -154.7  4.99856 73.333 0.062114 63.776  0.36237 -79.99
 2800  0.38157 -158.3  4.71271 70.243 0.066731 64.031  0.35680 -82.80
 3000  0.37604 -163.4  4.42503 67.202 0.071139 64.464  0.33646 -85.52