! Title: BGA2003
! Bias: V(Vs_Out)=2.5V; I(CTRL)=20mA controlled / noise data included
! Company: Philips Semiconductors NL
! User: Quality&Reliability DiscreteSemiConductors-Nijmegen
! Measure time: 15 Jan 1999 / 14:08:01
#  MHz  S  MA  R 50
! Freq       S11             S21             S12             S22    :
  100   0.40316 -9.019  30.78303   159.01  0.004932   86.513  0.92958 -8.345
  200   0.36027 -15.6   26.69481   142.49  0.009486   85.685  0.86348 -15.28
  300   0.31933 -18.87  22.59664   130.31  0.01385    84.848  0.79416 -19.58
  400   0.29032 -21.11  19.17344   121.35  0.018175   84.834  0.74093 -22.26
  500   0.26988 -22.62  16.41066   114.81  0.022357   84.964  0.70128 -24.18
  600   0.25718 -23.74  14.28129   109.78  0.026538   85.249  0.67203 -25.63
  700   0.24932 -24.47  12.56035   105.71  0.030846   85.521  0.64954 -26.81
  800   0.24359 -24.75  11.19832   102.25  0.035026   85.609  0.63023 -27.96
  900   0.23851 -24.83  10.0344    99.097  0.039332   85.405  0.61186 -29.16
 1000   0.23189 -25.03  9.07686    96.632  0.043717   85.481  0.595   -30.53
 1200   0.21691 -26.4   7.65914    92.137  0.052878   85.299  0.56647 -34.16
 1400   0.20386 -29.71  6.69776    88.452  0.06218    85.115  0.5491  -38.16
 1600   0.19606 -33.52  5.84491    85.206  0.071197   84.829  0.53761 -41.18
 1800   0.18571 -36.17  5.17225    82.964  0.080072   84.31   0.5148  -43.7
 2000   0.16652 -39.94  4.71517    79.933  0.089666   83.159  0.47956 -47.88
 2200   0.14697 -48.84  4.37441    77.268  0.1002     82.356  0.45762 -54.94
 2400   0.1517  -60.19  4.03799    75.053  0.1141     81.227  0.4741  -61.67
 2600   0.16906 -72.38  3.72749    73.779  0.12063    80.631  0.49    -65.61
 2800   0.17297 -76.24  3.53318    71.75   0.12827    80.254  0.47759 -66.36
 3000   0.15905 -79.94  3.31253    69.417  0.13577    79.373  0.4366  -68.83
!       Noise   data:
!Freq   Fmin    Gamma-opt       rn
  900   2.23    0.18    -167.88 0.15
 1000   2.23    0.19    -158.71 0.16
 1800   2.29    0.19    -126.37 0.23
 2000   2.27    0.21    -124.39 0.23
 2400   2.59    0.2     -117.55 0.29