! Title: BGA2001 
! Bias: Vce=4.0V,Ic=8.8mA
! Company: Philips Semiconductors NL
! User: Quality&Reliability T&D
! Measure time: 23 Oct 1998 / 09:21:29
#  MHz  S  MA  R 50
! Freq       S11             S21             S12             S22    :
  100  0.75103 -9.378 16.46118 170.94 0.005168 67.490  0.86443 -5.527
  200  0.74299 -18.77 16.02159 162.97 0.009652 75.003  0.85660 -11.22
  300  0.72229 -28.54 15.55205 155.10 0.014803 74.262  0.83571 -17.10
  400  0.69364 -37.79 14.84779 147.83 0.019325 71.006  0.80623 -22.44
  500  0.66318 -46.30 14.02925 141.32 0.023320 67.737  0.77432 -27.22
  600  0.62966 -54.36 13.29055 135.30 0.026694 64.980  0.74045 -31.39
  700  0.59747 -61.73 12.51154 129.83 0.029613 62.687  0.70754 -34.97
  800  0.56335 -68.86 11.81600 124.61 0.032082 60.768  0.67471 -38.21
  900  0.53311 -75.51 11.07555 119.79 0.034157 59.437  0.64290 -41.11
 1000  0.50609 -81.97 10.39375 115.59 0.036238 58.468  0.61312 -43.92
 1200  0.46535 -94.43  9.25706 107.98 0.039799 57.250  0.56181 -49.23
 1400  0.43821 -105.5  8.35717 101.43 0.043083 56.695  0.52452 -54.07
 1600  0.41638 -114.3  7.48348 95.733 0.045873 57.314  0.49302 -57.85
 1800  0.39342 -122.9  6.71894 91.068 0.048784 58.741  0.45959 -60.76
 2000  0.37689 -132.4  6.13819 86.349 0.051767 59.321  0.42151 -64.47
 2200  0.37744 -141.8  5.64553 81.911 0.054985 59.646  0.38944 -70.02
 2400  0.39086 -148.5  5.20456 77.668 0.058520 60.471  0.37356 -76.54
 2600  0.40113 -152.5  4.82277 73.876 0.062604 61.975  0.37194 -81.42
 2800  0.39845 -156.3  4.55291 70.722 0.067058 62.313  0.36539 -84.28
 3000  0.39184 -161.5  4.27644 67.603 0.071283 62.854  0.34438 -87.09