! Title: BGA2003
! Bias: V(Vs_Out)=2.5V; I(CTRL)=6mA controlled / noise data included
! Company: Philips Semiconductors NL
! User: Quality&Reliability DiscreteSemiConductors-Nijmegen
! Measure time: 15 Jan 1999 / 14:07:14
#  MHz  S  MA  R 50
! Freq       S11             S21             S12             S22    :
  100   0.69893   -8.413   15.49791   167.35  0.005972   84.093  0.96874  -6.15
  200   0.66249   -16.2    14.67941   156.41  0.011641   81.627  0.93884  -12.01
  300   0.61468   -22.98   13.77114   146.85  0.016787   78.677  0.89886  -17.01
  400   0.56761   -29.03   12.76198   138.47  0.021449   77.194  0.85552  -21.21
  500   0.52413   -34.11   11.69135   131.51  0.025655   76.377  0.81446  -24.7
  600   0.48453   -38.18   10.74195   125.5   0.029518   75.904  0.77712  -27.49
  700   0.45152   -41.3    9.82693    120.33  0.033245   76.026  0.74417  -29.72
  800   0.42142   -43.55   9.03661    115.69  0.036725   76.215  0.71376  -31.66
  900   0.39494   -45.27   8.27661    111.45  0.040246   76.438  0.68552  -33.44
 1000   0.3695    -46.81   7.61865    107.99  0.043888   77.051  0.65978  -35.21
 1200   0.32588   -49.96   6.58762    101.7   0.051594   78.052  0.61783  -39.18
 1400   0.29414   -53.75   5.86062    96.432  0.059697   79.007  0.5908   -43.13
 1600   0.27265   -57.23   5.1741     92.017  0.067631   79.989  0.57138  -46.08
 1800   0.25006   -60.21   4.61299    88.848  0.075549   80.819  0.54199  -48.64
 2000   0.22453   -64.84   4.22676    84.854  0.084404   80.381  0.50374  -52.93
 2200   0.20636   -73.26   3.93357    81.264  0.094297   80.135  0.48202  -59.79
 2400   0.21124   -80.62   3.64705    78.301  0.10807    79.798  0.4974   -65.87
 2600   0.23      -87.98   3.37532    76.521  0.11498    79.703  0.51208  -69.41
 2800   0.229     -91.13   3.20792    73.958  0.12258    79.739  0.49624  -70.32
 3000   0.21213   -95.58   3.01004    71.137  0.12982    79.222  0.45379  -73.21
!       Noise   data:
!Freq   Fmin    Gamma-opt       rn
 900     1.55    0.13    9.1    0.21
 1000    1.57    0.12    3.06   0.22
 1800    1.58    0.06    69.51  0.21
 2000    1.6     0.04    85.09  0.19
 2400    1.89    0.05   -23.61  0.18