! Bias: Vs=Vc=3.00 V; Is=15.0 mA;
#  MHZ  S  MA  R 50
! Freq  S11              S21              S12               S22
100   0.55305  -22.45  16.19825  160.55 0.00676   76.722  0.1159   -87.98
200   0.49959  -42.12  14.35437  145.44 0.012081  67.533  0.18437  -113.5
300   0.44363  -58.37  12.40867  133.69 0.015277  61.742  0.23035  -130
400   0.39431  -71.44  10.6881   124.68 0.018281  59.558  0.25686  -141.2
500   0.35675  -81.89  9.27468   117.68 0.020031  57.834  0.27684  -150.5
600   0.33141  -90.58  8.15612   112.21 0.021454  58.291  0.28333  -158.1
700   0.31014  -97.84  7.25535   107.83 0.023421  58.609  0.2911   -164
800   0.29572  -104    6.51288   103.99 0.024963  60.911  0.29395  -170.5
900   0.28522  -109.8  5.90597   100.72 0.026485  62.99   0.29334  -175.3
1000  0.27687  -114.9  5.41531   97.721 0.027996  64.652  0.29869  178.75
1100  0.27231  -119.6  5.00317   95.28  0.030203  67.464  0.29692  173.43
1200  0.26729  -124.2  4.6402    93.013 0.032171  69.042  0.304    169.58
1300  0.26421  -129    4.34648   90.663 0.034618  71.224  0.30743  164.79
1400  0.2623   -134.2  4.11281   89.105 0.037373  73.222  0.31063  162.53
1500  0.26548  -138.9  3.8545    87.499 0.039749  74.905  0.316    159.32
1600  0.27036  -144.2  3.6591    85.218 0.043149  75.432  0.31144  157.01
1700  0.27842  -148    3.52603   83.596 0.046924  76.893  0.31527  155.2
1800  0.28782  -152.7  3.33603   82.217 0.049549  77.84   0.30959  152.79
1900  0.29508  -156.6  3.16839   79.973 0.053324  77.45   0.31094  152.72
2000  0.30924  -159.7  3.04548   78.219 0.057324  78.605  0.31227  150.5
2100  0.32476  -163.9  2.92167   76.685 0.061392  78.317  0.3017   150.54
2200  0.3397   -166.2  2.84997   73.942 0.066846  77.964  0.30402  149.65
2300  0.35609  -169.6  2.77679   71.829 0.071945  77.033  0.28593  149.94
2400  0.36053  -172    2.6805    69.196 0.076482  75.402  0.29135  151.49
2500  0.37385  -173.3  2.6009    65.924 0.080927  74.389  0.28175  150.42
2600  0.39026  -175.9  2.51151   64.603 0.086051  74.92   0.29272  149.28
2700  0.39727  -178.5  2.4386    62.908 0.093739  74.229  0.28696  144.23
2800  0.3986   178.07  2.33201   59.203 0.094803  69.958  0.27892  148.41
2900  0.38925  176.34  2.24402   57.645 0.097528  69.25   0.30632  144.52
3000  0.39201  173.94  2.10804   56.72  0.099667  69.125  0.31734  140.06