! Bias: Vs=5.00 V; Is=4.3 mA                
#  MHz  S  MA  R 50                
! Freq  S11               S21               S12                S22  
100   0.1005  27.769    4.642   13.828    0.01958  -110.345  0.2319  -14.371
200   0.1212  24.681    5.428   7.997     0.00361  -114.885  0.2195  -14.092
300   0.1784  17.394    6.724   2.743     0.00223  161.280   0.2196  -19.875
400   0.2179  3.974     7.924   -7.595    0.00169  -77.396   0.2239  -23.691
500   0.2476  -11.650   8.934   -18.382   0.00145  168.409   0.2241  -28.875
600   0.2622  -28.089   9.807   -30.929   0.00134  -170.677  0.2266  -34.954
700   0.2638  -45.394   10.523  -42.563   0.00137  147.308   0.2341  -41.237
800   0.2630  -61.215   11.136  -55.315   0.00147  124.904   0.2376  -48.110
900   0.2547  -78.766   11.723  -67.811   0.00170  -172.832  0.2456  -55.529
1000  0.2411  -96.947   12.178  -80.093   0.00204  155.340   0.2538  -63.769
1100  0.2272  -116.649  12.565  -92.285   0.00234  171.393   0.2627  -72.133
1200  0.2113  -136.495  13.026  -104.284  0.00278  147.516   0.2715  -82.319
1300  0.1983  -160.138  13.307  -116.777  0.00313  163.653   0.2788  -92.582
1400  0.1883  175.438   13.608  -128.890  0.00387  138.705   0.2876  -104.109
1500  0.1846  151.461   13.815  -141.125  0.00423  119.422   0.2944  -114.502
1600  0.1879  128.639   14.144  -153.377  0.00459  124.933   0.3074  -125.916
1700  0.2020  106.572   14.361  -165.785  0.00482  146.303   0.3249  -139.217
1800  0.2315  80.796    14.543  -179.671  0.00564  120.415   0.3389  -154.607
1900  0.2383  58.757    14.759  168.167   0.00657  106.658   0.3385  -168.045
2000  0.2572  40.084    14.651  154.665   0.00874  103.043   0.3521  177.715
2100  0.2764  22.225    14.852  141.254   0.00934  89.362    0.3724  162.312
2200  0.3039  2.250     14.614  127.224   0.01166  94.472    0.3790  145.877
2300  0.3163  -19.701   14.179  112.529   0.01300  68.939    0.3702  129.113
2400  0.3117  -39.675   13.782  100.012   0.01447  54.072    0.3595  115.013
2500  0.3011  -59.706   13.144  86.518    0.01573  43.424    0.3530  101.624
2600  0.2881  -77.372   12.751  74.123    0.01740  33.116    0.3498  88.073
2700  0.2779  -95.290   12.068  61.216    0.01725  19.777    0.3406  75.089
2800  0.2654  -114.111  11.557  48.405    0.01670  7.698     0.3276  61.524
2900  0.2530  -133.379  10.697  36.912    0.01719  -4.600    0.3119  49.980
3000  0.2448  -151.846  10.130  25.398    0.01965  -11.086   0.2969  39.005
3100  0.2327  -171.144  9.610   14.965    0.02022  -19.741   0.2828  28.661
3200  0.2254  170.880   8.962   3.789     0.01874  -28.179   0.2715  18.639
3300  0.2205  153.724   8.503   -6.724    0.01931  -35.034   0.2588  8.779
3400  0.2194  136.684   8.061   -16.854   0.01907  -45.603   0.2473  -1.618
3500  0.2219  120.741   7.689   -26.828   0.02111  -49.780   0.2331  -11.146
3600  0.2262  106.142   7.319   -37.209   0.01925  -60.694   0.2180  -21.220
3700  0.2301  91.222    7.011   -46.734   0.02076  -61.446   0.2012  -31.298
3800  0.2335  78.627    6.619   -56.901   0.02089  -72.898   0.1848  -40.712
3900  0.2423  66.603    6.336   -67.160   0.02066  -76.103   0.1677  -50.507
4000  0.2442  54.637    6.106   -75.982   0.02053  -85.188   0.1501  -60.813