!BGA6489 
!Scattering parameters 
!Is=74mA Vs=8V
!Z0=50 Ohm 
!Tamb 25C
!
#  MHz  S  MA  R 50
! Freq       S11             S21             S12             S22    :
100	0.05	21.17	12.92	172.11	0.06	0.09	0.12	-9.64
200	0.06	28.11	12.79	164.42	0.06	-0.30	0.12	-22.91
300	0.09	27.41	12.59	156.85	0.06	-0.39	0.13	-35.38
400	0.11	21.64	12.31	149.28	0.06	-0.35	0.14	-46.54
500	0.12	15.28	11.97	141.88	0.06	-0.32	0.14	-57.20
600	0.14	8.01	11.57	134.79	0.06	0.04	0.15	-67.41
700	0.16	0.34	11.18	127.97	0.06	0.63	0.16	-76.76
800	0.17	-7.27	10.75	121.56	0.05	1.57	0.16	-85.75
900	0.18	-14.78	10.24	115.06	0.05	1.85	0.17	-94.28
1000	0.19	-22.18	9.80	109.18	0.05	3.16	0.17	-102.40
1100	0.20	-29.33	9.40	103.40	0.05	4.29	0.17	-110.30
1200	0.21	-36.41	8.96	98.12	0.05	5.64	0.17	-118.50
1300	0.21	-42.47	8.53	92.76	0.05	7.03	0.17	-126.70
1400	0.22	-49.06	8.16	87.50	0.06	7.74	0.17	-134.80
1500	0.22	-55.46	7.85	82.76	0.06	9.08	0.17	-143.50
1600	0.22	-61.20	7.51	78.52	0.06	10.76	0.16	-152.70
1700	0.22	-67.02	7.16	74.16	0.06	11.89	0.16	-161.80
1800	0.21	-73.40	6.90	69.37	0.06	12.34	0.16	-171.90
1900	0.21	-78.99	6.69	65.14	0.06	13.16	0.16	177.40
2000	0.20	-84.54	6.42	61.15	0.06	14.33	0.16	166.81
2100	0.19	-91.32	6.16	56.80	0.07	14.84	0.17	156.07
2200	0.18	-97.58	5.99	52.55	0.07	15.05	0.17	145.29
2300	0.17	-103.60	5.83	49.08	0.07	15.72	0.19	135.65
2400	0.16	-111.90	5.58	45.43	0.07	15.96	0.20	126.23
2500	0.14	-120.80	5.39	40.67	0.08	15.27	0.22	117.62
2600	0.13	-129.80	5.30	36.66	0.08	14.68	0.24	110.35
2700	0.13	-143.80	5.18	33.88	0.08	15.64	0.28	104.05
2800	0.12	-154.47	5.08	30.28	0.08	15.56	0.31	97.10
2900	0.11	-164.40	4.71	22.43	0.09	11.60	0.28	91.75
3000	0.11	178.65	4.66	18.90	0.09	11.05	0.31	84.80
3100	0.12	160.01	4.45	18.63	0.10	10.63	0.33	80.37
3200	0.13	143.15	4.14	15.40	0.10	10.07	0.36	76.12
3300	0.14	129.62	4.04	10.93	0.10	9.87	0.38	71.65
3400	0.15	116.09	3.93	6.46	0.11	9.66	0.40	67.18
3500	0.17	102.56	3.83	1.99	0.11	9.46	0.43	62.72
3600	0.16	112.23	3.79	-4.83	0.12	0.27	0.38	66.62
3700	0.15	103.48	3.82	-12.12	0.13	-4.90	0.35	66.55
3800	0.24	90.79	3.66	-7.79	0.11	-2.28	0.46	55.24
3900	0.26	86.90	3.27	-10.82	0.12	-3.51	0.46	51.74
4000	0.28	91.38	3.22	-15.69	0.15	-4.91	0.45	53.96
4100	0.34	71.90	3.42	-17.66	0.11	-16.75	0.53	43.21
4200	0.34	68.18	3.15	-16.36	0.11	-13.35	0.51	38.14
4300	0.35	64.30	2.97	-21.98	0.11	-13.59	0.50	34.39
4400	0.36	61.51	3.15	-26.59	0.12	-12.34	0.50	30.67
4500	0.38	57.26	3.09	-25.18	0.11	-13.88	0.50	25.96
4600	0.39	51.85	2.79	-29.59	0.12	-16.92	0.50	21.10
4700	0.41	47.63	2.77	-39.34	0.13	-18.17	0.50	16.76
4800	0.46	35.02	2.93	-45.16	0.12	-18.61	0.51	10.42
4900	0.45	20.25	2.67	-43.85	0.10	-25.02	0.54	-3.53
5000	0.22	3.14	2.08	-43.82	0.08	11.06	0.35	-13.77