!BGA6589 
!Scattering parameters 
!Is=83mA Vs=8V
!Z0=50 Ohm 
!Tamb 25C								
!
#  MHz  S  MA  R 50
! Freq       S11             S21             S12             S22    :
100	0.29	-3.46	16.79	170.85	0.04	1.37	0.33	-9.32
200	0.30	-7.11	16.54	161.75	0.04	2.41	0.34	-20.47
300	0.31	-11.35	16.10	152.86	0.04	3.68	0.34	-31.19
400	0.31	-16.26	15.52	144.20	0.04	5.17	0.34	-41.66
500	0.32	-21.59	14.83	135.78	0.04	6.81	0.34	-51.67
600	0.33	-27.17	14.11	127.84	0.04	8.69	0.33	-61.43
700	0.34	-32.83	13.41	120.58	0.04	11.04	0.33	-70.75
800	0.34	-38.55	12.69	113.84	0.04	13.67	0.33	-79.56
900	0.34	-44.18	11.79	107.06	0.04	15.22	0.32	-88.01
1000	0.34	-49.87	11.12	100.99	0.04	18.00	0.32	-96.05
1100	0.34	-55.24	10.55	95.46	0.04	19.99	0.31	-103.90
1200	0.34	-60.61	9.91	90.42	0.05	22.15	0.30	-111.40
1300	0.34	-65.89	9.30	85.08	0.05	24.16	0.30	-118.90
1400	0.33	-71.05	8.82	79.77	0.05	24.64	0.29	-126.30
1500	0.33	-75.98	8.44	75.53	0.05	25.92	0.28	-133.70
1600	0.32	-81.05	7.98	71.85	0.06	27.60	0.27	-141.20
1700	0.31	-86.05	7.51	67.58	0.06	28.54	0.26	-148.90
1800	0.30	-91.10	7.22	63.03	0.06	28.14	0.25	-157.00
1900	0.29	-96.20	6.99	59.38	0.06	28.20	0.24	-165.50
2000	0.28	-101.70	6.65	55.68	0.07	28.97	0.24	-174.30
2100	0.27	-107.40	6.37	51.42	0.07	28.85	0.23	176.30
2200	0.26	-113.40	6.19	47.57	0.07	28.09	0.23	166.47
2300	0.24	-119.80	5.98	44.56	0.08	27.92	0.23	156.54
2400	0.23	-127.10	5.69	40.94	0.08	27.67	0.23	146.11
2500	0.22	-134.90	5.52	36.26	0.08	25.97	0.24	136.15
2600	0.20	-143.60	5.43	32.66	0.09	24.33	0.25	126.74
2700	0.21	-156.00	5.24	29.68	0.09	24.21	0.29	118.00
2800	0.21	-168.40	5.05	26.71	0.09	24.08	0.33	80.01
2900	0.18	-170.20	4.79	18.71	0.10	19.88	0.28	102.81
3000	0.18	174.84	4.68	16.47	0.10	19.11	0.31	94.32
3100	0.18	161.86	4.48	16.30	0.11	18.32	0.34	87.65
3200	0.19	146.72	4.22	14.92	0.12	18.56	0.36	80.15
3300	0.20	131.58	3.95	13.54	0.12	18.79	0.39	72.66
3400	0.19	140.80	4.32	-0.68	0.12	7.38	0.36	78.21
3500	0.21	129.48	3.88	-0.84	0.13	6.77	0.40	72.93
3600	0.23	123.20	3.62	-5.21	0.13	6.93	0.41	69.22
3700	0.31	104.26	3.86	-8.89	0.12	-6.54	0.52	65.45
3800	0.27	100.90	3.62	-9.49	0.13	2.26	0.47	58.45
3900	0.29	97.11	3.23	-12.67	0.14	0.50	0.47	55.51
4000	0.32	99.00	3.20	-17.74	0.17	-1.01	0.46	57.57
4100	0.35	79.20	3.39	-19.38	0.12	-12.63	0.54	46.40
4200	0.35	75.86	3.11	-17.89	0.12	-10.27	0.52	41.92
4300	0.36	71.95	2.94	-23.49	0.13	-10.92	0.52	38.34
4400	0.37	68.41	3.14	-27.76	0.13	-9.90	0.52	34.48
4500	0.40	64.21	3.13	-26.33	0.13	-11.74	0.52	30.17
4600	0.41	50.34	2.76	-32.86	0.14	-15.02	0.52	25.43
4700	0.39	47.31	2.68	-40.68	0.14	-16.30	0.51	20.74
4800	0.40	42.40	2.88	-43.27	0.14	-16.59	0.52	14.72
4900	0.45	27.10	2.73	-44.17	0.12	-23.74	0.55	1.04
5000	0.22	7.79	2.08	-45.66	0.09	7.29	0.35	-10.94