!BGA6289 
!Scattering parameters 
!Is=83mA Vs=8V
!Z0=50 Ohm
!Tamb 25C								
!
#  MHz  S  MA  R 50
! Freq       S11             S21             S12             S22    :
100	0.23	-3.61	6.03	174.11	0.10	-1.65	0.28	-9.86
200	0.23	-7.30	6.00	168.30	0.10	-3.45	0.28	-20.20
300	0.24	-10.69	5.96	162.55	0.10	-5.04	0.29	-30.37
400	0.24	-15.12	5.89	156.73	0.10	-6.51	0.29	-40.01
500	0.25	-19.70	5.79	150.98	0.10	-8.01	0.29	-49.38
600	0.26	-23.91	5.70	145.39	0.10	-9.36	0.28	-58.47
700	0.26	-28.74	5.61	140.06	0.10	-10.28	0.28	-67.10
800	0.27	-33.86	5.51	135.02	0.10	-10.88	0.28	-75.39
900	0.27	-38.85	5.34	129.47	0.09	-12.32	0.28	-83.33
1000	0.28	-43.84	5.22	124.56	0.09	-12.48	0.27	-91.00
1100	0.28	-48.91	5.13	119.75	0.09	-12.98	0.27	-98.47
1200	0.29	-54.07	5.00	115.28	0.09	-13.08	0.26	-106.00
1300	0.29	-59.05	4.86	110.36	0.09	-13.08	0.25	-113.40
1400	0.29	-64.18	4.77	105.46	0.09	-13.91	0.24	-120.70
1500	0.29	-69.43	4.69	101.28	0.09	-13.78	0.23	-128.50
1600	0.28	-74.33	4.57	97.48	0.08	-13.03	0.22	-136.50
1700	0.28	-79.48	4.44	93.16	0.08	-12.60	0.21	-144.60
1800	0.28	-85.07	4.37	88.52	0.08	-13.11	0.20	-153.60
1900	0.27	-90.41	4.33	84.60	0.08	-12.91	0.19	-163.20
2000	0.26	-95.79	4.22	80.54	0.08	-11.83	0.19	-173.30
2100	0.25	-101.80	4.12	76.10	0.08	-11.39	0.18	175.98
2200	0.24	-108.10	4.08	71.92	0.08	-11.32	0.18	164.70
2300	0.23	-113.70	4.02	68.42	0.09	-10.42	0.18	153.59
2400	0.22	-121.10	3.90	64.45	0.09	-9.69	0.19	142.50
2500	0.20	-129.20	3.83	59.62	0.09	-10.17	0.20	132.00
2600	0.19	-137.00	3.82	55.63	0.09	-10.44	0.21	122.79
2700	0.20	-148.30	3.75	52.18	0.09	-9.09	0.25	114.28
2800	0.18	-155.39	3.68	47.67	0.09	-9.39	0.25	103.53
2900	0.17	-165.80	3.53	40.68	0.09	-11.03	0.25	100.63
3000	0.17	-178.50	3.51	37.10	0.09	-10.91	0.27	92.65
3100	0.17	167.51	3.38	36.18	0.10	-10.36	0.29	87.36
3200	0.17	154.47	3.19	32.44	0.10	-9.92	0.31	82.54
3300	0.18	142.59	3.14	27.96	0.10	-9.41	0.33	77.66
3400	0.20	127.70	3.27	27.49	0.10	-8.56	0.34	69.32
3500	0.22	112.81	3.39	27.02	0.11	-7.71	0.36	60.98
3600	0.20	120.59	3.02	10.96	0.12	-15.38	0.35	70.39
3700	0.30	109.35	3.09	10.01	0.11	-29.88	0.45	69.93
3800	0.27	101.07	2.93	8.06	0.10	-18.70	0.41	60.67
3900	0.29	95.54	2.66	4.21	0.11	-18.08	0.41	56.51
4000	0.30	97.41	2.62	-0.92	0.14	-15.42	0.39	57.03
4100	0.37	82.69	2.79	-1.80	0.11	-32.86	0.47	50.78
4200	0.37	77.11	2.58	-1.94	0.10	-29.10	0.46	44.77
4300	0.38	72.54	2.47	-7.81	0.11	-28.43	0.46	40.73
4400	0.39	68.92	2.61	-11.97	0.11	-26.28	0.46	36.91
4500	0.41	64.23	2.55	-11.28	0.11	-27.43	0.45	32.13
4600	0.42	58.78	2.34	-16.23	0.11	-29.89	0.45	27.30
4700	0.44	54.46	2.36	-25.41	0.12	-30.34	0.46	22.89
4800	0.49	41.58	2.48	-31.14	0.12	-30.79	0.46	16.59
4900	0.49	26.79	2.26	-31.24	0.10	-39.09	0.50	2.49
5000	0.26	14.44	1.79	-32.12	0.06	1.04	0.33	-10.55