! Bias: Vs=3.00 V; Is=14.6 mA                
#  MHz  S  MA  R 50                
! Freq  S11              S21             S12               S22  
100   0.25122  14.607  9.337   12.018  0.032124  16.445  0.26458   64.156
200   0.2707   2.759   9.425   5.676   0.028303  6.37    0.20645   64.153
300   0.27703  -3.376  9.532   -2.551  0.026827  0.0937  0.166     59.553
400   0.27979  -7.969  9.636   -8.447  0.026297  -4.545  0.1543    52.558
500   0.28171  -11.59  9.683   -13.9   0.025649  -7.493  0.15087   45.674
600   0.28323  -14.78  9.765   -19.02  0.024833  -10.24  0.15203   39.347
700   0.28491  -17.56  9.837   -23.42  0.024086  -12.63  0.15917   33.215
800   0.28557  -20.13  9.938   -27.93  0.023234  -14.62  0.16867   27.926
900   0.28656  -22.27  9.936   -32.52  0.022386  -16.44  0.17924   23.232
1000  0.28673  -24.14  10.036  -36.88  0.021523  -17.42  0.19196   19.293
1100  0.28621  -25.92  10.117  -41.56  0.020659  -18.57  0.2029    15.652
1200  0.28517  -27.57  10.116  -46.47  0.01983   -19.83  0.21421   12.703
1300  0.28306  -28.79  10.220  -50.8   0.019041  -20.28  0.22356   9.873
1400  0.27902  -29.93  10.265  -56.05  0.01823   -21.14  0.23292   7.154
1500  0.27291  -30.86  10.347  -61.17  0.017605  -21.57  0.2413    4.73
1600  0.26682  -31.81  10.406  -65.76  0.016902  -21.62  0.24605   2.582
1700  0.25723  -32.43  10.427  -71.38  0.016193  -22.25  0.25075   0.38
1800  0.24746  -33.12  10.441  -76.97  0.015759  -22.32  0.25113   -1.26
1900  0.23364  -33.75  10.459  -82.49  0.015025  -22.13  0.24862   -3.195
2000  0.21894  -33.8   10.462  -88.33  0.01431   -22.64  0.24367   -4.817
2100  0.20077  -33.77  10.465  -94.3   0.013798  -22.64  0.23481   -6.384
2200  0.18164  -32.67  10.452  -100.3  0.013012  -23.13  0.22184   -7.573
2300  0.16031  -31.36  10.405  -106.8  0.012427  -23.77  0.20645   -8.559
2400  0.14     -26.75  10.343  -112.6  0.011826  -23.27  0.18787   -8.489
2500  0.11903  -20.84  10.140  -117.7  0.010863  -23.93  0.16642   -7.725
2600  0.10418  -10.16  9.880   -122.9  0.010171  -23.23  0.13049   -4.601
2700  0.09597  0.574   9.548   -125.4  0.00943   -19.88  0.14145   6.955
2800  0.09469  15.051  9.204   -129.5  0.008664  -16.9   0.1294    9.578
2900  0.10003  25.256  8.952   -132.5  0.008055  -14.6   0.12028   14.713
3000  0.10595  33.415  8.682   -135.4  0.007541  -9.957  0.1127    18.402
3100  0.11291  38.167  8.418   -138.1  0.006927  -5.406  0.10387   21.994
3200  0.11609  42.488  8.188   -142.2  0.006655  -0.835  0.092234  23.406
3300  0.11435  44.484  8.063   -146.9  0.006493  5.519   0.076373  25.43
3400  0.10827  50.017  7.930   -151.5  0.006042  12.444  0.059268  26.453
3500  0.10624  55.54   7.806   -156.9  0.006191  19.588  0.03733   29.233
3600  0.09866  60.967  7.775   -162.2  0.006205  29.297  0.015829  38.211
3700  0.09173  69.057  7.548   -167.1  0.006414  34.462  0.007399  -170.5
3800  0.08693  80.355  7.338   -172.6  0.007039  40.351  0.028159  -152.8
3900  0.09112  92.745  7.214   -177.8  0.007496  46.381  0.050639  -142.8
4000  0.1009   102.07  6.909   177.1   0.008241  46.053  0.075298  -133.1