! Bias: Vs=5.00 V; Is=27.5 mA                
#  MHz  S  MA  R 50                
! Freq  S11                S21               S12                S22  
100   0.25948  19.334    57.786  2.468     0.01642  47.349    0.32468  118.638
200   0.25814  3.185     57.956  -10.935   0.01096  20.655    0.24779  110.877
300   0.26989  -13.896   59.476  -27.249   0.00821  3.012     0.18762  97.334
400   0.27001  -25.597   60.079  -41.198   0.00712  -12.620   0.16327  87.003
500   0.26875  -34.989   60.457  -54.265   0.00819  -12.763   0.14867  74.541
600   0.27080  -43.667   60.597  -67.001   0.00751  -13.864   0.13440  63.184
700   0.27272  -51.254   60.724  -79.747   0.00656  -13.445   0.11998  53.159
800   0.28052  -61.504   60.736  -95.639   0.00687  -12.127   0.10440  43.727
900   0.28535  -70.972   60.631  -108.402  0.00737  -8.281    0.09631  38.963
1000  0.29596  -80.093   60.439  -121.191  0.00759  -7.295    0.09224  37.736
1100  0.30489  -91.190   59.920  -134.143  0.00820  -9.730    0.09145  36.936
1200  0.31690  -102.257  59.210  -147.090  0.00828  -11.513   0.09738  33.902
1300  0.32956  -115.085  58.116  -160.038  0.00904  -14.896   0.11086  30.401
1400  0.33509  -127.741  57.013  -172.944  0.00981  -16.793   0.12260  25.641
1500  0.33968  -142.444  55.691  174.097   0.01059  -18.540   0.13274  16.364
1600  0.33399  -158.131  54.459  160.832   0.01130  -25.079   0.14156  5.980
1700  0.33806  -173.536  52.501  147.458   0.01252  -30.976   0.15265  -4.860
1800  0.33105  169.644   50.307  134.062   0.01272  -33.964   0.15699  -14.186
1900  0.33489  153.625   47.757  121.073   0.01414  -36.354   0.16615  -26.018
2000  0.32648  130.626   44.625  104.723   0.01571  -42.953   0.17208  -39.823
2100  0.31601  113.406   41.935  91.820    0.01674  -49.572   0.17321  -50.404
2200  0.30935  95.900    38.924  79.415    0.01826  -57.045   0.17214  -61.906
2300  0.29789  76.933    36.024  67.317    0.01939  -62.680   0.16754  -72.260
2400  0.28749  59.033    33.314  55.543    0.01994  -69.160   0.16061  -83.456
2500  0.27463  38.712    30.630  43.988    0.01984  -74.344   0.15393  -93.421
2600  0.25737  20.398    28.195  33.075    0.01952  -78.291   0.14733  -104.399
2700  0.24861  1.880     25.713  22.788    0.02040  -83.871   0.14673  -113.950
2800  0.22408  -15.523   23.605  13.056    0.02037  -89.938   0.13856  -125.070
2900  0.21576  -32.024   21.712  4.012     0.02126  -95.529   0.13669  -138.140
3000  0.19813  -50.688   20.244  -4.821    0.02198  -99.786   0.12708  -151.493
3100  0.19319  -64.312   19.051  -13.098   0.02328  -104.671  0.12516  -165.586
3200  0.18483  -87.334   17.921  -23.511   0.02516  -109.647  0.11497  176.414
3300  0.16979  -103.987  17.262  -32.055   0.02649  -112.883  0.11220  159.913
3400  0.17823  -122.745  16.638  -40.769   0.02774  -117.745  0.10815  141.862
3500  0.16246  -138.329  16.093  -49.836   0.02997  -124.734  0.12027  122.662
3600  0.15242  -154.417  15.568  -59.036   0.03204  -131.669  0.12744  109.662
3700  0.13857  178.318   15.084  -68.638   0.03477  -139.776  0.12585  91.643
3800  0.14260  155.334   14.602  -78.242   0.03643  -146.311  0.12346  69.308
3900  0.15393  129.371   14.061  -87.920   0.03832  -153.716  0.12953  46.993
4000  0.15774  107.555   13.524  -97.478   0.03982  -160.550  0.14070  25.185
4100  0.17315  87.763    12.916  -106.944  0.04126  -168.544  0.15226  7.419
4200  0.17394  65.145    12.337  -116.506  0.04286  -176.896  0.16943  -10.668
4300  0.18434  47.462    11.776  -125.849  0.04412  175.873   0.17704  -24.555
4400  0.19497  20.961    11.019  -137.122  0.04486  166.650   0.19263  -42.851
4500  0.20439  2.854     10.428  -146.452  0.04532  159.500   0.19040  -59.586
4600  0.22338  -13.520   9.774  -155.495   0.04645  151.931   0.20214  -76.802
4700  0.22365  -32.484   9.075  -164.157   0.04699  143.244   0.20705  -96.145
4800  0.20934  -51.692   8.327  -171.356   0.04562  137.189   0.18440  -111.972
4900  0.17866  -71.439   7.768  -176.587   0.04451  133.915   0.14779  -128.767
5000  0.14631  -84.608   7.539  -179.159   0.04517  133.334   0.10729  -138.582