! Bias: Vs=5.00 V; Is=25.5 mA                
#  MHz  S  MA  R 50
! Freq  S11              S21             S12               S22  
100   0.33888  13.735  17.471  23.857  0.020288  15.735  0.36584  75.377
200   0.35956  1.226   18.919  11.689  0.017275  3.184   0.21888  80.2
300   0.36262  -5.457  19.748  6.962   0.015506  -4.197  0.16419  74.586
400   0.36026  -10.69  20.617  4.003   0.014308  -8.72   0.13255  63.264
500   0.35552  -15.12  21.630  1.444   0.013121  -10.26  0.1145   48.717
600   0.34843  -19.01  22.874  -1.164  0.011974  -10.34  0.10526  33.029
700   0.3395   -22.54  24.322  -3.923  0.011036  -9.583  0.10117  18.276
800   0.32777  -25.59  25.971  -7.08   0.010218  -7.249  0.10276  5.235
900   0.31349  -28.18  27.888  -10.62  0.009545  -4.748  0.10521  -5.171
1000  0.29638  -29.86  30.113  -14.46  0.008985  -0.228  0.11006  -11.89
1100  0.27697  -31.23  32.564  -18.94  0.008556  3.431   0.11545  -18.05
1200  0.25537  -31.29  35.379  -24.09  0.008193  7.746   0.12023  -21.72
1300  0.23154  -29.86  38.485  -29.71  0.007967  13.103  0.12733  -24.87
1400  0.20729  -25.55  41.874  -36.2   0.007839  18.616  0.13588  -27.5
1500  0.18983  -17.59  46.006  -43.64  0.007865  23.778  0.14712  -31.03
1600  0.18497  -6.237  50.324  -51.74  0.008031  29.842  0.15889  -36.72
1700  0.20144  5.691   54.761  -61.47  0.008359  35.305  0.17456  -43.78
1800  0.2395   12.189  59.876  -72.6   0.008984  40.04   0.18648  -54.97
1900  0.29054  13.469  64.169  -85.35  0.009594  43.965  0.20369  -70.94
2000  0.33953  8.779   67.297  -100.8  0.010386  45.512  0.21689  -88.61
2100  0.36866  0.306   68.486  -117.5  0.011067  46.278  0.22512  -112.2
2200  0.38113  -4.583  66.885  -132.7  0.011554  45.575  0.23879  -135.9
2300  0.34653  -12.27  62.276  -148.5  0.012043  45.151  0.24477  -159
2400  0.32252  -13.77  56.251  -160.9  0.012155  45.823  0.25493  179.6
2500  0.29648  -12.31  49.598  -171.8  0.012153  45.385  0.26997  164.05
2600  0.26696  -6.3    42.664  178.72  0.012322  46.505  0.29946  153.61
2700  0.26632  -5.359  37.541  172.28  0.012591  52.212  0.30414  138.62
2800  0.25287  0.325   32.826  165.69  0.012766  53.444  0.31459  133.24
2900  0.252    3.624   28.964  160.4   0.013134  54.605  0.33368  127.65
3000  0.25248  5.695   25.610  155.75  0.013513  58.454  0.34676  123
3100  0.24872  7.409   23.041  151.42  0.013711  61.645  0.35831  118.35
3200  0.23966  6.706   20.790  147.76  0.014764  63.005  0.36415  113.87
3300  0.22353  7.509   18.694  144.38  0.016152  66.479  0.36244  111.02
3400  0.20759  11.511  17.087  141.67  0.016801  67.369  0.35214  108.49
3500  0.20096  13.979  15.734  139.32  0.018939  67.461  0.34524  107.33
3600  0.19338  16.519  14.645  136.46  0.020256  69.187  0.32879  106.76
3700  0.18677  21.213  13.783  134.02  0.021278  65.839  0.30875  105.93
3800  0.1885   23.986  13.030  130.75  0.023505  64.564  0.28842  105.82
3900  0.20442  26.684  12.423  126.17  0.0239    63.623  0.2555   105.2
4000  0.23108  23.865  11.592  121     0.024754  55.869  0.21099  102.18