! Filename:        PBR941A.S2P                               Version:    3.0
! Philips part #:  PBR941                                    Date: July 1998
! Bias condition:  Vce=3V, Ic=0.5mA
!
#  MHz  S  MA  R 50
! Freq       S11             S21             S12             S22
40      0.98332 -3.265  1.76877 176.82  0.008365  87.148  0.99857 -1.194
100     0.98039 -8.113  1.76336 172.12  0.020758  84.638  0.99663 -2.956
200     0.97182 -16.42  1.76263 164.53  0.040951  79.583  0.9904  -5.889
300     0.95852 -24.84  1.75873 157.11  0.060356  75.184  0.98122 -8.73
400     0.9397  -33.13  1.73345 150.11  0.077568  70.52   0.9697  -11.44
500     0.91686 -41.01  1.70011 143.57  0.093208  66.699  0.95695 -13.96
600     0.88943 -48.17  1.64633 137.82  0.10714   62.74   0.94367 -16.19
700     0.86058 -54.86  1.58984 132.32  0.11778   59.537  0.93055 -18.18
800     0.82427 -61.21  1.52871 126.86  0.12673   56.427  0.91618 -19.97
900     0.78271 -67.29  1.46516 121.35  0.13416   53.766  0.90127 -21.6
1000    0.73995 -73.67  1.41083 115.96  0.13969   50.967  0.88569 -23.13
1200    0.66618 -87.91  1.32322 105.23  0.14715   46.424  0.85374 -26.04
1400    0.6122  -101.9  1.25664 95.893  0.14921   42.969  0.828   -28.82
1600    0.57492 -113.3  1.18981 88.592  0.14715   42.308  0.81439 -31.05
1800    0.52156 -123.7  1.11201 82.589  0.1428    43.658  0.80362 -32.93
2000    0.46793 -136.5  1.03789 76.558  0.13702   46.123  0.78528 -34.71
2200    0.43893 -151.9  0.97597 70.328  0.13277   50.336  0.76371 -37.04
2400    0.44074 -164.7  0.93767 64.698  0.13169   56.781  0.75114 -40.04
2600    0.43597 -174    0.89593 60.501  0.13873   64.86   0.75146 -43.09
2800    0.41396 175.85  0.86682 57.637  0.15216   72.329  0.75002 -45.37
3000    0.40454 161.67  0.82126 54.336  0.16884   78.288  0.73333 -47.41
