! Filename:        PBR941L.S2P                               Version:    3.0
! Philips part #:  PBR941                                    Date: July 1998
! Bias condition:  Vce=6V, Ic=2.0mA
!
#  MHz  S  MA  R 50
! Freq       S11             S21             S12             S22
40      0.93557  -5.374  6.52822  174.72  0.007862  86.638  0.99454 -2.297
100     0.92169  -13.36  6.43169  167.17  0.018829  81.478  0.98505 -5.6
200     0.87839  -26.42  6.18163  155.4   0.036552  75.238  0.95373 -10.77
300     0.81794  -38.71  5.84603  144.7   0.051095  69.969  0.91219 -15.06
400     0.75303  -49.71  5.41227  135.5   0.062805  65.437  0.86872 -18.4
500     0.68992  -59.48  4.97656  127.69  0.072363  62.375  0.82946 -20.87
600     0.63172  -67.55  4.54648  121.36  0.080479  60.484  0.79617 -22.61
700     0.57668  -74.36  4.16256  115.78  0.086153  59.528  0.76974 -23.77
800     0.52521  -80.46  3.80896  110.66  0.091679  59.072  0.74857 -24.59
900     0.47191  -85.9   3.49642  105.91  0.096212  58.873  0.72901 -25.21
1000    0.42337  -91.89  3.2354   101.46  0.10053   58.968  0.71113 -25.72
1200    0.34899  -105.6  2.82668  93.201  0.10948   60.092  0.67974 -26.77
1400    0.30542  -119.1  2.53459  86.383  0.11751   61.488  0.65766 -28.19
1600    0.27693  -128    2.28966  81.001  0.12717   64.141  0.64936 -29.28
1800    0.23256  -137    2.07104  76.44   0.13753   66.915  0.64688 -30.08
2000    0.1913   -153.5  1.8915   71.659  0.14798   68.788  0.6378  -30.78
2200    0.19017  -174.1  1.75448  66.947  0.16094   70.548  0.61995 -32
2400    0.21135  174.63  1.66209  62.515  0.1745    72.154  0.60738 -34.14
2600    0.21247  169.39  1.56692  59.167  0.19173   74.073  0.60716 -36.66
2800    0.19462  160.23  1.49215  56.515  0.20937   75.334  0.61131 -38.39
3000    0.1946   142.22  1.40246  53.029  0.22622   75.819  0.60329 -39.35
!  Noise data:
!  Freq. Fmin     Gamma-opt       rn
500     1.038   0.588   13.28   0.379
900     1.111   0.497   29.36   0.372
1000    1.168   0.448   32.72   1.369
2000    1.951   0.206   103.64  0.22
