! Filename:        PBR951Q.S2P                               Version:    3.0
! Philips part #:  PBR951                                    Date: July 1998
! Bias condition:  Vce=6V, Ic=30mA
!
#  MHz  S  MA  R 50
! Freq       S11             S21             S12             S22
40      0.41836 -32.34  42.96103 155.79  0.007871 79.828  0.89073 -15.34
100     0.32649 -69.26  31.84662 131.33  0.016486 73.177  0.69671 -28.05
200     0.23802 -105.9  19.83281 111.91  0.027316 73.49   0.50696 -31.62
300     0.20383 -127.5  13.99499 102.6   0.037848 75.602  0.42982 -30.11
400     0.19171 -141.4  10.74715 96.763  0.048634 76.598  0.3947  -28.78
500     0.18419 -150.7  8.7044   92.546  0.059304 77.711  0.37753 -27.99
600     0.17749 -157.6  7.31216  89.242  0.070166 78.262  0.36954 -27.56
700     0.17206 -164    6.31084  86.394  0.080795 78.491  0.36629 -27.19
800     0.16572 -169.9  5.54668  83.84   0.091743 78.584  0.36454 -26.89
900     0.16293 -175.8  4.9563   81.462  0.10248  78.552  0.36215 -26.57
1000    0.16171 177.7   4.47767  79.272  0.11324  78.284  0.35896 -26.46
1200    0.16977 168.08  3.77906  75.265  0.13516  77.634  0.34981 -27.41
1400    0.17556 161.97  3.28704  71.527  0.15693  76.854  0.3447  -29.74
1600    0.17334 156.92  2.91496  67.939  0.17879  76.014  0.34887 -32.13
1800    0.17213 147.58  2.62134  64.629  0.20029  75.035  0.35531 -32.95
2000    0.18782 137.44  2.3966   61.331  0.22162  73.841  0.35017 -32.74
2200    0.2137  132.24  2.21845  58.328  0.2436   72.537  0.33307 -33.57
2400    0.23185 131.91  2.08173  55.309  0.26549  71.427  0.31831 -37.26
2600    0.2328  131.61  1.95163  52.453  0.28724  70.276  0.31567 -42.04
2800    0.22991 125.91  1.84823  49.833  0.30938  68.837  0.32114 -44.21
3000    0.24615 117.62  1.75605  46.901  0.33068  67.446  0.31556 -43.35
!  Noise data:
!  Freq. Fmin     Gamma-opt       rn
500     1.941   0.121   168.06  0.293
800     2.105   0.181   168.61  0.17
900     2.129   0.214   178.76  0.156
1000    2.203   0.28    -174.27 0.101
1500    2.45    0.406   -158.36 0.077
2000    2.893   0.392   -129.62 0.291
