! Filename:        PBR941F.S2P                               Version:    3.0
! Philips part #:  PBR941                                    Date: July 1998
! Bias condition:  Vce=3V, Ic=15mA
!
#  MHz  S  MA  R 50
! Freq       S11                 S21               S12              S22
40      0.61979   -16.92  29.30068  163.91  0.006961  80.655  0.95311 -8.019
100     0.52746   -38.56  25.11815  144.03  0.015495  75.059  0.8523  -16.84
200     0.37433   -63.29  18.13325  123.11  0.025728  71.249  0.69752 -22.3
300     0.27765   -79.93  13.58044  111.37  0.034292  72.301  0.61029 -22.75
400     0.2221    -92.18  10.68317  104.03  0.04258   73.694  0.56448 -22.12
500     0.18784   -101.6  8.78191   98.937  0.051198  75.451  0.541   -21.55
600     0.16391   -107.6  7.43739   95.162  0.059858  76.117  0.52956 -21.08
700     0.14323   -112.1  6.44098   92.011  0.068758  77.308  0.52521 -20.85
800     0.12212   -116.8  5.67059   89.122  0.077169  77.635  0.52386 -20.66
900     0.099646  -122.8  5.06111   86.427  0.086155  78.253  0.52267 -20.63
1000    0.081787  -133.2  4.58264   83.865  0.09496   78.199  0.52001 -20.69
1200    0.074092  -163.2  3.86814   79.214  0.11289   78.334  0.5097  -21.4
1400    0.083757  -177.4  3.38128   75.293  0.13042   77.939  0.50022 -22.87
1600    0.078904  178.3   2.99989   71.878  0.14844   77.856  0.50243 -24.4
1800    0.063801  157.87  2.68083   68.648  0.16624   77.648  0.51063 -25.43
2000    0.078068  126.31  2.43418   65.194  0.18366   76.839  0.5088  -26.04
2200    0.11865   119.66  2.25233   61.846  0.20196   75.944  0.49335 -26.92
2400    0.14015   125.41  2.12475   58.753  0.22046   75.178  0.47885 -29.08
2600    0.13558   128.99  1.98767   56.188  0.24015   74.787  0.47738 -31.94
2800    0.12289   119.53  1.88063   54.039  0.25932   74.065  0.48362 -33.84
3000    0.14391   103.03  1.76593   50.965  0.27655   72.884  0.48006 -34.37
