! Filename:        PBR941N.S2P                               Version:    3.0
! Philips part #:  PBR941                                    Date: July 1998
! Bias condition:  Vce=6V, Ic=10mA
!
#  MHz  S  MA  R 50
! Freq       S11             S21             S12             S22
40      0.74726   -12.42  23.09583  167.26   0.007101  83.639  0.96996 -6.143
100     0.67421   -29.37  20.93736  150.79   0.016277  76.663  0.90354 -13.77
200     0.52302   -50.69  16.52918  130.73   0.027659  70.645  0.77223 -20.59
300     0.40338   -65.27  12.99882  117.96   0.036285  69.751  0.6786  -22.65
400     0.32457   -75.86  10.48043  109.59   0.044398  70.44   0.62197 -22.89
500     0.27106   -83.71  8.73405   103.69   0.052189  71.831  0.5898  -22.68
600     0.23378   -88.82  7.45218   99.392   0.060278  72.852  0.57174 -22.27
700     0.20332   -92.22  6.48427   95.813   0.068312  74.236  0.56265 -21.99
800     0.17483   -95     5.72267   92.597   0.076126  74.866  0.55837 -21.72
900     0.14507   -97.36  5.11485   89.639   0.084292  75.491  0.55378 -21.57
1000    0.11731   -101.8  4.63685   86.858   0.092689  75.682  0.5488  -21.5
1200    0.083163  -121.2  3.9239    81.77    0.10965   76.389  0.53681 -21.98
1400    0.07628   -141    3.43689   77.579   0.12599   76.397  0.52592 -23.26
1600    0.070488  -144.8  3.05183   74.041   0.14303   76.589  0.52673 -24.55
1800    0.04216   -160.4  2.72661   70.769   0.15981   76.781  0.53466 -25.38
2000    0.037293  138.66  2.47358   67.198   0.17605   76.277  0.53213 -25.88
2200    0.077143  122.43  2.28878   63.715   0.19375   75.401  0.51697 -26.69
2400    0.10153   130.19  2.16134   60.492   0.21117   74.974  0.50306 -28.64
2600    0.099332  135.43  2.02409   57.995   0.23004   74.578  0.50162 -31.31
2800    0.087852  123.81  1.91571   55.853   0.2485    74.197  0.50855 -33.07
3000    0.10706   100.92  1.79596   52.762   0.26471   73.225  0.50494 -33.55
!  Noise data:
!  Freq. Fmin     Gamma-opt       rn
500     1.702   0.176   2.23    0.345
900     1.72    0.165   18.62   0.237
1000    1.76    0.172   29.24   0.258
2000    2.331   0.065   -139.91 0.254
