! Filename:        PBR951O.S2P                               Version:    3.0
! Philips part #:  PBR951                                    Date: July 1998
! Bias condition:  Vce=6V, Ic=15mA
!
#  MHz  S  MA  R 50
! Freq       S11             S21             S12             S22
40      0.59666 -22.3   31.65842 161.73  0.009031 80.843  0.93792 -11.54
100     0.5002  -50.51  26.18679 140.55  0.019071 72.125  0.79953 -23.78
200     0.36158 -82.45  18.09514 119.73  0.031129 68.396  0.60659 -31.32
300     0.28696 -103.6  13.2606  108.56  0.040885 69.485  0.50567 -32.2
400     0.24911 -118.8  10.35379 101.48  0.050877 70.81   0.45333 -31.74
500     0.22644 -130.4  8.45168  96.405  0.060485 72.394  0.42485 -31.08
600     0.21079 -139.1  7.1355   92.508  0.070272 73.591  0.40929 -30.56
700     0.19686 -146.9  6.17543  89.185  0.080467 74.39   0.40076 -29.99
800     0.18539 -154    5.43719  86.288  0.090349 75.08   0.39527 -29.42
900     0.17763 -161    4.86441  83.614  0.10055  75.475  0.38996 -28.98
1000    0.17248 -168.5  4.39732  81.192  0.11073  75.569  0.38504 -28.71
1200    0.17537 179.51  3.71648  76.808  0.13169  75.602  0.37328 -29.35
1400    0.17957 171.24  3.23498  72.801  0.15281  75.171  0.36695 -31.4
1600    0.17636 164.95  2.87163  69.014  0.17368  74.797  0.37021 -33.48
1800    0.17342 155.07  2.58264  65.559  0.19468  74.192  0.37552 -34.05
2000    0.18651 143.32  2.36235  62.125  0.21557  73.286  0.36972 -33.9
2200    0.21237 136.97  2.18615  59.007  0.23681  72.31   0.35219 -34.81
2400    0.2308  135.78  2.05181  55.885  0.25854  71.319  0.33811 -38.45
2600    0.2336  134.89  1.92499  52.933  0.2803   70.334  0.3363  -42.93
2800    0.22945 128.56  1.824    50.273  0.30208  69.113  0.34149 -44.95
3000    0.24508 120     1.73249  47.31   0.32338  67.857  0.33494 -44.37
!  Noise data:
!  Freq. Fmin     Gamma-opt       rn
500     1.594   0.079   94.37   0.147
800     1.603   0.118   126.48  0.145
900     1.643   0.143   136.39  0.128
1000    1.703   0.147   140.17  0.12
1500    1.969   0.283   171.02  0.07
2000    2.384   0.381   -133.29 0.176
