! Filename:        PBR951P.S2P                               Version:    3.0
! Philips part #:  PBR951                                    Date: July 1998
! Bias condition:  Vce=6V, Ic=20mA
!
#  MHz  S  MA  R 50
! Freq       S11             S21             S12             S22
40      0.5225  -25.97  36.6263  159.26  0.008413 80.328  0.9202  -13.18
100     0.4223  -57.49  28.96157 136.47  0.017861 72.361  0.75635 -25.91
200     0.30019 -91.3   19.06794 116.09  0.029142 70.453  0.55994 -31.88
300     0.24297 -112.8  13.71361 105.74  0.039279 72.274  0.46859 -31.66
400     0.21602 -127.9  10.61794 99.246  0.049482 73.795  0.42404 -30.7
500     0.20062 -138.8  8.63154  94.578  0.059734 74.98   0.40068 -29.91
600     0.19024 -146.6  7.26597  90.988  0.070348 75.867  0.38881 -29.38
700     0.18023 -154    6.28065  87.884  0.080762 76.428  0.38274 -28.83
800     0.17109 -160.8  5.52456  85.163  0.091053 76.816  0.37907 -28.37
900     0.16631 -167.4  4.93908  82.645  0.10168  76.863  0.37527 -27.97
1000    0.1626  -174.4  4.46397  80.337  0.11212  76.939  0.3712  -27.72
1200    0.16864 174.19  3.76903  76.148  0.13372  76.562  0.36069 -28.49
1400    0.17332 166.98  3.27989  72.293  0.15505  76.013  0.35497 -30.66
1600    0.17047 160.97  2.90943  68.601  0.17625  75.41   0.35867 -32.88
1800    0.16842 151.46  2.61616  65.225  0.19766  74.556  0.36448 -33.55
2000    0.18292 140.19  2.39314  61.877  0.21872  73.513  0.35904 -33.36
2200    0.20878 134.39  2.21422  58.816  0.2403   72.388  0.34167 -34.17
2400    0.22695 133.74  2.07741  55.762  0.26207  71.288  0.32718 -37.79
2600    0.22879 133.23  1.94926  52.87   0.28407  70.227  0.32514 -42.38
2800    0.22529 127.24  1.84588  50.226  0.3056   68.924  0.33034 -44.48
3000    0.24139 118.8   1.75311  47.291  0.32696  67.538  0.3244  -43.75
!  Noise data:
!  Freq. Fmin     Gamma-opt       rn
500     1.776   0.127   138.3   0.127
800     1.779   0.201   167.23  0.091
900     1.827   0.162   162.75  0.13
1000    1.894   0.151   162.77  0.133
1500    2.141   0.354   -178.09 0.057
2000    2.546   0.397   -131.44 0.213
