! Filename:        PBR941H.S2P                               Version:    3.0
! Philips part #:  PBR941                                    Date: July 1998
! Bias condition:  Vce=3V, Ic=30mA
!
#  MHz  S  MA  R 50
! Freq       S11               S21               S12             S22
40      0.41674 -32.2   34.49219  156.86  0.006845  77.781  0.87879 -10.72
100     0.32999 -69.57  26.03811  132.42  0.014056  73.2    0.73403 -18.92
200     0.24402 -107.8  16.43814  112.64  0.023134  72.469  0.59515 -20
300     0.21311 -131.2  11.66907  103.1   0.031871  75.293  0.54064 -18.63
400     0.2029  -145.5  8.97065   97.324  0.040493  77.406  0.5168  -17.78
500     0.19763 -155    7.28919   93.199  0.049408  78.724  0.50653 -17.58
600     0.19034 -161.5  6.14015   90.114  0.058513  79.729  0.50319 -17.71
700     0.182   -167.3  5.30683   87.376  0.067802  80.695  0.50397 -18.03
800     0.17474 -174    4.67103   84.806  0.076821  80.851  0.50611 -18.39
900     0.16901 178.18  4.17174   82.366  0.086101  81.018  0.50681 -18.82
1000    0.16981 170.24  3.78229   80.023  0.095534  80.953  0.50581 -19.27
1200    0.18591 159.15  3.19249   75.713  0.11436   80.709  0.4981  -20.64
1400    0.19778 153.96  2.79128   72.008  0.13236   80.321  0.48999 -22.8
1600    0.19241 150.09  2.48019   68.577  0.15153   80.099  0.49193 -24.87
1800    0.18697 139.76  2.22753   65.297  0.17136   79.581  0.4989  -26.4
2000    0.20652 127.19  2.03226   61.828  0.19062   78.721  0.49565 -27.39
2200    0.24341 122.28  1.88465   58.621  0.2104    77.732  0.47928 -28.74
2400    0.26294 123.78  1.7771    55.642  0.23006   76.952  0.46348 -31.38
2600    0.25527 123.36  1.66526   53.078  0.2517    76.253  0.46102 -34.71
2800    0.24501 116.34  1.57969   50.72   0.27282   75.244  0.46496 -36.92
3000    0.26416 105.79  1.49114   47.631  0.2922    73.827  0.45837 -37.71
