! Filename:        PBR951B.S2P                               Version:    3.0
! Philips part #:  PBR951                                    Date: July 1998
! Bias condition:  Vce=3V, Ic=1.0mA
!
#  MHz  S  MA  R 50
! Freq       S11             S21             S12             S22
40      0.95752 -5.896  3.48673 175.15  0.01201  86.535  0.99625 -2.295
100     0.94891 -14.63  3.444   168.21  0.029327 81.258  0.98899 -5.681
200     0.92044 -28.81  3.33353 157.26  0.056517 73.249  0.9661  -11.02
300     0.88173 -42.39  3.18254 147.04  0.080095 66.06   0.93448 -15.8
400     0.83871 -55.13  3.00423 137.77  0.099368 59.874  0.89952 -19.97
500     0.79555 -66.73  2.80834 129.38  0.11404  54.654  0.86401 -23.46
600     0.7539  -77.27  2.61769 122.07  0.12504  50.449  0.83124 -26.26
700     0.71111 -86.92  2.44076 115.27  0.13251  47.095  0.80156 -28.44
800     0.67076 -95.83  2.2702  109.13  0.1371   44.369  0.77526 -30.17
900     0.63482 -104.2  2.12006 103.51  0.13977  42.283  0.75081 -31.61
1000    0.60078 -112.3  1.98041 98.363  0.14091  40.857  0.7289  -32.88
1200    0.55395 -127.9  1.76056 89.176  0.14097  39.64   0.6936  -35.51
1400    0.52586 -141.5  1.59165 81.337  0.13889  40.696  0.67202 -38.25
1600    0.50497 -153.1  1.45113 74.639  0.1367   44.464  0.66204 -40.72
1800    0.48364 -164.7  1.32924 68.943  0.1362   50.106  0.65424 -42.54
2000    0.47383 -176.9  1.22761 63.654  0.13971  56.895  0.63827 -44.49
2200    0.48366 172.24  1.14496 58.895  0.14893  63.621  0.61822 -47.7
2400    0.49804 163.83  1.08261 54.27   0.16477  69.68   0.60816 -52.16
2600    0.50067 156.38  1.02126 50.629  0.18709  74.491  0.61039 -56.37
2800    0.49682 147.73  0.97485 47.735  0.21508  77.745  0.61068 -59.42
3000    0.51002 138.4   0.92609 44.925  0.24564  79.759  0.59099 -62.05
