! Filename:        PBR941B.S2P                               Version:    3.0
! Philips part #:  PBR941                                    Date: July 1998
! Bias condition:  Vce=3V, Ic=1.0mA
!
#  MHz  S  MA  R 50
! Freq       S11             S21             S12             S22
40      0.96497 -4.11   3.44869 176.06  0.008286  84.979  0.99723 -1.64
100     0.95877 -10.27  3.42773 170.35  0.020307  83.886  0.99308 -3.997
200     0.93853 -20.55  3.38247 161.17  0.040037  77.802  0.97887 -7.888
300     0.90842 -30.77  3.31513 152.39  0.057823  72.469  0.95844 -11.52
400     0.87069 -40.6   3.19429 144.36  0.073376  67.626  0.93384 -14.75
500     0.82923 -49.7   3.05332 137.13  0.086092  63.727  0.90921 -17.53
600     0.78809 -57.67  2.88857 130.92  0.097083  60.08   0.88484 -19.82
700     0.74367 -64.85  2.72491 125.2   0.1049    57.549  0.86257 -21.66
800     0.69601 -71.48  2.5614  119.68  0.11138   55.515  0.84195 -23.19
900     0.64503 -77.69  2.40314 114.37  0.11647   53.634  0.82175 -24.5
1000    0.59556 -84.16  2.26826 109.26  0.12038   52.263  0.80184 -25.61
1200    0.51398 -98.64  2.04616 99.443  0.12638   50.391  0.76483 -27.71
1400    0.462   -112.5  1.88041 91.19   0.12973   50.01   0.73773 -29.81
1600    0.42662 -123.1  1.7316  84.74   0.13203   52.093  0.72432 -31.37
1800    0.37535 -133.1  1.58916 79.312  0.1348    55.396  0.71651 -32.66
2000    0.32772 -147    1.46371 73.807  0.13846   58.717  0.70135 -33.85
2200    0.31473 -163.8  1.365   68.333  0.14481   62.463  0.68085 -35.57
2400    0.32687 -175.4  1.29847 63.17   0.15384   66.684  0.66862 -38.1
2600    0.32521 177.08  1.23201 59.298  0.16802   70.973  0.6683  -40.87
2800    0.30574 167.47  1.18075 56.399  0.18532   74.415  0.66939 -42.81
3000    0.30071 152.43  1.11291 52.718  0.20318   76.838  0.65741 -44.31
