! Filename:        PBR951E.S2P                               Version:    3.0
! Philips part #:  PBR951                                    Date: July 1998
! Bias condition:  Vce=3V, Ic=10mA
!
#  MHz  S  MA  R 50
! Freq       S11             S21             S12             S22
40      0.66401 -19.31  24.79581 164.54  0.010149 82.158  0.95531 -10.04
100     0.58325 -44.94  21.50924 145.45  0.022223 71.653  0.84505 -21.82
200     0.44606 -76.58  15.83308 124.52  0.035826 65.383  0.66093 -31.4
300     0.36134 -98.27  11.94412 112.33  0.04596  64.973  0.54775 -34.14
400     0.31442 -114.3  9.45374  104.39  0.055314 66.15   0.48357 -34.71
500     0.28524 -126.4  7.77477  98.653  0.064618 67.6    0.4461  -34.52
600     0.26608 -135.8  6.59406  94.278  0.074162 69.101  0.4243  -34.15
700     0.24988 -143.6  5.72242  90.533  0.083676 70.306  0.41119 -33.6
800     0.23599 -151.2  5.04904  87.306  0.093186 71.384  0.4019  -33.02
900     0.22703 -158.1  4.5229   84.356  0.10307  72.065  0.39408 -32.5
1000    0.21997 -165.1  4.09392  81.699  0.11309  72.545  0.3868  -32.23
1200    0.22093 -177.2  3.46405  76.891  0.13365  73.003  0.37257 -32.81
1400    0.22385 174.18  3.02103  72.524  0.15441  72.998  0.36471 -34.84
1600    0.22025 167.45  2.68617  68.444  0.17515  72.942  0.36684 -36.83
1800    0.21654 158.17  2.41923  64.778  0.19652  72.665  0.37069 -37.45
2000    0.22846 147.35  2.21464  61.179  0.21749  72.079  0.36364 -37.36
2200    0.25296 140.62  2.05     57.892  0.23908  71.232  0.34509 -38.48
2400    0.27243 138.39  1.92481  54.632  0.2611   70.421  0.33102 -42.44
2600    0.27482 136.55  1.8074   51.584  0.28358  69.584  0.32987 -47.14
2800    0.2711  130.6   1.7153   48.734  0.30635  68.347  0.33423 -49.3
3000    0.28619 122.59  1.63143  45.725  0.32853  67.239  0.32628 -48.89
