! Filename:        PBR941M.S2P                               Version:    3.0
! Philips part #:  PBR941                                    Date: July 1998
! Bias condition:  Vce=6V, Ic=5.0mA
!
#  MHz  S  MA  R 50
! Freq       S11                S21               S12             S22
40      0.85175   -8.699  14.17822  171.24  0.007316  83.616  0.98517 -4.087
100     0.81217   -21.05  13.52792  159.27  0.017395  80.224  0.95367 -9.744
200     0.70639   -39.35  11.94811  142.34  0.032074  71.384  0.87052 -16.79
300     0.59545   -54.18  10.25597  129.31  0.042502  67.587  0.7878  -20.86
400     0.50414   -65.76  8.73095   119.69  0.050855  65.813  0.72413 -22.91
500     0.43293   -75     7.5187    112.51  0.058008  65.67   0.67989 -23.83
600     0.37978   -81.57  6.55271   107.12  0.065464  66.402  0.65056 -24.11
700     0.33484   -86.95  5.78092   102.63  0.072049  67.174  0.6318  -24.15
800     0.29359   -91.01  5.14924   98.639  0.078293  68.182  0.61949 -24.02
900     0.25243   -95.09  4.63262   95.001  0.085398  69.297  0.60898 -23.94
1000    0.21742   -100.2  4.21941   91.598  0.092726  70.155  0.59947 -23.88
1200    0.16664   -115.1  3.59582   85.471  0.10707   71.263  0.58042 -24.31
1400    0.1461    -129.5  3.16521   80.383  0.12116   72.244  0.56633 -25.44
1600    0.13069   -136.3  2.82271   76.271  0.13638   73.4    0.56471 -26.49
1800    0.097716  -145.9  2.529     72.595  0.1514    74.251  0.56923 -27.21
2000    0.072178  -176    2.29877   68.623  0.16706   74.415  0.565   -27.7
2200    0.095698  153.65  2.12711   64.747  0.18316   74.316  0.54907 -28.6
2400    0.12321   150.27  2.00946   61.198  0.20001   74.445  0.53578 -30.59
2600    0.12586   150.36  1.8846    58.368  0.21872   74.606  0.53544 -33.13
2800    0.11122   140.41  1.78769   56.091  0.23633   74.558  0.54088 -34.88
3000    0.12268   118.35  1.67656   52.815  0.25276   73.974  0.53632 -35.42
!  Noise data:
!  Freq. Fmin     Gamma-opt       rn
500     1.372   0.368   12.68   0.302
900     1.344   0.322   23.15   0.263
1000    1.403   0.31    28.56   0.283
2000    2.036   0.07    103.17  0.226
