! Filename:        PBR951I.S2P                               Version:    3.0
! Philips part #:  PBR951                                    Date: July 1998
! Bias condition:  Vce=3V, Ic=40mA
!
#  MHz  S  MA  R 50
! Freq       S11             S21             S12             S22
40      0.25161 -54.85  43.31791 151.97  0.007717 78.889  0.83638 -18.03
100     0.24865 -105.4  30.00164 126.2   0.015718 73.652  0.61987 -30.55
200     0.24913 -140.8  17.84532 107.93  0.026829 75.764  0.44472 -31.96
300     0.25141 -156.4  12.41888 99.391  0.038185 77.682  0.38173 -29.73
400     0.25426 -165.2  9.48656  93.964  0.049441 78.531  0.35472 -28.39
500     0.25485 -171.2  7.66236  89.951  0.060999 79.289  0.34193 -27.81
600     0.25319 -175.7  6.43019  86.761  0.072342 79.592  0.33706 -27.73
700     0.25041 179.9   5.54718  83.886  0.083611 79.485  0.33562 -27.65
800     0.24823 175.59  4.87601  81.332  0.095017 79.666  0.33511 -27.57
900     0.24697 171.65  4.35792  78.931  0.10628  79.391  0.33357 -27.49
1000    0.24789 167.11  3.93868  76.698  0.11754  79.059  0.3311  -27.59
1200    0.25782 160.59  3.32586  72.581  0.14073  78.232  0.32249 -29.13
1400    0.26452 155.86  2.89515  68.667  0.16374  77.246  0.31816 -32.01
1600    0.26176 151.28  2.57134  64.853  0.18664  76.273  0.32231 -34.9
1800    0.26139 144.2   2.31658  61.401  0.20976  75.155  0.3277  -35.98
2000    0.27751 136.59  2.12357  58.026  0.23268  73.872  0.32161 -36.18
2200    0.30339 132.25  1.96704  54.977  0.25605  72.593  0.30409 -37.58
2400    0.32018 130.95  1.84594  51.827  0.2793   71.203  0.28833 -42.11
2600    0.32181 129.31  1.72924  48.827  0.30209  69.911  0.28631 -47.37
2800    0.31839 124.04  1.64099  46.067  0.32567  68.273  0.29041 -49.95
3000    0.3347  117.23  1.5633   43.171  0.34876  66.806  0.28226 -49.43
