! Filename:        PBR951K.S2P                               Version:    3.0
! Philips part #:  PBR951                                    Date: July 1998
! Bias condition:  Vce=6V, Ic=1.0mA
!
#  MHz  S  MA  R 50
! Freq       S11             S21             S12             S22
40      0.96033 -5.725  3.47557 175.27  0.011162 86.647  0.99654 -2.134
100     0.95214 -14.12  3.43472 168.56  0.027416 81.607  0.98992 -5.317
200     0.9249  -27.85  3.33083 157.88  0.052607 73.949  0.96899 -10.3
300     0.88619 -41.07  3.18825 147.9   0.074638 66.876  0.93966 -14.81
400     0.8446  -53.47  3.01702 138.8   0.092871 60.806  0.90708 -18.76
500     0.80124 -64.85  2.82721 130.57  0.10702  55.784  0.87389 -22.07
600     0.75912 -75.21  2.64137 123.35  0.11754  51.61   0.84271 -24.74
700     0.71618 -84.71  2.46754 116.59  0.12467  48.339  0.8149  -26.83
800     0.67505 -93.45  2.29802 110.51  0.12925  45.708  0.78927 -28.5
900     0.6378  -101.8  2.14832 104.92  0.13187  43.647  0.76581 -29.88
1000    0.60316 -109.8  2.00905 99.769  0.13318  42.228  0.74466 -31.09
1200    0.55257 -125.3  1.78966 90.629  0.13346  41.085  0.71098 -33.59
1400    0.52273 -139    1.61996 82.797  0.13181  42.25   0.69004 -36.24
1600    0.49924 -150.9  1.47707 76.075  0.1296   46.228  0.68026 -38.56
1800    0.47531 -162.6  1.35139 70.36   0.12959  51.943  0.67306 -40.31
2000    0.4639  -175.1  1.2467  65.026  0.13286  58.857  0.65733 -42.12
2200    0.47251 173.71  1.16308 60.284  0.14218  65.858  0.63781 -45.08
2400    0.48762 165.1   1.09986 55.664  0.15813  72.04   0.6288  -49.28
2600    0.48873 157.62  1.03834 52.012  0.18043  77.042  0.63183 -53.3
2800    0.48544 148.77  0.98966 49.036  0.20775  80.087  0.63264 -56.21
3000    0.49848 139.17  0.9397  46.134  0.23813  82.122  0.61389 -58.63
!  Noise data:
!  Freq. Fmin     Gamma-opt       rn
500     1.083   0.606   32.6    0.392
800     1.163   0.488   57.49   0.405
900     1.124   0.525   64.97   0.366
1000    1.371   0.504   70.15   0.381
1500    1.891   0.504   121.22  0.216
2000    2.82    0.478   173.62  0.116
