! Filename:        PBR951F.S2P                               Version:    3.0
! Philips part #:  PBR951                                    Date: July 1998
! Bias condition:  Vce=3V, Ic=15mA
!
#  MHz  S  MA  R 50
! Freq       S11             S21             S12             S22
40      0.55054 -24.64  31.63569 161.07  0.009297 80.184  0.93308 -12.51
100     0.46129 -55.68  25.83323 139.26  0.019973 71.408  0.78368 -25.57
200     0.34208 -90.41  17.58305 118.44  0.032028 67.78   0.58328 -33.41
300     0.28331 -112.9  12.80842 107.43  0.042074 69.176  0.4807  -34.32
400     0.25504 -128.4  9.97159  100.47  0.052256 70.88   0.42845 -33.82
500     0.23906 -139.4  8.13092  95.445  0.062363 72.566  0.40011 -33.18
600     0.22787 -147.7  6.86002  91.578  0.073057 73.523  0.38455 -32.66
700     0.21777 -154.9  5.93637  88.247  0.083376 74.192  0.37619 -32.05
800     0.20861 -161.7  5.22567  85.353  0.093788 74.945  0.3706  -31.47
900     0.20338 -168.1  4.67635  82.651  0.10458  75.176  0.36515 -31.02
1000    0.20014 -174.6  4.22887  80.245  0.11509  75.253  0.36005 -30.7
1200    0.20557 174.54  3.57392  75.792  0.13683  75.132  0.34793 -31.46
1400    0.21058 167.57  3.11218  71.703  0.15865  74.721  0.34149 -33.7
1600    0.20745 161.76  2.76389  67.825  0.18044  74.25   0.34464 -35.87
1800    0.20509 152.76  2.4882   64.32   0.20244  73.491  0.34955 -36.53
2000    0.21856 142.54  2.27744  60.87   0.22364  72.534  0.34298 -36.29
2200    0.24458 136.74  2.10968  57.723  0.24609  71.404  0.32473 -37.36
2400    0.26365 135.24  1.97845  54.508  0.26812  70.395  0.31002 -41.26
2600    0.26458 134.01  1.85671  51.575  0.2908   69.337  0.30865 -46.1
2800    0.26098 128.22  1.76073  48.783  0.31342  67.965  0.31303 -48.27
3000    0.27648 120.47  1.67524  45.833  0.33549  66.629  0.30514 -47.68
