! Filename:        PBR951A.S2P                               Version:    3.0
! Philips part #:  PBR951                                    Date: July 1998
! Bias condition:  Vce=3V, Ic=0.5mA
!
#  MHz  S  MA  R 50
! Freq        S11             S21              S12             S22
40      0.97786 -4.783  1.77955 175.91  0.012114 87.182  0.99834 -1.661
100     0.97388 -11.84  1.76718 170.06  0.029902 82.575  0.99473 -4.148
200     0.95845 -23.54  1.73898 160.63  0.058328 75.614  0.98411 -8.169
300     0.93664 -34.99  1.69929 151.52  0.084248 69.246  0.9687  -11.99
400     0.91206 -46.02  1.64867 142.95  0.10715  63.023  0.95045 -15.57
500     0.88386 -56.5   1.58461 134.88  0.1262   57.645  0.93009 -18.79
600     0.85608 -66.25  1.51644 127.58  0.1413   52.748  0.90952 -21.62
700     0.8237  -75.47  1.45029 120.54  0.15259  48.332  0.88925 -24.06
800     0.79006 -84.15  1.38061 113.98  0.16004  44.366  0.86953 -26.18
900     0.75823 -92.5   1.3167  107.8   0.16459  40.829  0.84996 -28.07
1000    0.72662 -100.6  1.25229 102.09  0.16706  37.715  0.8311  -29.81
1200    0.67797 -116.4  1.14744 91.741  0.16654  32.841  0.80029 -33.3
1400    0.64712 -130.7  1.06302 82.876  0.15931  30.087  0.78085 -36.79
1600    0.62428 -143.2  0.98593 75.487  0.14738  30.554  0.77109 -39.83
1800    0.59889 -155.6  0.91324 69.283  0.1341   34.268  0.7618  -42.4
2000    0.58387 -168.2  0.84874 63.724  0.12217  41.968  0.74395 -45.17
2200    0.58792 179.94  0.79523 58.931  0.11782  53.051  0.72427 -49.15
2400    0.59904 170.08  0.75401 54.522  0.12548  65.949  0.71551 -54.12
2600    0.59896 161.32  0.71504 51.481  0.1471   76.638  0.71856 -58.73
2800    0.59439 151.63  0.68559 49.481  0.17901  83.318  0.71617 -62.37
3000    0.60509 141.67  0.65523 47.941  0.21692  87.016  0.69052 -65.89
