! Filename:        PBR941D.S2P                               Version:    3.0
! Philips part #:  PBR941                                    Date: July 1998
! Bias condition:  Vce=3V, Ic=5.0mA
!
#  MHz  S  MA  R 50
! Freq       S11             S21             S12             S22
40      0.83797   -9.193  14.32767  171.04  0.007714  85.213  0.98465 -4.348
100     0.79594   -22.27  13.63242  158.69  0.018245  78.482  0.95022 -10.29
200     0.68802   -41.53  11.95614  141.37  0.033335  70.611  0.86164 -17.62
300     0.57703   -57.08  10.1917   128.22  0.043651  66.504  0.77553 -21.76
400     0.48672   -69.35  8.63311   118.63  0.052227  65.226  0.71011 -23.79
500     0.41861   -79.12  7.41569   111.47  0.059297  65.229  0.66541 -24.65
600     0.36693   -86.22  6.44685   106.1   0.066927  65.85   0.63609 -24.91
700     0.32308   -91.96  5.68176   101.63  0.073526  66.742  0.61778 -24.92
800     0.2845    -96.74  5.05785   97.662  0.080258  67.904  0.60508 -24.8
900     0.24576   -101.6  4.54913   94.038  0.087024  68.821  0.59489 -24.7
1000    0.21099   -107.7  4.14189   90.675  0.094391  69.8    0.58521 -24.68
1200    0.16726   -124.7  3.52655   84.574  0.10871   71.026  0.5661  -25.08
1400    0.15195   -140    3.10187   79.499  0.12408   72.046  0.55171 -26.24
1600    0.13895   -147.6  2.76675   75.317  0.13942   72.993  0.55031 -27.36
1800    0.10906   -158.4  2.48026   71.604  0.15532   73.972  0.55471 -28.14
2000    0.090824  173.54  2.25488   67.647  0.17106   74.166  0.55017 -28.62
2200    0.11918   150.56  2.08647   63.783  0.18753   73.939  0.53428 -29.61
2400    0.14877   147.38  1.97072   60.205  0.20508   73.945  0.52039 -31.69
2600    0.14843   147.58  1.84864   57.329  0.22449   74.126  0.51952 -34.31
2800    0.13483   138.6   1.75271   54.968  0.24298   74.012  0.52558 -36.12
3000    0.14714   118.97  1.64636   51.732  0.26005   73.347  0.52019 -36.78
