! Filename:        PBR951R.S2P                               Version:    3.0
! Philips part #:  PBR951                                    Date: July 1998
! Bias condition:  Vce=6V, Ic=40mA
!
#  MHz  S  MA  R 50
! Freq       S11             S21             S12             S22
40      0.34888 -38.57  46.25953 153.43  0.007431 78.927  0.86578 -16.6
100     0.27438 -80.5   32.81316 128.13  0.015479 73.654  0.65735 -28.8
200     0.21593 -118.9  19.81023 109.49  0.026405 75.355  0.47809 -30.57
300     0.19777 -139.3  13.84652 100.77  0.037086 77.41   0.41138 -28.42
400     0.19286 -151.3  10.59358 95.297  0.047964 78.362  0.38252 -27.04
500     0.18943 -159.5  8.56083  91.311  0.058868 78.972  0.36859 -26.37
600     0.18523 -165.1  7.18581  88.166  0.070036 79.398  0.36291 -26.14
700     0.18081 -170.8  6.19867  85.401  0.080874 79.477  0.36128 -25.92
800     0.17611 -176.2  5.44675  82.925  0.091597 79.558  0.36071 -25.74
900     0.17498 178.54  4.86623  80.592  0.10265  79.322  0.3587  -25.6
1000    0.17428 172.99  4.39565  78.45   0.1133   79.014  0.35669 -25.58
1200    0.18387 164.55  3.70952  74.506  0.13564  78.36   0.348   -26.76
1400    0.18975 159.24  3.22557  70.786  0.1575   77.364  0.34349 -29.25
1600    0.18779 154.56  2.86116  67.186  0.17954  76.499  0.34767 -31.76
1800    0.18659 145.83  2.57352  63.891  0.20126  75.446  0.35386 -32.69
2000    0.2031  136.29  2.3541   60.593  0.22291  74.219  0.34892 -32.59
2200    0.22973 131.69  2.17888  57.62   0.24479  72.893  0.33201 -33.56
2400    0.24644 131.34  2.04502  54.59   0.26722  71.679  0.31754 -37.37
2600    0.24785 130.84  1.91621  51.747  0.28937  70.552  0.31523 -42.13
2800    0.24494 125.11  1.81587  49.078  0.31109  69.049  0.32014 -44.44
3000    0.26116 117.29  1.7252   46.132  0.33282  67.668  0.31399 -43.75
!  Noise data:
!  Freq. Fmin     Gamma-opt       rn
500     2.233   0.162   -179.92 0.283
800     2.389   0.248   -179.36 0.153
900     2.397   0.299   -171.88 0.133
1000    2.16    0.676   -167.78 0.018
1500    2.74    0.468   -153.27 0.085
2000    3.203   0.42    -125.66 0.367
