! Filename:        PBR951H.S2P                               Version:    3.0
! Philips part #:  PBR951                                    Date: July 1998
! Bias condition:  Vce=3V, Ic=30mA
!
#  MHz  S  MA  R 50
! Freq       S11             S21             S12             S22
40      0.33427 -39.59  41.91326 154.82  0.008093 79.777  0.87821 -16.58
100     0.28064 -83.32  30.50455 129.86  0.01657  72.976  0.67324 -29.93
200     0.23749 -122.5  18.74834 110.67  0.027854 73.907  0.48092 -33.47
300     0.22488 -142.5  13.1753  101.52  0.038943 75.966  0.4048  -31.91
400     0.22233 -154.2  10.10221 95.756  0.050048 77.069  0.37035 -30.56
500     0.22008 -161.9  8.17241  91.548  0.06115  78.04   0.3533  -29.75
600     0.21677 -167.4  6.86572  88.258  0.072568 78.465  0.34571 -29.38
700     0.21262 -172.9  5.92588  85.335  0.083706 78.704  0.3424  -29.01
800     0.20854 -178    5.20929  82.736  0.094905 78.669  0.34071 -28.7
900     0.20718 177.26  4.65635  80.305  0.10604  78.523  0.33841 -28.41
1000    0.20782 172.13  4.20793  78.08   0.11743  78.308  0.33531 -28.35
1200    0.21698 164.12  3.5528   73.964  0.14016  77.443  0.32601 -29.44
1400    0.22351 159     3.09219  70.096  0.16279  76.575  0.32082 -32.08
1600    0.22071 154.06  2.74397  66.365  0.18548  75.661  0.32499 -34.66
1800    0.21939 146.4   2.47084  62.963  0.20786  74.594  0.33067 -35.52
2000    0.2352  137.73  2.26253  59.622  0.23022  73.386  0.32484 -35.41
2200    0.26134 132.99  2.09467  56.548  0.25301  72.011  0.3072  -36.53
2400    0.27948 132.18  1.96528  53.418  0.27592  70.742  0.29157 -40.78
2600    0.28086 130.9   1.84108  50.478  0.29825  69.429  0.2894  -45.73
2800    0.27768 125.4   1.74614  47.76   0.32126  67.95   0.29398 -48.16
3000    0.29271 118.17  1.66152  44.86   0.3435   66.554  0.28711 -47.27
