! Filename:        PBR941J.S2P                               Version:    3.0
! Philips part #:  PBR941                                    Date: July 1998
! Bias condition:  Vce=6V, Ic=0.5mA
!
#  MHz  S  MA  R 50
! Freq       S11             S21             S12             S22
40      0.98459 -3.159  1.7511   176.86  0.008062  88.366  0.99898 -1.152
100     0.98131 -7.958  1.74581  172.26  0.01969   85.973  0.99687 -2.818
200     0.97336 -16.06  1.7466   164.84  0.039078  79.624  0.99095 -5.645
300     0.96075 -24.29  1.74476  157.52  0.057336  75.631  0.98241 -8.356
400     0.94324 -32.27  1.72183  150.65  0.074138  71.154  0.97148 -10.96
500     0.92105 -40.03  1.69035  144.22  0.088958  67.354  0.95967 -13.38
600     0.89342 -47.11  1.63767  138.55  0.10225   63.553  0.94713 -15.53
700     0.86414 -53.53  1.58164  133.14  0.11282   60.481  0.93437 -17.48
800     0.82735 -59.75  1.52148  127.73  0.12148   57.344  0.92152 -19.22
900     0.78536 -65.73  1.45917  122.28  0.12855   54.795  0.90725 -20.79
1000    0.74518 -71.99  1.4075   116.88  0.13413   52.07   0.89202 -22.27
1200    0.66966 -85.97  1.32182  106.3   0.14168   47.562  0.86175 -25.13
1400    0.61515 -99.75  1.25889  96.951  0.14426   44.181  0.83751 -27.86
1600    0.57426 -111.1  1.19111  89.792  0.14247   43.41   0.8234  -30.05
1800    0.52071 -121.4  1.11198  83.767  0.1383    45.148  0.81325 -31.85
2000    0.4641  -133.8  1.03897  77.767  0.1329    47.543  0.79516 -33.57
2200    0.43334 -149.3  0.97878  71.415  0.12929   51.717  0.77422 -35.84
2400    0.4315  -162.3  0.94042  65.666  0.12854   58.055  0.76179 -38.76
2600    0.42729 -171.6  0.89848  61.567  0.13552   66.194  0.76279 -41.7
2800    0.40424 177.81  0.86885  58.735  0.1483    73.64   0.76108 -43.93
3000    0.39343 163.52  0.82133  55.298  0.16511   79.244  0.74554 -45.87
!  Noise data:
!  Freq. Fmin     Gamma-opt       rn
500     1.376   0.696   23.53   0.848
900     0.935   0.716   30.55   0.695
1000    1.377   0.661   41.13   0.68
2000    2.475   0.497   108.02  0.344
