! Filename:        PBR951L.S2P                               Version:    3.0
! Philips part #:  PBR951                                    Date: July 1998
! Bias condition:  Vce=6V, Ic=2.0mA
!
#  MHz  S  MA  R 50
! Freq       S11             S21             S12             S22
40      0.92296 -7.528  6.6902  173.71  0.010928 85.754  0.99293 -3.219
100     0.90515 -18.66  6.53005 164.85  0.026501 79.343  0.97714 -7.899
200     0.8512  -36.14  6.12528 151.44  0.049427 70.515  0.93007 -14.83
300     0.78349 -52.06  5.61219 139.68  0.067663 63.299  0.87192 -20.3
400     0.71701 -66.28  5.0777  129.71  0.081325 57.998  0.81568 -24.49
500     0.65751 -78.62  4.56599 121.32  0.090819 54.284  0.76607 -27.48
600     0.60503 -89.3   4.11755 114.34  0.09812  52.062  0.72568 -29.58
700     0.55806 -98.78  3.73023 108.17  0.10324  50.65   0.6931  -30.92
800     0.51677 -107.3  3.39    102.81  0.10704  50.205  0.66662 -31.8
900     0.48196 -115.4  3.10678 97.968  0.11067  50.238  0.64389 -32.45
1000    0.45111 -123.2  2.85792 93.634  0.11336  50.78   0.62456 -32.99
1200    0.41233 -138.3  2.48049 85.973  0.12004  52.915  0.5938  -34.44
1400    0.39125 -151    2.20164 79.399  0.12742  56.004  0.57589 -36.37
1600    0.3744  -161.6  1.98087 73.687  0.13625  59.956  0.57004 -38.2
1800    0.35641 -172.7  1.79743 68.703  0.14723  63.82   0.56638 -39.28
2000    0.35237 175.03  1.6507  63.962  0.15996  67.285  0.55403 -40.33
2200    0.36764 164.66  1.53418 59.663  0.17595  70.177  0.53507 -42.56
2400    0.38451 157.83  1.44535 55.488  0.19495  72.493  0.52487 -46.29
2600    0.38882 152.07  1.36158 51.883  0.21725  74.32   0.52732 -50.16
2800    0.38577 144.2   1.29471 48.773  0.24145  75.245  0.53001 -52.63
3000    0.40076 135     1.22864 45.529  0.26648  75.793  0.51606 -54.15
!  Noise data:
!  Freq. Fmin     Gamma-opt       rn
500     0.968   0.504   30.65   0.266
800     1.095   0.405   58.73   0.275
900     1.135   0.421   66.12   0.258
1000    1.208   0.381   67.86   0.272
1500    1.638   0.386   122.18  0.15
2000    2.32    0.4     -175.52 0.11
