! Filename:        PBR951C.S2P                               Version:    3.0
! Philips part #:  PBR951                                    Date: July 1998
! Bias condition:  Vce=3V, Ic=2.0mA
!
#  MHz  S  MA  R 50
! Freq       S11             S21             S12             S22
40      0.91734 -7.886  6.7045  173.52  0.011671 85.32   0.99239 -3.471
100     0.89908 -19.43  6.53562 164.42  0.028385 78.751  0.97526 -8.492
200     0.84305 -37.66  6.10636 150.64  0.052949 69.711  0.92382 -15.88
300     0.77463 -54.13  5.57127 138.64  0.07207  62.355  0.86193 -21.69
400     0.70824 -68.72  5.01896 128.54  0.086156 56.872  0.8021  -26.1
500     0.64953 -81.36  4.49835 120.1   0.096132 53.114  0.74987 -29.25
600     0.59994 -92.3   4.04598 113.1   0.10339  50.741  0.70807 -31.43
700     0.55404 -101.9  3.658   106.9   0.10891  49.42   0.67458 -32.81
800     0.51552 -110.5  3.32112 101.55  0.11282  48.976  0.64723 -33.76
900     0.48238 -118.7  3.04005 96.72   0.11626  49.143  0.6238  -34.43
1000    0.4538  -126.5  2.79502 92.385  0.1193   49.585  0.60395 -34.97
1200    0.41868 -141.5  2.42396 84.727  0.12593  51.682  0.57242 -36.52
1400    0.40064 -154.1  2.1501  78.147  0.13357  54.696  0.55412 -38.61
1600    0.38564 -164.5  1.93505 72.389  0.14256  58.516  0.54766 -40.53
1800    0.3699  -175.4  1.75724 67.422  0.1541   62.411  0.54377 -41.68
2000    0.36751 172.82  1.61365 62.675  0.16731  65.719  0.53037 -42.81
2200    0.38351 162.9   1.50001 58.355  0.1836   68.468  0.51064 -45.24
2400    0.4007  156.27  1.41296 54.187  0.20295  70.754  0.49981 -49.2
2600    0.40435 150.72  1.33192 50.634  0.22595  72.544  0.50175 -53.31
2800    0.40142 143.02  1.26816 47.497  0.25105  73.365  0.50436 -55.91
3000    0.41636 134.33  1.20555 44.292  0.27682  73.907  0.48966 -57.56
