! Filename:        PBR941P.S2P                               Version:    3.0
! Philips part #:  PBR941                                    Date: July 1998
! Bias condition:  Vce=6V, Ic=20mA
!
#  MHz  S  MA  R 50
! Freq       S11             S21             S12             S22
40      0.616     -17.51  33.03678  162.52  0.006603  81.085  0.94511 -8.441
100     0.5113    -39.12  27.67705  141.66  0.014263  76.202  0.8349  -17.22
200     0.35188   -62.1   19.37888  120.84  0.024365  72.661  0.67974 -21.65
300     0.25538   -76.37  14.31867  109.64  0.032769  74.137  0.59951 -21.45
400     0.2003    -86.55  11.19443  102.71  0.041241  75.677  0.55904 -20.6
500     0.16692   -94.24  9.17497   97.944  0.049883  76.985  0.53934 -20
600     0.14511   -98.67  7.75215   94.429  0.058587  77.672  0.53052 -19.59
700     0.12547   -101    6.70248   91.494  0.06721   78.532  0.52765 -19.39
800     0.1057    -103    5.89245   88.78   0.075845  79.076  0.52804 -19.28
900     0.08236   -106.4  5.25516   86.207  0.084695  79.048  0.527   -19.31
1000    0.062455  -113.1  4.75547   83.787  0.093668  79.355  0.52546 -19.43
1200    0.045876  -149    4.01411   79.32   0.11132   79.056  0.5164  -20.15
1400    0.053928  -170.6  3.5089    75.601  0.12892   78.61   0.50699 -21.69
1600    0.049761  -172    3.11035   72.361  0.14638   78.431  0.50923 -23.16
1800    0.032561  156.65  2.77627   69.279  0.16394   78.067  0.51801 -24.18
2000    0.052801  110.55  2.51858   65.881  0.181     77.19   0.51732 -24.77
2200    0.092695  111.09  2.33097   62.606  0.199     76.292  0.50213 -25.61
2400    0.11196   121.27  2.1984    59.605  0.2169    75.496  0.48784 -27.68
2600    0.1063    125.26  2.0579    57.153  0.23613   75.062  0.48565 -30.39
2800    0.096083  115.2   1.94446   55.143  0.2549    74.394  0.49261 -32.26
3000    0.1172    96.479  1.82465   52.12   0.27151   73.24   0.48964 -32.75
!  Noise data:
!  Freq. Fmin     Gamma-opt       rn
500     2.273   0.074   29.79   0.237
900     2.274   0.03    -135.12 0.187
1000    2.332   0.017   26.68   0.255
2000    2.913   0.178   -121.35 0.337
