! Filename:        PBR941C.S2P                               Version:    3.0
! Philips part #:  PBR941                                    Date: July 1998
! Bias condition:  Vce=3V, Ic=2.0mA
!
#  MHz  S  MA  R 50
! Freq       S11             S21             S12             S22
40      0.93152 -5.571  6.57414 174.6   0.00826   86.743  0.99419 -2.407
100     0.91584 -13.91  6.47367 166.88  0.019695  82.496  0.98425 -5.916
200     0.87015 -27.41  6.20901 154.83  0.038361  74.913  0.95093 -11.3
300     0.80954 -40.14  5.85149 143.96  0.053262  69.288  0.90645 -15.77
400     0.74294 -51.65  5.40008 134.65  0.065555  64.556  0.86073 -19.23
500     0.67912 -61.74  4.95296 126.78  0.074915  61.618  0.8199  -21.79
600     0.6216  -69.93  4.51876 120.4   0.082788  59.576  0.78563 -23.56
700     0.56896 -77.14  4.13022 114.78  0.088707  58.512  0.7584  -24.72
800     0.51666 -83.35  3.77485 109.68  0.093973  58.039  0.73625 -25.55
900     0.46447 -89.13  3.46152 104.95  0.098789  57.868  0.71642 -26.14
1000    0.41711 -95.36  3.202   100.47  0.1034    58.21   0.69828 -26.65
1200    0.34555 -109.6  2.79264 92.227  0.11216   59.288  0.66622 -27.73
1400    0.30623 -123.6  2.49941 85.428  0.12093   60.86   0.6434  -29.12
1600    0.27849 -133.1  2.25812 80.045  0.13017   63.307  0.63576 -30.27
1800    0.23794 -142.8  2.04467 75.439  0.14107   66.227  0.63345 -31.14
2000    0.20054 -159.4  1.86677 70.71   0.15225   68.227  0.62344 -31.86
2200    0.20357 -179.3  1.73156 65.985  0.16507   69.892  0.60539 -33.14
2400    0.22612 170.91  1.63985 61.655  0.1795    71.55   0.59233 -35.38
2600    0.22921 166.14  1.5454  58.238  0.19679   73.291  0.59247 -37.96
2800    0.21093 157.1   1.47263 55.483  0.21534   74.54   0.59598 -39.75
3000    0.21353 140.24  1.38506 52.003  0.2324    75.109  0.5875  -40.77
