! Filename:        PBR941E.S2P                               Version:    3.0
! Philips part #:  PBR941                                    Date: July 1998
! Bias condition:  Vce=3V, Ic=10mA
!
#  MHz  S  MA  R 50
! Freq       S11             S21             S12             S22
40      0.71404   -13.49  23.38392  166.87  0.007242  83.081  0.96815 -6.569
100     0.63959   -31.7   21.03479  149.78  0.016763  76.973  0.8963  -14.57
200     0.49019   -54.61  16.38902  129.42  0.028246  69.819  0.75777 -21.46
300     0.37523   -70.68  12.7784   116.74  0.037074  69.346  0.66255 -23.39
400     0.30332   -82.41  10.2581   108.48  0.044979  70.339  0.60662 -23.51
500     0.25336   -91.6   8.52571   102.65  0.052962  71.549  0.57483 -23.24
600     0.22082   -97.5   7.26396   98.36   0.061434  73.013  0.55744 -22.82
700     0.19325   -102.2  6.31821   94.843  0.069376  74.196  0.54886 -22.51
800     0.16568   -106.1  5.57599   91.631  0.077223  74.893  0.54413 -22.25
900     0.13777   -110.9  4.98372   88.692  0.086191  75.613  0.54019 -22.09
1000    0.1128    -118.3  4.51784   85.913  0.094362  75.955  0.53572 -22.1
1200    0.08958   -141.9  3.81964   80.846  0.11186   76.225  0.52335 -22.61
1400    0.091868  -159.6  3.34403   76.631  0.12857   76.304  0.51264 -23.96
1600    0.085726  -165.4  2.96975   73.039  0.14616   76.366  0.51391 -25.33
1800    0.063583  177.67  2.65471   69.703  0.16359   76.705  0.52139 -26.19
2000    0.066462  138.73  2.4115    66.092  0.18003   75.996  0.5186  -26.77
2200    0.10683   127.12  2.22984   62.637  0.19868   75.178  0.50325 -27.64
2400    0.13098   131.27  2.10441   59.383  0.21643   74.682  0.48921 -29.72
2600    0.13028   134.36  1.97182   56.791  0.23595   74.336  0.48718 -32.51
2800    0.11674   125.33  1.86617   54.636  0.2551    73.919  0.49399 -34.32
3000    0.13445   105.7   1.75145   51.514  0.27204   72.823  0.48973 -34.85
