! Filename:        PBR941G.S2P                               Version:    3.0
! Philips part #:  PBR941                                    Date: July 1998
! Bias condition:  Vce=3V, Ic=20mA
!
#  MHz  S  MA  R 50
! Freq         S11              S21               S12             S22
 40     0.54331   -20.38  33.04364  161.57  0.006582  81.365  0.93684 -9.075
100     0.44402   -45.31  27.18149  139.83  0.014436  74.725  0.81694 -18.11
200     0.3019    -72.26  18.64072  119.02  0.024529  72.281  0.65908 -22.13
300     0.22327   -90.69  13.6447   108.07  0.032774  74.901  0.58151 -21.62
400     0.18099   -104.5  10.62715  101.37  0.041265  75.964  0.54366 -20.71
500     0.15783   -114.9  8.68779   96.674  0.050413  77.548  0.52524 -20.14
600     0.14037   -121.3  7.33303   93.174  0.059529  78.137  0.5172  -19.78
700     0.12437   -126.7  6.3421    90.245  0.068094  78.941  0.51512 -19.66
800     0.10771   -132.7  5.57704   87.511  0.076858  79.308  0.51556 -19.62
900     0.089905  -142    4.97537   84.95   0.086151  79.53   0.51511 -19.68
1000    0.080065  -155.2  4.50362   82.499  0.095202  79.479  0.51375 -19.86
1200    0.084516  178.75  3.79909   78.035  0.11334   79.309  0.50487 -20.74
1400    0.098716  169.35  3.31944   74.235  0.13108   78.95   0.4961  -22.4
1600    0.092561  166.4   2.94319   70.876  0.14945   78.793  0.49838 -24.09
1800    0.083203  148.69  2.63077   67.711  0.16775   78.382  0.5067  -25.17
2000    0.099931  124.44  2.38972   64.26   0.18554   77.475  0.50518 -25.88
2200    0.13968   119.44  2.21113   60.977  0.20399   76.471  0.48957 -26.84
2400    0.15982   124.36  2.08434   57.922  0.22289   75.659  0.47491 -29.07
2600    0.15563   126.96  1.95114   55.414  0.24289   75.163  0.47349 -32.06
2800    0.14247   118.63  1.84531   53.216  0.262     74.405  0.47955 -34.05
3000    0.16289   104.07  1.73314   50.143  0.27987   73.244  0.47567 -34.6
