! Filename:        PBR941Q.S2P                               Version:    3.0
! Philips part #:  PBR941                                    Date: July 1998
! Bias condition:  Vce=6V, Ic=30mA
!
#  MHz  S  MA  R 50
! Freq       S11             S21             S12             S22
40      0.52923   -22.18  37.29132  159.46  0.006528  80.19   0.92148 -9.603
100     0.41653   -48.1   29.52267  136.43  0.013374  74.354  0.78933 -18.17
200     0.2706    -74.02  19.43047  116.08  0.022948  73.733  0.63902 -20.56
300     0.19554   -91.18  14.0026   105.89  0.031243  76.298  0.57327 -19.46
400     0.15812   -103.7  10.82749  99.726  0.039928  77.57   0.54286 -18.47
500     0.13573   -113.5  8.82974   95.436  0.048807  78.784  0.529   -18.03
600     0.11943   -119.6  7.43871   92.225  0.057882  79.493  0.52369 -17.83
700     0.10523   -123.9  6.42331   89.536  0.066677  80.204  0.52353 -17.92
800     0.090184  -129.2  5.64366   86.965  0.07499   80.561  0.52504 -18.01
900     0.072413  -139.1  5.03315   84.533  0.084077  80.499  0.5254  -18.2
1000    0.060581  -154.2  4.55416   82.217  0.092857  80.356  0.52513 -18.45
1200    0.067665  176.2   3.84357   77.926  0.1109    80.249  0.51661 -19.46
1400    0.081179  166.87  3.35853   74.341  0.12889   79.698  0.5082  -21.16
1600    0.075987  164.2   2.97719   71.12   0.14654   79.41   0.51084 -22.92
1800    0.067201  143.14  2.66034   68.045  0.16427   79.112  0.5196  -24.12
2000    0.088081  118.64  2.41531   64.677  0.18204   78.309  0.51829 -24.83
2200    0.12816  114.82   2.23665   61.446  0.20012   77.142  0.50302 -25.79
2400    0.14748  121.27   2.10951   58.459  0.21866   76.53   0.48828 -27.98
2600    0.14209  124.07   1.97465   56.046  0.23858   75.919  0.48637 -30.9
2800    0.1318   115.6    1.86528   53.942  0.25745   75.232  0.49315 -32.91
3000    0.15234  100.35   1.75276   50.888  0.27489   74.042  0.48968 -33.45
!  Noise data:
!  Freq. Fmin     Gamma-opt       rn
500     2.693   0.021   -140.42 0.278
900     2.762   0.124   -142.94 0.215
1000    2.831   0.098   -135.95 0.258
2000    3.554   0.269   -110.13 0.446
