! Filename:        PBR941O.S2P                               Version:    3.0
! Philips part #:  PBR941                                    Date: July 1998
! Bias condition:  Vce=6V, Ic=15mA
!
#  MHz  S  MA  R 50
! Freq       S11             S21             S12             S22
40      0.67081   -15.23  29.04016  164.53  0.006709  82.699  0.95694 -7.509
100     0.57942   -34.93  25.1977   145.39  0.015277  76.888  0.86441 -15.98
200     0.41629   -57.06  18.50412  124.58  0.025592  71.866  0.71518 -21.58
300     0.30905   -71.28  13.9765   112.68  0.033853  72.253  0.62709 -22.25
400     0.24442   -81.25  11.03852  105.21  0.042381  73.303  0.58015 -21.71
500     0.20269   -88.63  9.09655   100.01  0.050514  75.138  0.5554  -21.19
600     0.17509   -92.86  7.70704   96.207  0.05929   76.004  0.54311 -20.73
700     0.15276   -95.82  6.67997   93.065  0.067602  77.2    0.5381  -20.43
800     0.12888   -97.62  5.87844   90.162  0.075884  77.593  0.53713 -20.26
900     0.10379   -99.96  5.24683   87.466  0.084528  77.897  0.53491 -20.16
1000    0.080036  -104.7  4.75031   84.926  0.093473  78.047  0.53197 -20.21
1200    0.055278  -132    4.01101   80.254  0.11091   78.046  0.52208 -20.83
1400    0.056116  -154    3.50928   76.383  0.12779   77.806  0.51237 -22.24
1600    0.051148  -156.4  3.11249   73.051  0.1452    77.794  0.51442 -23.64
1800    0.028527  -179.3  2.77812   69.906  0.16253   77.494  0.52265 -24.57
2000    0.041722  115.83  2.52068   66.488  0.17963   76.849  0.52103 -25.12
2200    0.082759  111.99  2.33186   63.116  0.19725   75.807  0.50566 -25.94
2400    0.10404   122.58  2.20193   60.041  0.21486   75.263  0.49191 -27.93
2600    0.098883  128.02  2.06017   57.608  0.23442   74.905  0.4897  -30.63
2800    0.08722   117.03  1.94681   55.536  0.25258   74.204  0.49708 -32.43
3000    0.10935   95.955  1.82679   52.515  0.26918   73.142  0.49403 -32.87
!  Noise data:
!  Freq. Fmin     Gamma-opt       rn
500     2.017   0.148   12.9    0.263
900     2.003   0.06    -23.43  0.197
1000    2.059   0.081   27.92   0.261
2000    2.623   0.131   -127.26 0.297
