! Filename:        PBR951N.S2P                               Version:    3.0
! Philips part #:  PBR951                                    Date: July 1998
! Bias condition:  Vce=6V, Ic=10mA
!
#  MHz  S  MA  R 50
! Freq       S11             S21             S12             S22
40      0.6939  -17.8   24.73461 165.06  0.009407 82.31   0.95816 -9.258
100     0.61255 -41.55  21.65143 146.58  0.021172 72.667  0.85714 -20.24
200     0.46688 -71.12  16.16078 125.83  0.034531 66.186  0.68217 -29.33
300     0.37088 -91.62  12.28197 113.53  0.044283 65.413  0.57177 -32.01
400     0.31524 -107.1  9.75795  105.48  0.053392 66.442  0.50831 -32.52
500     0.28017 -119.1  8.03783  99.693  0.062254 67.933  0.47107 -32.34
600     0.25629 -128.2  6.82217  95.281  0.071363 69.449  0.44905 -31.96
700     0.23573 -136.5  5.9244   91.502  0.080577 70.652  0.43606 -31.43
800     0.21909 -144.1  5.22696  88.282  0.089649 71.667  0.4271  -30.91
900     0.20783 -151.3  4.68328  85.329  0.099194 72.401  0.41928 -30.45
1000    0.19879 -158.9  4.23901  82.667  0.10862  72.938  0.41214 -30.14
1200    0.19566 -172.3  3.58817  77.907  0.12841  73.437  0.39838 -30.67
1400    0.1972  178.31  3.1276   73.609  0.14821  73.683  0.39077 -32.51
1600    0.1933  171.16  2.77876  69.586  0.1685   73.764  0.39295 -34.44
1800    0.18836 160.69  2.50096  65.982  0.18868  73.483  0.39746 -35.02
2000    0.19888 148.61  2.28717  62.378  0.20907  72.943  0.39099 -34.94
2200    0.22434 141.52  2.11836  59.142  0.22999  72.211  0.37324 -36.01
2400    0.24355 139.37  1.98857  55.879  0.25107  71.445  0.35931 -39.52
2600    0.24684 137.65  1.86635  52.879  0.27311  70.76   0.35802 -43.87
2800    0.24275 131.24  1.76879  50.124  0.29504  69.606  0.36303 -45.88
3000    0.25842 122.59  1.68043  47.111  0.31637  68.571  0.3562  -45.44
!  Noise data:
!  Freq. Fmin     Gamma-opt       rn
500     1.373   0.136   45.91   0.172
800     1.379   0.142   93.14   0.188
900     1.471   0.147   95.4    0.147
1000    1.443   0.166   99.37   0.163
1500    1.746   0.235   149.81  0.092
2000    2.214   0.352   -141.76 0.152
