! Filename:        PBR951M.S2P                               Version:    3.0
! Philips part #:  PBR951                                    Date: July 1998
! Bias condition:  Vce=6V, Ic=5.0mA
!
#  MHz  S  MA  R 50
! Freq       S11             S21             S12             S22
40      0.824   -12.1   14.81357 169.76  0.010312 83.716  0.98023 -5.951
100     0.77612 -29.21  13.87313 156.14  0.024189 75.525  0.93091 -13.98
200     0.6622  -53.65  11.76205 137.76  0.041565 66.033  0.81371 -23.44
300     0.55604 -72.98  9.72444  124.48  0.05369  61.221  0.71023 -28.56
400     0.4776  -88.35  8.1053   114.86  0.062699 59.508  0.63553 -31.2
500     0.42095 -100.8  6.87027  107.64  0.070239 59.494  0.58413 -32.43
600     0.37968 -110.9  5.93427  102.03  0.077431 60.417  0.54983 -32.94
700     0.34591 -119.6  5.21075  97.262  0.08446  61.655  0.52644 -32.94
800     0.31746 -127.6  4.63129  93.209  0.09132  63.043  0.50931 -32.73
900     0.29642 -135.2  4.17272  89.574  0.098583 64.308  0.4951  -32.51
1000    0.27863 -142.9  3.79098  86.33   0.10601  65.442  0.48312 -32.32
1200    0.26128 -157.2  3.22763  80.564  0.12179  67.411  0.46312 -32.93
1400    0.25559 -168.3  2.82608  75.502  0.13861  68.941  0.45209 -34.6
1600    0.24755 -177.1  2.51882  70.923  0.15604  70.351  0.45185 -36.23
1800    0.23817 172.31  2.27159  66.846  0.17424  71.325  0.45356 -36.89
2000    0.24345 159.97  2.0801   62.861  0.19242  71.824  0.44484 -37.14
2200    0.26618 151.07  1.92745  59.238  0.21215  71.871  0.42687 -38.61
2400    0.28572 146.85  1.81173  55.647  0.23286  71.881  0.41462 -42.13
2600    0.28992 143.69  1.70227  52.444  0.25482  71.804  0.41499 -46.18
2800    0.28602 136.87  1.61554  49.529  0.27728  71.294  0.41953 -48.26
3000    0.30117 128.1   1.5336   46.374  0.2993   70.604  0.41018 -48.65
!  Noise data:
!  Freq. Fmin     Gamma-opt       rn
500     1.117   0.297   27.42   0.185
800     1.157   0.253   63.26   0.204
900     1.196   0.283   67.97   0.185
1000    1.254   0.261   70.36   0.194
1500    1.591   0.293   126.28  0.116
2000    2.148   0.325   -156.9  0.124
