! Filename:        PBR941I.S2P                               Version:    3.0
! Philips part #:  PBR941                                    Date: July 1998
! Bias condition:  Vce=3V, Ic=40mA
!
#  MHz  S  MA  R 50
! Freq       S11               S21               S12             S22
40      0.31803  -55.51  30.46782  152.02  0.007461  72.292  0.78306 -12.16
100     0.31484  -107.3  20.98815  126.04  0.014477  68.912  0.63403 -18.69
200     0.31729  -143.8  12.42356  107.85  0.023554  71.134  0.52733 -17.65
300     0.32222  -160    8.64893   99.502  0.032012  74.617  0.49166 -16.21
400     0.3248   -168.8  6.60412   94.393  0.041303  76.884  0.47742 -15.88
500     0.32522  -175.2  5.35609   90.684  0.050691  79.235  0.47168 -16.23
600     0.32094  -179.9  4.51721   87.733  0.060084  79.804  0.47079 -16.84
700     0.31656  175.6   3.91455   85.084  0.06973   80.563  0.4725  -17.65
800     0.31234  171.01  3.45905   82.53   0.079299  81.072  0.47539 -18.35
900     0.31091  165.42  3.10404   80.104  0.089041  81.187  0.47642 -19.05
1000    0.31458  160.46  2.8241    77.805  0.098917  81.238  0.47538 -19.79
1200    0.32926  153.22  2.39638   73.493  0.11869   80.864  0.46802 -21.56
1400    0.33795  148.72  2.10462   69.698  0.13814   80.706  0.45992 -24.24
1600    0.32902  144.11  1.88315   66.027  0.15872   80.236  0.46017 -26.78
1800    0.32706  136.14  1.70743   62.457  0.17984   79.638  0.46488 -28.6
2000    0.34607  127.32  1.57353   58.766  0.20102   78.471  0.45964 -29.87
2200    0.37984  123.25  1.46707   55.605  0.22219   77.438  0.44179 -31.61
2400    0.39403  122.53  1.38601   52.659  0.24329   76.663  0.42565 -34.73
2600    0.38325  120.51  1.30287   49.849  0.26738   75.714  0.42099 -38.48
2800    0.37555  114.09  1.24363   47.261  0.29025   74.273  0.42256 -40.93
3000    0.39538  105.68  1.18265   44.082  0.31144   72.764  0.41217 -41.97
