! Filename:        PBR951G.S2P                               Version:    3.0
! Philips part #:  PBR951                                    Date: July 1998
! Bias condition:  Vce=3V, Ic=20mA
!
#  MHz  S  MA  R 50
! Freq       S11             S21             S12             S22
40      0.46305 -29.46  36.38554 158.5   0.008781 80.429  0.91351 -14.27
100     0.3783  -64.88  28.33683 135.13  0.018413 72.038  0.73783 -27.78
200     0.28476 -102    18.39152 114.86  0.029867 70.613  0.53594 -33.96
300     0.24554 -124.3  13.15912 104.69  0.040353 72.406  0.44383 -33.68
400     0.23038 -138.9  10.16642 98.276  0.050932 73.858  0.39948 -32.72
500     0.22079 -148.8  8.25709  93.662  0.061825 75.028  0.37625 -31.91
600     0.21347 -156    6.94898  90.056  0.07267  75.937  0.36447 -31.37
700     0.20698 -162.6  6.00554  86.957  0.083597 76.467  0.35854 -30.82
800     0.20054 -168.7  5.28177  84.217  0.094303 76.822  0.35486 -30.34
900     0.19712 -174.4  4.72494  81.666  0.1054   76.738  0.35076 -29.86
1000    0.19508 179.48  4.27027  79.355  0.11632  76.725  0.34686 -29.67
1200    0.20335 169.89  3.6066   75.086  0.13848  76.286  0.33602 -30.56
1400    0.20867 163.6   3.13943  71.144  0.16084  75.58   0.33021 -32.91
1600    0.20579 158.28  2.78661  67.361  0.18321  74.862  0.33369 -35.25
1800    0.20476 149.67  2.50845  63.901  0.20516  74.018  0.33903 -35.95
2000    0.21827 139.91  2.29624  60.524  0.22721  72.882  0.33317 -35.75
2200    0.24396 134.85  2.12654  57.43   0.24964  71.675  0.31531 -36.81
2400    0.26381 133.93  1.99467  54.254  0.27233  70.414  0.29944 -40.87
2600    0.26583 132.55  1.86888  51.34   0.29417  69.222  0.29754 -45.72
2800    0.2615  126.87  1.7725   48.613  0.31679  67.813  0.30248 -47.97
3000    0.27595 119.12  1.68625  45.727  0.33902  66.465  0.29571 -47.08
