! Filename:        PBR951D.S2P                               Version:    3.0
! Philips part #:  PBR951                                    Date: July 1998
! Bias condition:  Vce=3V, Ic=5.0mA
!
#  MHz  S  MA  R 50
! Freq       S11             S21             S12             S22
40      0.80916 -12.83  14.88329 169.43  0.01109  84.379  0.97894 -6.447
100     0.75989 -31.01  13.87852 155.32  0.025652 74.584  0.92497 -15.09
200     0.64468 -56.79  11.65397 136.56  0.04398  65.008  0.79907 -25.14
300     0.54239 -76.92  9.56     123.19  0.056278 60.387  0.69036 -30.54
400     0.46901 -92.94  7.92887  113.62  0.065449 58.694  0.6134  -33.27
500     0.41766 -105.7  6.69937  106.45  0.073445 58.792  0.56119 -34.57
600     0.38027 -116    5.77554  100.87  0.080628 59.781  0.52608 -35.09
700     0.34937 -125    5.06662  96.135  0.088051 60.888  0.50242 -35.1
800     0.32458 -133.1  4.49965  92.114  0.095042 62.304  0.48506 -34.87
900     0.30599 -140.6  4.05267  88.491  0.10265  63.673  0.47056 -34.61
1000    0.29027 -148.2  3.68228  85.257  0.11042  64.71   0.45843 -34.44
1200    0.27831 -161.9  3.13379  79.499  0.12717  66.73   0.43785 -35.11
1400    0.27444 -172.5  2.74304  74.408  0.14441  68.119  0.42653 -36.91
1600    0.26731 179.06  2.44636  69.776  0.16272  69.446  0.42581 -38.66
1800    0.25974 169.04  2.2076   65.659  0.18162  70.194  0.427   -39.33
2000    0.26651 157.63  2.0228   61.684  0.20077  70.671  0.41795 -39.62
2200    0.2882  149.42  1.87443  58.049  0.22099  70.703  0.39935 -41.19
2400    0.30781 145.51  1.76239  54.46   0.24239  70.637  0.3865  -45.03
2600    0.31234 142.34  1.65733  51.207  0.26491  70.445  0.38683 -49.38
2800    0.30929 135.9   1.57353  48.27   0.28844  69.759  0.39047 -51.6
3000    0.32488 127.49  1.49769  45.149  0.31103  69.078  0.38037 -51.97
