! Filename:        PBR941K.S2P                               Version:    3.0
! Philips part #:  PBR941                                    Date: July 1998
! Bias condition:  Vce=6V, Ic=1.0mA
!
#  MHz  S  MA  R 50
! Freq       S11             S21             S12             S22
40      0.96696 -4.032  3.41915 176.17  0.008079  87.145  0.99727 -1.533
100     0.96187 -9.976  3.39944 170.55  0.019417  83.913  0.99347 -3.811
200     0.94209 -19.94  3.35776 161.54  0.038067  77.825  0.98014 -7.536
300     0.9137  -29.85  3.29637 152.92  0.055221  72.927  0.96088 -11
400     0.87736 -39.35  3.18189 145.05  0.070084  68.384  0.93826 -14.09
500     0.83675 -48.32  3.04571 137.9   0.082643  64.347  0.91455 -16.79
600     0.79399 -56     2.88502 131.75  0.093037  61.199  0.89122 -18.97
700     0.75028 -63.12  2.72652 126.09  0.10117   58.626  0.87045 -20.78
800     0.70218 -69.47  2.56323 120.61  0.10706   56.328  0.85046 -22.28
900     0.65065 -75.52  2.40667 115.34  0.11236   54.526  0.83073 -23.54
1000    0.60232 -81.84  2.27408 110.26  0.11632   53.293  0.81207 -24.66
1200    0.51805 -95.89  2.05744 100.51  0.12218   51.559  0.77606 -26.74
1400    0.46475 -109.6  1.89434 92.197  0.12576   50.963  0.74978 -28.8
1600    0.42533 -120    1.74467 85.747  0.12845   53.176  0.7364  -30.36
1800    0.37396 -129.7  1.59967 80.413  0.13161   56.294  0.72875 -31.6
2000    0.3236  -143.1  1.47432 74.879  0.13503   59.762  0.71378 -32.72
2200    0.30462 -160.1  1.37485 69.276  0.14149   63.364  0.69443 -34.41
2400    0.31585 -172.5  1.30959 64.142  0.15004   67.506  0.68157 -36.88
2600    0.3139  179.97  1.24157 60.286  0.16416   71.989  0.68196 -39.51
2800    0.29263 170.21  1.1899  57.346  0.18064   75.458  0.68353 -41.4
3000    0.28605 154.67  1.12064 53.625  0.19726   77.806  0.67146 -42.81
!  Noise data:
!  Freq. Fmin     Gamma-opt       rn
500     0.992   0.723   19.23   0.499
900     1.034   0.605   30.41   0.468
1000    1.23    0.523   36.2    0.51
2000    2.13    0.341   105.54  0.253
