! Filename:        PBR951J.S2P                               Version:    3.0
! Philips part #:  PBR951                                    Date: July 1998
! Bias condition:  Vce=6V, Ic=0.5mA
#  MHz  S  MA  R 50
! Freq       S11             S21             S12             S22
40      0.98023 -4.638  1.7658  176.02  0.011291 86.375  0.99826 -1.561
100     0.97528 -11.53  1.75472 170.36  0.027604 82.454  0.99503 -3.89
200     0.96112 -22.87  1.7286  161.19  0.054153 76.13   0.98546 -7.677
300     0.94002 -34.05  1.69092 152.3   0.078541 69.828  0.97165 -11.28
400     0.91578 -44.84  1.64307 143.96  0.0998   63.889  0.95463 -14.65
500     0.88861 -55.07  1.58224 136.06  0.11769  58.592  0.93588 -17.73
600     0.85996 -64.67  1.51615 128.9   0.13217  53.901  0.91677 -20.42
700     0.82742 -73.74  1.45209 121.98  0.14294  49.557  0.89759 -22.74
800     0.79461 -82.31  1.3843  115.49  0.15006  45.564  0.87887 -24.77
900     0.76219 -90.59  1.32217 109.44  0.15479  42.143  0.86031 -26.59
1000    0.72984 -98.61  1.25789 103.75  0.15713  39.126  0.84263 -28.25
1200    0.67957 -114.4  1.15525 93.462  0.15671  34.373  0.81323 -31.59
1400    0.64728 -128.8  1.07216 84.656  0.15025  31.761  0.79445 -34.93
1600    0.62244 -141.5  0.99447 77.224  0.1392   32.374  0.78494 -37.89
1800    0.5949  -153.9  0.92098 70.986  0.12648  36.259  0.77616 -40.3
2000    0.57817 -166.7  0.85552 65.404  0.11507  44.248  0.75863 -42.94
2200    0.58068 -178.7  0.80117 60.574  0.11175  56.041  0.73927 -46.67
2400    0.59192 171.23  0.76165 56.111  0.12073  69.178  0.73165 -51.38
2600    0.59135 162.27  0.72101 53.062  0.14285  79.758  0.73547 -55.77
2800    0.58673 152.58  0.69097 50.977  0.17444  86.133  0.73333 -59.26
3000    0.59817 142.37  0.65997 49.29   0.21163  89.632  0.70847 -62.57
!  Noise data:!  Freq. Fmin     Gamma-opt       rn
500     1.41    0.706   36.06   0.709
800     0.616   0.866   55.31   0.67
1000    1.532   0.66    74.31   0.574
1500    2.363   0.598   120.25  0.376
2000    3.561   0.619   164.77  0.118
