! Filename:        PBR941R.S2P                               Version:    3.0
! Philips part #:  PBR941                                    Date: July 1998
! Bias condition:  Vce=6V, Ic=40mA
!
#  MHz  S  MA  R 50
! Freq       S11             S21             S12             S22
40      0.45684 -30.42  36.26798  156.44  0.00637   75.916  0.8786  -10.14
100     0.34697 -65.21  27.07845  131.89  0.013306  72.933  0.73846 -17.52
200     0.23764 -100.7  16.95201  112.54  0.021917  72.156  0.61132 -18.07
300     0.19406 -123.8  12.0259   103.41  0.030293  76.506  0.5632  -16.79
400     0.17704 -139    9.25413   97.891  0.038842  77.992  0.54187 -16.18
500     0.16731 -149.1  7.53711   94.021  0.047589  79.635  0.53227 -16.23
600     0.15828 -156    6.35758   91.08   0.056565  80.411  0.52936 -16.46
700     0.14925 -161.8  5.50149   88.462  0.065287  81.11   0.52955 -16.9
800     0.14024 -169.6  4.84553   85.961  0.073726  81.568  0.53206 -17.32
900     0.13258 -178.5  4.33239   83.574  0.083041  81.653  0.53285 -17.81
1000    0.13219 171.94  3.92973   81.277  0.092375  81.685  0.53151 -18.29
1200    0.14898 158.96  3.32428   77.032  0.11028   81.434  0.52388 -19.64
1400    0.16112 154.26  2.91292   73.391  0.12855   80.999  0.5153  -21.74
1600    0.15464 149.97  2.59028   70.056  0.14633   80.811  0.51723 -23.71
1800    0.14992 138.52  2.32415   66.801  0.16534   80.411  0.52425 -25.16
2000    0.17122 124.03  2.11919   63.335  0.18308   79.566  0.52117 -26.12
2200    0.2075  119.79  1.96687   60.157  0.20246   78.691  0.50514 -27.44
2400    0.22716 122.12  1.85761   57.135  0.22188   77.933  0.49033 -29.96
2600    0.21991 122.49  1.74061   54.6    0.2431    77.287  0.48738 -33.03
2800    0.20946 114.98  1.64943   52.327  0.26279   76.341  0.49238 -35.11
3000    0.23173 103.85  1.55344   49.225  0.28177   75.123  0.48625 -35.92
!  Noise data:
!  Freq. Fmin     Gamma-opt       rn
500     3.305   0.152   -161.59 0.252
900     3.262   0.594   -149.67 0.074
1000    3.717   0.265   -142.68 0.298
2000    4.767   0.387   -108.19 0.774
