! Philips part #:  PRF957                                    Date:  Nov 1998
! Bias condition:  Vce=3V, Ic=0.5mA
!
#  MHz  S  MA  R 50
! Freq        S11             S21              S12             S22
  100  0.97592 -11.69  1.83413 170.52 0.027633 82.486  0.99536 -4.109
  200  0.96418 -23.04  1.74535 161.66 0.054301 76.003  0.98432 -8.031
  300  0.94977 -34.16  1.68044 153.32 0.078996 69.684  0.96978 -11.77
  400  0.93418 -45.04  1.63690 145.36  0.10094 63.743  0.95300 -15.32
  500  0.91796 -55.28  1.58351 138.04  0.11986 58.541  0.93493 -18.59
  600  0.90184 -64.81  1.52605 131.24  0.13563 53.693  0.91634 -21.54
  700  0.88198 -73.61  1.46597 124.76  0.14817 49.260  0.89910 -24.14
  800  0.85824 -81.82  1.40462 118.50  0.15759 45.155  0.88191 -26.44
  900  0.82948 -89.68  1.34218 112.35  0.16342 41.478  0.86515 -28.60
 1000  0.80160 -97.30  1.27812 106.88  0.16751 38.308  0.84817 -30.59
 1200  0.75524 -112.2  1.17291 96.565  0.17090 32.683  0.81805 -34.41
 1400  0.73069 -125.9  1.10237 87.493  0.16894 28.248  0.79861 -38.29
 1600  0.71213 -137.1  1.02396 79.869  0.16161 26.105  0.78705 -41.98
 1800  0.68251 -147.2  0.94687 74.304  0.15187 26.076  0.77529 -45.29
 2000  0.64953 -157.9  0.88371 68.336  0.13855 27.484  0.76154 -48.79
 2200  0.63533 -169.1  0.83040 62.719  0.12568 31.471  0.75053 -53.02
 2400  0.63748 -178.9  0.77532 57.859  0.11688 38.909  0.74717 -57.65
 2600  0.63612 173.02  0.72414 54.177  0.11568 49.698  0.74893 -61.92
 2800  0.62313 164.98  0.70352 50.762  0.11919 61.839  0.74419 -65.95
 3000  0.61333 155.87  0.67450 47.903  0.13346 72.727  0.73336 -70.52
