! Filename:        PRF947B.S2P                               Version:    3.0
! Philips part #:  PRF947                                    Date:  Nov 1998
! Bias condition:  Vce=3V, Ic=1.0mA
!
#  MHz  S  MA  R 50
! Freq       S11             S21             S12             S22    :
  100  0.95992 -10.44  3.45107 170.86 0.019094 83.331  0.99338 -4.048
  200  0.94174 -20.52  3.31204 162.50 0.037367 77.710  0.97912 -7.864
  300  0.91676 -30.50  3.22148 154.71 0.054239 72.414  0.96037 -11.42
  400  0.88819 -40.21  3.12806 147.39 0.069237 67.530  0.93889 -14.72
  500  0.85798 -49.26  3.00025 140.75 0.082176 63.497  0.91594 -17.74
  600  0.82694 -57.72  2.87320 134.62 0.093009 59.910  0.89295 -20.29
  700  0.79258 -65.44  2.73210 128.82  0.10182 56.798  0.87153 -22.44
  800  0.75464 -72.63  2.60214 123.22  0.10874 54.048  0.85023 -24.23
  900  0.71315 -79.43  2.46088 117.71  0.11387 51.720  0.83002 -25.82
 1000  0.67256 -86.05  2.32573 112.87  0.11783 49.948  0.81030 -27.24
 1200  0.60260 -99.49  2.10788 103.79  0.12382 47.212  0.77523 -29.85
 1400  0.55680 -112.2  1.95756 95.913  0.12783 45.689  0.75094 -32.45
 1600  0.52152 -122.4  1.79521 89.219  0.12963 46.040  0.73565 -34.80
 1800  0.47577 -131.3  1.63852 84.032  0.13076 47.703  0.72157 -36.68
 2000  0.42479 -141.9  1.51814 78.319  0.13139 49.824  0.70635 -38.59
 2200  0.39622 -154.9  1.42394 72.730  0.13305 52.577  0.69239 -41.10
 2400  0.39351 -166.4  1.33195 67.759  0.13719 56.192  0.68570 -44.03
 2600  0.39138 -174.8  1.24630 63.638  0.14431 60.452  0.68557 -46.68
 2800  0.37461 177.54  1.20418 59.982  0.15040 64.570  0.68196 -48.91
 3000  0.35555 167.27  1.15066 56.216  0.15990 68.680  0.67304 -51.43
