! Filename:        PRF947C.S2P                               Version:    3.0
! Philips part #:  PRF947                                    Date:  Nov 1998
! Bias condition:  Vce=3V, Ic=2mA
!
#  MHz  S  MA  R 50
! Freq       S11             S21             S12             S22    :
  100  0.92140 -13.92  6.42334 167.80 0.018612 81.627  0.98510 -5.877
  200  0.88446 -27.17  6.09354 156.99 0.035702 74.621  0.95374 -11.13
  300  0.83530 -39.91  5.78791 147.26 0.050393 68.749  0.91367 -15.63
  400  0.78324 -51.66  5.41839 138.62 0.062480 63.817  0.87277 -19.38
  500  0.73338 -62.16  5.02085 131.22 0.072142 60.268  0.83214 -22.40
  600  0.68554 -71.56  4.66242 124.63 0.079895 57.653  0.79742 -24.64
  700  0.63992 -79.66  4.30098 118.84 0.085988 55.794  0.76859 -26.32
  800  0.59356 -86.94  3.98157 113.46 0.090881 54.478  0.74364 -27.53
  900  0.54929 -93.57  3.66866 108.51 0.094638 53.755  0.72122 -28.50
 1000  0.50800 -100.1  3.40090 104.19 0.098150 53.535  0.70106 -29.33
 1200  0.44449 -113.4  2.97785 96.369  0.10474 53.701  0.66803 -30.89
 1400  0.40844 -125.6  2.68191 89.729  0.11111 54.677  0.64656 -32.80
 1600  0.38038 -134.7  2.40907 84.113  0.11756 56.788  0.63507 -34.62
 1800  0.34166 -142.7  2.16939 79.731  0.12463 59.300  0.62544 -35.96
 2000  0.30150 -153.9  1.98891 74.865  0.13179 61.631  0.61339 -37.40
 2200  0.28732 -167.8  1.85062 70.133  0.14007 63.876  0.60089 -39.55
 2400  0.29537 -178.6  1.72215 65.899  0.15042 66.086  0.59474 -42.29
 2600  0.29874 174.71  1.60337 62.342  0.16294 68.325  0.59555 -44.76
 2800  0.28514 168.14  1.53704 59.053  0.17366 70.338  0.59384 -46.68
 3000  0.27071 157.68  1.46203 55.580  0.18640 72.227  0.58602 -48.83
