! Philips part #:  PRF957                                    Date:  Nov 1998
! Bias condition:  Vce=6V, Ic=15mA
!
#  MHz  S  MA  R 50
! Freq        S11             S21              S12             S22
  100  0.55816 -51.10 27.37152 143.97 0.018301 70.128  0.82050 -23.70
  200  0.43959 -86.36 19.73531 123.22 0.028878 64.156  0.62390 -33.35
  300  0.37832 -109.6 14.75416 111.60 0.036779 64.040  0.50833 -35.85
  400  0.34965 -125.1 11.62107 104.26 0.044223 65.744  0.44348 -36.12
  500  0.33426 -135.6  9.54859 99.089 0.051810 67.635  0.40678 -35.87
  600  0.32268 -143.2  8.09474 95.077 0.059471 69.181  0.38547 -35.47
  700  0.31117 -149.0  7.01499 91.751 0.067244 70.515  0.37329 -35.04
  800  0.29888 -154.3  6.18872 88.861 0.075091 71.589  0.36535 -34.50
  900  0.28772 -159.6  5.52464 86.232 0.083067 72.486  0.35870 -34.03
 1000  0.28004 -165.0  4.99610 83.896 0.091140 73.149  0.35245 -33.71
 1200  0.27851 -174.5  4.20893 79.553  0.10750 73.847  0.33986 -34.15
 1400  0.28458 179.63  3.66609 75.531  0.12397 74.077  0.33191 -36.18
 1600  0.27755 175.91  3.24022 71.869  0.14104 74.230  0.33114 -38.39
 1800  0.25909 169.98  2.90724 68.778  0.15852 74.020  0.33052 -39.62
 2000  0.25146 160.09  2.64578 65.451  0.17533 73.814  0.32356 -40.77
 2200  0.26925 151.23  2.44408 62.206  0.19200 73.437  0.31214 -43.26
 2400  0.29199 147.53  2.26178 59.259  0.20981 72.743  0.30581 -47.10
 2600  0.29802 146.08  2.10363 56.510  0.22931 71.916  0.30717 -50.56
 2800  0.28531 142.80  1.99458 53.614  0.24540 71.508  0.30668 -52.60
 3000  0.27736 135.09  1.89216 50.665  0.26298 71.046  0.29860 -54.58
!  Noise data:
! Freq.  Fmin     Gamma-opt       rn
  500	1.44	0.08	43	0.15
  800	1.57	0.14	98	0.2
  900	1.72	0.17	102	0.14
 1000	1.71	0.17	96	0.225
 1500	1.69	0.31	133	0.13
 2000	2.05	0.29	-155	0.16
