! Philips part #:  PRF957                                    Date:  Nov 1998
! Bias condition:  Vce=3V, Ic=15mA
!
#  MHz  S  MA  R 50
! Freq        S11             S21              S12             S22
  100  0.51697 -56.56 27.12072 142.51 0.018932 69.242  0.80437 -25.58
  200  0.41953 -94.25 19.20486 121.65 0.029602 63.623  0.59910 -35.62
  300  0.37534 -117.7 14.23645 110.23 0.037680 63.890  0.48235 -38.17
  400  0.35709 -132.7 11.16792 103.04 0.045351 65.751  0.41767 -38.46
  500  0.34749 -142.6  9.15977 97.948 0.053185 67.684  0.38130 -38.20
  600  0.33961 -149.6  7.75479 93.981 0.061180 69.254  0.36038 -37.81
  700  0.33019 -155.1  6.71827 90.695 0.069333 70.550  0.34835 -37.37
  800  0.31988 -160.1  5.92376 87.810 0.077473 71.566  0.34049 -36.82
  900  0.31066 -165.1  5.28999 85.206 0.085701 72.472  0.33384 -36.31
 1000  0.30467 -170.1  4.78630 82.845 0.094142 73.037  0.32746 -35.96
 1200  0.30527 -178.8  4.02955 78.488  0.11123 73.699  0.31478 -36.46
 1400  0.31175 175.81  3.50794 74.441  0.12828 73.867  0.30679 -38.68
 1600  0.30500 172.15  3.10120 70.718  0.14593 73.917  0.30604 -41.03
 1800  0.28748 166.38  2.78791 67.532  0.16419 73.595  0.30518 -42.36
 2000  0.28170 157.19  2.53855 64.169  0.18162 73.342  0.29772 -43.59
 2200  0.30016 149.15  2.34486 60.934  0.19888 72.902  0.28596 -46.37
 2400  0.32271 145.64  2.16980 57.963  0.21727 72.115  0.28001 -50.54
 2600  0.32779 144.08  2.01860 55.177  0.23752 71.170  0.28134 -54.24
 2800  0.31514 140.66  1.91369 52.175  0.25408 70.702  0.28043 -56.43
 3000  0.30809 133.37  1.81666 49.196  0.27229 70.192  0.27176 -58.68
