! Philips part #:  PRF957                                    Date:  Nov 1998
! Bias condition:  Vce=3V, Ic=2mA
!
#  MHz  S  MA  R 50
! Freq        S11             S21              S12             S22
  100  0.91024 -18.77  6.48595 165.52 0.026466 79.140  0.97830 -8.191
  200  0.86798 -36.43  6.05830 152.89 0.049795 69.946  0.93099 -15.41
  300  0.81632 -53.10  5.64836 141.79 0.068580 62.303  0.87318 -21.31
  400  0.76722 -67.92  5.17589 132.21 0.082723 56.294  0.81495 -26.03
  500  0.72464 -80.79  4.71077 124.24 0.093097 52.003  0.76384 -29.66
  600  0.68676 -91.94  4.30365 117.31  0.10074 48.881  0.72175 -32.28
  700  0.65193 -101.4  3.92468 111.35  0.10630 46.722  0.68826 -34.21
  800  0.61706 -109.7  3.59451 105.94  0.11015 45.278  0.66035 -35.61
  900  0.58467 -117.3  3.28665 101.08  0.11287 44.603  0.63622 -36.69
 1000  0.55597 -124.6  3.02905 96.828  0.11519 44.474  0.61496 -37.63
 1200  0.51818 -138.4  2.62251 89.104  0.11908 45.060  0.58051 -39.62
 1400  0.50297 -150.0  2.34407 82.312  0.12274 46.745  0.55908 -42.16
 1600  0.48808 -158.7  2.10231 76.553  0.12721 49.846  0.54792 -44.62
 1800  0.46257 -166.9  1.90286 72.104  0.13342 53.492  0.53857 -46.62
 2000  0.44159 -176.8  1.74633 67.334  0.13997 57.248  0.52591 -48.84
 2200  0.44362 173.16  1.62018 62.736  0.14836 60.830  0.51326 -52.05
 2400  0.45727 165.78  1.50191 58.602  0.16042 64.120  0.50778 -55.95
 2600  0.46089 160.43  1.39889 55.037  0.17662 67.001  0.50881 -59.47
 2800  0.44935 154.56  1.34060 51.347  0.19066 69.773  0.50583 -62.42
 3000  0.44141 146.53  1.27761 47.862  0.20795 72.117  0.49639 -65.82
