! Philips part #:  PRF957                                    Date:  Nov 1998
! Bias condition:  Vce=6V, Ic=1.0mA
!
#  MHz  S  MA  R 50
! Freq        S11             S21              S12             S22
  100  0.95695 -13.76  3.44601 169.21 0.025241 81.585  0.99098 -5.173
  200  0.93633 -27.01  3.27888 159.36 0.049018 74.162  0.97055 -9.999
  300  0.90977 -39.92  3.15389 150.30 0.070188 67.349  0.94413 -14.44
  400  0.88085 -52.23  3.02443 141.87 0.088000 61.224  0.91429 -18.41
  500  0.85291 -63.51  2.86321 134.38  0.10239 56.193  0.88378 -21.89
  600  0.82508 -73.81  2.70947 127.55  0.11380 51.763  0.85465 -24.77
  700  0.79543 -83.03  2.54932 121.27  0.12227 48.065  0.82919 -27.21
  800  0.76280 -91.48  2.40154 115.34  0.12812 44.821  0.80576 -29.19
  900  0.72830 -99.35  2.24776 109.70  0.13146 42.295  0.78390 -30.92
 1000  0.69601 -106.9  2.10630 104.75  0.13368 40.347  0.76348 -32.47
 1200  0.64681 -121.6  1.87916 95.567  0.13534 37.480  0.72869 -35.46
 1400  0.62108 -134.7  1.72371 87.526  0.13412 36.096  0.70617 -38.61
 1600  0.60070 -145.0  1.57046 80.739  0.13096 37.182  0.69323 -41.56
 1800  0.57034 -154.3  1.43245 75.639  0.12803 40.151  0.68166 -44.11
 2000  0.54005 -164.8  1.32386 70.147  0.12466 44.390  0.66790 -46.87
 2200  0.53161 -175.7  1.23530 64.873  0.12360 49.968  0.65558 -50.38
 2400  0.53847 175.45  1.14897 60.173  0.12753 56.530  0.65079 -54.40
 2600  0.53913 168.46  1.07101 56.320  0.13753 63.431  0.65215 -58.06
 2800  0.52652 161.34  1.03334 52.541  0.14828 69.901  0.64844 -61.36
 3000  0.51715 152.65  0.98731 49.063  0.16475 75.343  0.63868 -65.15
!  Noise data:
! Freq.  Fmin     Gamma-opt       rn
  500	0.94	0.7	34	0.43
  800	1.19	0.53	54	0.4
  900	1.26	0.54	63	0.4
 1000	1.5	0.53	70	0.38
 1500	1.65	0.5	111	0.26
 2000	2.09	0.53	166	0.08
