! Filename:        PRF947D.S2P                               Version:    3.0
! Philips part #:  PRF947                                    Date:  Dec 1999
! Bias condition:  Vce=3V, Ic=5mA
!
#  MHz  S  MA  R 50
! Freq       S11             S21             S12             S22    :
  100  0.81436 -22.34 13.64211 160.62 0.017280 77.959  0.95503 -10.12
  200  0.72612 -42.17 12.14887 144.87 0.031170 69.710  0.87280 -17.67
  300  0.63119 -59.27 10.62142 132.39 0.041581 64.521  0.78891 -22.43
  400  0.55275 -73.24  9.17031 122.86 0.049425 61.868  0.72149 -25.25
  500  0.49228 -84.68  7.97023 115.58 0.055885 61.024  0.67199 -26.88
  600  0.44468 -93.94  7.00589 109.76 0.061703 61.125  0.63709 -27.74
  700  0.40478 -101.5  6.20539 104.94 0.067151 61.691  0.61280 -28.18
  800  0.36831 -107.9  5.55778 100.75 0.072341 62.539  0.59473 -28.34
  900  0.33521 -114.1  5.00798 96.995 0.077450 63.570  0.57987 -28.40
 1000  0.30668 -120.4  4.55750 93.729 0.082727 64.624  0.56762 -28.48
 1200  0.26961 -133.7  3.88104 87.895 0.093706 66.401  0.54663 -29.11
 1400  0.25568 -144.8  3.42195 82.939  0.10539 67.940  0.53410 -30.60
 1600  0.24052 -151.7  3.03384 78.601  0.11760 69.505  0.52991 -32.22
 1800  0.21196 -159.0  2.70908 75.155  0.13012 70.690  0.52645 -33.34
 2000  0.18749 -172.2  2.46699 71.197  0.14251 71.684  0.51864 -34.47
 2200  0.19161 172.22  2.28458 67.351  0.15557 72.351  0.50800 -36.43
 2400  0.21119 163.60  2.11883 63.934  0.16970 72.788  0.50266 -39.18
 2600  0.21845 159.91  1.96748 60.980  0.18517 73.208  0.50442 -41.69
 2800  0.20666 154.81  1.87386 58.183  0.19851 73.642  0.50425 -43.43
 3000  0.19743 143.65  1.77643 55.091  0.21312 73.999  0.49764 -45.25
