! Philips part #:  PRF949                                    Date:  Dec 1999
! Bias condition:  Vce=6V, Ic=1.0mA
!
#  MHz  S  MA  R 50
! Freq       S11             S21             S12             S22    :
  100  0.96266 -10.09  3.39757 171.09 0.018101 83.532  0.99361 -3.880
  200  0.94514 -19.85  3.26867 162.91 0.035498 78.124  0.98035 -7.491
  300  0.92087 -29.51  3.18303 155.28 0.051668 72.991  0.96323 -10.88
  400  0.89286 -38.93  3.09717 148.09 0.066107 68.242  0.94344 -14.06
  500  0.86309 -47.76  2.97382 141.54 0.078556 64.326  0.92174 -16.93
  600  0.83238 -55.97  2.85359 135.55 0.089183 60.810  0.89970 -19.41
  700  0.79822 -63.50  2.71936 129.80 0.097727 57.783  0.88003 -21.52
  800  0.76043 -70.54  2.59040 124.25  0.10469 55.073  0.85954 -23.27
  900  0.71857 -77.17  2.45458 118.78  0.10966 52.784  0.84013 -24.82
 1000  0.67757 -83.64  2.32213 113.94  0.11376 51.038  0.82115 -26.22
 1200  0.60634 -96.82  2.10862 104.89  0.11991 48.327  0.78725 -28.79
 1400  0.55881 -109.4  1.96209 97.047  0.12413 46.803  0.76370 -31.36
 1600  0.52187 -119.5  1.80155 90.363  0.12613 47.142  0.74867 -33.68
 1800  0.47458 -128.2  1.64438 85.175  0.12742 48.814  0.73485 -35.51
 2000  0.42165 -138.6  1.52410 79.441  0.12820 50.826  0.72006 -37.38
 2200  0.38975 -151.6  1.43046 73.817  0.13001 53.558  0.70642 -39.85
 2400  0.38467 -163.3  1.33942 68.808  0.13408 57.081  0.69988 -42.71
 2600  0.38181 -171.8  1.25334 64.693  0.14103 61.329  0.69986 -45.28
 2800  0.36410 -179.5  1.21138 61.067  0.14699 65.400  0.69643 -47.43
 3000  0.34340 170.10  1.15749 57.290  0.15613 69.494  0.68782 -49.87
!  Noise data:
! Freq.  Fmin     Gamma-opt       rn
  500    0.96    0.7      21     0.56
  800    1.14    0.64     35     0.57
  900    1.31    0.62     35     0.56
 1000    1.47    0.61     38     0.54
 1500    1.78    0.48     72     0.38
 2000    2.09    0.36    122     0.27
