! Philips part #:  PRF949                                    Date:  Dec 1999
! Bias condition:  Vce=6V, Ic=40mA
!
#  MHz  S  MA  R 50
! Freq       S11             S21             S12             S22    :
  100  0.40058 -70.50 28.36856 134.19 0.012422 68.693  0.74114 -18.34
  200  0.31072 -108.7 18.11449 114.91 0.019579 68.558  0.60416 -19.75
  300  0.27880 -130.4 12.94867 105.74 0.026199 71.370  0.54928 -18.72
  400  0.26686 -143.5 10.03037 100.16 0.032938 73.941  0.52365 -18.25
  500  0.26089 -152.0  8.18305 96.259 0.040027 75.952  0.51115 -18.42
  600  0.25443 -157.9  6.92324 93.178 0.047032 77.350  0.50506 -18.87
  700  0.24675 -162.8  5.99440 90.537 0.054092 78.376  0.50287 -19.44
  800  0.23834 -167.6  5.29574 88.145 0.061217 79.175  0.50188 -19.98
  900  0.23137 -172.6  4.73564 85.796 0.068393 79.809  0.50037 -20.51
 1000  0.22787 -177.8  4.28694 83.752 0.075605 80.146  0.49814 -21.08
 1200  0.23180 173.39  3.62741 79.887 0.090164 80.517  0.49098 -22.74
 1400  0.23863 168.46  3.18038 76.389  0.10483 80.645  0.48605 -25.23
 1600  0.23186 164.71  2.81314 72.989  0.12002 80.723  0.48627 -27.74
 1800  0.21769 157.38  2.51377 70.140  0.13541 80.465  0.48581 -29.60
 2000  0.21957 146.30  2.29802 66.830  0.15040 80.310  0.47993 -31.32
 2200  0.24383 138.44  2.13498 63.631  0.16569 80.030  0.46983 -33.76
 2400  0.26613 135.90  1.98219 60.759  0.18192 79.488  0.46382 -36.99
 2600  0.26961 134.58  1.84134 58.185  0.19950 78.849  0.46481 -40.00
 2800  0.25883 130.01  1.75194 55.636  0.21467 78.603  0.46435 -42.11
 3000  0.25923 121.22  1.66384 52.725  0.23120 78.299  0.45700 -44.11
!  Noise data:
! Freq.  Fmin      Gamma-opt      rn
  500    3.03    0.06      82    0.74
  800    3.92    0.07     -86    0.50
  900    3.90    0.05    -112    0.05
 1000    3.85    0.15    -153    0.37
 1500    3.85    0.52    -144    0.11
 2000    4.51    0.26    -117    0.65
