! Filename:        PRF947H.S2P                               Version:    3.0
! Philips part #:  PRF947                                    Date:  Nov 1998
! Bias condition:  Vce=3V, Ic=30mA
!
#  MHz  S  MA  R 50
! Freq       S11             S21             S12             S22    :
  100  0.38068 -74.44 27.43093 134.81 0.013148 68.851  0.73915 -19.90
  200  0.31838 -113.9 17.73334 115.03 0.020596 67.852  0.58839 -22.06
  300  0.29848 -135.1 12.70423 105.39 0.027352 70.491  0.52582 -20.89
  400  0.29219 -147.7  9.82276 99.485 0.034284 73.094  0.49713 -20.14
  500  0.28869 -155.8  7.99768 95.346 0.041427 75.097  0.48320 -20.04
  600  0.28409 -161.5  6.74770 92.100 0.048642 76.589  0.47672 -20.33
  700  0.27737 -166.3  5.82949 89.343 0.055898 77.610  0.47457 -20.74
  800  0.27000 -170.9  5.14299 86.857 0.063155 78.425  0.47366 -21.16
  900  0.26356 -175.7  4.59247 84.527 0.070453 79.089  0.47251 -21.60
 1000  0.26051 179.38  4.15062 82.436 0.077915 79.515  0.47054 -22.11
 1200  0.26510 171.13  3.50320 78.519 0.092972 79.936  0.46386 -23.75
 1400  0.27164 166.23  3.06315 74.971  0.10803 80.065  0.45915 -26.28
 1600  0.26466 162.34  2.70697 71.512  0.12369 80.155  0.45966 -28.87
 1800  0.25071 155.32  2.41905 68.627  0.13972 79.825  0.45969 -30.82
 2000  0.25275 145.18  2.21058 65.328  0.15526 79.667  0.45372 -32.56
 2200  0.27661 137.84  2.05195 62.160  0.17093 79.336  0.44344 -35.14
 2400  0.29837 135.19  1.90372 59.317  0.18790 78.718  0.43753 -38.54
 2600  0.30093 133.61  1.76836 56.744  0.20610 77.966  0.43830 -41.70
 2800  0.28972 129.04  1.68145 54.115  0.22177 77.693  0.43748 -43.90
 3000  0.28987 120.79  1.59701 51.215  0.23876 77.345  0.42950 -46.01
