! Philips part #:  PRF949                                    Date:  Dec 1999
! Bias condition:  Vce=6V, Ic=15mA
!
#  MHz  S  MA  R 50
! Freq       S11             S21             S12             S22    :
  100  0.61636 -36.85 26.14553 148.48 0.014235 74.252  0.87603 -16.14
  200  0.47113 -63.39 19.89958 128.30 0.023640 68.388  0.72451 -23.05
  300  0.37153 -82.08 15.31648 116.21 0.030871 67.767  0.62782 -24.73
  400  0.31176 -95.94 12.24379 108.40 0.037583 68.908  0.57195 -24.82
  500  0.27530 -106.4 10.12871 102.96 0.044265 70.445  0.54000 -24.60
  600  0.24982 -114.1  8.62134 98.793 0.051029 71.913  0.52182 -24.38
  700  0.22808 -120.1  7.48562 95.380 0.057746 73.047  0.51177 -24.20
  800  0.20784 -125.3  6.61131 92.408 0.064511 74.047  0.50559 -24.02
  900  0.18864 -130.9  5.89975 89.673 0.071295 74.769  0.50019 -23.90
 1000  0.17285 -137.2  5.33305 87.305 0.078167 75.363  0.49547 -23.87
 1200  0.15856 -150.9  4.49641 82.948 0.092123 76.086  0.48518 -24.53
 1400  0.15957 -160.1  3.93148 79.198  0.10635 76.424  0.47895 -26.22
 1600  0.15209 -164.2  3.46646 75.738  0.12088 76.659  0.47897 -28.10
 1800  0.12994 -170.9  3.08647 72.887  0.13523 76.636  0.47922 -29.36
 2000  0.11518 172.05  2.80678 69.557  0.14939 76.549  0.47425 -30.47
 2200  0.13185 154.98  2.59396 66.263  0.16386 76.310  0.46458 -32.38
 2400  0.15647 149.83  2.40367 63.363  0.17890 75.932  0.45929 -35.18
 2600  0.16411 149.42  2.22957 60.809  0.19484 75.547  0.46133 -37.80
 2800  0.15261 145.44  2.11648 58.404  0.20879 75.327  0.46238 -39.52
 3000  0.14664 132.94  2.00315 55.613  0.22368 75.097  0.45662 -41.10
!  Noise data:
! Freq.  Fmin     Gamma-opt       rn
  500    1.77    0.22     13     0.37
  800    2.04    0.25     24     0.35
  900    2.12    0.25     26     0.37
 1000    2.22    0.26     28     0.31
 1500    2.27    0.23     70     0.20
 2000    2.61    0.11    141     0.30
