! Philips part #:  PRF957                                    Date:  Nov 1998
! Bias condition:  Vce=6V, Ic=20mA
!
#  MHz  S  MA  R 50
! Freq        S11             S21              S12             S22
  100  0.48814 -59.07 30.63687 139.94 0.017056 69.508  0.77892 -26.17
  200  0.38394 -96.42 20.98474 119.32 0.026712 65.494  0.57314 -34.65
  300  0.33918 -119.2 15.33273 108.50 0.034632 66.680  0.46521 -35.91
  400  0.32102 -133.7 11.95638 101.77 0.042388 68.752  0.40804 -35.49
  500  0.31199 -143.1  9.77035 97.036 0.050461 70.664  0.37711 -34.90
  600  0.30400 -149.7  8.25569 93.336 0.058509 72.046  0.36003 -34.37
  700  0.29473 -154.9  7.14217 90.266 0.066735 73.160  0.35073 -33.90
  800  0.28469 -159.8  6.29352 87.565 0.074981 73.997  0.34518 -33.38
  900  0.27538 -164.7  5.61412 85.088 0.083311 74.675  0.34016 -32.90
 1000  0.26949 -169.7  5.07428 82.880 0.091726 75.092  0.33527 -32.61
 1200  0.27018 -178.4  4.27190 78.742  0.10873 75.435  0.32439 -33.13
 1400  0.27712 176.42  3.71781 74.923  0.12567 75.372  0.31739 -35.29
 1600  0.27053 173.18  3.28235 71.356  0.14318 75.237  0.31721 -37.60
 1800  0.25243 167.42  2.94606 68.340  0.16100 74.772  0.31713 -38.91
 2000  0.24626 157.62  2.68311 65.064  0.17818 74.396  0.31055 -40.06
 2200  0.26505 149.07  2.47628 61.909  0.19516 73.862  0.29923 -42.57
 2400  0.28812 145.75  2.29149 59.044  0.21319 73.012  0.29281 -46.47
 2600  0.29377 144.66  2.13088 56.325  0.23276 72.063  0.29410 -50.02
 2800  0.28109 141.53  2.01905 53.472  0.24898 71.521  0.29391 -52.07
 3000  0.27338 133.84  1.91508 50.566  0.26675 70.988  0.28585 -53.98
!  Noise data:
! Freq.  Fmin     Gamma-opt       rn
  500	1.59	0.02	146	0.18
  800	1.76	0.14	116	0.19
  900	1.92	0.17	126	0.13
 1000	1.92	0.16	109	0.22
 1500	1.85	0.39	133	0.1
 2000	2.22	0.31	-149	0.18
