! Filename:        PRF949m.S2P                               Version:    3.0
! Philips part #:  PRF949                                    Date:  Dec 1999
! Bias condition:  Vce=6V, Ic=5mA
!
#  MHz  S  MA  R 50
! Freq       S11             S21             S12             S22    :
  100  0.82973 -21.10 13.53104 161.21 0.016644 78.582  0.95790 -9.577
  200  0.74370 -39.91 12.12335 145.85 0.030098 70.533  0.88108 -16.81
  300  0.64850 -56.20 10.67194 133.53 0.040397 65.432  0.80130 -21.44
  400  0.56831 -69.57  9.26247 124.02 0.048248 62.669  0.73599 -24.28
  500  0.50481 -80.50  8.07762 116.75 0.054727 61.711  0.68717 -25.93
  600  0.45439 -89.39  7.11817 110.89 0.060477 61.770  0.65250 -26.83
  700  0.41196 -96.55  6.31454 106.04 0.065858 62.274  0.62815 -27.30
  800  0.37332 -102.7  5.66390 101.82 0.070985 63.007  0.61010 -27.48
  900  0.33783 -108.5  5.10744 98.029 0.076065 64.007  0.59515 -27.57
 1000  0.30643 -114.4  4.64978 94.753 0.081182 65.118  0.58290 -27.68
 1200  0.26523 -127.2  3.96512 88.875 0.092089 66.720  0.56172 -28.28
 1400  0.24750 -138.4  3.49779 83.906  0.10347 68.175  0.54903 -29.72
 1600  0.23080 -145.2  3.10115 79.609  0.11532 69.733  0.54456 -31.28
 1800  0.20060 -151.8  2.76819 76.175  0.12751 70.921  0.54118 -32.38
 2000  0.17185 -165.0  2.51992 72.228  0.13959 71.858  0.53357 -33.45
 2200  0.17185 177.96  2.33430 68.369  0.15222 72.529  0.52293 -35.34
 2400  0.19015 168.17  2.16525 64.948  0.16598 73.032  0.51760 -37.97
 2600  0.19756 164.17  2.01124 61.996  0.18085 73.498  0.51958 -40.39
 2800  0.18563 159.16  1.91558 59.277  0.19380 73.962  0.51958 -42.07
 3000  0.17461 147.21  1.81571 56.212  0.20789 74.330  0.51320 -43.79
!  Noise data:
! Freq.  Fmin     Gamma-opt       rn
  500    1.19    0.45     16     0.34
  800    1.43    0.46     25     0.39
  900    1.48    0.45     26     0.41
 1000    1.56    0.46     27     0.30
 1500    1.62    0.41     62     0.31
 2000    2.00    0.20    109     0.28
