! Philips part #:  PRF957                                    Date:  Nov 1998
! Bias condition:  Vce=3V, Ic=40mA
!
#  MHz  S  MA  R 50
! Freq        S11             S21              S12             S22
  100  0.32882 -106.3 32.19682 128.48 0.014670 68.611  0.63217 -32.09
  200  0.34547 -140.8 19.56921 109.82 0.023267 69.984  0.43928 -35.71
  300  0.35527 -155.5 13.71858 101.07 0.031763 73.021  0.36288 -34.00
  400  0.36109 -163.5 10.50985 95.639 0.040587 75.071  0.32789 -32.53
  500  0.36328 -168.5  8.51042 91.664 0.049494 76.499  0.31096 -31.86
  600  0.36189 -172.2  7.15708 88.473 0.058427 77.343  0.30320 -31.64
  700  0.35739 -175.5  6.17569 85.717 0.067389 77.943  0.30021 -31.59
  800  0.35169 -178.8  5.43614 83.248 0.076451 78.262  0.29913 -31.50
  900  0.34708 177.69  4.84977 80.943 0.085582 78.546  0.29759 -31.47
 1000  0.34536 174.16  4.38438 78.826 0.094739 78.621  0.29522 -31.58
 1200  0.35075 168.14  3.68821 74.866  0.11312 78.401  0.28770 -32.92
 1400  0.35767 164.46  3.20580 71.046  0.13120 77.865  0.28261 -35.99
 1600  0.35025 161.42  2.83330 67.412  0.15002 77.365  0.28367 -39.10
 1800  0.33574 156.10  2.54828 64.272  0.16948 76.478  0.28417 -41.06
 2000  0.33474 148.29  2.32411 60.957  0.18794 75.871  0.27768 -42.85
 2200  0.35637 142.04  2.14839 57.832  0.20605 75.110  0.26668 -46.18
 2400  0.37744 139.36  1.98777 54.970  0.22550 74.006  0.26080 -50.95
 2600  0.38051 137.81  1.84854 52.197  0.24677 72.705  0.26212 -55.23
 2800  0.36764 134.27  1.75104 49.153  0.26420 72.043  0.26130 -57.92
 3000  0.36313 127.61  1.66315 46.172  0.28329 71.353  0.25281 -60.56
