! Philips part #:  PRF957                                    Date:  Nov 1998
! Bias condition:  Vce=3V, Ic=5mA
!
#  MHz  S  MA  R 50
! Freq        S11             S21              S12             S22
  100  0.78846 -30.05 13.90461 157.53 0.024160 74.554  0.93444 -14.55
  200  0.69748 -56.13 12.00918 140.06 0.041972 64.111  0.81753 -25.02
  300  0.61313 -77.81 10.17188 126.91 0.053841 58.073  0.70790 -31.31
  400  0.55417 -94.69  8.58225 117.29 0.062057 55.124  0.62541 -34.98
  500  0.51357 -108.0  7.35237 110.07 0.068685 54.350  0.56726 -37.07
  600  0.48372 -118.3  6.39572 104.34 0.074452 54.499  0.52729 -38.20
  700  0.45872 -126.6  5.63202 99.640 0.079937 55.271  0.49971 -38.75
  800  0.43538 -133.7  5.02653 95.583 0.085197 56.389  0.47928 -38.92
  900  0.41396 -140.3  4.51634 91.970 0.090416 57.721  0.46260 -38.94
 1000  0.39710 -146.8  4.10664 88.784 0.095922 59.098  0.44844 -38.96
 1200  0.38099 -158.6  3.48653 82.971  0.10764 61.486  0.42486 -39.77
 1400  0.37958 -167.5  3.05965 77.783  0.11991 63.451  0.41056 -41.75
 1600  0.37048 -173.7  2.71539 73.217  0.13341 65.455  0.40531 -43.82
 1800  0.35020 179.46  2.44195 69.560  0.14806 67.013  0.40074 -45.23
 2000  0.33716 169.87  2.23026 65.619  0.16232 68.319  0.39089 -46.79
 2200  0.34914 160.62  2.06252 61.824  0.17705 69.244  0.37881 -49.64
 2400  0.36889 155.16  1.90979 58.377  0.19380 69.747  0.37305 -53.47
 2600  0.37447 151.86  1.77685 55.230  0.21295 69.987  0.37438 -56.87
 2800  0.36260 147.37  1.69148 51.932  0.22877 70.503  0.37258 -59.29
 3000  0.35505 139.84  1.60846 48.726  0.24648 70.865  0.36358 -62.04
