! Philips part #:  PRF957                                    Date:  Nov 1998
! Bias condition:  Vce=3V, Ic=1.0mA
!
#  MHz  S  MA  R 50
! Freq        S11             S21              S12             S22
  100  0.95396 -14.28  3.46841 168.86 0.027273 81.267  0.99069 -5.545
  200  0.93255 -27.99  3.29683 158.69 0.052753 73.598  0.96806 -10.72
  300  0.90476 -41.30  3.16441 149.38 0.075408 66.527  0.93874 -15.43
  400  0.87516 -53.98  3.02513 140.74 0.094228 60.242  0.90637 -19.64
  500  0.84682 -65.52  2.85705 133.08  0.10942 55.046  0.87248 -23.34
  600  0.81892 -76.02  2.70023 126.12  0.12125 50.507  0.84179 -26.34
  700  0.78942 -85.36  2.53243 119.77  0.12994 46.737  0.81503 -28.86
  800  0.75725 -93.91  2.38051 113.80  0.13594 43.499  0.79050 -30.90
  900  0.72355 -101.8  2.22404 108.15  0.13918 40.955  0.76763 -32.69
 1000  0.69222 -109.4  2.08192 103.18  0.14141 38.974  0.74638 -34.29
 1200  0.64497 -124.1  1.85283 93.995  0.14278 36.073  0.71041 -37.36
 1400  0.62131 -137.0  1.69608 85.914  0.14125 34.681  0.68713 -40.63
 1600  0.60263 -147.3  1.54444 79.130  0.13785 35.660  0.67380 -43.74
 1800  0.57362 -156.5  1.40978 74.053  0.13477 38.532  0.66187 -46.39
 2000  0.54575 -166.8  1.30311 68.569  0.13104 42.648  0.64769 -49.26
 2200  0.53885 -177.5  1.21483 63.342  0.12979 48.069  0.63509 -52.97
 2400  0.54648 173.85  1.12958 58.685  0.13355 54.468  0.63032 -57.18
 2600  0.54753 166.99  1.05413 54.887  0.14368 61.177  0.63132 -61.03
 2800  0.53531 159.98  1.01660 51.071  0.15439 67.592  0.62744 -64.53
 3000  0.52674 151.43  0.97146 47.597  0.17106 73.020  0.61726 -68.52
