! Philips part #:  PRF957                                    Date:  Nov 1998
! Bias condition:  Vce=3V, Ic=20mA
!
#  MHz  S  MA  R 50
! Freq        S11             S21              S12             S22
  100  0.43965 -66.92 30.12533 138.32 0.017484 68.910  0.75944 -28.18
  200  0.36812 -106.5 20.25347 117.76 0.027139 65.387  0.54683 -36.89
  300  0.34306 -128.8 14.69195 107.17 0.035236 66.957  0.43876 -38.13
  400  0.33514 -142.1 11.41650 100.60 0.043376 69.105  0.38244 -37.69
  500  0.33112 -150.7  9.31261 95.935 0.051671 70.982  0.35212 -37.11
  600  0.32621 -156.6  7.86407 92.269 0.060119 72.447  0.33543 -36.60
  700  0.31911 -161.3  6.80092 89.223 0.068671 73.383  0.32629 -36.11
  800  0.31077 -165.7  5.99128 86.519 0.077186 74.165  0.32079 -35.57
  900  0.30301 -170.3  5.34670 84.048 0.085925 74.823  0.31594 -35.09
 1000  0.29867 -174.9  4.83402 81.827 0.094650 75.174  0.31088 -34.77
 1200  0.30158 177.26  4.06805 77.664  0.11230 75.426  0.29992 -35.37
 1400  0.30862 172.53  3.53894 73.730  0.12985 75.258  0.29292 -37.75
 1600  0.30190 169.31  3.12705 70.132  0.14802 75.066  0.29284 -40.24
 1800  0.28479 163.65  2.81008 67.037  0.16666 74.488  0.29253 -41.63
 2000  0.28030 154.67  2.55939 63.723  0.18437 74.047  0.28548 -42.89
 2200  0.29984 147.04  2.36399 60.541  0.20183 73.431  0.27395 -45.70
 2400  0.32253 143.89  2.18748 57.653  0.22053 72.513  0.26780 -49.99
 2600  0.32720 142.54  2.03505 54.879  0.24095 71.410  0.26920 -53.80
 2800  0.31466 139.31  1.92808 51.932  0.25766 70.855  0.26840 -56.01
 3000  0.30762 132.10  1.82943 48.991  0.27582 70.244  0.25990 -58.21
