! Filename:        PRF947A.S2P                               Version:    3.0
! Philips part #:  PRF947                                    Date:  Nov 1998
! Bias condition:  Vce=3V, Ic=0.5mA
!
#  MHz  S  MA  R 50
! Freq       S11             S21             S12             S22
  100  0.97986 -8.320  1.76003 172.52 0.019300 84.340  0.99721 -3.031
  200  0.97019 -16.54  1.71674 165.51 0.038167 79.700  0.98995 -5.913
  300  0.95753 -24.65  1.67776 158.87 0.056178 75.135  0.98167 -8.737
  400  0.94350 -32.73  1.65479 152.47 0.073053 70.752  0.97184 -11.48
  500  0.92692 -40.50  1.62306 146.47 0.088220 66.868  0.96037 -14.08
  600  0.91024 -47.88  1.58180 140.84  0.10184 63.180  0.94767 -16.49
  700  0.88877 -54.86  1.53892 135.28  0.11356 59.707  0.93571 -18.68
  800  0.86367 -61.49  1.49145 129.81  0.12325 56.375  0.92267 -20.64
  900  0.83228 -67.97  1.44482 124.13  0.13069 53.204  0.90879 -22.46
 1000  0.79866 -74.38  1.39228 119.03  0.13667 50.518  0.89451 -24.24
 1200  0.73709 -87.50  1.30739 109.24  0.14578 45.528  0.86619 -27.48
 1400  0.69490 -100.3  1.25461 100.61  0.15115 41.536  0.84495 -30.68
 1600  0.66040 -111.1  1.18144 93.118  0.15163 39.309  0.83058 -33.59
 1800  0.61313 -120.6  1.09978 87.315  0.14906 38.727  0.81575 -36.06
 2000  0.55583 -131.1  1.03500 80.859  0.14420 38.616  0.80012 -38.53
 2200  0.51588 -143.7  0.98379 74.550  0.13879 39.790  0.78649 -41.49
 2400  0.50292 -155.7  0.93017 68.930  0.13480 42.860  0.78007 -44.77
 2600  0.49595 -165.2  0.87723 64.458  0.13332 48.018  0.77966 -47.73
 2800  0.47656 -173.8  0.85681 60.616  0.13117 54.073  0.77489 -50.36
 3000  0.45326 175.77  0.82374 56.846  0.13389 61.183  0.76507 -53.33
