! Philips part #:  PRF957                                    Date:  Nov 1998
! Bias condition:  Vce=6V, Ic=30mA
!
#  MHz  S  MA  R 50
! Freq        S11             S21              S12             S22
  100  0.40184 -72.13 34.14289 134.60 0.015519 69.172  0.71847 -28.90
  200  0.33033 -111.4 21.96920 114.70 0.024422 67.940  0.51221 -35.14
  300  0.30742 -132.6 15.68402 104.95 0.032510 70.252  0.41816 -34.77
  400  0.30098 -145.0 12.10670 98.945 0.040790 72.387  0.37193 -33.61
  500  0.29777 -152.8  9.84187 94.678 0.049201 74.070  0.34818 -32.79
  600  0.29332 -158.1  8.29181 91.336 0.057735 75.220  0.33602 -32.27
  700  0.28641 -162.4  7.16305 88.516 0.066298 75.954  0.33020 -31.89
  800  0.27829 -166.6  6.30391 86.003 0.074922 76.518  0.32707 -31.46
  900  0.27079 -171.0  5.62015 83.698 0.083528 76.951  0.32411 -31.09
 1000  0.26685 -175.6  5.07838 81.602 0.092281 77.116  0.32068 -30.92
 1200  0.27024 176.70  4.27214 77.669  0.10978 77.077  0.31166 -31.62
 1400  0.27770 172.41  3.71568 73.988  0.12713 76.751  0.30568 -34.01
 1600  0.27104 169.63  3.28010 70.517  0.14503 76.369  0.30620 -36.51
 1800  0.25386 164.09  2.94306 67.560  0.16326 75.682  0.30671 -37.96
 2000  0.24900 154.59  2.68079 64.363  0.18065 75.131  0.30056 -39.18
 2200  0.26913 146.62  2.47458 61.245  0.19788 74.439  0.28949 -41.77
 2400  0.29226 143.73  2.28944 58.434  0.21609 73.467  0.28303 -45.79
 2600  0.29778 142.83  2.12864 55.750  0.23590 72.387  0.28440 -49.48
 2800  0.28484 139.76  2.01627 52.941  0.25227 71.770  0.28435 -51.60
 3000  0.27769 132.27  1.91198 50.043  0.27007 71.141  0.27643 -53.55
!  Noise data:
! Freq.  Fmin     Gamma-opt       rn
  500	1.85	0.08	-161	0.26
  800	2.19	0.23	171	0.08
  900	2.22	0.26	163	0.1
 1000	2.28	0.18	141	0.2
 1500	2.2	0.39	143	0.15
 2000	2.57	0.34	-139	0.23
