! Philips part #:  PRF957                                    Date:  Nov 1998
! Bias condition:  Vce=3V, Ic=30mA
!
#  MHz  S  MA  R 50
! Freq        S11             S21              S12             S22
  100  0.35237 -86.24 32.80170 132.68 0.015564 69.051  0.69207 -31.00
  200  0.33010 -125.6 20.72531 113.07 0.024544 68.481  0.48307 -37.16
  300  0.32811 -144.3 14.70738 103.59 0.032905 70.900  0.39098 -36.65
  400  0.33040 -154.6 11.32165 97.731 0.041489 73.129  0.34648 -35.45
  500  0.33093 -161.1  9.19203 93.508 0.050302 74.666  0.32370 -34.64
  600  0.32877 -165.6  7.74075 90.164 0.059108 75.766  0.31211 -34.16
  700  0.32348 -169.4  6.68244 87.349 0.068045 76.434  0.30674 -33.82
  800  0.31676 -173.1  5.88206 84.806 0.076874 76.881  0.30374 -33.41
  900  0.31095 -177.0  5.24792 82.488 0.085873 77.284  0.30088 -33.09
 1000  0.30807 178.92  4.74368 80.347 0.094931 77.439  0.29788 -32.87
 1200  0.31302 172.14  3.99074 76.359  0.11318 77.270  0.28856 -33.84
 1400  0.32030 168.24  3.46870 72.578  0.13105 76.836  0.28266 -36.49
 1600  0.31355 165.30  3.06522 68.997  0.14966 76.366  0.28336 -39.25
 1800  0.29744 159.90  2.75403 65.909  0.16865 75.575  0.28371 -40.84
 2000  0.29469 151.40  2.50953 62.656  0.18680 74.986  0.27708 -42.25
 2200  0.31532 144.41  2.31854 59.528  0.20452 74.242  0.26577 -45.24
 2400  0.33761 141.66  2.14487 56.683  0.22347 73.196  0.25977 -49.71
 2600  0.34186 140.40  1.99494 53.926  0.24425 71.968  0.26114 -53.71
 2800  0.32928 137.12  1.88955 50.949  0.26118 71.328  0.26046 -56.08
 3000  0.32304 130.13  1.79364 48.015  0.27978 70.644  0.25217 -58.38
