! Filename:        PRF949q.S2P                               Version:    3.0
! Philips part #:  PRF949                                    Date:  Dec 1999
! Bias condition:  Vce=6V, Ic=30mA
!
#  MHz  S  MA  R 50
! Freq       S11             S21             S12             S22    :
  100  0.46344 -52.99 31.12339 139.34 0.012760 71.642  0.79780 -18.85
  200  0.33351 -85.41 21.10204 119.01 0.020644 69.519  0.63765 -22.67
  300  0.27003 -106.5 15.37941 108.59 0.027459 71.223  0.56169 -22.08
  400  0.24042 -121.0 11.98252 102.17 0.034363 73.307  0.52462 -21.28
  500  0.22448 -131.0  9.78317 97.727 0.041468 74.984  0.50581 -20.93
  600  0.21265 -138.0  8.26447 94.300 0.048552 76.223  0.49649 -20.89
  700  0.20105 -143.4  7.14387 91.445 0.055686 77.164  0.49254 -21.02
  800  0.18903 -148.7  6.29362 88.911 0.062727 77.932  0.49065 -21.13
  900  0.17798 -154.5  5.61146 86.513 0.069855 78.413  0.48864 -21.32
 1000  0.17035 -160.6  5.07064 84.394 0.077013 78.844  0.48650 -21.60
 1200  0.16946 -172.4  4.27097 80.461 0.091576 79.050  0.47896 -22.71
 1400  0.17622 -178.8  3.72956 77.021  0.10616 79.105  0.47432 -24.80
 1600  0.17034 177.98  3.28807 73.729  0.12109 79.119  0.47521 -27.01
 1800  0.15299 170.44  2.92958 70.981  0.13592 78.814  0.47582 -28.57
 2000  0.14855 155.78  2.66723 67.743  0.15060 78.599  0.47115 -29.96
 2200  0.17116 144.40  2.46740 64.606  0.16530 78.245  0.46175 -32.09
 2400  0.19547 141.52  2.28623 61.808  0.18087 77.743  0.45626 -35.09
 2600  0.20168 141.11  2.12073 59.299  0.19747 77.185  0.45803 -37.92
 2800  0.19062 136.93  2.01340 56.893  0.21181 76.943  0.45881 -39.81
 3000  0.18815 126.36  1.90650 54.105  0.22738 76.617  0.45283 -41.57
!  Noise data:
! Freq.  Fmin      Gamma-opt       rn
  500    2.29    0.08      43     0.51
  800    2.78    0.12      18     0.43
  900    2.81    0.05     -29     0.31
 1000    2.94    0.03      37     0.28
 1500    3.03    0.16     180     0.12
 2000    3.42    0.15    -137     0.38
