! Philips part #:  PRF957                                    Date:  Nov 1998
! Bias condition:  Vce=6V, Ic=40mA
!
#  MHz  S  MA  R 50
! Freq        S11             S21              S12             S22
  100  0.35820 -83.62 35.28422 131.12 0.014613 69.197  0.67600 -30.01
  200  0.31453 -122.9 21.89523 111.91 0.023202 69.606  0.47786 -34.28
  300  0.30522 -142.0 15.44195 102.83 0.031381 72.099  0.39531 -32.90
  400  0.30432 -152.6 11.86072 97.242 0.039840 74.335  0.35685 -31.42
  500  0.30383 -159.2  9.61547 93.240 0.048510 75.798  0.33783 -30.61
  600  0.30064 -163.7  8.09083 90.062 0.057089 76.766  0.32863 -30.25
  700  0.29501 -167.5  6.98354 87.351 0.065806 77.383  0.32499 -30.04
  800  0.28787 -171.3  6.14418 84.928 0.074518 77.794  0.32338 -29.80
  900  0.28150 -175.3  5.47619 82.667 0.083253 78.122  0.32141 -29.61
 1000  0.27854 -179.5  4.95036 80.628 0.092046 78.230  0.31879 -29.56
 1200  0.28309 173.47  4.16217 76.759  0.10975 78.036  0.31110 -30.54
 1400  0.29062 169.59  3.61827 73.122  0.12721 77.577  0.30584 -33.10
 1600  0.28393 166.85  3.19446 69.702  0.14525 77.107  0.30670 -35.82
 1800  0.26751 161.38  2.86692 66.691  0.16361 76.344  0.30733 -37.46
 2000  0.26431 152.35  2.61068 63.484  0.18121 75.751  0.30149 -38.84
 2200  0.28512 144.96  2.41202 60.396  0.19855 75.034  0.29060 -41.57
 2400  0.30793 142.29  2.23177 57.609  0.21692 74.036  0.28439 -45.70
 2600  0.31256 141.32  2.07462 54.902  0.23697 72.894  0.28568 -49.51
 2800  0.30000 138.18  1.96490 52.045  0.25349 72.260  0.28564 -51.77
 3000  0.29363 130.90  1.86383 49.159  0.27153 71.617  0.27790 -53.85
!  Noise data:
! Freq.  Fmin     Gamma-opt       rn
  500	2.1	0.29	-129	0.13
  800	2.4	0.28	178	0.1
  900	2.46	0.36	173	0.08
 1000	2.6	0.2	155	0.22
 1500	2.89	0.39	-133	0.28
 2000	2.89	0.39	-133	0.28
