! Philips part #:  PRF949                                    Date:  Dec 1999
! Bias condition:  Vce=6V, Ic=0.5mA
!
#  MHz  S  MA  R 50
! Freq       S11             S21             S12             S22    :
  100  0.98024 -8.201  1.81522 172.60 0.018254 84.613  0.99725 -2.940
  200  0.97071 -16.23  1.74953 165.71 0.036249 79.942  0.99044 -5.705
  300  0.95848 -24.21  1.70363 159.18 0.053392 75.426  0.98233 -8.446
  400  0.94386 -32.13  1.67844 152.87 0.069412 71.150  0.97309 -11.09
  500  0.92729 -39.75  1.64635 146.96 0.083890 67.423  0.96186 -13.63
  600  0.91043 -47.01  1.60431 141.43 0.096820 63.815  0.94997 -15.95
  700  0.88876 -53.86  1.56103 135.94  0.10806 60.432  0.93874 -18.06
  800  0.86313 -60.37  1.51260 130.55  0.11739 57.188  0.92633 -19.95
  900  0.83121 -66.77  1.46565 124.92  0.12459 54.119  0.91281 -21.74
 1000  0.79757 -73.05  1.41284 119.87  0.13044 51.469  0.89887 -23.45
 1200  0.73512 -85.97  1.32714 110.17  0.13923 46.668  0.87188 -26.63
 1400  0.69133 -98.61  1.27325 101.63  0.14474 42.862  0.85082 -29.73
 1600  0.65568 -109.3  1.19952 94.205  0.14544 40.820  0.83733 -32.58
 1800  0.60741 -118.6  1.11559 88.432  0.14336 40.351  0.82380 -34.97
 2000  0.54817 -128.9  1.04994 81.980  0.13913 40.436  0.80734 -37.37
 2200  0.50622 -141.5  0.99852 75.689  0.13444 41.706  0.79411 -40.26
 2400  0.49191 -153.6  0.94447 70.065  0.13123 44.870  0.78798 -43.44
 2600  0.48391 -163.2  0.89048 65.566  0.13047 50.058  0.78763 -46.32
 2800  0.46371 -171.8  0.86949 61.776  0.12899 55.943  0.78299 -48.84
 3000  0.43874 177.78  0.83603 57.983  0.13218 62.820  0.77343 -51.71
!  Noise data:
! Freq.  Fmin     Gamma-opt       rn
  500    1.15    0.68     20     0.94
  800    1.28    0.75     37     0.82
  900    1.47    0.67     38     0.84
 1000    1.75    0.64     44     0.79
 1500    2.02    0.54     77     0.61
 2000    2.35    0.48    124     0.28
