! Filename:        PRF947p.S2P                               Version:    3.0
! Philips part #:  PRF947                                    Date:  Dec 1998
! Bias condition:  Vce=6V, Ic=20mA
!
#  MHz  S  MA  R 50
! Freq       S11             S21             S12             S22    :
  100  0.55235 -42.23 29.02034 144.81 0.013562 73.412  0.84670 -17.59
  200  0.40692 -70.63 21.04213 124.30 0.022270 68.914  0.68557 -23.51
  300  0.31885 -89.98 15.78661 112.82 0.029280 69.301  0.59457 -24.19
  400  0.27069 -104.1 12.46262 105.59 0.036088 70.958  0.54574 -23.75
  500  0.24270 -114.5 10.24256 100.61 0.043031 72.633  0.51918 -23.35
  600  0.22311 -121.9  8.68271 96.776 0.050008 74.056  0.50493 -23.10
  700  0.20596 -127.7  7.52082 93.614 0.056943 75.065  0.49769 -22.98
  800  0.18905 -132.9  6.63354 90.848 0.063891 75.901  0.49353 -22.86
  900  0.17329 -138.6  5.91503 88.276 0.070881 76.543  0.48992 -22.83
 1000  0.16089 -145.1  5.34147 86.024 0.077934 77.008  0.48626 -22.87
 1200  0.15226 -158.6  4.50128 81.893 0.092317 77.395  0.47747 -23.65
 1400  0.15606 -166.8  3.92979 78.301  0.10676 77.579  0.47207 -25.48
 1600  0.14965 -170.2  3.46460 74.962  0.12146 77.691  0.47277 -27.46
 1800  0.12914 -177.3  3.08526 72.189  0.13601 77.492  0.47337 -28.82
 2000  0.11846 165.69  2.80477 68.899  0.15042 77.302  0.46867 -29.99
 2200  0.13784 150.38  2.59241 65.710  0.16497 76.976  0.45922 -31.96
 2400  0.16266 146.40  2.40165 62.866  0.18021 76.497  0.45379 -34.83
 2600  0.16988 146.30  2.22804 60.355  0.19636 76.044  0.45584 -37.51
 2800  0.15853 142.38  2.11419 57.964  0.21045 75.775  0.45695 -39.26
 3000  0.15390 130.35  2.00073 55.208  0.22553 75.479  0.45126 -40.86
!  Noise data:
! Freq.  Fmin     Gamma-opt       rn
  500    1.98    0.19     15     0.43
  800    2.29    0.20     24     0.36
  900    2.36    0.16     16     0.31
 1000    2.47    0.20     33     0.32
 1500    2.52    0.18     89     0.18
 2000    2.88    0.09    165     0.33
