! Filename:        PRF947n.S2P                               Version:    3.0
! Philips part #:  PRF947                                    Date:  Dec 1998
! Bias condition:  Vce=6V, Ic=10mA
!
#  MHz  S  MA  R 50
! Freq       S11             S21             S12             S22    :
  100  0.70483 -30.22 21.39207 153.58 0.015229 75.556  0.91276 -13.72
  200  0.57322 -54.19 17.44366 134.60 0.025966 68.429  0.78447 -21.41
  300  0.46430 -72.19 14.04614 121.89 0.033818 65.892  0.68652 -24.50
  400  0.39121 -85.90 11.49791 113.25 0.040500 65.913  0.62244 -25.55
  500  0.34239 -96.46  9.64510 107.10 0.046952 66.950  0.58258 -25.85
  600  0.30703 -104.6  8.28004 102.37 0.053225 68.225  0.55817 -25.85
  700  0.27833 -110.9  7.22669 98.492 0.059439 69.460  0.54334 -25.75
  800  0.25168 -116.4  6.40236 95.154 0.065756 70.613  0.53322 -25.56
  900  0.22736 -121.9  5.72795 92.096 0.072098 71.564  0.52513 -25.42
 1000  0.20652 -127.9  5.18381 89.476 0.078493 72.370  0.51804 -25.35
 1200  0.18325 -141.5  4.38240 84.681 0.091759 73.504  0.50477 -25.89
 1400  0.17896 -151.7  3.83954 80.610  0.10528 74.239  0.49675 -27.46
 1600  0.16921 -156.7  3.38840 76.924  0.11917 74.858  0.49573 -29.18
 1800  0.14447 -163.1  3.01914 73.919  0.13305 75.161  0.49509 -30.34
 2000  0.12471 -179.1  2.74692 70.423  0.14684 75.333  0.48938 -31.40
 2200  0.13587 162.74  2.53936 66.974  0.16077 75.321  0.47950 -33.28
 2400  0.15940 155.68  2.35315 63.945  0.17559 75.136  0.47424 -36.00
 2600  0.16737 154.25  2.18443 61.291  0.19120 74.948  0.47631 -38.55
 2800  0.15569 150.05  2.07477 58.799  0.20493 74.886  0.47712 -40.22
 3000  0.14833 137.36  1.96431 55.933  0.21967 74.786  0.47124 -41.82
!  Noise data:
! Freq.  Fmin     Gamma-opt       rn
  500    1.54    0.31     15     0.30
  800    1.74    0.34     26     0.38
  900    1.82    0.33     25     0.37
 1000    1.92    0.33     31     0.33
 1500    1.96    0.31     62     0.23
 2000    2.27    0.14    121     0.29
