! Philips part #:  PRF957                                    Date:  Nov 1998
! Bias condition:  Vce=6V, Ic=2mA
!
#  MHz  S  MA  R 50
! Freq        S11             S21              S12             S22
  100  0.91628 -17.97  6.46397 166.01 0.024546 79.573  0.97993 -7.602
  200  0.87528 -34.90  6.05788 153.73 0.046414 70.737  0.93661 -14.37
  300  0.82480 -50.95  5.67157 142.92 0.064179 63.313  0.88287 -19.91
  400  0.77559 -65.37  5.22032 133.50 0.077757 57.493  0.82870 -24.38
  500  0.73219 -77.99  4.77169 125.59 0.087865 53.260  0.78036 -27.85
  600  0.69317 -88.96  4.37386 118.72 0.095405 50.119  0.73991 -30.37
  700  0.65642 -98.29  3.99507 112.76  0.10088 47.992  0.70768 -32.25
  800  0.61992 -106.6  3.66812 107.38  0.10472 46.532  0.68048 -33.60
  900  0.58607 -114.1  3.35685 102.50  0.10738 45.832  0.65693 -34.65
 1000  0.55582 -121.4  3.09681 98.227  0.10978 45.687  0.63618 -35.56
 1200  0.51461 -135.3  2.68758 90.455  0.11372 46.278  0.60271 -37.50
 1400  0.49686 -147.1  2.40534 83.686  0.11726 47.946  0.58167 -39.89
 1600  0.48045 -155.9  2.15682 77.929  0.12160 51.104  0.57070 -42.25
 1800  0.45353 -164.2  1.94982 73.498  0.12762 54.816  0.56157 -44.16
 2000  0.43041 -174.3  1.78925 68.718  0.13394 58.633  0.54931 -46.25
 2200  0.43069 175.28  1.66068 64.102  0.14223 62.264  0.53702 -49.27
 2400  0.44376 167.63  1.53969 59.924  0.15391 65.628  0.53183 -52.95
 2600  0.44744 162.16  1.43303 56.338  0.16959 68.663  0.53304 -56.31
 2800  0.43553 156.20  1.37326 52.730  0.18315 71.518  0.53045 -59.08
 3000  0.42707 147.99  1.30861 49.220  0.20012 73.911  0.52128 -62.26
!  Noise data:
! Freq.  Fmin     Gamma-opt       rn
  500	0.93	0.48	39	0.25
  800	1.05	0.46	43	0.28
  900	1.1	0.48	65	0.26
 1000	1.31	0.45	71	0.26
 1500	1.34	0.44	112	0.22
 2000	1.86	0.39	168	0.12
