! Philips part #:  PRF957                                    Date:  Nov 1998
! Bias condition:  Vce=6V, Ic=10mA
!
#  MHz  S  MA  R 50
! Freq        S11             S21              S12             S22
  100  0.65951 -41.17 22.19535 149.74 0.020028 71.766  0.87500 -19.82
  200  0.53743 -72.88 17.29519 129.63 0.032672 63.220  0.70295 -30.35
  300  0.45583 -95.81 13.49497 117.00 0.041168 60.843  0.58300 -34.53
  400  0.41062 -112.2 10.85423 108.69 0.048254 61.210  0.50802 -36.04
  500  0.38421 -124.1  9.02098 102.78 0.055062 62.652  0.46260 -36.48
  600  0.36572 -132.8  7.69915 98.191 0.061934 64.264  0.43447 -36.46
  700  0.34886 -139.7  6.70158 94.448 0.068912 65.728  0.41699 -36.22
  800  0.33265 -145.7  5.92703 91.175 0.075898 67.085  0.40509 -35.80
  900  0.31771 -151.6  5.30055 88.255 0.083088 68.304  0.39545 -35.40
 1000  0.30695 -157.4  4.79945 85.653 0.090464 69.317  0.38683 -35.12
 1200  0.30030 -168.0  4.05085 80.890  0.10554 70.706  0.37109 -35.54
 1400  0.30405 -175.0  3.53343 76.584  0.12092 71.542  0.36136 -37.44
 1600  0.29676 -179.6  3.12630 72.669  0.13694 72.216  0.35942 -39.47
 1800  0.27718 174.19  2.80627 69.449  0.15365 72.497  0.35774 -40.71
 2000  0.26749 164.20  2.55499 65.920  0.16962 72.717  0.35009 -41.92
 2200  0.28334 154.96  2.36105 62.523  0.18581 72.647  0.33860 -44.43
 2400  0.30532 150.59  2.18505 59.436  0.20323 72.270  0.33242 -48.15
 2600  0.31140 148.57  2.03231 56.587  0.22240 71.748  0.33385 -51.49
 2800  0.29908 144.92  1.92914 53.605  0.23840 71.564  0.33305 -53.58
 3000  0.29090 137.17  1.83133 50.577  0.25579 71.338  0.32484 -55.71
!  Noise data:
! Freq.  Fmin     Gamma-opt       rn
  500	1.22	0.16	28	0.16
  800	1.4	0.19	81	0.16
  900	1.51	0.21	75	0.16
 1000	1.5	0.19	81	0.23
 1500	1.5	0.29	126	0.16
 2000	1.86	0.27	-165	0.15
