! Filename:        PRF947i.S2P                               Version:    3.0
! Philips part #:  PRF947                                    Date:  Nov 1998
! Bias condition:  Vce=3V, Ic=40mA
!
#  MHz  S  MA  R 50
! Freq       S11             S21             S12             S22    :
  100  0.36956 -108.0 21.96109 127.63 0.013421 63.646  0.62946 -19.84
  200  0.38452 -143.0 13.12533 109.52 0.020414 65.960  0.51371 -19.19
  300  0.39239 -158.1  9.17015 101.31 0.027116 69.988  0.47424 -17.75
  400  0.39683 -166.5  7.03457 96.256 0.034215 73.223  0.45730 -17.46
  500  0.39802 -172.1  5.70816 92.630 0.041541 75.419  0.44973 -17.96
  600  0.39569 -176.4  4.81745 89.704 0.048900 77.033  0.44688 -18.80
  700  0.39077 179.78  4.17212 87.159 0.056391 78.176  0.44693 -19.73
  800  0.38572 176.00  3.68997 84.824 0.063879 79.004  0.44736 -20.59
  900  0.38148 172.12  3.30595 82.538 0.071619 79.787  0.44694 -21.42
 1000  0.38030 168.30  2.99938 80.529 0.079370 80.254  0.44541 -22.29
 1200  0.38555 161.86  2.54507 76.664 0.095059 80.763  0.43905 -24.54
 1400  0.38990 157.42  2.23831 73.000  0.11080 80.891  0.43423 -27.63
 1600  0.38140 153.16  1.99173 69.320  0.12741 80.980  0.43404 -30.70
 1800  0.37019 146.74  1.79764 66.220  0.14477 80.543  0.43274 -33.06
 2000  0.37578 138.88  1.65615 62.764  0.16138 80.368  0.42547 -35.25
 2200  0.39907 133.17  1.54668 59.525  0.17817 80.023  0.41442 -38.31
 2400  0.41674 130.40  1.44135 56.622  0.19649 79.249  0.40755 -42.16
 2600  0.41603 127.97  1.34424 53.930  0.21643 78.178  0.40700 -45.70
 2800  0.40434 123.18  1.28275 51.039  0.23332 77.882  0.40441 -48.25
 3000  0.40688 116.06  1.22476 47.973  0.25212 77.430  0.39468 -50.79
