! Philips part #:  PRF957                                    Date:  Nov 1998
! Bias condition:  Vce=6V, Ic=0.5mA
!
#  MHz  S  MA  R 50
! Freq        S11             S21              S12             S22
  100  0.97719 -11.36  1.82871 170.81 0.025579 82.790  0.99567 -3.861
  200  0.96625 -22.43  1.74203 162.22 0.050263 76.424  0.98536 -7.556
  300  0.95240 -33.27  1.67826 154.12 0.073261 70.274  0.97196 -11.07
  400  0.93711 -43.88  1.63710 146.39 0.093812 64.539  0.95732 -14.43
  500  0.92130 -53.93  1.58701 139.24  0.11161 59.477  0.94044 -17.56
  600  0.90540 -63.31  1.53132 132.59  0.12657 54.762  0.92367 -20.35
  700  0.88578 -71.99  1.47301 126.23  0.13848 50.459  0.90756 -22.85
  800  0.86209 -80.10  1.41304 120.09  0.14745 46.396  0.89196 -25.07
  900  0.83350 -87.91  1.35174 114.02  0.15316 42.755  0.87584 -27.11
 1000  0.80497 -95.45  1.28858 108.59  0.15714 39.634  0.86036 -29.06
 1200  0.75766 -110.4  1.18504 98.366  0.16059 34.123  0.83161 -32.76
 1400  0.73202 -124.1  1.11524 89.373  0.15897 29.792  0.81213 -36.50
 1600  0.71213 -135.4  1.03641 81.800  0.15224 27.798  0.80098 -40.04
 1800  0.68113 -145.5  0.95749 76.204  0.14294 27.970  0.78941 -43.21
 2000  0.64647 -156.3  0.89408 70.217  0.13051 29.640  0.77624 -46.57
 2200  0.63042 -167.7  0.84065 64.562  0.11854 33.944  0.76519 -50.61
 2400  0.63179 -177.6  0.78503 59.639  0.11079 41.807  0.76200 -55.03
 2600  0.63020 174.16  0.73375 55.894  0.11033 52.920  0.76398 -59.13
 2800  0.61636 166.02  0.71301 52.469  0.11481 65.117  0.75942 -62.94
 3000  0.60575 156.80  0.68326 49.549  0.12960 75.849  0.74885 -67.28
!  Noise data:
! Freq.  Fmin     Gamma-opt       rn
  500	 0.96 	 0.75	  37	 0.72
  800	 1.21	 0.72	  57	 0.66
  900	 1.44	 0.63	  63	 0.62
 1000	 1.83	 0.61	  69	 0.62
 1500	 1.84	 0.61	 111	 0.39
 2000	 2.43	 0.59	 162	 0.11
