! Philips part #:  PRF957                                    Date:  Nov 1998
! Bias condition:  Vce=6V, Ic=5mA
!
#  MHz  S  MA  R 50
! Freq        S11             S21              S12             S22
  100  0.80425 -28.23 13.86565 158.38 0.022589 75.357  0.94005 -13.45
  200  0.71363 -52.96 12.08433 141.35 0.039637 65.214  0.83191 -23.23
  300  0.62634 -73.78 10.32904 128.35 0.051295 59.132  0.72799 -29.26
  400  0.56257 -90.26  8.76890 118.72 0.059453 56.120  0.64833 -32.79
  500  0.51751 -103.4  7.54215 111.46 0.065906 55.225  0.59147 -34.80
  600  0.48386 -113.7  6.57959 105.68 0.071571 55.321  0.55201 -35.89
  700  0.45580 -122.0  5.80182 100.94 0.076969 56.044  0.52460 -36.42
  800  0.42953 -129.2  5.18545 96.828 0.082016 57.056  0.50432 -36.59
  900  0.40606 -135.9  4.66166 93.167 0.087029 58.427  0.48770 -36.62
 1000  0.38705 -142.4  4.23877 89.941 0.092325 59.774  0.47366 -36.66
 1200  0.36736 -154.7  3.60039 84.135  0.10345 62.129  0.45050 -37.41
 1400  0.36403 -163.9  3.16373 78.976  0.11537 64.172  0.43644 -39.24
 1600  0.35397 -170.3  2.80744 74.443  0.12831 66.207  0.43118 -41.20
 1800  0.33231 -177.2  2.52066 70.811  0.14231 67.860  0.42677 -42.56
 2000  0.31780 172.85  2.30145 66.870  0.15600 69.236  0.41753 -44.02
 2200  0.32802 163.00  2.12846 63.059  0.17023 70.217  0.40581 -46.65
 2400  0.34790 157.20  1.97078 59.607  0.18639 70.798  0.40002 -50.23
 2600  0.35365 153.83  1.83312 56.483  0.20483 71.164  0.40152 -53.44
 2800  0.34186 149.33  1.74512 53.258  0.22012 71.748  0.40004 -55.73
 3000  0.33352 141.55  1.65856 50.058  0.23738 72.187  0.39165 -58.23
!  Noise data:
! Freq.  Fmin     Gamma-opt       rn
  500	0.97	0.33	28	0.19
  800	1.17	0.28	64	0.21
  900	1.2	0.34	52	0.22
 1000	1.26	0.24	74	0.26
 1500	1.31	0.32	113	0.18
 2000	1.71	0.29	178	0.14
