! Philips part #:  PRF949                                    Date:  Dec 1999
! Bias condition:  Vce=6V, Ic=2mA
!
#  MHz  S  MA  R 50
! Freq       S11             S21             S12             S22    :
  100  0.92669 -13.39  6.38537 168.10 0.017652 81.988  0.98606 -5.564
  200  0.89060 -26.16  6.07261 157.48 0.033986 75.185  0.95670 -10.62
  300  0.84246 -38.45  5.78449 147.96 0.048210 69.388  0.91935 -14.90
  400  0.79095 -49.82  5.42848 139.43 0.059939 64.627  0.87974 -18.54
  500  0.74092 -59.98  5.03908 132.13 0.069409 61.202  0.84103 -21.47
  600  0.69291 -69.10  4.68915 125.61 0.077104 58.626  0.80778 -23.66
  700  0.64659 -76.98  4.33316 119.82 0.083127 56.794  0.77988 -25.31
  800  0.59943 -84.04  4.01724 114.47 0.088071 55.478  0.75570 -26.54
  900  0.55413 -90.50  3.70708 109.53 0.091869 54.733  0.73368 -27.48
 1000  0.51176 -96.84  3.43807 105.19 0.095363 54.469  0.71413 -28.28
 1200  0.44543 -109.8  3.01592 97.339  0.10202 54.626  0.68146 -29.86
 1400  0.40647 -121.8  2.72336 90.724  0.10848 55.568  0.66035 -31.73
 1600  0.37665 -130.7  2.44534 85.132  0.11493 57.618  0.64901 -33.52
 1800  0.33595 -138.4  2.20070 80.775  0.12188 60.047  0.63951 -34.84
 2000  0.29323 -149.3  2.01821 75.885  0.12893 62.313  0.62772 -36.23
 2200  0.27530 -163.5  1.87804 71.129  0.13706 64.499  0.61541 -38.32
 2400  0.28150 -174.8  1.74787 66.894  0.14714 66.711  0.60938 -40.97
 2600  0.28431 178.27  1.62814 63.314  0.15925 68.950  0.61045 -43.37
 2800  0.26996 171.67  1.56080 60.098  0.16963 70.944  0.60880 -45.22
 3000  0.25368 160.91  1.48442 56.634  0.18193 72.819  0.60130 -47.28
!  Noise data:
! Freq.  Fmin     Gamma-opt       rn
  500    0.97    0.57     20     0.43
  800    1.18    0.61     29     0.43
  900    1.25    0.55     33     0.46
 1000    1.43    0.49     39     0.40
 1500    1.58    0.39     71     0.35
 2000    1.99    0.28    115     0.25
