! Filename:        PRF947F.S2P                               Version:    3.0
! Philips part #:  PRF947                                    Date:  Nov 1998
! Bias condition:  Vce=3V, Ic=15mA
!
#  MHz  S  MA  R 50
! Freq       S11             S21             S12             S22    :
  100  0.56464 -41.11 26.11949 147.02 0.014469 73.378  0.86403 -17.09
  200  0.43084 -70.45 19.51781 126.59 0.023793 67.950  0.70564 -23.92
  300  0.34560 -91.01 14.87858 114.65 0.030939 67.574  0.60895 -25.33
  400  0.29826 -106.1 11.83148 107.01 0.037742 68.979  0.55469 -25.24
  500  0.27017 -117.1  9.76243 101.67 0.044515 70.678  0.52406 -24.94
  600  0.25057 -125.3  8.29618 97.583 0.051330 72.135  0.50695 -24.72
  700  0.23305 -131.6  7.19766 94.211 0.058246 73.342  0.49752 -24.56
  800  0.21631 -137.3  6.35117 91.269 0.065056 74.303  0.49200 -24.40
  900  0.20056 -143.3  5.66806 88.556 0.072106 75.117  0.48733 -24.29
 1000  0.18871 -149.9  5.12255 86.207 0.079124 75.664  0.48220 -24.32
 1200  0.18095 -162.7  4.31967 81.835 0.093377 76.390  0.47288 -25.04
 1400  0.18487 -170.7  3.77154 78.060  0.10786 76.693  0.46680 -26.87
 1600  0.17781 -174.8  3.32685 74.529  0.12272 76.979  0.46705 -28.86
 1800  0.15777 177.77  2.96514 71.618  0.13757 76.926  0.46748 -30.20
 2000  0.14894 162.95  2.69573 68.262  0.15215 76.815  0.46221 -31.42
 2200  0.16833 149.87  2.49366 64.973  0.16690 76.586  0.45255 -33.46
 2400  0.19254 145.84  2.30957 62.049  0.18247 76.151  0.44720 -36.41
 2600  0.19927 145.01  2.14222 59.450  0.19913 75.688  0.44927 -39.16
 2800  0.18793 140.87  2.03353 56.955  0.21350 75.484  0.45015 -40.95
 3000  0.18362 130.12  1.92563 54.117  0.22899 75.214  0.44390 -42.67
