! Philips part #:  PRF949                                    Date:  Dec 1999
! Bias condition:  Vce=3V, Ic=20mA
!
#  MHz  S  MA  R 50
! Freq       S11             S21             S12             S22    :
  100  0.48534 -49.28 28.48687 142.78 0.013702 72.439  0.82759 -18.61
  200  0.36318 -81.77 20.19245 122.20 0.022198 68.462  0.66244 -24.14
  300  0.29759 -103.5 15.00414 111.01 0.029138 69.468  0.57408 -24.41
  400  0.26554 -118.6 11.78406 103.99 0.036020 71.261  0.52809 -23.82
  500  0.24797 -129.3  9.66095 99.111 0.043072 73.022  0.50379 -23.40
  600  0.23510 -136.8  8.17947 95.371 0.050117 74.443  0.49086 -23.18
  700  0.22230 -142.7  7.07923 92.259 0.057229 75.493  0.48465 -23.12
  800  0.20964 -148.1  6.23947 89.525 0.064273 76.309  0.48119 -23.07
  900  0.19778 -154.0  5.56270 86.971 0.071478 77.022  0.47808 -23.10
 1000  0.18941 -160.4  5.02578 84.713 0.078703 77.456  0.47481 -23.22
 1200  0.18744 -171.9  4.23364 80.557 0.093340 77.934  0.46664 -24.18
 1400  0.19369 -178.6  3.69492 76.924  0.10806 78.086  0.46147 -26.17
 1600  0.18729 177.73  3.25822 73.484  0.12316 78.183  0.46225 -28.30
 1800  0.16929 170.28  2.90397 70.653  0.13823 77.961  0.46294 -29.79
 2000  0.16443 156.55  2.64310 67.334  0.15310 77.805  0.45800 -31.12
 2200  0.18628 145.53  2.44335 64.103  0.16808 77.490  0.44847 -33.26
 2400  0.21032 142.25  2.26307 61.233  0.18391 76.987  0.44308 -36.31
 2600  0.21627 141.49  2.09916 58.664  0.20089 76.419  0.44503 -39.16
 2800  0.20507 137.37  1.99143 56.184  0.21540 76.155  0.44564 -41.05
 3000  0.20183 127.32  1.88639 53.343  0.23130 75.841  0.43941 -42.84
