! Philips part #:  PRF949                                    Date:  Dec 1999
! Bias condition:  Vce=3V, Ic=10mA
!
#  MHz  S  MA  R 50
! Freq       S11             S21             S12             S22    :
  100  0.67068 -32.78 21.52606 152.54 0.015625 74.954  0.90548 -14.54
  200  0.54159 -58.54 17.32367 133.20 0.026372 67.675  0.76957 -22.38
  300  0.43971 -77.90 13.82185 120.49 0.034274 65.380  0.66947 -25.35
  400  0.37419 -92.55 11.25682 111.95 0.040925 65.581  0.60532 -26.29
  500  0.33175 -103.8  9.41095 105.88 0.047394 66.772  0.56628 -26.49
  600  0.30148 -112.4  8.06246 101.23 0.053721 68.160  0.54237 -26.45
  700  0.27611 -119.2  7.02940 97.409 0.060164 69.420  0.52796 -26.34
  800  0.25273 -125.1  6.22385 94.089 0.066594 70.571  0.51856 -26.13
  900  0.23122 -131.1  5.56517 91.066 0.073076 71.599  0.51078 -25.98
 1000  0.21362 -137.6  5.03798 88.450 0.079680 72.474  0.50402 -25.92
 1200  0.19641 -151.1  4.25509 83.682 0.093177 73.584  0.49111 -26.51
 1400  0.19553 -160.7  3.72494 79.586  0.10703 74.317  0.48328 -28.15
 1600  0.18656 -165.8  3.28848 75.860  0.12128 74.964  0.48246 -29.96
 1800  0.16380 -173.0  2.93251 72.802  0.13560 75.224  0.48186 -31.18
 2000  0.14932 171.99  2.66548 69.293  0.14971 75.401  0.47596 -32.31
 2200  0.16437 157.09  2.46604 65.866  0.16400 75.382  0.46606 -34.30
 2400  0.18770 151.40  2.28495 62.824  0.17927 75.141  0.46073 -37.16
 2600  0.19521 149.87  2.12021 60.127  0.19555 74.891  0.46273 -39.82
 2800  0.18382 145.59  2.01413 57.579  0.20972 74.811  0.46333 -41.56
 3000  0.17760 134.36  1.90768 54.685  0.22476 74.671  0.45706 -43.25
