! Filename:  P:\Prog\Test\Noise\ATS_data\Testdata_Net\BFU710\BFU710_2W_A1_1.5V5mA_D.s2p
! Date/Time: Fri 29/Apr/2011 13:25:44
! BFU710_2W_A1_1.5V5mA
! bias mode 1: Vout= 1.5002 V, Iout= 4.9950 mA, Vin= 0.8248 V, Iin= 0.0173 mA
! Date/time Wed Mar 16 12:41:21 2011
! Device data file deembeded for feedlines and parallel
! Original file: \BFU710\BFU710_2W_A1_1.5V5mA_R.s2p
! Feed-files: PR003V01_101208_Feed1.s2p, PR003V01_101208_Feed2.s2p
! Parallel-file: PR003V01_101208_Par.s2p
# MHz S MA R 50
!  Freq-MHz   S11-mag  S11-arg   S21-mag  S21-arg   S12-mag  S12-arg   S22-mag  S22-arg
         40   0.94723    -1.08    13.734   178.96 0.00058158    89.44   0.99838    -0.29
         50   0.94294    -1.75    13.781   178.31 0.0010204    60.96   0.99873    -0.51
         60   0.94553    -1.38    13.617   178.19 0.00069234    82.90   0.99938    -0.60
         70   0.94748    -1.78    13.649   178.32 0.00099139    90.25   0.99957    -0.78
         80   0.94675    -2.07    13.746   178.04 0.0011411    89.07   0.99977    -0.94
         90   0.94709    -2.36    13.749   177.61 0.0013126    87.78   0.99967    -1.11
        100   0.94731    -2.58    13.686   177.48 0.0014433    88.54   0.99956    -1.26
        120   0.94674    -3.19    13.723   177.00 0.0017423    88.84    0.9998    -1.57
        140   0.94656    -3.70    13.716   176.52 0.0020723    89.81   0.99993    -1.89
        160   0.94655    -4.23    13.677   175.97 0.0023728    89.20   0.99965    -2.18
        180   0.94658    -4.78    13.691   175.56 0.0026626    89.25    0.9997    -2.48
        200   0.94588    -5.35    13.699   174.95 0.0029538    89.03   0.99952    -2.78
        220   0.94554    -5.89    13.715   174.48 0.0032832    89.20   0.99936    -3.09
        240   0.94471    -6.43    13.763   173.88 0.0035838    88.47   0.99923    -3.40
        260   0.94447    -6.97    13.717   173.36 0.0038846    88.66   0.99893    -3.69
        280    0.9443    -7.53    13.725   172.84 0.0041759    88.34   0.99884    -3.99
        300   0.94405    -8.08    13.712   172.32 0.0045062    88.18   0.99867    -4.30
        320   0.94294    -8.59    13.658   171.81 0.0048367    87.62   0.99827    -4.60
        340   0.94261    -9.14    13.674   171.28 0.0051382    87.28   0.99777    -4.90
        360   0.94252    -9.67    13.633   170.83 0.0054498    86.80   0.99731    -5.19
        380   0.94149   -10.23    13.641   170.30 0.0057708    86.43   0.99688    -5.50
        400   0.94064   -10.74    13.668   169.79 0.0060932    86.25   0.99614    -5.79
        420   0.94005   -11.33    13.705   169.23 0.0063959    85.62   0.99597    -6.07
        440   0.93924   -11.82    13.661   168.76  0.006727    85.45   0.99545    -6.38
        460   0.93806   -12.40    13.675   168.24 0.0070194    84.95   0.99476    -6.67
        480    0.9374   -12.95    13.648   167.73 0.0073511    84.65   0.99458    -6.99
        500   0.93646   -13.49    13.578   167.19 0.0076537    84.34    0.9936    -7.30
        550   0.93431   -14.83    13.604   165.89 0.0084209    83.37   0.99149    -8.01
        600   0.93092   -16.20    13.624   164.61 0.0091993    82.45   0.98971    -8.73
        650   0.92884   -17.49    13.526   163.33 0.0099795    81.61   0.98757    -9.49
        700   0.92572   -18.79    13.408   162.10  0.010718    80.46   0.98527   -10.24
        750   0.92288   -20.15    13.401   160.87  0.011491    79.66   0.98244   -10.95
        800   0.91916   -21.53    13.441   159.68  0.012265    78.77   0.98029   -11.62
        850   0.91552   -22.86    13.375   158.42  0.013031    77.85   0.97794   -12.33
        900   0.91226   -24.09    13.242   157.20  0.013737    76.88   0.97466   -13.06
        950   0.90862   -25.42    13.205   156.06  0.014456    76.05   0.97141   -13.74
       1000   0.90436   -26.74    13.208   154.82  0.015199    75.23   0.96863   -14.43
       1050   0.89991   -28.00    13.138   153.63   0.01591    74.28   0.96549   -15.11
       1100   0.89608   -29.25    13.035   152.50  0.016593    73.45   0.96177   -15.82
       1150   0.89127   -30.57    13.012   151.27  0.017274    72.66   0.95807   -16.46
       1200   0.88627   -31.84    12.962   150.13  0.017943    71.82   0.95493   -17.09
       1250   0.88201   -33.09    12.874   148.95  0.018653    70.97   0.95151   -17.81
       1300   0.87752   -34.32     12.78   147.81  0.019301    70.13   0.94751   -18.46
       1350   0.87234   -35.62    12.752   146.66   0.01993    69.38   0.94334   -19.11
       1400   0.86722   -36.91     12.71   145.52  0.020573    68.55   0.93945   -19.74
       1450   0.86225   -38.15    12.632   144.40  0.021204    67.80   0.93568   -20.38
       1500   0.85723   -39.37    12.554   143.30    0.0218    66.96    0.9315   -21.02
       1550   0.85189   -40.57    12.496   142.15  0.022395    66.31   0.92775   -21.58
       1600   0.84652   -41.78    12.435   141.06  0.023025    65.61   0.92409   -22.18
       1650   0.84104   -43.02    12.338   139.97  0.023585    64.83   0.91947   -22.81
       1700   0.83618   -44.15    12.258   138.89  0.024128    64.08   0.91493   -23.40
       1750   0.83061   -45.37    12.198   137.78   0.02468    63.46   0.91069   -24.01
       1800     0.825   -46.60    12.123   136.70  0.025276    62.70   0.90698   -24.61
       1850   0.81928   -47.81     12.04   135.62  0.025801    61.97    0.9023   -25.20
       1900   0.81334   -49.03    11.983   134.51  0.026307    61.37   0.89828   -25.77
       1950   0.80798   -50.14    11.883   133.50  0.026846    60.80   0.89441   -26.37
       2000   0.80221   -51.27     11.79   132.43  0.027361    60.14   0.88995   -27.00
       2050   0.79588   -52.42    11.712   131.41  0.027887    59.57   0.88508   -27.57
       2100   0.79037   -53.57    11.633   130.39  0.028395    58.96   0.88018   -28.12
       2150   0.78498   -54.72     11.56   129.43  0.028919    58.35   0.87494   -28.68
       2200   0.77879   -55.80    11.476   128.44  0.029362    57.68   0.87028   -29.16
       2250   0.77252   -56.94      11.4   127.39   0.02983    57.14   0.86615   -29.74
       2300   0.76634   -58.09    11.311   126.40  0.030372    56.60   0.86175   -30.33
       2350    0.7608   -59.19    11.191   125.52    0.0309    56.02   0.85542   -30.95
       2400   0.75433   -60.32    11.113   124.57  0.031357    55.35   0.84868   -31.40
       2450   0.74713   -61.41    11.037   123.63  0.031902    54.74   0.84358   -31.84
       2500   0.74047   -62.40    10.951   122.74  0.032365    53.90   0.83878   -32.31
       2600   0.72883   -64.46     10.78   120.96  0.033129    52.59   0.82872   -33.23
       2700   0.71647   -66.54    10.631   119.15  0.033868    51.32   0.81942   -34.05
       2800    0.7056   -68.54    10.468   117.42  0.034474    50.09   0.80944   -34.85
       2900   0.69318   -70.54    10.299   115.71  0.035061    48.99   0.80077   -35.57
       3000   0.68148   -72.40    10.163   114.05  0.035603    48.09   0.79373   -36.31
       3100   0.67277   -74.27    10.011   112.41  0.036093    47.20    0.7869   -37.15
       3200   0.66218   -76.10    9.8592   110.81  0.036662    46.39   0.77861   -37.92
       3300   0.65191   -78.11    9.7224   109.18  0.037209    45.59   0.77091   -38.79
       3400   0.64103   -79.90    9.5873   107.55  0.037742    44.92    0.7637   -39.59
       3500   0.63147   -81.68    9.4455   106.04  0.038285    44.19   0.75584   -40.30
       3600   0.62127   -83.58    9.3109   104.48  0.038778    43.50   0.74816   -40.98
       3700   0.61245   -85.29    9.1682   102.98  0.039227    42.74   0.74109   -41.71
       3800   0.60194   -87.18    9.0528   101.42  0.039754    42.12    0.7345   -42.44
       3900    0.5926   -88.84    8.9184    99.93  0.040223    41.56   0.72769   -43.12
       4000   0.58305   -90.65    8.7934    98.45   0.04075    40.86   0.72053   -43.85
       4100   0.57411   -92.35    8.6573    97.03  0.041135    40.23   0.71307   -44.47
       4200   0.56521   -94.00    8.5396    95.64  0.041552    39.61   0.70693   -45.12
       4300   0.55726   -95.62    8.4205    94.25  0.041952    39.03   0.70121   -45.78
       4400   0.54833   -97.37    8.3092    92.78  0.042399    38.50   0.69581   -46.43
       4500     0.541   -98.97    8.1835    91.47  0.042742    37.95   0.68945   -47.08
       4600    0.5324  -100.64    8.0682    90.15  0.043074    37.40    0.6831   -47.72
       4700   0.52566  -102.25    7.9569    88.84  0.043403    36.89   0.67693   -48.35
       4800   0.51621  -103.97    7.8461    87.42  0.043786    36.29   0.67157   -49.06
       4900   0.50891  -105.58    7.7405    86.14  0.044116    35.84   0.66593   -49.59
       5000   0.50114  -107.12    7.6362    84.90  0.044468    35.46   0.65982   -50.13
       5200   0.48641  -110.26    7.4283    82.26  0.045014    34.55   0.64965   -51.43
       5400   0.47269  -113.32    7.2331    79.90  0.045567    33.73   0.63989   -52.45
       5600   0.45903  -116.36    7.0463    77.43  0.046029    33.00   0.62949   -53.76
       5800    0.4463  -119.37    6.8629    75.08  0.046525    32.32   0.62091   -54.77
       6000   0.43562  -122.26    6.6948    72.78  0.046945    31.79   0.61206   -55.99
       6200   0.42564  -125.14     6.533    70.52  0.047452    31.35    0.6042   -57.09
       6400   0.41594  -128.13    6.3789    68.28  0.047967    30.82   0.59528   -58.20
       6600   0.40371  -130.98     6.224    66.08  0.048283    30.40   0.58743   -59.17
       6800   0.39561  -133.71    6.0886    64.05  0.048829    30.10   0.58196   -60.27
       7000   0.38637  -136.42    5.9511    61.85   0.04933    29.84   0.57303   -61.50
       7200    0.3803  -138.96    5.8245    59.90   0.04978    29.74   0.56749   -62.46
       7400   0.37305  -142.06    5.7077    57.70  0.050276    29.51    0.5612   -63.51
       7600   0.36718  -144.70    5.5931    55.71  0.051086    29.25   0.55631   -64.74
       7800    0.3603  -147.71    5.4753    53.64  0.051428    29.16   0.54886   -65.85
       8000   0.35195  -149.91    5.3716    51.92  0.052039    29.29   0.54535   -66.71
       8200   0.34938  -152.70    5.2828    49.78  0.053054    29.23   0.54096   -68.29
       8400   0.34383  -155.74    5.1808    47.83  0.053949    28.83   0.53414   -69.32
       8600   0.33721  -158.22    5.0838    45.99  0.053863    28.83   0.53046   -70.14
       8800   0.33291  -161.22    4.9986    43.74  0.055217    28.78   0.52539   -71.87
       9000   0.33011  -163.30    4.9163    42.06  0.056331    29.10   0.52411   -73.20
       9200   0.32944  -166.56    4.8472    39.85  0.057783    28.87    0.5194   -74.98
       9400   0.32198  -169.81    4.7415    37.69  0.058336    27.93   0.51065   -76.44
       9600   0.31669  -172.19    4.6409    36.20  0.059055    28.21   0.50277   -77.32
       9800   0.31045  -174.69    4.5737    34.42  0.059571    27.90   0.49897   -78.36
      10000   0.31008  -176.27    4.5014    32.84  0.060753    28.06   0.49484   -79.46
      10200   0.31049  -179.27    4.4646    30.82   0.06211    27.83   0.49146   -81.23
      10400    0.3119   177.65    4.4076    28.55  0.063946    27.40   0.49064   -83.13
      10600   0.30598   174.82    4.3177    26.55  0.064764    26.43   0.47824   -84.79
      10800   0.30314   172.03     4.242    24.57  0.065546    25.78    0.4738   -86.19
      11000   0.29367   170.72    4.1538    23.31  0.064166    26.09   0.46386   -86.47
      11200   0.30429   168.27    4.1445    21.36  0.067657    27.26   0.46961   -88.48
      11400   0.30311   165.34    4.0666    19.40  0.069122    26.43   0.46474   -90.01
      11600    0.3031   162.47     4.026    17.64  0.071155    26.10   0.46162   -92.14
      11800     0.303   159.85    3.9593    15.67  0.072048    25.31   0.45425   -93.37
      12000   0.29821   157.15    3.8826    14.00  0.072878    24.45   0.44496   -95.56
      12200   0.30141   155.59    3.8478    12.44  0.074417    25.22   0.43994   -96.44
      12400   0.30135   152.25    3.7928    10.47  0.076744    23.59   0.43267   -98.24
      12600    0.2966   149.98    3.7394     9.24  0.076338    23.47   0.42565   -97.77
      12800   0.30136   148.63    3.7181     7.71  0.078179    24.22   0.42973   -98.38
      13000   0.30434   145.99    3.7118     5.58   0.08128    23.68   0.43483  -101.75
      13200   0.30139   144.36    3.6636     3.96  0.080652    23.49   0.43476  -102.60
      13400   0.30955   141.90    3.6128     1.81   0.08515    22.57   0.42754  -106.73
      13600   0.31337   139.28    3.5969    -0.07  0.086356    22.02   0.42247  -108.50
      13800   0.31479   137.00    3.5337    -2.15  0.088861    21.23   0.41426  -110.62
      14000   0.31731   133.64    3.4899    -3.69  0.090425    20.39   0.40391  -112.24
      14200   0.31792   132.22    3.4526    -5.15  0.091866    20.34   0.39946  -112.84
      14400   0.31729   129.69    3.4405    -6.67  0.094146    19.73   0.39591  -114.81
      14600   0.32474   127.27    3.4188    -8.79  0.097349    18.97   0.39448  -116.48
      14800    0.3215   124.29    3.3715   -10.64  0.099017    17.23   0.38624  -119.44
      15000   0.32567   122.70    3.3709   -12.37   0.10012    16.74   0.38964  -120.57
      15200   0.32747   120.97    3.3203   -14.39    0.1021    15.90   0.38633  -123.50
      15400    0.3364   119.19    3.3253   -15.93   0.10456    15.92   0.38654  -125.15
      15600   0.34273   117.40    3.2793   -18.26   0.10718    14.88   0.38397  -127.48
      15800   0.34771   115.25    3.2677   -19.91   0.10942    14.31   0.38429  -130.15
      16000   0.35716   112.64    3.2222   -22.13   0.11244    13.09   0.37653  -132.91
      16200    0.3642   110.59    3.2018   -23.80   0.11495    12.42   0.37332  -135.14
      16400   0.37022   107.54    3.1756   -25.98   0.11795    11.19   0.37122  -137.42
      16600   0.36773   105.93    3.1328   -27.34   0.12013     9.80   0.36691  -139.95
      16800   0.37159   104.09    3.1238   -28.98   0.12173     9.32   0.36403  -141.33
      17000   0.37662   101.84    3.1105   -31.04   0.12523     8.27   0.36517  -145.04
      17200   0.37918    99.88    3.0857   -32.67    0.1276     7.50   0.35647  -146.82
      17400   0.38818    97.12    3.0943   -35.20   0.13163     6.57   0.36068  -149.87
      17600    0.3899    95.28    3.0666   -37.15   0.13477     5.41   0.35714  -151.46
      17800   0.39419    93.83    3.0561   -39.06   0.13773     4.22   0.35823  -154.64
      18000    0.4085    91.69    3.0283   -41.73   0.14239     2.66   0.36699  -157.46
      18200   0.41068    88.61     2.989   -44.02   0.14469     0.67   0.36503  -161.74
      18400    0.4181    86.80    2.9419   -45.95   0.14667    -0.37   0.36177  -165.10
      18600   0.42108    84.84    2.8962   -47.25   0.14951    -1.60   0.35481  -168.60
      18800   0.42695    82.78    2.8793   -49.41   0.15269    -2.86   0.35444  -172.22
      19000   0.42939    81.21    2.8731   -50.66   0.15493    -4.08   0.34918  -174.68
      19200   0.43769    79.35    2.8742   -52.87   0.15909    -4.97   0.34999  -176.76
      19400   0.45543    76.90    2.8661   -55.52    0.1647    -6.48   0.35696   179.92
      19600   0.46168    73.54    2.8323   -58.10   0.16748    -8.75    0.3611   176.25
      19800   0.47051    71.38    2.7946   -59.76   0.17043   -10.03   0.35907   172.20
      20000    0.4728    68.47    2.7738   -61.77   0.17432   -11.50   0.35604   169.87