! Filename:  P:\Prog\Test\Noise\ATS_data\Testdata_Net\BFU710\BFU710_2W_A1_1.5V10mA_D.s2p
! Date/Time: Fri 29/Apr/2011 13:25:53
! BFU710_2W_A1_1.5V10mA
! bias mode 1: Vout= 1.5000 V, Iout=10.0200 mA, Vin= 0.8412 V, Iin= 0.0384 mA
! Date/time Wed Mar 16 12:36:49 2011
! Device data file deembeded for feedlines and parallel
! Original file: \BFU710\BFU710_2W_A1_1.5V10mA_R.s2p
! Feed-files: PR003V01_101208_Feed1.s2p, PR003V01_101208_Feed2.s2p
! Parallel-file: PR003V01_101208_Par.s2p
# MHz S MA R 50
!  Freq-MHz   S11-mag  S11-arg   S21-mag  S21-arg   S12-mag  S12-arg   S22-mag  S22-arg
         40   0.89687    -1.60     22.42   178.64 0.0006228    89.14   0.99582     0.11
         50   0.89964    -2.32    22.501   177.84 0.0010954    66.89   0.99681    -0.28
         60   0.89447    -2.46    22.183   177.64 0.00075413    80.97   0.99825    -0.47
         70   0.89655    -2.81    22.247   177.65 0.0010127    88.95   0.99868    -0.76
         80   0.89648    -3.21    22.465   177.24 0.0011621    88.96   0.99905    -1.00
         90   0.89648    -3.62    22.486   176.69 0.0013132    88.07   0.99897    -1.26
        100   0.89576    -3.98    22.381   176.43 0.0014747    87.12   0.99892    -1.48
        120   0.89536    -4.89    22.434   175.69 0.0017434    87.67   0.99911    -1.92
        140   0.89505    -5.67    22.444   174.98 0.0020532    89.13   0.99924    -2.37
        160   0.89405    -6.50    22.341   174.14 0.0023245    88.24   0.99866    -2.77
        180   0.89456    -7.28    22.398   173.53 0.0026244    87.64   0.99841    -3.18
        200   0.89341    -8.12    22.407   172.67  0.002916    87.59   0.99802    -3.59
        220   0.89237    -8.92    22.427   171.96 0.0032352    87.59   0.99738    -4.00
        240   0.89108    -9.69    22.504   171.16 0.0035362    87.02   0.99685    -4.41
        260   0.89049   -10.53    22.391   170.37 0.0037875    86.87   0.99622    -4.80
        280   0.88899   -11.35    22.382   169.64 0.0041292    86.59   0.99563    -5.20
        300   0.88806   -12.18     22.34   168.87 0.0044497    85.80   0.99482    -5.60
        320   0.88566   -13.06    22.187   168.09  0.004741    85.63    0.9939    -5.99
        340   0.88466   -13.78    22.235   167.37 0.0050131    85.13   0.99281    -6.39
        360   0.88319   -14.61    22.132   166.69 0.0053155    84.82   0.99164    -6.77
        380   0.88138   -15.44    22.113   165.92  0.005657    84.28    0.9906    -7.17
        400   0.87957   -16.16    22.168   165.25 0.0059601    83.95   0.98901    -7.54
        420   0.87807   -16.91    22.208   164.53 0.0062239    83.41   0.98817    -7.91
        440   0.87636   -17.67    22.101   163.82 0.0065358    82.88   0.98689    -8.31
        460   0.87453   -18.45      22.1   163.13 0.0068694    82.48    0.9854    -8.68
        480   0.87261   -19.20    22.043   162.43 0.0071317    81.98   0.98442    -9.09
        500   0.86909   -20.15    21.851   161.57 0.0074361    81.53    0.9824    -9.49
        550   0.86509   -21.96     21.85   159.84 0.0081254    80.32   0.97746   -10.37
        600   0.85939   -23.73     21.82   158.21 0.0088562    79.21   0.97327   -11.27
        650   0.85307   -25.62    21.561   156.46 0.0095799    78.03    0.9686   -12.20
        700   0.84571   -27.65    21.258   154.70  0.010272    76.97   0.96335   -13.12
        750   0.83972   -29.41    21.173   153.13  0.010938    75.87   0.95761   -13.96
        800   0.83341   -31.09    21.129   151.63  0.011624    74.75   0.95249   -14.74
        850   0.82636   -32.93    20.919   149.97  0.012274    73.73   0.94727   -15.58
        900   0.81806   -34.80    20.615   148.33  0.012903    72.70   0.94068   -16.44
        950   0.81124   -36.48     20.48   146.88  0.013546    71.72   0.93428   -17.21
       1000   0.80385   -38.06    20.356   145.38   0.01416    70.78    0.9284   -17.97
       1050   0.79463   -39.82    20.119   143.84  0.014763    69.79   0.92225   -18.73
       1100   0.78723   -41.50    19.878   142.38  0.015319    68.87   0.91539   -19.49
       1150   0.77878   -43.10    19.744   140.92  0.015891    68.02   0.90855   -20.18
       1200   0.77057   -44.66     19.55   139.57    0.0164    67.09   0.90244   -20.84
       1250    0.7619   -46.37    19.288   138.09  0.016969    66.25   0.89597   -21.59
       1300   0.75365   -47.96    19.065   136.69  0.017477    65.46   0.88901   -22.26
       1350   0.74538   -49.44    18.908   135.37  0.017976    64.71   0.88204   -22.90
       1400   0.73691   -50.98    18.728   134.03  0.018445    63.87   0.87536   -23.53
       1450   0.72806   -52.50    18.506   132.71  0.018913    63.15   0.86886   -24.15
       1500   0.71961   -53.99    18.287   131.40  0.019396    62.38   0.86203   -24.76
       1550    0.7116   -55.48    18.082   130.10  0.019838    61.74   0.85585   -25.29
       1600   0.70382   -56.82    17.883   128.91  0.020261    61.05   0.84987   -25.84
       1650   0.69498   -58.28    17.661   127.64  0.020693    60.33   0.84299   -26.42
       1700   0.68681   -59.70    17.455   126.40   0.02109    59.69   0.83634   -26.96
       1750    0.6787   -61.02    17.255   125.21  0.021505    59.11   0.83001   -27.51
       1800   0.67011   -62.51    17.038   123.99  0.021903    58.56   0.82418   -28.04
       1850    0.6616   -63.93     16.83   122.79  0.022255    57.90   0.81765   -28.56
       1900   0.65377   -65.19    16.644   121.64   0.02261    57.46   0.81201   -29.06
       1950   0.64578   -66.52     16.42   120.50  0.022978    56.93   0.80649   -29.58
       2000   0.63793   -67.83      16.2   119.38  0.023321    56.45   0.80028   -30.14
       2050   0.62987   -69.04    15.998   118.34  0.023675    56.04   0.79371   -30.62
       2100   0.62281   -70.29    15.803   117.29  0.024037    55.49   0.78741   -31.06
       2150     0.616   -71.53    15.615   116.30  0.024405    55.09   0.78068   -31.52
       2200   0.60789   -72.73    15.424   115.28  0.024693    54.62   0.77509   -31.86
       2250   0.60039   -74.01    15.231   114.21  0.025014    54.20   0.76995   -32.36
       2300   0.59313   -75.23    15.023   113.22  0.025335    53.82   0.76412   -32.86
       2350   0.58612   -76.52    14.806   112.27  0.025715    53.46   0.75654   -33.38
       2400   0.57851   -77.74    14.629   111.34  0.026047    52.99   0.74892   -33.68
       2450   0.57052   -78.88    14.449   110.47  0.026405    52.63   0.74293   -33.97
       2500   0.56231   -79.99    14.278   109.58  0.026729    51.95   0.73747   -34.28
       2600   0.54937   -82.13    13.929   107.84  0.027244    51.16    0.7265   -34.92
       2700   0.53628   -84.32    13.603   106.12  0.027726    50.31   0.71652   -35.43
       2800   0.52414   -86.42    13.294   104.47  0.028174    49.52    0.7066   -35.92
       2900   0.51155   -88.50    12.982   102.87  0.028565    48.94   0.69829   -36.32
       3000   0.50025   -90.36    12.714   101.34  0.028973    48.41   0.69205   -36.80
       3100   0.49035   -92.30     12.44    99.74  0.029303    47.97   0.68597   -37.39
       3200   0.48051   -94.20    12.169    98.24  0.029738    47.63   0.67826   -37.91
       3300   0.47077   -96.21    11.917    96.76  0.030171    47.24   0.67129   -38.53
       3400   0.46059   -98.03    11.675    95.26  0.030591    46.95   0.66498   -39.13
       3500   0.45206   -99.86    11.442    93.85  0.031046    46.66   0.65828   -39.60
       3600    0.4429  -101.81    11.205    92.44  0.031449    46.41    0.6518   -40.05
       3700   0.43499  -103.62    10.983    91.03  0.031869    46.08   0.64572   -40.55
       3800     0.426  -105.50    10.779    89.63  0.032275    45.78   0.64035   -41.08
       3900   0.41821  -107.14    10.565    88.29  0.032729    45.64   0.63508   -41.58
       4000   0.41011  -109.04    10.363    86.97  0.033183    45.33   0.62913   -42.10
       4100   0.40277  -110.77    10.158    85.68  0.033572    45.10   0.62321   -42.49
       4200   0.39522  -112.46    9.9738    84.41  0.033994    44.87   0.61865   -42.97
       4300   0.38909  -114.10    9.7951    83.16  0.034437    44.66   0.61456   -43.46
       4400   0.38199  -115.84    9.6196    81.88  0.034884    44.41    0.6108   -43.94
       4500   0.37628  -117.45    9.4409    80.70   0.03526    44.20   0.60596   -44.44
       4600   0.36983  -119.19    9.2759    79.51  0.035659    44.03   0.60115   -44.93
       4700   0.36434  -120.82     9.118    78.33  0.036064    43.84   0.59668   -45.41
       4800    0.3578  -122.69    8.9567    77.09   0.03647    43.58   0.59272   -45.98
       4900   0.35233  -124.36    8.8106    75.94   0.03688    43.44   0.58871   -46.36
       5000   0.34657  -125.83    8.6617    74.85   0.03731    43.33    0.5843   -46.76
       5200   0.33613  -129.03    8.3728    72.51  0.038104    42.93   0.57706   -47.83
       5400   0.32655  -132.19    8.1132    70.43   0.03889    42.65   0.57073   -48.62
       5600   0.31747  -135.34    7.8641    68.24  0.039668    42.44   0.56307   -49.72
       5800   0.30881  -138.45     7.628    66.15  0.040496    42.16   0.55781   -50.55
       6000   0.30233  -141.31    7.4122    64.09  0.041276    42.02   0.55149   -51.62
       6200   0.29649  -144.27    7.2079    62.08  0.042173    41.88   0.54642   -52.60
       6400   0.29102  -147.32    7.0123    60.09  0.043066    41.71    0.5401   -53.54
       6600   0.28288  -150.33    6.8197    58.14  0.043881    41.54   0.53514   -54.39
       6800    0.2787  -153.12    6.6545    56.32  0.044836    41.37   0.53224   -55.44
       7000   0.27305  -155.89    6.4852    54.35  0.045814    41.25    0.5253   -56.56
       7200   0.27085  -158.27    6.3355    52.60  0.046795    41.19   0.52225   -57.46
       7400   0.26729  -161.56    6.1904    50.59  0.047809    41.07    0.5185   -58.42
       7600   0.26462  -164.18    6.0555    48.80  0.049008    40.70   0.51513   -59.66
       7800   0.26164  -167.23    5.9155    46.91  0.049857    40.69   0.50974   -60.66
       8000   0.25681  -169.63    5.7962    45.38  0.051144    40.58   0.50878   -61.56
       8200   0.25695  -172.27    5.6892    43.38  0.052459    40.37    0.5053   -63.15
       8400   0.25556  -175.45    5.5713    41.61  0.053923    39.84   0.50054   -64.12
       8600   0.25168  -177.89    5.4596    39.94  0.054424    39.74    0.4989   -64.91
       8800    0.2504   179.10    5.3561    37.84  0.056089    39.41   0.49446   -66.69
       9000   0.25017   177.17    5.2657    36.29   0.05776    39.38   0.49449   -68.08
       9200   0.25257   173.95    5.1809    34.22  0.059438    38.87   0.49013   -69.89
       9400   0.24898   170.52    5.0623    32.23  0.060407    37.87    0.4826   -71.29
       9600   0.24699   168.19    4.9505    30.93  0.061724    37.89   0.47643   -72.11
       9800   0.24354   165.53    4.8761    29.27  0.062787    37.31   0.47405   -73.16
      10000   0.24394   164.43    4.7976    27.82  0.064435    37.10    0.4709   -74.23
      10200   0.24668   161.55    4.7518    25.90  0.066083    36.53   0.46803   -76.07
      10400   0.25131   158.76    4.6861    23.72  0.068228    35.72   0.46767   -78.04
      10600   0.24808   155.89    4.5842    21.88  0.069306    34.68   0.45552   -79.59
      10800   0.24819   153.18    4.5031    20.03  0.070515    33.76   0.45229   -80.98
      11000   0.23961   151.90    4.4068    18.92  0.069691    33.89   0.44379   -81.14
      11200   0.25262   150.19    4.3957    17.04  0.073616    34.35   0.44992   -83.27
      11400   0.25396   147.24      4.31    15.18  0.075402    33.28   0.44596   -84.79
      11600   0.25671   144.61     4.264    13.53  0.077712    32.53    0.4431   -87.03
      11800   0.25832   142.31    4.1925    11.67   0.07892    31.51   0.43662   -88.19
      12000   0.25557   139.68    4.1066    10.12  0.079921    30.46   0.42709   -90.40
      12200   0.25956   138.56    4.0705     8.64  0.081859    30.84   0.42267   -91.24
      12400   0.26265   135.44    4.0103     6.82  0.084536    29.12   0.41649   -92.77
      12600   0.26081   133.00    3.9565     5.65  0.084477    28.35   0.41019   -92.73
      12800   0.26598   132.02    3.9342     4.15   0.08659    28.40   0.41528   -93.75
      13000   0.26963   129.75    3.9246     2.11    0.0898    27.85   0.42149   -96.53
      13200   0.26755   128.13    3.8751     0.55  0.089408    27.29   0.42259   -97.56
      13400   0.27687   126.37    3.8159    -1.45  0.093882    26.44   0.41377  -101.36
      13600   0.28283   124.26    3.8009    -3.26  0.095371    25.72   0.40937  -102.96
      13800   0.28616   122.18    3.7308    -5.27  0.098066    24.57   0.40045  -105.30
      14000   0.29155   118.85    3.6831    -6.74   0.09974    23.41   0.38993  -107.16
      14200   0.29275   117.66    3.6476    -8.14   0.10159    22.92   0.38695  -107.86
      14400    0.2932   115.09    3.6316    -9.62   0.10393    22.01    0.3838  -109.91
      14600   0.30128   113.05      3.61   -11.67   0.10725    21.03   0.38291  -111.54
      14800    0.3007   110.20    3.5599   -13.44    0.1091    19.29   0.37433  -114.11
      15000   0.30515   108.95    3.5594   -15.12    0.1101    18.51   0.37874  -115.20
      15200   0.30669   107.48    3.5048   -17.07   0.11206    17.56   0.37451  -118.19
      15400   0.31722   106.21    3.5091   -18.57    0.1145    17.30   0.37504  -119.89
      15600     0.323   104.86    3.4594   -20.86   0.11716    16.01   0.37217  -122.46
      15800   0.32926   102.88    3.4441   -22.45   0.11928    15.26   0.37236  -125.45
      16000   0.33985   100.67    3.3977   -24.59   0.12252    14.00   0.36411  -128.07
      16200   0.34833    99.00    3.3767   -26.17   0.12527    13.22   0.36074  -130.03
      16400   0.35584    96.19    3.3503   -28.33    0.1283    11.87   0.35882  -132.30
      16600   0.35394    94.54    3.3037   -29.61   0.13063    10.34   0.35421  -134.78
      16800   0.35803    92.98    3.2962   -31.22   0.13216     9.65   0.35158  -136.06
      17000   0.36424    90.87    3.2809   -33.25   0.13558     8.42   0.35212  -139.93
      17200   0.36648    89.16    3.2555   -34.80   0.13803     7.53   0.34343  -141.56
      17400   0.37726    86.55    3.2643   -37.32   0.14204     6.43   0.34782  -144.75
      17600   0.37897    84.94    3.2339   -39.23    0.1451     5.14   0.34503  -146.36
      17800   0.38318    83.70    3.2222   -41.08   0.14786     3.87   0.34552  -149.64
      18000   0.39798    81.96     3.193   -43.73   0.15252     2.26   0.35458  -152.56
      18200   0.40196    79.01    3.1503   -45.96   0.15473     0.20   0.35198  -156.98
      18400    0.4094    77.51    3.1005   -47.81   0.15654    -0.87   0.34782  -160.42
      18600   0.41412    75.70     3.053   -49.03    0.1595    -2.17   0.33996  -163.91
      18800   0.42014    73.79    3.0353   -51.17    0.1625    -3.52   0.33917  -167.68
      19000   0.42355    72.27    3.0316   -52.35   0.16476    -4.83    0.3333  -170.00
      19200   0.43241    70.58    3.0337   -54.55   0.16891    -5.83   0.33493  -172.02
      19400   0.45057    68.49    3.0257   -57.16    0.1744    -7.33   0.34168  -175.51
      19600   0.45857    65.14     2.991   -59.74   0.17719    -9.62   0.34552  -179.28
      19800   0.46719    63.19     2.951   -61.35   0.18009   -11.01   0.34325   176.54
      20000   0.47048    60.39    2.9293   -63.35   0.18396   -12.53   0.34036   174.24