! Filename:  P:\Prog\Test\Noise\ATS_data\Testdata_Net\BFU710\BFU710_2W_A1_1V3.5mA_D.s2p
! Date/Time: Fri 29/Apr/2011 13:26:07
! BFU710_2W_A1_1V3.5mA
! bias mode 1: Vout= 1.0001 V, Iout= 3.4800 mA, Vin= 0.8182 V, Iin= 0.0115 mA
! Date/time Wed Mar 16 13:18:52 2011
! Device data file deembeded for feedlines and parallel
! Original file: \BFU710\BFU710_2W_A1_1V3.5mA_R.s2p
! Feed-files: PR003V01_101208_Feed1.s2p, PR003V01_101208_Feed2.s2p
! Parallel-file: PR003V01_101208_Par.s2p
# MHz S MA R 50
!  Freq-MHz   S11-mag  S11-arg   S21-mag  S21-arg   S12-mag  S12-arg   S22-mag  S22-arg
         40   0.96254    -0.95    10.245   179.36 0.00063287    86.54   0.99861    -0.39
         50   0.95982    -1.63    10.283   178.69 0.00043167    83.69   0.99836    -0.59
         60   0.96048    -1.19    10.158   178.53 0.00090202   101.30   0.99917    -0.63
         70     0.963    -1.57    10.183   178.67  0.001081    90.41   0.99939    -0.79
         80    0.9627    -1.81    10.261   178.40 0.0012607    90.41   0.99955    -0.93
         90   0.96268    -2.07    10.267   177.99 0.0014222    89.37    0.9994    -1.08
        100   0.96293    -2.24    10.218   177.88 0.0015527    89.79   0.99938    -1.22
        120   0.96268    -2.79    10.241   177.46 0.0019119    89.63   0.99958    -1.50
        140    0.9624    -3.23    10.243   177.04 0.0022721    89.95   0.99965    -1.79
        160   0.96238    -3.68    10.212   176.54 0.0026224    89.11   0.99946    -2.06
        180   0.96256    -4.18    10.227   176.19 0.0029322    89.49   0.99951    -2.33
        200   0.96204    -4.67    10.237   175.64 0.0032533    89.44   0.99928    -2.61
        220   0.96169    -5.14     10.25   175.22 0.0036327    89.19   0.99924    -2.89
        240   0.96113    -5.61    10.293   174.70 0.0039632    88.89   0.99922    -3.18
        260   0.96113    -6.06    10.253   174.23 0.0042939    88.84   0.99896    -3.44
        280   0.96077    -6.56    10.263   173.78 0.0046352    88.64   0.99894    -3.72
        300   0.96102    -7.05    10.253   173.33 0.0050155    88.21   0.99873    -4.02
        320   0.96006    -7.50    10.209   172.89 0.0053559    88.08   0.99854    -4.28
        340   0.95947    -7.96    10.226   172.42 0.0056572    87.54   0.99818    -4.56
        360   0.95947    -8.42    10.196   172.04 0.0060289    87.30    0.9978    -4.83
        380   0.95891    -8.91    10.201   171.57 0.0063898    86.96   0.99746    -5.12
        400   0.95844    -9.36     10.23   171.13 0.0067623    86.49   0.99685    -5.38
        420   0.95774    -9.86    10.265   170.64 0.0070647    86.17   0.99694    -5.64
        440   0.95718   -10.32    10.232   170.22 0.0074257    85.82   0.99653    -5.93
        460   0.95673   -10.81    10.249   169.76 0.0077479    85.62   0.99603    -6.19
        480   0.95579   -11.28    10.232   169.33 0.0081296    85.18   0.99597    -6.49
        500    0.9553   -11.76    10.174   168.85 0.0084517    84.84   0.99528    -6.78
        550   0.95377   -12.93    10.208   167.71 0.0093188    83.80   0.99366    -7.44
        600   0.95155   -14.13    10.242   166.60  0.010187    83.03   0.99237    -8.11
        650   0.95014   -15.26    10.173   165.45  0.011037    82.25   0.99084    -8.81
        700    0.9477   -16.40    10.085   164.39  0.011895    81.32   0.98915    -9.52
        750   0.94599   -17.61    10.094   163.30  0.012738    80.38   0.98709   -10.19
        800   0.94324   -18.82    10.149   162.26  0.013602    79.70   0.98561   -10.82
        850   0.94057   -19.96    10.112   161.14  0.014479    78.71   0.98399   -11.48
        900   0.93866   -21.07     10.01   160.07  0.015295    77.87   0.98165   -12.17
        950   0.93585   -22.24    9.9972   159.06  0.016094    77.06   0.97918   -12.83
       1000   0.93288   -23.40    10.026   157.96  0.016927    76.33   0.97716   -13.47
       1050   0.92952   -24.52    9.9857   156.91  0.017748    75.45   0.97493   -14.13
       1100   0.92708   -25.62    9.9138   155.90  0.018522    74.60   0.97221   -14.81
       1150    0.9236   -26.80    9.9141   154.81  0.019304    73.79   0.96935   -15.43
       1200   0.92007   -27.95    9.8965   153.78  0.020094    73.05   0.96707   -16.04
       1250   0.91722   -29.05    9.8432   152.72  0.020905    72.20   0.96477   -16.72
       1300   0.91406   -30.14    9.7795   151.69  0.021656    71.39   0.96174   -17.36
       1350   0.91035   -31.32    9.7829   150.66  0.022395    70.64   0.95838   -18.00
       1400   0.90662   -32.46    9.7701   149.63  0.023161    69.91   0.95557   -18.62
       1450   0.90306   -33.58    9.7246   148.62  0.023875    69.14   0.95275   -19.25
       1500   0.89956   -34.69    9.6793   147.64  0.024585    68.35   0.94952   -19.88
       1550   0.89562   -35.79    9.6583   146.57  0.025334    67.70   0.94668   -20.45
       1600   0.89164   -36.91    9.6375   145.58  0.026058    66.97    0.9439   -21.04
       1650   0.88765   -38.01    9.5741   144.58  0.026763    66.18   0.94029   -21.66
       1700    0.8841   -39.05    9.5248   143.59  0.027401    65.51    0.9366   -22.27
       1750   0.87982   -40.17    9.5031   142.57  0.028078    64.84   0.93337   -22.88
       1800   0.87562   -41.30    9.4638   141.57    0.0288    64.10   0.93056   -23.48
       1850   0.87126   -42.40    9.4135   140.57  0.029443    63.35   0.92687   -24.09
       1900   0.86717   -43.53    9.3933   139.57  0.030076    62.75   0.92353   -24.67
       1950   0.86285   -44.54    9.3285   138.63   0.03071    62.08   0.92048   -25.28
       2000   0.85854   -45.62    9.2749   137.63  0.031364    61.49   0.91709   -25.92
       2050   0.85347   -46.71    9.2362   136.67  0.032018    60.85   0.91315   -26.50
       2100   0.84902   -47.75     9.195   135.71  0.032688    60.22   0.90918   -27.07
       2150   0.84497   -48.80     9.158   134.82  0.033311    59.58    0.9048   -27.65
       2200   0.84022   -49.84    9.1092   133.89  0.033885    58.86   0.90077   -28.17
       2250     0.835   -50.93    9.0724   132.89  0.034484    58.32   0.89748   -28.76
       2300   0.83043   -51.99     9.023   131.94  0.035139    57.72   0.89384   -29.37
       2350    0.8257   -52.98    8.9352   131.10  0.035851    57.06   0.88858   -30.02
       2400   0.82046   -54.06    8.8903   130.20  0.036441    56.37   0.88255   -30.52
       2450   0.81457   -55.10    8.8576   129.29  0.037066    55.69   0.87824   -31.00
       2500   0.80899   -56.05    8.8045   128.42  0.037676    54.77   0.87428   -31.53
       2600   0.79958   -58.02    8.7007   126.72  0.038686    53.39   0.86554   -32.54
       2700   0.78921   -60.05    8.6217   124.94  0.039671    52.01    0.8574   -33.47
       2800   0.78028   -61.95    8.5161   123.25   0.04052    50.64   0.84828   -34.40
       2900   0.76958   -63.91    8.4131   121.57  0.041298    49.36   0.84039   -35.27
       3000   0.75945   -65.76    8.3374   119.90  0.042026    48.30   0.83356   -36.12
       3100   0.75188   -67.58     8.235   118.30  0.042723    47.23   0.82709   -37.08
       3200   0.74264   -69.38    8.1401   116.70  0.043467    46.29   0.81912   -37.95
       3300   0.73323   -71.34    8.0567   115.08  0.044242    45.25    0.8117   -38.96
       3400   0.72341   -73.13    7.9758   113.43  0.044944    44.39   0.80467   -39.87
       3500   0.71501   -74.87    7.8804   111.91  0.045661    43.44   0.79693   -40.70
       3600   0.70528   -76.76    7.7966   110.35  0.046345    42.58   0.78928   -41.50
       3700    0.6974   -78.45    7.6926   108.84  0.046966    41.62   0.78226   -42.37
       3800   0.68747   -80.33    7.6251   107.25  0.047629    40.79   0.77547   -43.20
       3900   0.67851   -82.03    7.5366   105.74  0.048221    40.05   0.76856   -43.98
       4000   0.66956   -83.83    7.4565   104.23  0.048888    39.15   0.76133   -44.84
       4100   0.66086   -85.48    7.3575   102.77  0.049367    38.25   0.75337   -45.59
       4200   0.65217   -87.14    7.2774   101.35  0.049958    37.42   0.74693   -46.36
       4300   0.64453   -88.83    7.1962    99.90   0.05044    36.67   0.74073   -47.15
       4400   0.63581   -90.58     7.126    98.38   0.05101    35.89   0.73492   -47.90
       4500   0.62834   -92.19    7.0331    97.03  0.051432    35.15   0.72805   -48.66
       4600   0.61971   -93.86    6.9488    95.65  0.051842    34.39   0.72105   -49.41
       4700   0.61306   -95.48     6.866    94.29   0.05224    33.68   0.71442   -50.16
       4800   0.60373   -97.24     6.792    92.80  0.052704    32.90   0.70856   -50.97
       4900   0.59612   -98.86    6.7111    91.47   0.05309    32.19   0.70231   -51.62
       5000   0.58823  -100.41    6.6385    90.18  0.053488    31.57   0.69566   -52.27
       5200    0.5731  -103.61     6.487    87.41  0.054091    30.22   0.68399   -53.78
       5400   0.55829  -106.72     6.337    84.94  0.054694    28.95   0.67265   -55.02
       5600   0.54351  -109.81    6.1954    82.34  0.055154    27.81   0.66098   -56.51
       5800   0.52994  -112.86    6.0555    79.85  0.055599    26.69   0.65072   -57.71
       6000    0.5179  -115.83    5.9233    77.42  0.055932    25.73   0.64035   -59.11
       6200   0.50689  -118.82    5.7976    75.03  0.056373    24.85   0.63095   -60.37
       6400   0.49572  -121.79    5.6748    72.67  0.056732    23.92   0.62033   -61.65
       6600   0.48233  -124.69    5.5514    70.32  0.056857    23.06   0.61084   -62.79
       6800   0.47285  -127.49    5.4411    68.16    0.0572    22.43   0.60336   -64.00
       7000   0.46226  -130.26    5.3304    65.82  0.057516    21.80   0.59321   -65.38
       7200   0.45483  -132.93    5.2279    63.74  0.057698    21.33   0.58584   -66.46
       7400   0.44602  -136.00    5.1316    61.42  0.057865    20.79    0.5775   -67.66
       7600   0.43833  -138.73    5.0378    59.31  0.058458    20.28   0.57162   -68.96
       7800   0.43007  -141.62    4.9391    57.13   0.05845    19.85   0.56244   -70.18
       8000   0.42062  -144.03    4.8514    55.27  0.058622    19.77   0.55702   -71.14
       8200   0.41659  -146.87    4.7778    53.04  0.059317    19.61   0.55151   -72.74
       8400   0.40976  -149.82    4.6903    50.98  0.059878    19.03   0.54318   -73.88
       8600   0.40194  -152.38    4.6087    49.02  0.059445    18.77   0.53782   -74.79
       8800   0.39619  -155.39     4.537    46.67  0.060475    18.68   0.53177   -76.53
       9000   0.39256  -157.52    4.4668    44.88  0.061116    18.96   0.52946   -77.90
       9200   0.39018  -160.79    4.4077    42.60  0.062251    18.71   0.52382   -79.69
       9400   0.38122  -163.99    4.3185    40.31  0.062535    17.68   0.51445   -81.26
       9600   0.37448  -166.36    4.2304    38.71  0.062716    17.90   0.50534   -82.24
       9800   0.36728  -168.86    4.1708    36.80   0.06284    17.54   0.50042   -83.36
      10000   0.36572  -170.64    4.1067    35.14  0.063538    17.77   0.49524   -84.54
      10200   0.36493  -173.62    4.0753    33.04  0.064608    17.67   0.49097   -86.32
      10400    0.3657  -176.79    4.0256    30.71  0.066138    17.37   0.48932   -88.24
      10600   0.35748  -179.64    3.9484    28.59  0.066682    16.39   0.47672   -90.03
      10800   0.35385   177.65    3.8799    26.53  0.067019    15.80   0.47111   -91.50
      11000   0.34384   176.01    3.8019    25.16  0.065155    15.92   0.46022   -91.93
      11200   0.35307   173.49    3.7923    23.13  0.068062    17.45   0.46487   -93.91
      11400   0.35073   170.55    3.7237    21.11   0.06916    16.82   0.45915   -95.50
      11600   0.34979   167.82     3.688    19.26  0.070877    16.77   0.45548   -97.64
      11800   0.34834   165.10    3.6272    17.22   0.07143    16.12   0.44735   -98.97
      12000    0.3425   162.40    3.5606    15.45  0.072079    15.44   0.43821  -101.19
      12200   0.34532   160.54    3.5281    13.82  0.073152    16.39    0.4325  -102.17
      12400   0.34322   157.34    3.4791    11.78  0.075164    15.08   0.42559  -103.98
      12600   0.33815   155.03    3.4284    10.42    0.0743    14.70    0.4159  -104.25
      12800   0.34215   153.43    3.4084     8.79  0.075594    15.58   0.41814  -105.24
      13000   0.34452   150.80    3.4027     6.68  0.078653    15.87   0.42324  -107.62
      13200    0.3415   148.90     3.358     4.98  0.077814    15.76   0.42216  -108.61
      13400   0.34822   146.32    3.3149     2.82  0.082131    15.32   0.41647  -112.35
      13600   0.35096   143.73    3.2999     0.87  0.083094    15.01   0.41095  -114.15
      13800   0.35169   141.30    3.2422    -1.27  0.085222    14.28   0.40256  -116.68
      14000   0.35272   138.02    3.2013    -2.96  0.086435    13.46   0.39229  -118.76
      14200   0.35384   136.47    3.1661    -4.49  0.087537    13.62   0.38696  -119.76
      14400   0.35214   133.96    3.1535    -6.08  0.089655    13.26   0.38278  -121.88
      14600   0.35814   131.41    3.1322    -8.23  0.092651    12.85   0.38068  -123.54
      14800   0.35522   128.54    3.0904   -10.11  0.094312    11.45   0.37273  -126.27
      15000   0.35959   126.82    3.0875   -11.90   0.09543    11.19   0.37412  -127.30
      15200   0.36044   124.87    3.0429   -13.93  0.097255    10.49   0.37136  -130.26
      15400   0.36865   122.82    3.0446   -15.54  0.099538    10.63   0.37046  -132.01
      15600   0.37441   120.87    3.0025   -17.90   0.10193     9.65   0.36803  -134.66
      15800   0.37854   118.50    2.9906   -19.63   0.10408     9.13   0.36866  -137.48
      16000    0.3868   115.86    2.9498   -21.88   0.10669     8.08   0.36169  -140.41
      16200   0.39325   113.73    2.9303   -23.61     0.109     7.72   0.35836  -142.57
      16400   0.39855   110.76    2.9045   -25.82   0.11193     6.71   0.35568  -144.94
      16600   0.39612   109.01    2.8658   -27.26   0.11403     5.48   0.35209  -147.59
      16800    0.3995   107.16    2.8553   -28.97   0.11551     5.09   0.34819  -149.20
      17000   0.40428   104.78    2.8416   -31.05   0.11889     4.18   0.34986  -152.97
      17200   0.40626   102.78    2.8185   -32.73   0.12108     3.53   0.34124  -155.05
      17400   0.41447    99.89    2.8221   -35.27   0.12491     2.80   0.34493  -158.13
      17600     0.417    97.93    2.7972   -37.24   0.12814     1.79   0.34052  -159.95
      17800   0.42043    96.38    2.7854   -39.23   0.13104     0.65   0.34197  -163.19
      18000   0.43416    94.06     2.759   -41.87   0.13561    -0.77   0.34942  -165.83
      18200   0.43574    91.00    2.7232   -44.18   0.13788    -2.68   0.34885  -170.11
      18400   0.44191    89.02    2.6796   -46.17   0.13988    -3.65   0.34664  -173.50
      18600   0.44387    87.13     2.636   -47.53   0.14252    -4.74   0.34192  -177.25
      18800   0.45029    84.86    2.6196   -49.70   0.14584    -5.98   0.34207   179.11
      19000    0.4522    83.27    2.6116   -51.01   0.14792    -7.07   0.33808   176.36
      19200   0.46043    81.32    2.6096   -53.24   0.15207    -7.91   0.33788   174.06
      19400   0.47622    78.80    2.5983   -55.83   0.15741    -9.32   0.34421   170.92
      19600   0.48135    75.53    2.5671   -58.39    0.1602   -11.47   0.34887   167.34
      19800   0.49029    73.36    2.5343   -60.06   0.16312   -12.66   0.34851   163.26
      20000   0.49194    70.47    2.5141   -62.13   0.16685   -14.02   0.34624   160.72