! Filename:  P:\Prog\Test\Noise\ATS_data\Testdata_Net\BFU710\BFU710_2W_A1_1V10mA_D.s2p
! Date/Time: Fri 29/Apr/2011 13:26:18
! BFU710_2W_A1_1V10mA
! bias mode 1: Vout= 1.0002 V, Iout= 9.9650 mA, Vin= 0.8477 V, Iin= 0.0380 mA
! Date/time Wed Mar 16 12:56:52 2011
! Device data file deembeded for feedlines and parallel
! Original file: \BFU710\BFU710_2W_A1_1V10mA_R.s2p
! Feed-files: PR003V01_101208_Feed1.s2p, PR003V01_101208_Feed2.s2p
! Parallel-file: PR003V01_101208_Par.s2p
# MHz S MA R 50
!  Freq-MHz   S11-mag  S11-arg   S21-mag  S21-arg   S12-mag  S12-arg   S22-mag  S22-arg
         40   0.88052    -2.16    20.197   178.82 0.00075601    83.74   0.99018    -0.00
         50   0.88127    -3.18    20.244   177.80 0.00053519    78.00   0.99127    -0.43
         60   0.87569    -3.16    19.798   177.49 0.00099425    96.54   0.99264    -0.64
         70   0.87829    -3.69    19.879   177.50 0.0012333    86.70   0.99276    -0.96
         80    0.8785    -4.23    20.202   176.99 0.0014027    86.58   0.99335    -1.23
         90   0.87844    -4.77    20.254   176.36 0.0015836    87.10   0.99355    -1.50
        100   0.87716    -5.21    20.139   176.08 0.0017254    86.22   0.99342    -1.75
        120    0.8766    -6.37    20.165   175.15 0.0021039    87.17   0.99342    -2.27
        140   0.87534    -7.38    20.235   174.31 0.0024835    86.98   0.99319    -2.77
        160   0.87339    -8.39    20.065   173.38 0.0028055    86.88   0.99299    -3.25
        180   0.87348    -9.43    20.246   172.62 0.0032157    86.41   0.99203    -3.72
        200   0.87196   -10.53    20.241   171.57 0.0035075    85.90   0.99172    -4.17
        220   0.86995   -11.55    20.277   170.73 0.0039067    85.61   0.99034    -4.65
        240   0.86719   -12.60    20.399   169.77 0.0042682    85.03   0.99015    -5.08
        260   0.86617   -13.60    20.237   168.86   0.00461    84.78   0.98928    -5.55
        280    0.8635   -14.65    20.228   168.08 0.0049619    84.26   0.98847    -5.99
        300   0.86239   -15.75    20.153   167.09  0.005353    84.14   0.98791    -6.49
        320   0.85678   -16.80    19.856   166.34 0.0057149    83.36   0.98594    -6.96
        340   0.85562   -17.70    20.018   165.45 0.0060376    82.97   0.98477    -7.39
        360   0.85389   -18.74    19.878   164.67 0.0064211    82.61   0.98268    -7.85
        380   0.85066   -19.84    19.815   163.79 0.0068032    82.15   0.98091    -8.30
        400   0.84773   -20.78     19.98   162.99 0.0071875    81.35   0.97845    -8.70
        420   0.84478   -21.74    20.051   162.15 0.0074625    80.79   0.97803    -9.07
        440   0.84203   -22.60    19.921   161.38 0.0078552    80.36   0.97634    -9.58
        460   0.83911   -23.60    19.942   160.66 0.0081999    79.88   0.97442    -9.95
        480   0.83866   -24.47    19.943   159.82 0.0085329    79.51   0.97402   -10.44
        500   0.83123   -25.72     19.53   158.93 0.0088794    79.05   0.97071   -10.95
        550   0.82623   -27.94    19.678   156.87 0.0097117    77.47   0.96324   -11.90
        600   0.82027   -30.13    19.819   154.97  0.010516    76.39   0.95845   -12.81
        650   0.80952   -32.23    19.469   153.25  0.011333    75.11   0.95291   -13.89
        700   0.79995   -34.81        19   151.26  0.012211    74.00   0.94579   -15.05
        750   0.79242   -36.89    19.012   149.53   0.01294    72.74   0.93783   -15.89
        800   0.78527   -39.01    19.084   147.75   0.01364    71.38   0.93246   -16.62
        850    0.7785   -41.17    18.809   145.92  0.014384    70.54   0.92759   -17.58
        900    0.7658   -43.34    18.425   144.29   0.01515    69.64   0.91817   -18.65
        950    0.7605   -45.36    18.402   142.59  0.015867    68.38   0.90864   -19.42
       1000   0.75219   -47.10    18.334   140.98  0.016434    67.20   0.90313   -20.08
       1050    0.7389   -49.31    17.974   139.43  0.017052    66.39   0.89666   -20.93
       1100   0.73214   -51.27    17.751   137.83  0.017775    65.39   0.88666   -21.83
       1150   0.72368   -52.98    17.726   136.28  0.018399    64.25   0.87743   -22.47
       1200   0.71565   -54.53    17.591   135.05  0.018923    63.39   0.87152   -23.12
       1250   0.70362   -56.73    17.196   133.43  0.019516    62.84   0.86581   -24.03
       1300   0.69559   -58.51    17.002   131.98   0.02014    61.99   0.85666   -24.78
       1350   0.68768   -59.97    16.945   130.67  0.020631    60.90   0.84726   -25.34
       1400   0.68122   -61.58    16.819   129.30  0.021112    60.09   0.84025   -25.92
       1450   0.67064   -63.21    16.585   128.05  0.021604    59.42   0.83305   -26.59
       1500   0.66293   -65.00     16.37   126.63  0.022132    58.63   0.82484   -27.23
       1550    0.6537   -66.63    16.147   125.31  0.022524    57.82   0.81792   -27.68
       1600   0.64787   -67.79     16.04   124.20  0.022917    57.25    0.8121   -28.16
       1650   0.64052   -69.39    15.852   122.86  0.023412    56.62   0.80398   -28.81
       1700   0.63311   -71.08    15.645   121.53  0.023884    55.90    0.7953   -29.38
       1750   0.62516   -72.30    15.489   120.46  0.024268    55.26   0.78877   -29.90
       1800   0.61455   -74.21    15.206   119.18  0.024639    54.77   0.78343   -30.44
       1850   0.60616   -75.69    15.005   118.05  0.025051    54.14   0.77593   -30.95
       1900   0.59937   -76.76    14.894   117.03  0.025417    53.58   0.76925   -31.41
       1950   0.59204   -78.35    14.662   115.85  0.025806    53.11   0.76332   -31.96
       2000   0.58378   -79.73    14.446   114.77  0.026149    52.75   0.75746   -32.54
       2050   0.57779   -80.67    14.325   113.86  0.026472    52.24   0.75075   -32.95
       2100   0.57236   -81.99    14.163   112.76  0.026791    51.80    0.7441   -33.32
       2150    0.5674   -83.07    14.039   111.84  0.027159    51.34   0.73675   -33.77
       2200   0.55998   -84.37    13.856   110.82  0.027498    50.83   0.73054   -34.12
       2250   0.55314   -85.65    13.688   109.82  0.027777    50.42   0.72555   -34.56
       2300   0.54539   -86.86    13.488   108.95  0.028086    50.16   0.72051   -35.06
       2350   0.53881   -88.49    13.245   107.93  0.028456    49.81   0.71201   -35.64
       2400   0.53272   -89.71    13.106   107.04   0.02887    49.33   0.70295   -35.90
       2450   0.52626   -90.61    12.987   106.31  0.029147    48.91   0.69717   -36.09
       2500   0.51892   -92.04    12.799   105.33   0.02945    48.41   0.69246   -36.41
       2600    0.5084   -94.08    12.521   103.70  0.030011    47.62   0.68104   -37.04
       2700   0.49578   -96.46    12.204   102.04  0.030436    46.98   0.67245   -37.49
       2800    0.4868   -98.47    11.962   100.47   0.03096    46.13     0.661   -37.97
       2900   0.47573  -100.60    11.682    98.93  0.031335    45.70    0.6534   -38.33
       3000   0.46607  -102.23    11.482    97.55   0.03175    45.13   0.64645   -38.73
       3100   0.45744  -104.50    11.199    95.92  0.032152    44.78   0.64087   -39.37
       3200   0.44909  -106.47    10.959    94.47  0.032557    44.40   0.63321   -39.83
       3300   0.44105  -108.33    10.759    93.11  0.033022    44.01   0.62551   -40.43
       3400   0.43199  -110.18    10.543    91.66   0.03344    43.72   0.61893   -40.97
       3500   0.42544  -112.11    10.339    90.28  0.033891    43.43   0.61257   -41.42
       3600   0.41727  -114.19    10.118    88.91  0.034281    43.22   0.60658   -41.84
       3700   0.41066  -116.04    9.9153    87.56  0.034783    42.96   0.59996   -42.39
       3800   0.40372  -117.91    9.7473    86.22  0.035142    42.65   0.59509   -42.81
       3900   0.39723  -119.46     9.568    84.95   0.03559    42.49   0.58951   -43.28
       4000   0.39045  -121.46    9.3797    83.66  0.036005    42.26   0.58443   -43.75
       4100   0.38394  -123.40    9.1882    82.39  0.036453    42.04   0.57832   -44.16
       4200   0.37779  -125.19    9.0177    81.17  0.036875    41.85   0.57381   -44.62
       4300   0.37255  -126.78    8.8663    79.96  0.037346    41.62   0.56963   -45.08
       4400   0.36687  -128.60    8.7078    78.73  0.037768    41.39   0.56647   -45.53
       4500   0.36255  -130.20    8.5507    77.56  0.038182    41.21   0.56175   -46.03
       4600   0.35695  -132.11    8.3961    76.40  0.038578    41.03   0.55717   -46.52
       4700   0.35285  -133.73    8.2589    75.26  0.039031    40.85   0.55226   -46.99
       4800   0.34715  -135.66     8.112    74.06  0.039454    40.60   0.54863   -47.54
       4900   0.34284  -137.39    7.9782    72.92  0.039871    40.49   0.54492   -47.93
       5000   0.33828  -138.95      7.85    71.86  0.040318    40.40   0.54078   -48.29
       5200   0.32966  -142.20    7.5885    69.58  0.041155    39.99   0.53323   -49.34
       5400    0.3222  -145.47    7.3597    67.54  0.041989    39.71   0.52745   -50.12
       5600   0.31517  -148.72    7.1308    65.37  0.042798    39.48   0.51989   -51.23
       5800   0.30861  -151.96    6.9183    63.32  0.043661    39.26   0.51476   -52.06
       6000   0.30347  -154.94    6.7209    61.29  0.044538    39.08   0.50857   -53.16
       6200   0.29955  -157.87    6.5368    59.31  0.045454    38.93   0.50344   -54.15
       6400   0.29537  -161.00    6.3598    57.34  0.046444    38.74   0.49728   -55.10
       6600   0.28928  -164.07    6.1873    55.41  0.047271    38.56   0.49241   -55.95
       6800   0.28622  -166.96    6.0357    53.58  0.048274    38.34   0.48945   -57.03
       7000   0.28239  -169.74    5.8806    51.64  0.049322    38.22    0.4826   -58.17
       7200   0.28108  -172.12    5.7473    49.88  0.050352    38.09   0.47942   -59.10
       7400   0.27953  -175.45     5.613    47.88  0.051406    37.88   0.47547   -60.06
       7600   0.27758  -177.88    5.4904    46.09  0.052667    37.55   0.47195   -61.32
       7800   0.27591   179.02    5.3649    44.21  0.053533    37.43   0.46663   -62.32
       8000   0.27265   176.58    5.2571    42.66  0.054921    37.31   0.46534   -63.27
       8200   0.27364   174.02    5.1567    40.67  0.056245    36.99   0.46152   -64.87
       8400   0.27391   171.01    5.0504    38.90  0.057691    36.51   0.45709   -65.87
       8600   0.27126   168.52    4.9484    37.21  0.058316    36.32   0.45478   -66.72
       8800   0.27098   165.73    4.8547    35.13  0.060001    35.94    0.4504   -68.50
       9000   0.27147   163.83    4.7712    33.57  0.061692    35.89   0.45014   -69.98
       9200   0.27415   160.80    4.6921    31.51  0.063406    35.31   0.44553   -71.80
       9400   0.27274   157.64     4.586    29.55  0.064391    34.39   0.43846   -73.24
       9600   0.27172   155.44    4.4882    28.20  0.065771    34.34   0.43235   -74.14
       9800    0.2696   152.69    4.4185    26.52  0.066962    33.79   0.42988   -75.27
      10000   0.27067   151.55     4.347    25.01  0.068692    33.47   0.42631   -76.43
      10200   0.27407   148.94    4.3021    23.10  0.070403    32.86   0.42289   -78.35
      10400   0.27844   146.28    4.2376    20.93  0.072507    32.04    0.4218   -80.37
      10600   0.27625   143.63    4.1479    19.11  0.073639    30.98   0.41021   -81.99
      10800   0.27743   141.10    4.0733    17.26   0.07495    30.06   0.40658   -83.44
      11000   0.27071   139.51    3.9881    16.10  0.074238    30.08   0.39816   -83.67
      11200   0.28254   138.15    3.9732    14.22   0.07814    30.39   0.40283   -85.88
      11400   0.28451   135.61    3.8967    12.36  0.079907    29.34   0.39882   -87.43
      11600   0.28798   133.15    3.8542    10.68  0.082189    28.54   0.39563   -89.78
      11800   0.29043   130.95    3.7884     8.82  0.083486    27.53   0.38917   -91.03
      12000   0.28856   128.39    3.7136     7.26   0.08448    26.46   0.38016   -93.33
      12200   0.29272   127.30    3.6769     5.74  0.086333    26.72   0.37529   -94.27
      12400   0.29579   124.48    3.6235     3.92  0.089085    25.13   0.36935   -95.88
      12600    0.2959   122.22    3.5742     2.68  0.089275    24.35   0.36306   -95.98
      12800   0.30079   121.17    3.5519     1.15  0.091445    24.29   0.36656   -97.12
      13000   0.30538   118.98    3.5375    -0.90  0.094594    23.60   0.37094   -99.97
      13200   0.30412   117.47    3.4911    -2.49  0.094393    22.88   0.37109  -101.13
      13400   0.31238   115.86    3.4382    -4.47  0.098575    22.00   0.36281  -105.05
      13600   0.31847   113.80      3.42    -6.31   0.10004    21.21   0.35787  -106.80
      13800    0.3213   111.86    3.3585    -8.30   0.10264    20.11   0.34934  -109.29
      14000   0.32797   108.98    3.3157    -9.78   0.10429    19.02   0.33952  -111.36
      14200   0.32989   107.70    3.2819   -11.28   0.10613    18.50   0.33586  -112.21
      14400   0.33141   105.29    3.2649   -12.81   0.10858    17.54   0.33231  -114.55
      14600   0.33853   103.45    3.2416   -14.86   0.11185    16.56   0.33022  -116.30
      14800   0.33936   100.81    3.1954   -16.66   0.11383    14.90   0.32238  -119.15
      15000   0.34442    99.50    3.1884   -18.36   0.11498    13.94   0.32436  -120.39
      15200   0.34489    98.00      3.14   -20.30    0.1169    12.91   0.32056  -123.57
      15400   0.35571    96.73     3.139   -21.84   0.11914    12.52   0.31974  -125.49
      15600   0.36067    95.39    3.0932   -24.08   0.12179    11.24     0.317  -128.22
      15800   0.36714    93.47    3.0768   -25.72   0.12367    10.34   0.31656  -131.48
      16000     0.377    91.65    3.0352   -27.83   0.12664     9.20   0.30884  -134.29
      16200   0.38524    90.05    3.0154   -29.46   0.12929     8.40   0.30568  -136.48
      16400   0.39313    87.55    2.9872   -31.60   0.13224     7.11   0.30344  -138.97
      16600   0.39226    85.96    2.9465   -32.94   0.13476     5.64   0.29995  -141.82
      16800   0.39691    84.34    2.9359   -34.62   0.13621     4.79   0.29613  -143.49
      17000   0.40241    82.29    2.9177   -36.63   0.13947     3.59   0.29692  -147.72
      17200   0.40596    80.60    2.8943   -38.22   0.14185     2.69   0.28794  -149.70
      17400   0.41567    78.09    2.8934   -40.70   0.14567     1.56    0.2914  -153.17
      17600    0.4178    76.44    2.8648   -42.61   0.14875     0.24   0.28734  -155.07
      17800   0.42096    75.13    2.8494   -44.47   0.15142    -1.12   0.28735  -158.75
      18000   0.43477    73.61    2.8209   -47.06   0.15581    -2.68   0.29541  -161.45
      18200   0.43856    70.86    2.7815   -49.25   0.15792    -4.70   0.29478  -166.27
      18400   0.44557    69.48    2.7344   -51.09    0.1596    -5.81   0.29199  -170.08
      18600   0.44996    67.87    2.6941   -52.31   0.16238    -7.03   0.28699  -174.19
      18800   0.45664    65.93    2.6742   -54.40   0.16531    -8.45   0.28639  -178.31
      19000   0.46067    64.39    2.6696   -55.66   0.16766    -9.75   0.28268   178.85
      19200   0.46905    62.68    2.6656   -57.87   0.17157   -10.86   0.28245   176.40
      19400   0.48496    60.66    2.6513   -60.35   0.17647   -12.35   0.28881   172.92
      19600   0.49293    57.68     2.621   -62.82   0.17926   -14.55   0.29354   169.08
      19800    0.5016    55.90    2.5867   -64.47   0.18193   -15.83    0.2942   164.55
      20000   0.50485    53.21    2.5664   -66.49   0.18579   -17.31   0.29262   161.97