! Filename:  P:\Prog\Test\Noise\ATS_data\Testdata_Net\BFU710\BFU710_2W_A1_2V5mA_D.s2p
! Date/Time: Fri 29/Apr/2011 13:26:56
! BFU710_2W_A1_2V5mA
! bias mode 1: Vout= 2.0000 V, Iout= 5.0350 mA, Vin= 0.8210 V, Iin= 0.0174 mA
! Date/time Wed Mar 16 10:52:00 2011
! Device data file deembeded for feedlines and parallel
! Original file: \BFU710\BFU710_2W_A1_2V5mA_R.s2p
! Feed-files: PR003V01_101208_Feed1.s2p, PR003V01_101208_Feed2.s2p
! Parallel-file: PR003V01_101208_Par.s2p
# MHz S MA R 50
!  Freq-MHz   S11-mag  S11-arg   S21-mag  S21-arg   S12-mag  S12-arg   S22-mag  S22-arg
         40   0.94668    -1.03    13.632   178.73 0.00055375    85.28   0.99854    -0.28
         50   0.94341    -1.37    13.677   178.09 0.00036172    71.83   0.99844    -0.52
         60   0.94761    -1.42    13.507   178.02 0.00074241   101.52   0.99947    -0.57
         70   0.94736    -1.75    13.536   178.19 0.00096141    91.55   0.99965    -0.75
         80   0.94687    -2.04    13.631   177.92 0.0010711    89.40   0.99981    -0.91
         90   0.94684    -2.31    13.632   177.51 0.0012223    90.01    0.9997    -1.07
        100   0.94676    -2.58     13.57   177.40 0.0013431    89.38   0.99963    -1.22
        120   0.94647    -3.15    13.609   176.95 0.0016422    89.62   0.99984    -1.52
        140   0.94664    -3.66    13.601   176.49 0.0019723    90.03   0.99996    -1.83
        160   0.94656    -4.19    13.566   175.95 0.0022428    89.05   0.99969    -2.12
        180   0.94656    -4.74    13.578   175.55 0.0025426    89.57   0.99982    -2.41
        200   0.94605    -5.29    13.587   174.95 0.0028138    89.46   0.99954    -2.70
        220   0.94568    -5.82    13.605   174.49  0.003123    88.82   0.99944    -3.00
        240     0.945    -6.36    13.651   173.90 0.0034236    88.47    0.9993    -3.30
        260   0.94483    -6.90    13.607   173.38 0.0037244    88.37   0.99904    -3.58
        280   0.94458    -7.44    13.614   172.87 0.0039957    88.50   0.99902    -3.87
        300   0.94388    -8.00    13.602   172.36  0.004326    87.99   0.99874    -4.18
        320   0.94337    -8.53     13.55   171.86 0.0046265    87.52   0.99842    -4.46
        340   0.94266    -9.05    13.567   171.33 0.0049078    87.34   0.99799    -4.76
        360   0.94246    -9.59    13.526   170.89 0.0051994    86.80   0.99744    -5.04
        380   0.94168   -10.13    13.536   170.36 0.0055404    86.72   0.99715    -5.34
        400   0.94105   -10.66    13.563   169.86 0.0058527    86.38   0.99636    -5.62
        420   0.94017   -11.23    13.596   169.31 0.0061152    85.88   0.99622    -5.89
        440   0.93926   -11.74    13.554   168.84 0.0064263    85.58   0.99574    -6.19
        460    0.9385   -12.30    13.567   168.31 0.0067286    85.27   0.99505    -6.48
        480   0.93779   -12.84    13.542   167.82 0.0070402    84.74   0.99492    -6.79
        500   0.93651   -13.36    13.473   167.28 0.0073226    84.41   0.99402    -7.09
        550    0.9344   -14.71      13.5   166.00 0.0080795    83.52   0.99195    -7.78
        600   0.93166   -16.05    13.518   164.73 0.0088174    82.55   0.99023    -8.48
        650   0.92905   -17.37    13.421   163.45 0.0095673    81.70   0.98816    -9.22
        700   0.92606   -18.66    13.309   162.23  0.010286    80.67    0.9859    -9.95
        750   0.92323   -20.00    13.301   161.00  0.010997    79.80   0.98324   -10.64
        800   0.91944   -21.36    13.337   159.82  0.011751    79.09   0.98127   -11.29
        850   0.91596   -22.67    13.276   158.57  0.012487    78.11   0.97901   -11.98
        900   0.91275   -23.92    13.147   157.35  0.013162    77.10   0.97585   -12.69
        950   0.90909   -25.25     13.11   156.22   0.01387    76.28   0.97282   -13.35
       1000   0.90492   -26.54    13.114   154.99  0.014551    75.43    0.9701   -14.03
       1050   0.90058   -27.79    13.047   153.80  0.015271    74.57   0.96712   -14.69
       1100   0.89689   -29.03    12.944   152.68  0.015903    73.70   0.96354   -15.38
       1150   0.89204   -30.35    12.919   151.46  0.016573    72.91   0.96001   -16.00
       1200   0.88724   -31.61    12.869   150.32  0.017231    72.10   0.95697   -16.62
       1250     0.883   -32.84    12.783   149.15  0.017889    71.19   0.95372   -17.31
       1300   0.87875   -34.07    12.692   148.01  0.018527    70.39   0.94989   -17.95
       1350   0.87346   -35.36    12.664   146.87  0.019114    69.66   0.94587   -18.58
       1400   0.86818   -36.63    12.622   145.73  0.019745    68.87   0.94222   -19.20
       1450   0.86334   -37.86    12.544   144.62  0.020334    68.12   0.93857   -19.82
       1500   0.85834   -39.07    12.467   143.53  0.020919    67.32    0.9345   -20.44
       1550   0.85328   -40.28     12.41   142.38  0.021483    66.62   0.93102   -21.00
       1600   0.84794   -41.49    12.349   141.30  0.022101    65.93   0.92749   -21.58
       1650   0.84226   -42.70    12.256   140.21  0.022649    65.11     0.923   -22.19
       1700   0.83765   -43.85    12.178   139.13  0.023171    64.49   0.91869   -22.77
       1750   0.83197   -45.04    12.119   138.02  0.023721    63.83   0.91454   -23.37
       1800   0.82642   -46.27    12.046   136.94  0.024245    63.07   0.91099   -23.95
       1850   0.82078   -47.49    11.967   135.86  0.024768    62.32   0.90655   -24.54
       1900   0.81536   -48.67    11.908   134.77  0.025252    61.78   0.90267   -25.09
       1950   0.80984   -49.80     11.81   133.76  0.025759    61.17   0.89902   -25.67
       2000   0.80397   -50.92    11.719   132.69  0.026283    60.54   0.89471   -26.29
       2050   0.79772   -52.08    11.641   131.68  0.026797    59.94   0.89007   -26.84
       2100   0.79228   -53.20    11.563   130.66  0.027315    59.35   0.88526   -27.39
       2150   0.78682   -54.32     11.49   129.70  0.027786    58.79   0.88018   -27.94
       2200   0.78064   -55.44    11.408   128.72  0.028228    58.09   0.87577   -28.40
       2250   0.77441   -56.56    11.333   127.67  0.028694    57.54   0.87183   -28.97
       2300   0.76822   -57.70    11.245   126.68  0.029172    57.03    0.8676   -29.55
       2350   0.76288   -58.78    11.127   125.80   0.02971    56.44   0.86135   -30.16
       2400   0.75645   -59.92    11.051   124.86  0.030166    55.77   0.85484   -30.59
       2450   0.74923   -60.98    10.976   123.93  0.030668    55.16   0.84989   -31.02
       2500   0.74235   -61.98    10.892   123.03   0.03112    54.26   0.84518   -31.48
       2600   0.73097   -64.05    10.723   121.26   0.03187    53.00   0.83547   -32.38
       2700   0.71865   -66.11    10.575   119.45  0.032565    51.72   0.82661   -33.18
       2800   0.70778   -68.09    10.414   117.73  0.033156    50.52   0.81695   -33.95
       2900   0.69548   -70.08    10.249   116.03  0.033688    49.42    0.8086   -34.67
       3000   0.68418   -71.93    10.114   114.37  0.034225    48.49   0.80184   -35.40
       3100   0.67514   -73.79    9.9625   112.73   0.03468    47.66   0.79528   -36.22
       3200    0.6648   -75.63    9.8151   111.13  0.035225    46.87   0.78732   -36.97
       3300   0.65423   -77.59    9.6786   109.51  0.035749    46.08   0.77991   -37.82
       3400    0.6435   -79.39    9.5457   107.88  0.036258    45.41   0.77305   -38.61
       3500   0.63431   -81.15    9.4066   106.37  0.036767    44.70   0.76536   -39.30
       3600   0.62334   -83.06    9.2726   104.81  0.037248    43.99   0.75796   -39.97
       3700   0.61484   -84.76    9.1321   103.31  0.037696    43.25   0.75116   -40.70
       3800   0.60444   -86.63    9.0191   101.76  0.038211    42.67   0.74491   -41.41
       3900   0.59523   -88.29    8.8848   100.27  0.038626    42.14   0.73828   -42.07
       4000   0.58541   -90.13    8.7619    98.79  0.039121    41.47   0.73137   -42.80
       4100   0.57625   -91.80    8.6267    97.37  0.039504    40.80   0.72414   -43.41
       4200   0.56773   -93.46    8.5116    95.98  0.039899    40.20   0.71829   -44.04
       4300   0.55971   -95.05     8.394    94.58  0.040276    39.64   0.71275   -44.70
       4400   0.55069   -96.82    8.2835    93.12  0.040712    39.10   0.70755   -45.34
       4500   0.54358   -98.39    8.1593    91.81  0.041033    38.56   0.70139   -45.98
       4600   0.53497  -100.05    8.0454    90.48  0.041375    38.03   0.69532   -46.61
       4700   0.52793  -101.65    7.9351    89.17  0.041693    37.55   0.68937   -47.24
       4800   0.51881  -103.38    7.8251    87.76  0.042054    36.98    0.6842   -47.94
       4900   0.51124  -105.00    7.7203    86.48  0.042362    36.56    0.6788   -48.46
       5000   0.50365  -106.51    7.6163    85.23  0.042693    36.19   0.67283   -49.00
       5200   0.48902  -109.62    7.4106    82.60  0.043186    35.30   0.66305   -50.29
       5400    0.4749  -112.71    7.2162    80.24  0.043727    34.46   0.65361   -51.30
       5600   0.46145  -115.75    7.0305    77.77  0.044137    33.82   0.64367   -52.59
       5800   0.44856  -118.72    6.8486    75.42  0.044611    33.20   0.63538   -53.59
       6000   0.43776  -121.60    6.6822    73.12     0.045    32.66   0.62683   -54.81
       6200   0.42791  -124.46    6.5224    70.87  0.045475    32.30   0.61927   -55.89
       6400   0.41804  -127.41    6.3684    68.62  0.045982    31.83   0.61067   -57.00
       6600   0.40577  -130.24    6.2145    66.43  0.046257    31.46   0.60314   -57.97
       6800   0.39745  -132.99    6.0795    64.40   0.04678    31.22   0.59791   -59.04
       7000   0.38832  -135.66     5.943    62.20  0.047244    31.02   0.58933   -60.28
       7200    0.3824  -138.19    5.8176    60.26  0.047704    30.98   0.58405   -61.21
       7400   0.37467  -141.32    5.7013    58.04  0.048169    30.83   0.57811   -62.29
       7600   0.36866  -143.88     5.588    56.09  0.048929    30.64   0.57352   -63.47
       7800   0.36125  -146.84    5.4706    54.00  0.049278    30.64   0.56632   -64.59
       8000   0.35326  -149.09    5.3677    52.29  0.049924    30.83   0.56314   -65.44
       8200   0.35056  -151.86    5.2794    50.15  0.050877    30.87   0.55897   -67.01
       8400   0.34517  -154.89    5.1785    48.21   0.05178    30.53   0.55235   -68.03
       8600   0.33811  -157.31    5.0817    46.37  0.051704    30.58   0.54891   -68.84
       8800   0.33372  -160.29    4.9976    44.11  0.053069    30.61   0.54392   -70.55
       9000   0.33101  -162.35    4.9157    42.44  0.054191    30.97   0.54301   -71.86
       9200   0.33024  -165.68    4.8467    40.24  0.055653    30.83   0.53825   -73.62
       9400   0.32289  -168.87    4.7424    38.08  0.056185    29.91   0.52983   -75.07
       9600   0.31702  -171.18     4.642    36.59  0.056924    30.25   0.52187   -75.93
       9800   0.31122  -173.78    4.5755    34.80   0.05747    29.93   0.51824   -76.98
      10000   0.31034  -175.28    4.5026    33.23  0.058626    30.20   0.51427   -78.04
      10200   0.31047  -178.30    4.4667    31.21  0.060011    30.02   0.51104   -79.80
      10400    0.3124   178.62    4.4101    28.95  0.061859    29.62   0.51057   -81.65
      10600   0.30633   175.78    4.3221    26.94  0.062678    28.67   0.49802   -83.29
      10800   0.30363   173.15    4.2469    24.97  0.063432    28.08   0.49397   -84.68
      11000   0.29372   171.82     4.159    23.73   0.06204    28.50   0.48404   -84.94
      11200   0.30439   169.34    4.1498    21.77   0.06568    29.73   0.49021   -86.94
      11400    0.3032   166.33    4.0723    19.80  0.067141    28.96    0.4853   -88.44
      11600   0.30328   163.53    4.0324    18.05  0.069238    28.58   0.48227   -90.55
      11800   0.30311   160.99    3.9656    16.08  0.070139    27.86   0.47504   -91.74
      12000   0.29791   158.30    3.8897    14.41  0.071056    27.04   0.46551   -93.88
      12200    0.3013   156.73    3.8551    12.86  0.072693    27.87    0.4609   -94.73
      12400   0.30039   153.33    3.8009    10.90     0.075    26.22   0.45405   -96.37
      12600    0.2959   151.00    3.7478     9.63  0.074529    25.84   0.44644   -96.49
      12800   0.30102   149.61    3.7261     8.08   0.07639    26.47   0.45012   -97.41
      13000   0.30424   147.06    3.7218     6.00    0.0797    26.36   0.45691   -99.92
      13200   0.30154   145.53    3.6731     4.39   0.07911    26.23   0.45661  -100.87
      13400    0.3094   142.96    3.6238     2.27  0.083813    25.50   0.44977  -104.53
      13600   0.31304   140.47    3.6101     0.40  0.085104    25.04   0.44494  -106.14
      13800   0.31439   138.07    3.5452    -1.71  0.087635    24.08   0.43627  -108.50
      14000    0.3164   134.69    3.5018    -3.29  0.089188    23.07   0.42548  -110.42
      14200   0.31778   133.37    3.4644    -4.75  0.090778    22.92   0.42115  -111.17
      14400   0.31655   130.78     3.452    -6.27  0.093077    22.29   0.41769  -113.20
      14600   0.32375   128.32    3.4312    -8.39  0.096363    21.53   0.41652  -114.75
      14800   0.32104   125.32    3.3849   -10.23  0.098095    19.94    0.4081  -117.32
      15000   0.32561   123.81    3.3855   -11.95  0.099207    19.50   0.41155  -118.26
      15200   0.32683   122.14    3.3353   -13.96   0.10132    18.72   0.40815  -121.14
      15400   0.33644   120.32    3.3398   -15.49   0.10383    18.70   0.40823  -122.77
      15600   0.34248   118.59    3.2942   -17.85   0.10651    17.53    0.4057  -125.29
      15800   0.34735   116.27    3.2828   -19.51   0.10889    16.94   0.40634  -128.11
      16000   0.35667   113.59     3.238   -21.73   0.11204    15.70   0.39861  -130.69
      16200   0.36409   111.63    3.2178   -23.39   0.11473    15.12   0.39509  -132.79
      16400   0.37016   108.59    3.1935   -25.57   0.11787    13.84   0.39286  -134.94
      16600   0.36765   107.02    3.1504   -26.92   0.12005    12.43   0.38828  -137.45
      16800   0.37129   105.24    3.1418   -28.59   0.12169    11.95   0.38517  -138.70
      17000   0.37632   103.01    3.1294   -30.63    0.1253    10.82   0.38632  -142.40
      17200   0.37837   101.05    3.1048   -32.26   0.12786    10.04   0.37757  -144.08
      17400   0.38753    98.22    3.1152   -34.80   0.13197     9.05   0.38227  -147.18
      17600   0.38939    96.42    3.0864   -36.74    0.1352     7.88   0.37863  -148.80
      17800   0.39335    94.99    3.0788   -38.67   0.13829     6.66   0.37995  -151.96
      18000   0.40845    92.75      3.05   -41.36   0.14309     5.05   0.38867  -154.85
      18200   0.41075    89.60    3.0117   -43.64   0.14545     3.03   0.38595  -158.99
      18400   0.41889    87.77     2.964   -45.60    0.1475     1.97   0.38205  -162.37
      18600   0.42173    85.90    2.9192   -46.93   0.15046     0.70   0.37436  -165.71
      18800    0.4279    83.80    2.9021   -49.11   0.15366    -0.59   0.37405  -169.34
      19000   0.43002    82.22    2.8968   -50.35   0.15601    -1.83   0.36834  -171.73
      19200   0.43856    80.29    2.8986   -52.57   0.16031    -2.72   0.36965  -173.82
      19400   0.45634    77.87    2.8909   -55.23   0.16614    -4.27   0.37624  -177.22
      19600    0.4638    74.39    2.8569   -57.86   0.16897    -6.57   0.38012   179.14
      19800   0.47273    72.30    2.8176   -59.51   0.17202    -7.93   0.37719   175.10
      20000   0.47473    69.43     2.798   -61.54   0.17589    -9.42   0.37431   172.84

!  
! Device Noise Parameters
!  Freq-MHz   Fmin-dB  Gopt-mag  Gopt-arg   rn_normalized
	400	0.7318	0.61412	3.48	0.3290
	420	0.7325	0.61343	3.68	0.3290
	440	0.7331	0.61275	3.89	0.3290
	460	0.7337	0.61207	4.09	0.3290
	480	0.7343	0.61139	4.30	0.3290
	500	0.7350	0.61071	4.50	0.3290
	550	0.7365	0.60902	5.01	0.3289
	600	0.7381	0.60734	5.52	0.3289
	650	0.7397	0.60567	6.03	0.3288
	700	0.7413	0.60401	6.54	0.3287
	750	0.7430	0.60236	7.04	0.3286
	800	0.7446	0.60072	7.55	0.3285
	850	0.7462	0.59909	8.05	0.3283
	900	0.7479	0.59746	8.55	0.3282
	950	0.7496	0.59585	9.06	0.3280
	1000	0.7512	0.59424	9.56	0.3278
	1050	0.7529	0.59264	10.06	0.3276
	1100	0.7546	0.59104	10.55	0.3274
	1150	0.7563	0.58945	11.05	0.3271
	1200	0.7580	0.58787	11.55	0.3269
	1250	0.7598	0.58629	12.04	0.3266
	1300	0.7615	0.58472	12.54	0.3263
	1350	0.7633	0.58315	13.03	0.3260
	1400	0.7650	0.58159	13.53	0.3257
	1450	0.7668	0.58003	14.02	0.3253
	1500	0.7686	0.57848	14.51	0.3250
	1550	0.7704	0.57693	15.00	0.3246
	1600	0.7722	0.57539	15.49	0.3242
	1650	0.7740	0.57385	15.98	0.3238
	1700	0.7758	0.57231	16.47	0.3234
	1750	0.7777	0.57078	16.96	0.3230
	1800	0.7795	0.56925	17.44	0.3225
	1850	0.7814	0.56772	17.93	0.3221
	1900	0.7833	0.56619	18.41	0.3216
	1950	0.7851	0.56467	18.90	0.3211
	2000	0.7870	0.56315	19.38	0.3206
	2050	0.7889	0.56163	19.87	0.3201
	2100	0.7909	0.56012	20.35	0.3196
	2150	0.7928	0.55861	20.83	0.3190
	2200	0.7947	0.55709	21.31	0.3185
	2250	0.7967	0.55558	21.79	0.3179
	2300	0.7986	0.55408	22.27	0.3173
	2350	0.8006	0.55257	22.75	0.3168
	2400	0.8026	0.55106	23.23	0.3161
	2450	0.8046	0.54956	23.71	0.3155
	2500	0.8066	0.54805	24.19	0.3149
	2600	0.8106	0.54505	25.15	0.3136
	2700	0.8147	0.54205	26.10	0.3122
	2800	0.8188	0.53905	27.06	0.3108
	2900	0.8230	0.53605	28.01	0.3094
	3000	0.8272	0.53305	28.96	0.3079
	3100	0.8315	0.53006	29.91	0.3064
	3200	0.8358	0.52706	30.87	0.3048
	3300	0.8401	0.52407	31.82	0.3032
	3400	0.8445	0.52107	32.77	0.3015
	3500	0.8490	0.51808	33.72	0.2998
	3600	0.8534	0.51509	34.67	0.2980
	3700	0.8580	0.51210	35.62	0.2963
	3800	0.8625	0.50910	36.57	0.2944
	3900	0.8671	0.50611	37.52	0.2926
	4000	0.8718	0.50312	38.48	0.2907
	4100	0.8765	0.50013	39.43	0.2888
	4200	0.8812	0.49715	40.39	0.2868
	4300	0.8860	0.49416	41.34	0.2848
	4400	0.8908	0.49118	42.30	0.2828
	4500	0.8957	0.48820	43.26	0.2808
	4600	0.9006	0.48523	44.23	0.2787
	4700	0.9056	0.48226	45.19	0.2766
	4800	0.9106	0.47929	46.16	0.2745
	4900	0.9156	0.47633	47.13	0.2723
	5000	0.9207	0.47338	48.10	0.2701
	5200	0.9310	0.46749	50.05	0.2657
	5400	0.9415	0.46163	52.01	0.2612
	5600	0.9522	0.45581	53.99	0.2566
	5800	0.9630	0.45004	55.97	0.2519
	6000	0.9740	0.44431	57.97	0.2472
	6200	0.9852	0.43864	59.99	0.2425
	6400	0.9966	0.43303	62.02	0.2377
	6600	1.0081	0.42749	64.06	0.2329
	6800	1.0198	0.42202	66.12	0.2280
	7000	1.0317	0.41662	68.19	0.2231
	7200	1.0437	0.41129	70.28	0.2183
	7400	1.0560	0.40605	72.38	0.2134
	7600	1.0684	0.40089	74.50	0.2085
	7800	1.0810	0.39582	76.64	0.2037
	8000	1.0937	0.39083	78.79	0.1989
	8200	1.1067	0.38592	80.95	0.1941
	8400	1.1198	0.38110	83.12	0.1894
	8600	1.1331	0.37635	85.31	0.1847
	8800	1.1465	0.37168	87.51	0.1801
	9000	1.1601	0.36708	89.72	0.1756
	9200	1.1739	0.36255	91.95	0.1712
	9400	1.1879	0.35807	94.18	0.1668
	9600	1.2021	0.35365	96.43	0.1625
	9800	1.2164	0.34926	98.68	0.1584
	10000	1.2309	0.34491	100.95	0.1543
	10400	1.2605	0.33625	105.51	0.1467
	11000	1.3061	0.32319	112.44	0.1362
	11400	1.3374	0.31428	117.13	0.1301
	12000	1.3856	0.30035	124.33	0.1222
	12400	1.4186	0.29053	129.28	0.1181
	13000	1.4695	0.27481	137.05	0.1136
	13400	1.5043	0.26361	142.56	0.1118
	14000	1.5578	0.24585	151.56	0.1112
	14400	1.5943	0.23358	158.25	0.1123
	15000	1.6504	0.21547	169.78	0.1164
	15400	1.6887	0.20454	178.77	0.1207
	15800	1.7276	0.19575	189.01	0.1265
	16000	1.7474	0.19259	194.63	0.1300
	16400	1.7874	0.18980	206.76	0.1381
	16800	1.8281	0.19317	219.72	0.1478
	17000	1.8488	0.19763	226.27	0.1533
	17400	1.8905	0.21269	239.03	0.1655
	17800	1.9330	0.23617	250.75	0.1795
	18000	1.9545	0.25099	256.07	0.1872