! Filename:  P:\Prog\Test\Noise\ATS_data\Testdata_Net\BFU710\BFU710_2W_A1_1.5V1mA_D.s2p
! Date/Time: Fri 29/Apr/2011 13:25:27
! BFU710_2W_A1_1.5V1mA
! bias mode 1: Vout= 1.5002 V, Iout= 1.0300 mA, Vin= 0.7839 V, Iin= 0.0031 mA
! Date/time Wed Mar 16 12:51:32 2011
! Device data file deembeded for feedlines and parallel
! Original file: \BFU710\BFU710_2W_A1_1.5V1mA_R.s2p
! Feed-files: PR003V01_101208_Feed1.s2p, PR003V01_101208_Feed2.s2p
! Parallel-file: PR003V01_101208_Par.s2p
# MHz S MA R 50
!  Freq-MHz   S11-mag  S11-arg   S21-mag  S21-arg   S12-mag  S12-arg   S22-mag  S22-arg
         40   0.98891    -0.66      3.42   179.63 0.00059197    87.27   0.99966    -0.37
         50   0.98522    -1.18    3.4347   179.09 0.00038219   101.47   0.99917    -0.49
         60   0.98749    -0.76    3.3937   178.83 0.00086162   103.97   0.99979    -0.50
         70   0.98899    -1.05     3.402   179.03 0.0010203    90.99   0.99991    -0.61
         80   0.98878    -1.23    3.4305   178.84 0.0011602    91.09         1    -0.70
         90   0.98912    -1.40     3.434   178.51 0.0013416    90.68   0.99989    -0.80
        100    0.9894    -1.52    3.4162   178.48  0.001452    90.22   0.99975    -0.89
        120   0.98871    -1.90     3.417   178.26 0.0018012    91.15   0.99989    -1.07
        140   0.98871    -2.19    3.4203   177.98 0.0021317    91.21         1    -1.27
        160   0.98892    -2.51    3.4117   177.59 0.0024214    90.27   0.99979    -1.46
        180   0.98927    -2.85    3.4189   177.40 0.0027312    90.41         1    -1.65
        200   0.98869    -3.18    3.4222   177.00 0.0030321    90.73   0.99975    -1.84
        220    0.9885    -3.50    3.4262   176.74 0.0033815    90.41   0.99988    -2.03
        240   0.98816    -3.81    3.4449   176.36 0.0037118    89.69   0.99996    -2.24
        260   0.98829    -4.13    3.4283   176.06  0.003992    90.04   0.99985    -2.42
        280   0.98811    -4.46    3.4337   175.76 0.0043531    89.88   0.99997    -2.61
        300   0.98828    -4.79    3.4318   175.44 0.0046633    89.78    0.9999    -2.81
        320   0.98774    -5.09    3.4165   175.15 0.0050133    89.28   0.99992    -2.99
        340   0.98757    -5.40     3.424   174.83 0.0053241    89.16   0.99977    -3.19
        360   0.98757    -5.73    3.4145   174.58 0.0056252    89.08   0.99958    -3.38
        380   0.98741    -6.03    3.4182   174.26 0.0059958    88.58   0.99955    -3.58
        400   0.98709    -6.34    3.4293   173.98 0.0063276    88.35   0.99919    -3.76
        420    0.9869    -6.68    3.4447   173.64 0.0066593    88.09   0.99939    -3.95
        440   0.98677    -7.00    3.4353   173.37 0.0069897    87.97   0.99929    -4.14
        460   0.98671    -7.33    3.4438   173.05  0.007321    87.66   0.99904    -4.33
        480   0.98623    -7.66    3.4404   172.77 0.0076421    87.51   0.99924    -4.53
        500    0.9858    -8.00    3.4176   172.42 0.0079532    87.11     0.999    -4.73
        550   0.98564    -8.79    3.4303   171.73  0.008778    86.34   0.99873    -5.19
        600   0.98494    -9.59    3.4501   170.96 0.0096337    85.89   0.99833    -5.67
        650    0.9845   -10.39    3.4313   170.17   0.01046    85.20    0.9979    -6.16
        700   0.98354   -11.16    3.4045   169.41  0.011295    84.49   0.99747    -6.65
        750   0.98324   -11.97    3.4153   168.66  0.012114    83.79   0.99687    -7.14
        800   0.98219   -12.77    3.4464   167.97  0.012963    83.15   0.99668    -7.59
        850   0.98131   -13.57     3.444   167.18  0.013785    82.45   0.99635    -8.05
        900   0.98082   -14.36    3.4102   166.42  0.014617    81.78   0.99574    -8.54
        950   0.98018   -15.17    3.4132   165.72   0.01541    81.18   0.99516    -9.02
       1000    0.9794   -15.94    3.4378   164.97  0.016257    80.51   0.99468    -9.50
       1050   0.97821   -16.71    3.4315   164.22  0.017052    79.90   0.99407    -9.97
       1100   0.97754   -17.48     3.412   163.50  0.017869    79.16   0.99338   -10.47
       1150   0.97643   -18.30    3.4197   162.72  0.018695    78.59   0.99266   -10.93
       1200   0.97522   -19.08    3.4264   161.99  0.019497    77.97   0.99201   -11.37
       1250   0.97452   -19.89    3.4179   161.23  0.020332    77.28   0.99142   -11.87
       1300   0.97374   -20.67    3.4014   160.46  0.021155    76.67   0.99083   -12.34
       1350   0.97244   -21.48    3.4115   159.77  0.021916    76.03   0.98973   -12.83
       1400   0.97125   -22.26    3.4199   159.01  0.022705    75.40   0.98907   -13.30
       1450   0.97042   -23.06    3.4111   158.29  0.023511    74.77   0.98849   -13.77
       1500   0.96931   -23.85    3.4031   157.56  0.024314    74.13   0.98755   -14.26
       1550   0.96828   -24.63    3.4123   156.79  0.025075    73.55   0.98711   -14.70
       1600   0.96696   -25.42    3.4174   156.11  0.025872    72.98   0.98635   -15.16
       1650   0.96563   -26.24     3.403   155.34  0.026662    72.31   0.98517   -15.65
       1700   0.96486   -27.00    3.3938   154.58  0.027393    71.75   0.98413   -16.11
       1750    0.9637   -27.79    3.3987   153.87  0.028164    71.15   0.98309   -16.60
       1800   0.96229   -28.62    3.3999   153.12  0.028969    70.57   0.98264   -17.07
       1850   0.96063   -29.44    3.3914   152.32  0.029729    69.90   0.98157   -17.56
       1900    0.9594   -30.24    3.3923   151.62  0.030456    69.39   0.98057   -18.03
       1950   0.95783   -31.01    3.3787   150.90  0.031228    68.86      0.98   -18.50
       2000   0.95666   -31.79    3.3724   150.17  0.032029    68.35   0.97904   -19.01
       2050   0.95444   -32.57    3.3745   149.44   0.03283    67.82   0.97797   -19.46
       2100   0.95328   -33.35    3.3769   148.71   0.03362    67.26   0.97656   -19.96
       2150   0.95192   -34.11    3.3757   148.05  0.034425    66.72    0.9751   -20.42
       2200   0.95043   -34.91    3.3687   147.35  0.035152    66.00   0.97391   -20.87
       2250    0.9485   -35.72    3.3723   146.58  0.035885    65.52   0.97281   -21.37
       2300   0.94701   -36.51    3.3687   145.86  0.036726    65.02   0.97187   -21.84
       2350   0.94434   -37.25    3.3431   145.14  0.037623    64.43   0.96984   -22.36
       2400   0.94313   -38.03    3.3335   144.42  0.038462    63.68   0.96754   -22.81
       2450     0.941   -38.80    3.3417   143.72  0.039293    63.00    0.9662   -23.24
       2500   0.93917   -39.55    3.3391   143.01  0.040094    62.05   0.96511   -23.72
       2600   0.93591   -41.10    3.3224   141.61  0.041512    60.68   0.96222   -24.65
       2700   0.93164   -42.69    3.3302   140.20  0.042885    59.31   0.95954   -25.50
       2800   0.92887   -44.21     3.309   138.76  0.044123    57.81   0.95624   -26.42
       2900   0.92401   -45.81    3.2993   137.33  0.045331    56.43   0.95336   -27.30
       3000   0.92055   -47.32    3.2987   135.92  0.046389    55.19   0.95069   -28.20
       3100    0.9175   -48.82    3.2804   134.54  0.047507    54.14   0.94841   -29.12
       3200   0.91346   -50.33    3.2744   133.17  0.048695    53.07   0.94491   -29.99
       3300   0.90964   -51.91    3.2614   131.78  0.049894    51.93   0.94207   -30.97
       3400   0.90527   -53.40    3.2599   130.37  0.051049    50.93   0.93892   -31.89
       3500   0.90115   -54.89    3.2483   129.00  0.052218    49.84   0.93535   -32.76
       3600   0.89678   -56.48    3.2429   127.67  0.053345    48.77   0.93146   -33.60
       3700   0.89328   -57.88    3.2125   126.27  0.054425    47.59   0.92852   -34.51
       3800   0.88815   -59.50    3.2255   124.88  0.055583    46.64   0.92566   -35.38
       3900   0.88377   -60.96    3.2145   123.52  0.056586    45.63   0.92199   -36.24
       4000   0.87934   -62.53    3.2175   122.12  0.057783    44.54   0.91862   -37.15
       4100   0.87476   -64.00    3.1906   120.78  0.058784    43.33    0.9145   -38.01
       4200   0.87051   -65.42    3.1836   119.43  0.059787    42.28   0.91134   -38.88
       4300    0.8665   -66.95    3.1735   118.09  0.060708    41.20   0.90809   -39.78
       4400   0.86148   -68.55    3.1809   116.64  0.061717    40.15    0.9052   -40.64
       4500   0.85745   -70.02     3.159   115.35  0.062558    39.11   0.90099   -41.52
       4600   0.85198   -71.49    3.1468   113.98  0.063439    38.02   0.89694   -42.39
       4700   0.84839   -72.96    3.1229   112.66  0.064254    36.94    0.8929   -43.27
       4800   0.84273   -74.53    3.1228   111.22  0.065186    35.84   0.88987   -44.21
       4900   0.83773   -76.02    3.1062   109.86  0.066004    34.77   0.88629   -45.02
       5000   0.83259   -77.53    3.1035   108.61  0.066775    33.78   0.88168   -45.82
       5200   0.82261   -80.48    3.0765   105.82  0.068088    31.67   0.87391   -47.64
       5400   0.81225   -83.43    3.0562   103.26  0.069424    29.57   0.86656   -49.26
       5600   0.80159   -86.39    3.0284   100.53  0.070466    27.50   0.85782   -51.08
       5800   0.79081   -89.33     3.002    97.92  0.071523    25.44   0.85061   -52.69
       6000    0.7819   -92.22     2.971    95.35  0.072272    23.47   0.84222   -54.46
       6200   0.77262   -95.14    2.9419    92.77  0.072991    21.62   0.83472   -56.10
       6400   0.76268   -98.06    2.9165    90.21  0.073793    19.69   0.82627   -57.78
       6600   0.75099  -100.90    2.8884    87.63  0.073995    17.68    0.8176   -59.42
       6800   0.74087  -103.78     2.868    85.16  0.074364    16.10   0.81047   -61.00
       7000   0.73119  -106.60    2.8403    82.54  0.074721    14.30   0.80132   -62.75
       7200   0.72236  -109.42    2.8171    80.17  0.074597    12.79   0.79397   -64.27
       7400   0.71304  -112.30    2.7934    77.61  0.074578    11.07   0.78554   -66.00
       7600   0.70487  -115.07    2.7687    75.22  0.074871     9.68   0.77935   -67.52
       7800   0.69409  -117.97    2.7424    72.75   0.07448     8.11   0.77065   -69.26
       8000   0.68492  -120.53    2.7148    70.52  0.073673     6.78   0.76225   -70.70
       8200    0.6781  -123.38    2.6994    68.04    0.0739     5.95   0.75681   -72.45
       8400   0.66938  -126.19    2.6653    65.66  0.073795     4.21   0.74768   -74.10
       8600   0.65974  -128.92    2.6432    63.38   0.07226     2.82    0.7404   -75.48
       8800   0.65167  -131.86    2.6272    60.75  0.072699     2.10   0.73403   -77.32
       9000   0.64645  -134.28    2.5991    58.61  0.071967     1.51   0.72987   -78.96
       9200   0.64089  -137.40    2.5875    56.12   0.07252     0.92   0.72416   -80.84
       9400   0.62882  -140.45    2.5553    53.44  0.072125    -1.32   0.71548   -82.78
       9600   0.61911  -142.94    2.5218    51.39  0.070674    -2.21   0.70407   -84.28
       9800   0.61053  -145.54     2.496    49.12  0.069213    -3.62   0.69754   -85.86
      10000   0.60604  -147.82    2.4679    47.12  0.068083    -3.78   0.69089   -87.35
      10200   0.60185  -150.80    2.4617    44.81  0.067835    -4.01   0.68533   -89.21
      10400   0.59895  -153.79    2.4442    42.25  0.068154    -4.35   0.68352   -91.22
      10600   0.58826  -156.64    2.4179    39.75  0.067763    -6.12   0.67147   -93.25
      10800    0.5816  -159.34    2.3861    37.27  0.066394    -7.34   0.66442   -95.16
      11000   0.56962  -161.56    2.3503    35.54  0.062341    -8.55   0.65147   -96.16
      11200   0.57202  -164.27      2.35    33.21  0.062594    -5.75   0.65523   -98.28
      11400   0.56697  -167.05    2.3188    30.94  0.062247    -6.39   0.64799  -100.17
      11600   0.56377  -169.76     2.306    28.75  0.062049    -5.78    0.6418  -102.32
      11800   0.55818  -172.70    2.2738    26.39  0.060861    -6.40   0.63303  -104.02
      12000   0.55027  -175.39    2.2468    24.31  0.060266    -6.93   0.62256  -106.13
      12200   0.54861  -177.79    2.2281    22.38  0.059031    -4.97   0.61696  -107.39
      12400    0.5422   179.24    2.2095    19.90  0.059626    -6.20   0.61166  -109.66
      12600   0.53368   176.93    2.1748    18.06  0.056096    -6.21   0.59851  -110.88
      12800   0.53481   174.74    2.1646    16.25  0.055084    -3.34   0.59785  -112.33
      13000   0.53444   172.07    2.1674    14.01  0.057062    -0.33   0.59983  -114.38
      13200    0.5308   169.76     2.139    12.06  0.054281     0.84   0.59539  -115.78
      13400   0.53223   166.91    2.1231     9.66  0.058424     1.96   0.59253  -118.80
      13600    0.5313   164.19    2.1188     7.39  0.058085     3.01   0.58698  -120.90
      13800   0.52898   161.73    2.0893     4.97  0.059256     3.17   0.57928  -123.52
      14000   0.52484   158.65    2.0669     2.85  0.059244     3.44   0.56857  -125.79
      14200   0.52562   156.69      2.04     1.04  0.058816     5.85    0.5611  -127.48
      14400   0.52188   154.25    2.0365    -0.80  0.060199     7.34   0.55501  -129.71
      14600   0.52557   151.37    2.0219    -3.20  0.062797     8.69   0.55146  -131.58
      14800   0.51983   148.64    1.9974    -5.33  0.063753     8.38   0.54316  -134.30
      15000   0.52282   146.18    1.9923    -7.30  0.065036    10.24   0.54127  -135.65
      15200   0.52202   143.80    1.9692    -9.45  0.066897    10.59   0.53874  -138.31
      15400   0.52644   141.32    1.9705   -11.35  0.069555    12.47   0.53716  -140.23
      15600   0.52981   138.86    1.9445   -13.86  0.071885    12.37   0.53487  -142.87
      15800   0.53099   136.26    1.9427   -15.84  0.074785    12.84   0.53522  -145.34
      16000   0.53489   133.44    1.9184   -18.35  0.077094    12.16   0.53084  -148.19
      16200   0.53881   130.98    1.9054   -20.42  0.079646    12.94   0.52807  -150.68
      16400   0.54045   128.02    1.8865   -22.77  0.083015    12.48   0.52347  -153.12
      16600   0.53757   126.06    1.8658   -24.51  0.084966    12.09    0.5204  -155.80
      16800   0.54035   123.79    1.8536   -26.46  0.087475    12.87   0.51557  -157.76
      17000   0.54267   121.22    1.8459   -28.66  0.091687    12.25   0.51761  -161.08
      17200   0.54271   119.02    1.8305   -30.62  0.094328    12.23   0.51001  -163.43
      17400   0.54868   116.08      1.83   -33.24  0.099208    11.78   0.51367  -166.52
      17600   0.55039   113.68    1.8145   -35.27   0.10324    11.19    0.5069  -168.61
      17800   0.55242   111.53    1.8078   -37.58   0.10732    10.34   0.50978  -171.61
      18000   0.56233   108.77    1.7879   -40.17   0.11281     8.65   0.51485  -174.39
      18200   0.56168   105.89    1.7695   -42.64    0.1156     6.87   0.51176  -178.07
      18400   0.56567   103.40    1.7405   -44.89   0.11845     6.02   0.51023   178.89
      18600   0.56528   101.38    1.7123   -46.67    0.1216     5.21   0.50661   175.48
      18800   0.57103    98.76    1.6988   -48.92   0.12613     3.95   0.50653   172.23
      19000   0.57234    96.90    1.6885   -50.55   0.12908     3.19   0.50372   169.40
      19200   0.57819    94.46    1.6814   -52.81   0.13485     2.43     0.503   166.68
      19400   0.58918    91.75    1.6723   -55.44   0.14128     0.44   0.50615   163.60
      19600   0.59394    88.75    1.6487   -58.15   0.14423    -1.82    0.5096   160.30
      19800   0.60218    86.27    1.6265   -59.84   0.14789    -3.03   0.50656   156.77
      20000   0.60327    83.46    1.6122   -62.06   0.15219    -4.28   0.50492   154.18