! Filename:  P:\Prog\Test\Noise\ATS_data\Testdata_Net\BFU710\BFU710_2W_A1_1.5V3.5mA_D.s2p
! Date/Time: Fri 29/Apr/2011 13:25:41
! BFU710_2W_A1_1.5V3.5mA
! bias mode 1: Vout= 1.5000 V, Iout= 3.4550 mA, Vin= 0.8156 V, Iin= 0.0115 mA
! Date/time Wed Mar 16 12:47:41 2011
! Device data file deembeded for feedlines and parallel
! Original file: \BFU710\BFU710_2W_A1_1.5V3.5mA_R.s2p
! Feed-files: PR003V01_101208_Feed1.s2p, PR003V01_101208_Feed2.s2p
! Parallel-file: PR003V01_101208_Par.s2p
# MHz S MA R 50
!  Freq-MHz   S11-mag  S11-arg   S21-mag  S21-arg   S12-mag  S12-arg   S22-mag  S22-arg
         40   0.96313    -0.92    10.164   179.17 0.00057231    87.43   0.99895    -0.36
         50   0.96399    -1.16    10.198   178.51 0.00042833    64.43   0.99881    -0.55
         60   0.96305    -1.34    10.075   178.41 0.00075186   100.87   0.99948    -0.60
         70   0.96348    -1.53      10.1   178.56 0.00099098    90.00   0.99969    -0.75
         80   0.96282    -1.76    10.174   178.31 0.0011407    90.76   0.99979    -0.88
         90   0.96269    -2.00    10.179   177.93  0.001302    90.22   0.99966    -1.03
        100   0.96233    -2.22    10.132   177.83 0.0014228    89.19   0.99963    -1.16
        120   0.96261    -2.71    10.156   177.43 0.0017618    90.35   0.99987    -1.42
        140   0.96266    -3.17    10.156   177.03 0.0020921    90.32   0.99995    -1.70
        160    0.9626    -3.62    10.124   176.54 0.0023723    89.42    0.9997    -1.95
        180   0.96288    -4.11    10.139   176.21 0.0026821    89.72    0.9998    -2.21
        200   0.96248    -4.56    10.147   175.68 0.0029932    89.62   0.99959    -2.48
        220   0.96185    -5.06    10.161   175.27 0.0033225    89.73   0.99958    -2.74
        240   0.96133    -5.51    10.203   174.76  0.003623    89.23   0.99952    -3.01
        260   0.96133    -5.95    10.167   174.30 0.0039537    89.36   0.99934    -3.27
        280   0.96094    -6.44    10.177   173.85 0.0042448    88.66   0.99938    -3.53
        300   0.96072    -6.92    10.168   173.41 0.0045851    88.51   0.99926    -3.81
        320   0.96021    -7.37    10.126   172.98 0.0048955    88.35   0.99905    -4.06
        340   0.96001    -7.84    10.142   172.52 0.0052167    87.78   0.99871    -4.33
        360   0.95972    -8.29    10.111   172.15 0.0055181    87.71   0.99839    -4.58
        380   0.95932    -8.76    10.119   171.69  0.005869    87.32   0.99816    -4.86
        400   0.95857    -9.23    10.148   171.25 0.0061912    86.89    0.9976    -5.11
        420   0.95797    -9.69    10.181   170.77 0.0064835    86.53   0.99761    -5.36
        440   0.95753   -10.15    10.149   170.37 0.0068144    86.38   0.99732    -5.63
        460   0.95718   -10.62    10.165   169.91 0.0071364    85.86   0.99685    -5.88
        480   0.95629   -11.09    10.148   169.49 0.0074679    85.65   0.99683    -6.16
        500   0.95584   -11.55    10.091   169.02 0.0077799    85.19   0.99618    -6.44
        550   0.95436   -12.69    10.127   167.89 0.0085663    84.33   0.99477    -7.07
        600   0.95214   -13.89     10.16   166.78 0.0093738    83.61    0.9936    -7.71
        650   0.95078   -15.02    10.094   165.66  0.010163    82.84    0.9922    -8.38
        700   0.94873   -16.13     10.01   164.61   0.01097    81.83    0.9908    -9.05
        750   0.94682   -17.30    10.018   163.54  0.011721    81.01   0.98887    -9.69
        800   0.94422   -18.52    10.072   162.51  0.012524    80.13   0.98763   -10.29
        850   0.94189   -19.65    10.038   161.40  0.013309    79.32   0.98613   -10.92
        900   0.93972   -20.73    9.9402   160.34  0.014084    78.47   0.98402   -11.59
        950   0.93738   -21.89    9.9272   159.35  0.014811    77.67    0.9818   -12.21
       1000   0.93438   -23.03    9.9561   158.25  0.015592    76.91   0.97994   -12.83
       1050   0.93112   -24.13    9.9168   157.23  0.016362    76.18    0.9779   -13.46
       1100   0.92872   -25.22    9.8475   156.22  0.017093    75.27   0.97542   -14.11
       1150   0.92532   -26.38    9.8492   155.13  0.017823    74.54   0.97284   -14.71
       1200   0.92204   -27.50    9.8333   154.12  0.018571    73.79   0.97083   -15.29
       1250   0.91903   -28.60    9.7816   153.07  0.019299    72.95   0.96862   -15.95
       1300   0.91585   -29.68      9.72   152.05  0.020007    72.16   0.96588   -16.56
       1350   0.91228   -30.84    9.7231   151.03  0.020694    71.41   0.96283   -17.17
       1400   0.90855   -31.96     9.711   150.00  0.021397    70.65   0.96021   -17.76
       1450   0.90536   -33.04    9.6688   149.01  0.022087    69.90   0.95768   -18.37
       1500   0.90169   -34.15    9.6237   148.03  0.022744    69.17   0.95465   -18.98
       1550   0.89812   -35.26    9.6051   146.97  0.023419    68.47   0.95211   -19.52
       1600    0.8941   -36.34    9.5845   145.99  0.024099    67.76   0.94953   -20.09
       1650   0.88997   -37.44    9.5235   145.00  0.024731    67.04   0.94615   -20.69
       1700     0.887   -38.47    9.4767   144.02  0.025355    66.34   0.94279   -21.27
       1750    0.8827   -39.58    9.4558   143.01  0.025979    65.64   0.93968   -21.86
       1800   0.87847   -40.68    9.4184   142.02  0.026646    64.97   0.93716   -22.44
       1850   0.87437   -41.77    9.3695   141.02  0.027265    64.24   0.93377   -23.03
       1900    0.8702   -42.89    9.3494   140.02  0.027833    63.62   0.93063   -23.59
       1950   0.86604   -43.90    9.2858   139.09  0.028445    63.00   0.92793   -24.17
       2000   0.86179   -44.95    9.2356   138.10  0.029055    62.35   0.92473   -24.79
       2050   0.85669   -46.01    9.1975   137.14  0.029706    61.79   0.92103   -25.35
       2100   0.85262   -47.04    9.1583   136.19    0.0303    61.13   0.91724   -25.91
       2150   0.84837   -48.09     9.122   135.30   0.03092    60.52    0.9131   -26.47
       2200   0.84372   -49.14     9.076   134.38  0.031461    59.81    0.9095   -26.97
       2250   0.83883   -50.19    9.0394   133.39  0.032015    59.27   0.90629   -27.55
       2300   0.83399   -51.24    8.9902   132.45  0.032636    58.66   0.90304   -28.13
       2350   0.82955   -52.23    8.9044   131.62  0.033252    58.08   0.89794   -28.76
       2400   0.82452   -53.30    8.8617   130.72  0.033849    57.29   0.89223   -29.24
       2450   0.81841   -54.32    8.8293   129.82   0.03446    56.62   0.88807   -29.70
       2500   0.81305   -55.24    8.7778   128.95  0.035045    55.70   0.88427   -30.21
       2600   0.80382   -57.22    8.6763   127.25  0.035975    54.36   0.87615   -31.20
       2700   0.79363   -59.21    8.6002   125.49   0.03687    52.97   0.86849   -32.09
       2800   0.78465   -61.10    8.4969   123.81  0.037678    51.58   0.85977   -32.99
       2900   0.77399   -63.03    8.3967   122.13  0.038406    50.33   0.85232   -33.83
       3000    0.7641   -64.87    8.3228   120.47  0.039052    49.24   0.84589   -34.66
       3100   0.75672   -66.66    8.2224   118.88  0.039688    48.24   0.84001   -35.58
       3200    0.7475   -68.46    8.1308   117.28  0.040404    47.30   0.83245   -36.43
       3300   0.73805   -70.38    8.0482   115.67  0.041109    46.27   0.82552   -37.40
       3400    0.7281   -72.17      7.97   114.03  0.041773    45.47   0.81883   -38.28
       3500    0.7201   -73.90    7.8775   112.51  0.042444    44.56   0.81151   -39.09
       3600   0.71002   -75.77    7.7948   110.95  0.043081    43.66   0.80432   -39.87
       3700   0.70264   -77.44    7.6928   109.44  0.043633    42.75   0.79753   -40.71
       3800   0.69222   -79.28    7.6281   107.86  0.044249    41.93   0.79131   -41.52
       3900   0.68339   -80.99    7.5409   106.35  0.044828    41.20    0.7847   -42.29
       4000   0.67448   -82.75    7.4621   104.85  0.045469    40.32   0.77788   -43.12
       4100   0.66611   -84.44    7.3651   103.39  0.045925    39.43   0.77042   -43.86
       4200   0.65803   -86.06    7.2875   101.97  0.046426    38.67   0.76434   -44.60
       4300   0.64972   -87.72    7.2071   100.52  0.046904    37.87   0.75846   -45.37
       4400   0.64064   -89.48    7.1371    99.00  0.047428    37.15   0.75304   -46.11
       4500   0.63353   -91.06    7.0461    97.66  0.047795    36.41   0.74647   -46.86
       4600   0.62505   -92.69    6.9639    96.27  0.048213    35.69    0.7399   -47.60
       4700   0.61818   -94.31    6.8815    94.92  0.048567    34.97   0.73355   -48.33
       4800   0.60898   -96.04    6.8079    93.44  0.049018    34.20   0.72801   -49.13
       4900   0.60111   -97.65    6.7292    92.11  0.049338    33.55   0.72218   -49.76
       5000   0.59303   -99.21    6.6565    90.82  0.049724    32.95    0.7157   -50.39
       5200   0.57781  -102.37    6.5071    88.04  0.050249    31.62   0.70469   -51.88
       5400   0.56303  -105.47    6.3596    85.57  0.050819    30.40   0.69406   -53.09
       5600   0.54851  -108.52    6.2193    82.97  0.051215    29.26   0.68277   -54.56
       5800   0.53451  -111.53    6.0807    80.48  0.051616    28.21   0.67319   -55.75
       6000   0.52259  -114.48    5.9499    78.05   0.05194    27.30   0.66321   -57.13
       6200   0.51121  -117.40    5.8246    75.66  0.052263    26.49   0.65432   -58.37
       6400   0.50004  -120.39    5.7029    73.30  0.052628    25.66   0.64427   -59.63
       6600   0.48644  -123.23    5.5802    70.95  0.052711    24.88   0.63511   -60.77
       6800   0.47668  -126.00    5.4712    68.79  0.053001    24.34   0.62833   -61.97
       7000   0.46595  -128.74    5.3609    66.45  0.053282    23.76   0.61848   -63.33
       7200   0.45866  -131.40    5.2587    64.37   0.05342    23.40   0.61167   -64.41
       7400   0.44933  -134.44    5.1635    62.05  0.053581    22.95   0.60385   -65.60
       7600   0.44197  -137.11    5.0703    59.94  0.054151    22.55    0.5982   -66.88
       7800   0.43317  -140.01    4.9717    57.76  0.054101    22.28   0.58962   -68.11
       8000   0.42381  -142.34    4.8846    55.90  0.054332    22.25   0.58453   -69.07
       8200   0.41948  -145.14    4.8118    53.67  0.055046    22.25   0.57951   -70.67
       8400   0.41251  -148.07    4.7249    51.60  0.055567    21.71   0.57146   -71.81
       8600   0.40459  -150.61    4.6435    49.66  0.055075    21.61   0.56651   -72.72
       8800   0.39856  -153.59     4.573    47.30  0.056139    21.65   0.56089   -74.45
       9000   0.39464  -155.76    4.5022    45.51  0.056811    22.06   0.55878   -75.80
       9200   0.39231  -158.97    4.4444    43.23  0.058016    21.92   0.55356   -77.58
       9400   0.38266  -162.11    4.3547    40.93  0.058225    20.85   0.54432   -79.13
       9600   0.37602  -164.50    4.2665    39.32  0.058442    21.21    0.5353   -80.10
       9800   0.36876  -167.02    4.2078    37.43  0.058562    20.99    0.5306   -81.24
      10000   0.36715  -168.79    4.1427    35.76  0.059292    21.38   0.52567   -82.38
      10200   0.36615  -171.77    4.1126    33.66  0.060443    21.38   0.52181   -84.14
      10400   0.36632  -174.86    4.0634    31.32  0.061983    21.13   0.52075   -86.04
      10600    0.3589  -177.65    3.9862    29.21  0.062533    20.22   0.50811   -87.79
      10800    0.3546   179.63    3.9182    27.13  0.062918    19.69   0.50289   -89.26
      11000   0.34434   178.07    3.8392    25.78  0.061086    20.03   0.49205   -89.67
      11200   0.35358   175.49    3.8311    23.75  0.064109    21.77   0.49738   -91.65
      11400    0.3509   172.57    3.7621    21.72  0.065323    21.17   0.49189   -93.23
      11600   0.34992   169.82    3.7263    19.87  0.067129    21.17   0.48828   -95.33
      11800    0.3484   167.13     3.666    17.82  0.067734    20.57   0.48038   -96.65
      12000    0.3426   164.46    3.5994    16.06  0.068373    19.91   0.47099   -98.81
      12200   0.34497   162.62    3.5664    14.43  0.069644    21.02   0.46577   -99.75
      12400   0.34282   159.35    3.5182    12.36  0.071725    19.58   0.45909  -101.56
      12600   0.33676   157.16    3.4672    11.00  0.070846    19.37   0.44964  -101.85
      12800   0.34154   155.49    3.4472     9.39  0.072403    20.36    0.4524  -102.85
      13000   0.34353   152.87    3.4433     7.28   0.07559    20.70   0.45823  -105.18
      13200   0.34059   151.08    3.3984     5.59  0.074779    20.76   0.45726  -106.20
      13400   0.34739   148.37    3.3544     3.41  0.079394    20.23   0.45162  -109.81
      13600   0.34987   145.83    3.3418     1.46  0.080444    19.95    0.4464  -111.55
      13800   0.35102   143.41     3.283    -0.70  0.082743    19.15   0.43787  -114.02
      14000   0.35141   140.12    3.2422    -2.38  0.084093    18.33   0.42739  -116.02
      14200   0.35254   138.55    3.2059    -3.91   0.08531    18.52   0.42218  -117.00
      14400   0.35032   136.13    3.1953    -5.50  0.087602    18.14   0.41838  -119.04
      14600   0.35664   133.48    3.1744    -7.66  0.090787    17.66   0.41657  -120.67
      14800   0.35353   130.62    3.1321    -9.55  0.092443    16.21   0.40841  -123.29
      15000   0.35754   128.85    3.1305   -11.31  0.093647    16.00    0.4107  -124.31
      15200   0.35876   126.86    3.0845   -13.35  0.095606    15.32   0.40762  -127.18
      15400   0.36718   124.88    3.0881   -14.98  0.098099    15.50   0.40751  -128.86
      15600    0.3723   122.93    3.0458   -17.34   0.10064    14.47   0.40497  -131.45
      15800   0.37674   120.50    3.0356   -19.07   0.10305    13.95   0.40586  -134.19
      16000   0.38523   117.85    2.9939   -21.35   0.10592    12.84   0.39885  -136.96
      16200   0.39132   115.76    2.9748   -23.08   0.10848    12.42   0.39551  -139.09
      16400   0.39627   112.67    2.9499   -25.29   0.11154    11.29   0.39291  -141.37
      16600   0.39388   110.95    2.9109   -26.72   0.11367    10.02   0.38886  -143.90
      16800   0.39722   109.05    2.9004   -28.44   0.11536     9.66   0.38539  -145.39
      17000   0.40197   106.68     2.888   -30.52   0.11894     8.66   0.38703  -149.02
      17200   0.40417   104.70    2.8643   -32.21   0.12134     7.98   0.37846  -150.97
      17400   0.41261   101.88    2.8709   -34.76   0.12547     7.14    0.3827  -154.02
      17600   0.41491    99.92    2.8454   -36.73   0.12872     6.09   0.37859  -155.73
      17800   0.41806    98.34    2.8358   -38.72   0.13188     4.93   0.38019  -158.86
      18000   0.43195    95.97     2.809   -41.38   0.13665     3.38   0.38827  -161.60
      18200   0.43391    92.90    2.7743   -43.69   0.13905     1.42   0.38629  -165.70
      18400   0.43999    90.89    2.7301   -45.70   0.14114     0.41   0.38367  -168.98
      18600   0.44249    88.96    2.6868   -47.10   0.14398    -0.75   0.37757  -172.48
      18800   0.44835    86.74    2.6704   -49.28   0.14737    -2.02   0.37761  -176.03
      19000   0.45072    85.11    2.6625   -50.61   0.14964    -3.16   0.37282  -178.61
      19200   0.45876    83.13    2.6616   -52.82   0.15401    -4.00   0.37324   179.19
      19400   0.47532    80.62    2.6529   -55.48   0.15979    -5.54   0.37961   175.98
      19600   0.48109    77.31    2.6206   -58.09    0.1626    -7.80   0.38368   172.43
      19800   0.48985    75.05    2.5853   -59.75   0.16568    -9.08   0.38198   168.50
      20000   0.49131    72.16    2.5662   -61.81   0.16951   -10.49   0.37925   166.10