! Filename:  P:\Prog\Test\Noise\ATS_data\Testdata_Net\BFU710\BFU710_2W_A1_1V2mA_D.s2p
! Date/Time: Fri 29/Apr/2011 13:26:03
! BFU710_2W_A1_1V2mA
! bias mode 1: Vout= 1.0003 V, Iout= 1.9750 mA, Vin= 0.8030 V, Iin= 0.0063 mA
! Date/time Wed Mar 16 13:22:09 2011
! Device data file deembeded for feedlines and parallel
! Original file: \BFU710\BFU710_2W_A1_1V2mA_R.s2p
! Feed-files: PR003V01_101208_Feed1.s2p, PR003V01_101208_Feed2.s2p
! Parallel-file: PR003V01_101208_Par.s2p
# MHz S MA R 50
!  Freq-MHz   S11-mag  S11-arg   S21-mag  S21-arg   S12-mag  S12-arg   S22-mag  S22-arg
         40   0.97854    -0.78    6.3081   179.60 0.00063146    88.65   0.99934    -0.40
         50   0.97861    -1.45    6.3312   178.98 0.0012333    73.30   0.99932    -0.53
         60   0.97564    -1.02    6.2589   178.73 0.00085243    78.05   0.99962    -0.58
         70    0.9788    -1.26    6.2732   178.92 0.0011006    89.72   0.99971    -0.71
         80   0.97852    -1.47    6.3233   178.70 0.0012804    90.11   0.99985    -0.82
         90   0.97874    -1.69    6.3278   178.34  0.001452    89.07   0.99977    -0.94
        100   0.97849    -1.80    6.2954   178.27 0.0016327    88.48   0.99967    -1.05
        120   0.97857    -2.26    6.3066   177.92 0.0019616    89.33   0.99976    -1.27
        140   0.97819    -2.63    6.3105   177.58 0.0022918    90.37   0.99986    -1.52
        160   0.97841    -3.00    6.2879   177.18 0.0026218    89.88   0.99965    -1.74
        180   0.97853    -3.41    6.3002   176.92 0.0029616    89.84   0.99976    -1.97
        200   0.97836    -3.81    6.3054   176.45 0.0033025    89.46   0.99963    -2.20
        220   0.97784    -4.19     6.315   176.11  0.003652    89.98   0.99959    -2.44
        240   0.97743    -4.58    6.3461   175.68 0.0040025    89.00   0.99959    -2.67
        260   0.97775    -4.95    6.3215   175.28 0.0043729    89.35   0.99948    -2.90
        280    0.9774    -5.36    6.3295   174.91  0.004684    89.02   0.99952    -3.13
        300   0.97767    -5.76     6.324   174.55 0.0050343    88.83   0.99938    -3.37
        320   0.97673    -6.12    6.2962   174.19 0.0054045    88.53   0.99938    -3.60
        340   0.97653    -6.50    6.3078   173.81 0.0057355    88.23   0.99916    -3.83
        360   0.97673    -6.88    6.2895   173.51 0.0061069    88.00    0.9989    -4.05
        380    0.9764    -7.27    6.2945   173.13 0.0064477    87.77   0.99878    -4.30
        400   0.97583    -7.63     6.316   172.76 0.0068199    87.54   0.99834    -4.52
        420   0.97555    -8.04    6.3423   172.36 0.0071519    87.19   0.99854    -4.74
        440   0.97518    -8.43    6.3225   172.02 0.0075026    86.77   0.99822    -4.98
        460    0.9749    -8.83    6.3364   171.65 0.0078644    86.80   0.99793    -5.20
        480   0.97419    -9.20    6.3278   171.30 0.0082458    86.16   0.99808    -5.44
        500   0.97408    -9.60    6.2874   170.91 0.0085874    86.00   0.99762    -5.69
        550   0.97306   -10.56    6.3148   169.97 0.0094435    85.32   0.99675    -6.25
        600   0.97187   -11.54    6.3442   169.06   0.01031    84.34   0.99609    -6.81
        650   0.97133   -12.48     6.309   168.11  0.011209    83.59   0.99525    -7.41
        700   0.96975   -13.42    6.2578   167.21  0.012116    82.84   0.99445    -8.00
        750   0.96875   -14.39    6.2722   166.32  0.012966    82.07   0.99326    -8.57
        800   0.96716   -15.38    6.3216   165.48  0.013858    81.48   0.99253    -9.10
        850   0.96602   -16.35    6.3084   164.54  0.014753    80.63   0.99167    -9.66
        900   0.96482   -17.26    6.2467   163.64  0.015597    79.86   0.99041   -10.25
        950   0.96327   -18.24    6.2471   162.80  0.016454    79.05   0.98911   -10.82
       1000   0.96161   -19.17    6.2818   161.89  0.017335    78.43   0.98805   -11.38
       1050   0.95971   -20.11    6.2653   161.02  0.018193    77.65   0.98691   -11.94
       1100   0.95829   -21.04    6.2255   160.16  0.019034    76.90    0.9854   -12.53
       1150   0.95633   -22.00    6.2356   159.25  0.019853    76.20   0.98386   -13.07
       1200    0.9542   -22.94    6.2379   158.37  0.020701    75.56    0.9826   -13.59
       1250   0.95278   -23.88    6.2148   157.49   0.02157    74.78   0.98139   -14.19
       1300   0.95099   -24.81    6.1802   156.59  0.022388    74.01   0.97979   -14.74
       1350   0.94872   -25.78    6.1938   155.75  0.023174    73.35   0.97778   -15.32
       1400   0.94664   -26.75    6.1988   154.86  0.023998    72.61    0.9762   -15.87
       1450   0.94489   -27.69    6.1787   154.01   0.02481    71.98   0.97474   -16.42
       1500   0.94273   -28.61    6.1588   153.17  0.025609    71.21   0.97303   -16.99
       1550   0.94074   -29.57    6.1635   152.24  0.026396    70.56    0.9716   -17.50
       1600    0.9385   -30.50     6.165   151.42  0.027218    69.97   0.97008   -18.03
       1650   0.93577   -31.44    6.1322   150.55  0.027983    69.25   0.96789   -18.59
       1700   0.93419   -32.33    6.1089   149.69   0.02873    68.55    0.9657   -19.14
       1750   0.93163   -33.28    6.1091   148.84  0.029498    67.95   0.96375   -19.70
       1800   0.92911   -34.25    6.1002   147.96  0.030289    67.24   0.96234   -20.24
       1850   0.92647   -35.19    6.0784   147.06  0.031054    66.54   0.96012   -20.80
       1900   0.92421   -36.17    6.0772   146.22  0.031778    65.99   0.95822   -21.34
       1950   0.92117   -37.05    6.0447   145.40  0.032524    65.36    0.9566   -21.89
       2000   0.91876   -37.98    6.0254   144.53   0.03328    64.75   0.95474   -22.47
       2050   0.91561   -38.90    6.0163   143.69  0.034067    64.17   0.95238   -23.01
       2100   0.91276   -39.82    6.0078   142.85  0.034842    63.60   0.94989   -23.54
       2150   0.91072   -40.74    5.9965   142.09  0.035611    63.00   0.94712   -24.09
       2200   0.90751   -41.64    5.9772   141.26  0.036281    62.24   0.94457   -24.59
       2250   0.90404   -42.60    5.9713   140.38  0.037007    61.69   0.94248   -25.14
       2300   0.90141   -43.52    5.9544   139.54  0.037801    61.11   0.94038   -25.71
       2350   0.89808   -44.40    5.9033   138.75  0.038641    60.49   0.93701   -26.31
       2400   0.89487   -45.31    5.8838   137.94  0.039391    59.74    0.9329   -26.81
       2450   0.89078   -46.23    5.8837   137.13  0.040154    59.06   0.93014   -27.28
       2500   0.88737   -47.08    5.8658   136.33  0.040907    58.10   0.92789   -27.80
       2600   0.88137   -48.85    5.8197   134.78  0.042208    56.70   0.92226   -28.82
       2700   0.87434   -50.69    5.8059   133.17  0.043465    55.27   0.91679   -29.75
       2800   0.86865   -52.42    5.7549   131.57   0.04458    53.79    0.9104   -30.74
       2900   0.86116   -54.20    5.7156   129.99  0.045622    52.41   0.90516   -31.67
       3000   0.85438   -55.92    5.6947   128.44  0.046585    51.22    0.9003   -32.58
       3100   0.84901   -57.59     5.644   126.94  0.047528    50.10   0.89586   -33.56
       3200   0.84236   -59.27    5.6075   125.41  0.048558    49.02   0.88983   -34.48
       3300   0.83579   -61.07    5.5741   123.88   0.04962    47.84   0.88453   -35.55
       3400   0.82831   -62.75    5.5486   122.32  0.050566    46.85    0.8793   -36.50
       3500   0.82194   -64.38    5.5057   120.86  0.051547    45.79   0.87341   -37.39
       3600     0.815   -66.18    5.4764   119.39  0.052491    44.77   0.86724   -38.26
       3700   0.80895   -67.71    5.4155   117.90  0.053351    43.61   0.86178   -39.22
       3800   0.80091   -69.52    5.4043   116.37  0.054311    42.66   0.85669   -40.11
       3900    0.7942   -71.15    5.3679   114.90  0.055124    41.73   0.85119   -40.97
       4000   0.78676   -72.87    5.3416   113.41  0.056086    40.67   0.84547   -41.90
       4100   0.78019   -74.46    5.2857   111.98   0.05683    39.55   0.83871   -42.76
       4200   0.77339   -76.04    5.2514   110.55  0.057642    38.54   0.83357   -43.64
       4300   0.76707   -77.70    5.2163   109.12  0.058352    37.54   0.82837   -44.54
       4400   0.75944   -79.40    5.1975   107.58   0.05913    36.59   0.82364   -45.39
       4500   0.75329   -80.98     5.146   106.25  0.059739    35.64   0.81749   -46.24
       4600   0.74596   -82.58    5.1042   104.82  0.060388    34.67   0.81121   -47.11
       4700    0.7403   -84.12    5.0566   103.45  0.060943    33.67   0.80519   -47.98
       4800   0.73182   -85.87    5.0306   101.93  0.061655    32.67   0.80032   -48.90
       4900   0.72518   -87.42    4.9863   100.57   0.06223    31.73   0.79495   -49.66
       5000   0.71793   -89.00    4.9555    99.26  0.062798    30.91   0.78858   -50.42
       5200   0.70433   -92.15    4.8794    96.39   0.06366    29.04   0.77764   -52.17
       5400   0.69031   -95.25    4.8014    93.83  0.064517    27.28   0.76692   -53.66
       5600   0.67626   -98.33    4.7242    91.09  0.065174    25.54   0.75543   -55.40
       5800    0.6628  -101.39    4.6494    88.48  0.065851    23.89   0.74547   -56.87
       6000   0.65121  -104.33    4.5716    85.93  0.066232    22.34   0.73478   -58.51
       6200   0.63946  -107.35    4.5007    83.38  0.066683    20.85   0.72522   -60.01
       6400   0.62837  -110.35    4.4293    80.88    0.0671    19.39   0.71429   -61.54
       6600   0.61379  -113.25     4.358    78.34  0.067121    17.90    0.7041   -62.98
       6800   0.60293  -116.08    4.2929    76.02   0.06732    16.74   0.69545   -64.39
       7000   0.59135  -118.97    4.2261    73.47  0.067451    15.49   0.68467   -66.00
       7200   0.58271  -121.74    4.1632    71.24  0.067343    14.50   0.67642   -67.31
       7400   0.57228  -124.72    4.1031    68.76  0.067227    13.33   0.66655   -68.82
       7600   0.56332  -127.50    4.0453    66.47  0.067566    12.43   0.65997   -70.22
       7800   0.55332  -130.40    3.9821    64.13   0.06716    11.43   0.64967   -71.72
       8000   0.54282  -132.93    3.9238    62.04  0.066743    10.75   0.64206   -72.94
       8200   0.53687  -135.77    3.8781    59.68  0.067074    10.30    0.6359   -74.60
       8400   0.52839  -138.64    3.8163    57.44  0.067086     9.26   0.62608   -76.00
       8600   0.51889  -141.29    3.7638    55.31  0.066027     8.50    0.6193   -77.14
       8800   0.51105  -144.27    3.7182    52.81  0.066629     8.21   0.61223   -78.92
       9000   0.50613  -146.64    3.6683    50.83  0.066536     8.19   0.60883   -80.41
       9200   0.50148  -149.79    3.6307    48.44  0.067297     7.83   0.60241   -82.22
       9400   0.49029  -152.87    3.5691    45.94  0.067075     6.33   0.59281   -83.99
       9600   0.48159  -155.32    3.5051    44.13  0.066396     6.18   0.58188   -85.19
       9800   0.47321  -157.84     3.461    42.03   0.06567     5.50   0.57567   -86.54
      10000   0.47013  -159.94     3.413    40.21  0.065562     5.76   0.56958   -87.86
      10200   0.46778  -162.95    3.3922    37.98  0.065988     5.73   0.56405   -89.66
      10400     0.466  -165.98    3.3581    35.55  0.066913     5.54   0.56227   -91.63
      10600   0.45625  -168.82    3.3038    33.25  0.066929     4.34   0.54934   -93.55
      10800   0.45047  -171.52    3.2509    31.00  0.066504     3.65   0.54268   -95.23
      11000   0.43959  -173.38    3.1911    29.46  0.063589     3.41   0.53036   -95.91
      11200   0.44555  -176.07     3.185    27.28  0.065373     5.67   0.53435   -97.95
      11400   0.44121  -178.93    3.1333    25.15  0.065787     5.20   0.52758   -99.68
      11600   0.43879   178.31    3.1067    23.13  0.066722     5.60   0.52259  -101.80
      11800   0.43574   175.50    3.0585    20.94  0.066584     5.09    0.5139  -103.32
      12000   0.42879   172.85    3.0104    19.04   0.06667     4.62   0.50422  -105.46
      12200   0.42945   170.71    2.9823    17.27  0.066836     6.09   0.49823  -106.59
      12400   0.42486   167.61     2.947    15.04  0.068263     4.98   0.49156  -108.61
      12600   0.41788   165.35    2.9021    13.47  0.066413     4.92   0.47994  -109.35
      12800   0.42113   163.42    2.8862    11.75  0.066904     6.60   0.48067  -110.51
      13000    0.4219   160.81    2.8838     9.59  0.069572     7.87   0.48442  -112.70
      13200   0.41875   158.76    2.8458     7.77  0.068037     8.21   0.48168  -113.86
      13400   0.42295   155.93    2.8142     5.51  0.072289     8.34   0.47748  -117.25
      13600   0.42397   153.29    2.8043     3.41  0.072757     8.52   0.47162  -119.22
      13800   0.42298   150.81    2.7575     1.16   0.07442     8.13   0.46362  -121.78
      14000    0.4213   147.66    2.7247    -0.72  0.075251     7.70     0.453  -123.99
      14200   0.42231   146.01    2.6922    -2.36  0.075708     8.60   0.44695  -125.31
      14400   0.41945   143.55    2.6834    -4.07  0.077511     8.86   0.44177  -127.50
      14600   0.42472   140.71    2.6646    -6.33  0.080273     9.03   0.43911  -129.24
      14800   0.42041   137.98    2.6297    -8.33  0.081766     8.01   0.43113  -132.02
      15000   0.42446   135.82    2.6249   -10.19  0.082846     8.40   0.43086  -133.17
      15200   0.42431   133.72    2.5899   -12.26  0.084649     8.08    0.4285  -135.99
      15400   0.43099   131.39    2.5908   -14.03  0.086889     8.79   0.42713  -137.81
      15600   0.43595   129.17    2.5556   -16.45  0.089178     8.09    0.4249  -140.49
      15800   0.43896   126.67    2.5473   -18.29  0.091506     7.95   0.42544  -143.11
      16000   0.44487   123.90    2.5136   -20.65  0.093877     7.04   0.41986  -146.05
      16200   0.45023   121.66    2.4965   -22.51  0.096176     7.14   0.41676  -148.37
      16400   0.45384   118.62    2.4727   -24.79  0.099075     6.40   0.41318  -150.77
      16600   0.45131   116.80    2.4427   -26.37   0.10109     5.48    0.4102  -153.46
      16800   0.45434   114.74    2.4297   -28.18   0.10277     5.51   0.40568  -155.22
      17000   0.45808   112.27    2.4186   -30.33   0.10636     4.80   0.40812  -158.82
      17200   0.45909   110.16    2.3983   -32.11   0.10857     4.41   0.39978  -161.06
      17400   0.46681   107.24    2.3998   -34.71   0.11269     3.88   0.40368  -164.16
      17600   0.46915   105.11    2.3781   -36.69   0.11609     3.13   0.39814  -166.10
      17800   0.47151   103.22    2.3682   -38.82   0.11933     2.12   0.40033  -169.23
      18000   0.48378   100.74    2.3447   -41.45   0.12416     0.72   0.40665  -171.88
      18200   0.48425    97.73    2.3158   -43.84   0.12656    -1.08   0.40561  -175.85
      18400   0.48966    95.53    2.2781   -45.94    0.1288    -1.94   0.40401  -179.06
      18600   0.49027    93.53    2.2405   -47.47   0.13152    -2.87   0.40027   177.38
      18800   0.49614    91.10    2.2256   -49.67   0.13527    -4.09    0.4009   173.90
      19000    0.4982    89.41    2.2156   -51.14   0.13751    -4.99   0.39763   171.08
      19200   0.50584    87.21    2.2103   -53.40    0.1422    -5.71   0.39759   168.56
      19400   0.51912    84.63    2.1992   -55.99   0.14784    -7.22   0.40232   165.52
      19600    0.5241    81.47    2.1708   -58.61    0.1506    -9.38   0.40709   162.10
      19800   0.53287    79.15    2.1432   -60.28   0.15381   -10.52   0.40606   158.31
      20000   0.53415    76.34    2.1251   -62.42   0.15762   -11.76    0.4045   155.73