! Filename:  P:\Prog\Test\Noise\ATS_data\Testdata_Net\BFU710\BFU710_2W_A1_2V9mA_D.s2p
! Date/Time: Fri 29/Apr/2011 13:27:06
! BFU710_2W_A1_2V9mA
! bias mode 1: Vout= 2.0000 V, Iout= 9.0350 mA, Vin= 0.8322 V, Iin= 0.0346 mA
! Date/time Wed Mar 16 10:04:21 2011
! Device data file deembeded for feedlines and parallel
! Original file: \BFU710\BFU710_2W_A1_2V9mA_R.s2p
! Feed-files: PR003V01_101208_Feed1.s2p, PR003V01_101208_Feed2.s2p
! Parallel-file: PR003V01_101208_Par.s2p
# MHz S MA R 50
!  Freq-MHz   S11-mag  S11-arg   S21-mag  S21-arg   S12-mag  S12-arg   S22-mag  S22-arg
         40   0.90759    -1.34    20.997   178.40 0.00056278    88.64    0.9972     0.02
         50   0.90257    -2.11    21.069   177.73 0.0012235    82.61   0.99778    -0.31
         60   0.90672    -1.83    20.835   177.61 0.00082462    76.94   0.99934    -0.47
         70   0.90778    -2.35     20.88   177.70 0.00095238    90.41   0.99963    -0.73
         80    0.9074    -2.73    21.014   177.36 0.0011119    89.56    0.9999    -0.95
         90   0.90732    -3.13    21.012   176.85  0.001243    88.22   0.99975    -1.18
        100   0.90759    -3.43    20.924   176.66 0.0013942    88.38    0.9997    -1.38
        120   0.90677    -4.22    21.002   176.05 0.0016531    88.52   0.99989    -1.78
        140   0.90647    -4.90    20.972   175.42  0.001943    89.58   0.99996    -2.19
        160   0.90618    -5.60    20.931   174.71  0.002194    88.81    0.9995    -2.56
        180   0.90603    -6.35    20.932   174.15 0.0024739    88.82    0.9994    -2.93
        200   0.90512    -7.08    20.943   173.38 0.0027955    88.61   0.99898    -3.30
        220   0.90467    -7.79    20.958   172.75 0.0030546    88.57   0.99865    -3.68
        240   0.90308    -8.51    20.998   172.00 0.0033454    87.62   0.99814    -4.06
        260   0.90322    -9.22    20.934   171.32 0.0036366    87.89   0.99763    -4.41
        280   0.90183    -9.96    20.925   170.65 0.0039282    87.46   0.99724    -4.78
        300   0.90144   -10.70    20.904   169.96 0.0042085    86.82   0.99657    -5.16
        320   0.89986   -11.39    20.826   169.30 0.0044995    86.30   0.99581    -5.51
        340   0.89882   -12.09    20.831   168.61 0.0047914    86.01   0.99496    -5.87
        360   0.89792   -12.79    20.764   168.01 0.0050935    85.44   0.99403    -6.22
        380   0.89675   -13.54    20.763   167.32 0.0053847    84.94    0.9932    -6.60
        400   0.89476   -14.21    20.763   166.66 0.0056775    84.69    0.9919    -6.95
        420   0.89316   -14.94    20.784   165.96 0.0059609    84.39   0.99124    -7.29
        440   0.89198   -15.65    20.713   165.34 0.0062425    83.89   0.99026    -7.66
        460   0.89035   -16.37    20.706   164.67 0.0065055    83.40   0.98902    -8.00
        480   0.88854   -17.08    20.653   164.01 0.0068076    82.83   0.98819    -8.38
        500   0.88672   -17.79    20.553   163.31 0.0070913    82.58   0.98643    -8.74
        550    0.8826   -19.52     20.52   161.65 0.0078098    81.46   0.98253    -9.57
        600   0.87703   -21.30     20.46   160.03 0.0084995    80.36   0.97912   -10.42
        650   0.87253   -22.98    20.269   158.43 0.0091715    79.19   0.97493   -11.29
        700    0.8669   -24.68    20.066   156.87 0.0098521    78.07   0.97048   -12.14
        750   0.86136   -26.39    19.972   155.32  0.010486    76.94   0.96577   -12.95
        800    0.8548   -28.13    19.907   153.81  0.011182    75.98   0.96161   -13.71
        850   0.84852   -29.79    19.747   152.27   0.01183    74.97   0.95703   -14.51
        900   0.84243   -31.39    19.519   150.77  0.012447    73.96   0.95132   -15.30
        950   0.83599   -33.06    19.388   149.35  0.013058    73.12   0.94598   -16.04
       1000   0.82875   -34.65    19.276   147.85  0.013671    72.05   0.94087   -16.79
       1050   0.82106   -36.25    19.096   146.40  0.014262    71.17   0.93549   -17.52
       1100   0.81448   -37.79    18.895   145.03  0.014827    70.22   0.92953   -18.26
       1150   0.80632   -39.40    18.764   143.56  0.015398    69.43   0.92371   -18.92
       1200   0.79871   -40.92    18.598   142.21  0.015936    68.60   0.91837   -19.58
       1250   0.79117   -42.45    18.399   140.83  0.016514    67.66   0.91248   -20.31
       1300   0.78378   -43.95    18.209   139.47  0.017011    66.79   0.90623   -20.96
       1350     0.776   -45.47    18.061   138.14  0.017499    66.09   0.90018   -21.60
       1400   0.76755   -46.98    17.907   136.81  0.018018    65.23   0.89429   -22.23
       1450   0.75985   -48.45     17.72   135.52  0.018485    64.51   0.88837   -22.85
       1500     0.752   -49.86    17.535   134.24  0.018947    63.74   0.88223   -23.45
       1550   0.74447   -51.26    17.361   132.97  0.019419    63.09   0.87676   -23.99
       1600   0.73631   -52.64    17.178   131.75  0.019862    62.42   0.87135   -24.56
       1650    0.7281   -54.07    16.987   130.51  0.020304    61.72   0.86499   -25.14
       1700   0.72066   -55.38     16.81   129.29  0.020691    61.05   0.85885   -25.68
       1750   0.71258   -56.73    16.633   128.09  0.021096    60.43   0.85291   -26.24
       1800   0.70469   -58.15    16.454   126.89  0.021514    59.76   0.84758   -26.78
       1850   0.69672   -59.49    16.274   125.71  0.021898    59.17   0.84155   -27.31
       1900   0.68912   -60.80    16.105   124.54  0.022285    58.67   0.83642   -27.82
       1950   0.68136   -62.07     15.91   123.42  0.022643    58.16   0.83131   -28.34
       2000   0.67367   -63.33    15.715   122.30  0.023007    57.59   0.82544   -28.91
       2050    0.6657   -64.57     15.53   121.23  0.023372    57.18   0.81919   -29.42
       2100   0.65835   -65.78    15.353   120.17  0.023736    56.63   0.81312   -29.89
       2150   0.65128   -67.01    15.182   119.16  0.024095    56.20   0.80664   -30.37
       2200   0.64382   -68.21    15.009   118.14  0.024435    55.67    0.8014   -30.72
       2250   0.63609   -69.42    14.836   117.07  0.024769    55.19   0.79657   -31.24
       2300   0.62899   -70.63    14.651   116.06  0.025091    54.76   0.79089   -31.75
       2350   0.62182   -71.86    14.456   115.13  0.025462    54.40   0.78357   -32.28
       2400   0.61454   -73.10    14.294   114.18  0.025816    53.91   0.77624   -32.60
       2450   0.60606   -74.22    14.124   113.28  0.026165    53.53   0.77038   -32.92
       2500   0.59782   -75.27    13.971   112.38  0.026511    52.80    0.7649   -33.26
       2600    0.5848   -77.42    13.648   110.61  0.027037    51.87   0.75407   -33.95
       2700   0.57112   -79.55    13.351   108.86   0.02754    50.96   0.74421   -34.50
       2800   0.55913   -81.61    13.064   107.18  0.027963    50.11   0.73443   -35.03
       2900   0.54603   -83.69    12.772   105.54   0.02837    49.38   0.72617   -35.48
       3000   0.53433   -85.50    12.518   103.97  0.028779    48.82   0.71986   -36.01
       3100   0.52415   -87.42    12.268   102.34  0.029107    48.32   0.71362   -36.63
       3200   0.51363   -89.28    12.014   100.82  0.029522    47.90   0.70595   -37.18
       3300   0.50356   -91.28    11.775    99.31  0.029946    47.48     0.699   -37.83
       3400   0.49283   -93.08    11.546    97.77   0.03037    47.16   0.69264   -38.47
       3500    0.4839   -94.91    11.325    96.34  0.030809    46.74   0.68571   -38.97
       3600   0.47378   -96.79    11.102    94.88  0.031204    46.47   0.67918   -39.46
       3700   0.46589   -98.52    10.892    93.47  0.031554    46.10    0.6731   -39.97
       3800   0.45633  -100.41    10.699    92.03  0.032017    45.83   0.66763   -40.53
       3900   0.44783  -102.08    10.491    90.66  0.032403    45.60   0.66204   -41.05
       4000   0.43888  -103.89    10.298    89.30  0.032842    45.23   0.65597   -41.61
       4100   0.43118  -105.62    10.103    87.98  0.033225    44.95      0.65   -42.02
       4200   0.42308  -107.25    9.9274    86.70  0.033607    44.66   0.64524   -42.51
       4300    0.4165  -108.85    9.7534    85.42  0.034021    44.49   0.64092   -43.02
       4400   0.40875  -110.57    9.5845    84.10  0.034473    44.17   0.63692   -43.54
       4500    0.4024  -112.13    9.4119    82.90  0.034811    43.97   0.63207   -44.05
       4600   0.39553  -113.85    9.2533    81.69  0.035182    43.72   0.62708   -44.54
       4700   0.38983  -115.45    9.1002    80.49  0.035549    43.55   0.62237   -45.04
       4800    0.3825  -117.25    8.9426    79.22  0.035949    43.22   0.61826   -45.63
       4900   0.37613  -118.86    8.8008    78.04  0.036288    43.09   0.61411   -46.02
       5000   0.36982  -120.37    8.6555    76.91  0.036711    42.93   0.60951   -46.44
       5200   0.35864  -123.44    8.3745    74.53  0.037428    42.55   0.60212   -47.53
       5400   0.34757  -126.56    8.1193    72.40  0.038113    42.23   0.59536   -48.34
       5600   0.33777  -129.57    7.8779    70.17  0.038835    41.99   0.58759   -49.45
       5800   0.32776  -132.60    7.6424    68.04  0.039574    41.72   0.58194   -50.29
       6000   0.32049  -135.47     7.433    65.95  0.040296    41.62   0.57557   -51.37
       6200   0.31379  -138.26    7.2291    63.92  0.041072    41.46   0.57031   -52.33
       6400   0.30714  -141.33     7.038    61.88  0.041911    41.31   0.56377   -53.30
       6600   0.29835  -144.26    6.8468    59.91  0.042593    41.22   0.55866   -54.13
       6800   0.29251  -146.93    6.6827    58.06  0.043495    41.07   0.55553   -55.16
       7000   0.28662  -149.65    6.5164    56.07   0.04441    41.06   0.54859   -56.29
       7200   0.28395  -152.04    6.3662    54.30  0.045265    41.06   0.54542   -57.14
       7400   0.27895  -155.27    6.2252    52.26  0.046211    40.95   0.54163   -58.14
       7600   0.27545  -157.70    6.0898    50.48  0.047322    40.69   0.53829   -59.29
       7800   0.27156  -160.87    5.9529    48.54  0.048141    40.73   0.53284   -60.33
       8000   0.26571  -163.19    5.8327    47.01  0.049319    40.75   0.53182   -61.16
       8200   0.26497  -165.83    5.7276    44.99  0.050589    40.58   0.52841   -62.73
       8400   0.26257  -169.04    5.6105    43.23  0.051928    40.09   0.52342   -63.66
       8600   0.25829  -171.41    5.4985    41.53   0.05238    40.11   0.52178   -64.45
       8800   0.25638  -174.47    5.3982    39.42  0.054006    39.83   0.51739   -66.18
       9000   0.25561  -176.34    5.3057    37.87   0.05559    39.91   0.51748   -67.53
       9200   0.25689  -179.67    5.2247    35.77  0.057277    39.47   0.51331   -69.31
       9400   0.25278   176.89    5.1038    33.77  0.058167    38.49   0.50553   -70.68
       9600   0.24958   174.64    4.9938    32.44   0.05942    38.62   0.49923   -71.47
       9800    0.2457   171.86     4.919    30.80  0.060417    38.07   0.49668   -72.48
      10000   0.24615   170.76      4.84    29.32  0.061964    37.95    0.4938   -73.52
      10200   0.24846   167.80    4.7963    27.41  0.063621    37.45   0.49078   -75.29
      10400   0.25197   164.94    4.7302    25.23  0.065703    36.71   0.49086   -77.21
      10600    0.2485   162.00      4.63    23.37  0.066761    35.71   0.47846   -78.72
      10800   0.24754   159.28    4.5487    21.50  0.067896    34.84   0.47537   -80.10
      11000   0.23871   158.14    4.4521    20.39  0.066986    35.10    0.4667   -80.21
      11200   0.25142   156.15    4.4427    18.51  0.070966    35.69   0.47317   -82.34
      11400   0.25221   153.24    4.3559    16.64  0.072701    34.69   0.46918   -83.78
      11600   0.25453   150.41    4.3109    14.99  0.075026    33.95   0.46637   -85.97
      11800   0.25592   148.03    4.2386    13.11  0.076204    32.99   0.45999   -87.08
      12000   0.25222   145.30     4.154    11.56  0.077202    31.98   0.45013   -89.24
      12200   0.25602   144.26    4.1176    10.08  0.079079    32.46   0.44607   -90.04
      12400   0.25835   140.86    4.0572     8.24  0.081692    30.68   0.43954   -91.51
      12600   0.25565   138.30     4.003     7.09  0.081522    30.01   0.43344   -91.49
      12800   0.26161   137.43    3.9805     5.61  0.083698    30.19    0.4384   -92.40
      13000   0.26501   134.93    3.9736     3.55  0.086936    29.70   0.44525   -95.15
      13200   0.26269   133.58    3.9225     2.01  0.086499    29.28   0.44597   -96.10
      13400   0.27198   131.57    3.8649    -0.02  0.091155    28.41   0.43728   -99.83
      13600   0.27742   129.30    3.8507    -1.83  0.092636    27.75   0.43297  -101.37
      13800      0.28   127.11    3.7814    -3.86  0.095351    26.60   0.42398  -103.65
      14000   0.28461   123.74    3.7345    -5.31  0.097087    25.45   0.41307  -105.47
      14200   0.28587   122.55    3.6967    -6.72  0.098856    25.01   0.40996  -106.09
      14400   0.28533   119.86    3.6828    -8.17   0.10122    24.15   0.40674  -108.11
      14600    0.2946   117.73    3.6616   -10.25    0.1046    23.15   0.40603  -109.67
      14800   0.29314   114.70    3.6116   -12.02   0.10633    21.45   0.39717  -112.19
      15000   0.29824   113.46    3.6125   -13.69    0.1074    20.74   0.40182  -113.21
      15200   0.29932   112.14    3.5569   -15.67    0.1094    19.80   0.39753  -116.13
      15400    0.3106   110.55    3.5637   -17.13   0.11189    19.61   0.39817  -117.75
      15600   0.31629   109.26    3.5135   -19.44   0.11469    18.34   0.39518  -120.28
      15800   0.32187   107.15    3.5006   -21.04   0.11688    17.63   0.39565  -123.21
      16000   0.33361   104.90    3.4523   -23.19    0.1202    16.37   0.38685  -125.68
      16200   0.34137   103.07    3.4322   -24.79   0.12304    15.61   0.38377  -127.68
      16400   0.34895   100.19    3.4064   -26.91   0.12616    14.23   0.38144  -129.79
      16600   0.34698    98.71    3.3602   -28.19    0.1284    12.71   0.37653  -132.26
      16800   0.35073    97.01    3.3534   -29.80   0.13002    12.06     0.374  -133.39
      17000    0.3564    94.98    3.3399   -31.81   0.13353    10.85   0.37443  -137.22
      17200   0.35875    93.09    3.3149   -33.38   0.13611     9.97   0.36591  -138.67
      17400   0.36876    90.42     3.327   -35.91   0.14017     8.87   0.37043  -141.93
      17600   0.37043    88.71    3.2961   -37.82   0.14329     7.57   0.36787  -143.46
      17800   0.37508    87.42    3.2881   -39.68   0.14619     6.32   0.36823  -146.76
      18000   0.39112    85.57    3.2569   -42.36   0.15095     4.66   0.37749  -149.73
      18200   0.39413    82.51    3.2162   -44.59   0.15323     2.61   0.37386  -154.03
      18400   0.40379    80.96    3.1638   -46.49   0.15512     1.53   0.36904  -157.44
      18600   0.40721    79.13     3.118   -47.72   0.15814     0.21    0.3603  -160.77
      18800   0.41386    77.13    3.0998   -49.89   0.16112    -1.10   0.35948  -164.48
      19000    0.4166    75.72    3.0974   -51.08   0.16352    -2.43   0.35319  -166.76
      19200    0.4254    73.83    3.1005   -53.26   0.16772    -3.40   0.35527  -168.74
      19400   0.44492    71.64    3.0937   -55.91   0.17341    -4.93   0.36177  -172.35
      19600   0.45371    68.20    3.0581   -58.53   0.17625    -7.26   0.36552  -176.08
      19800   0.46315    66.32    3.0154   -60.17   0.17915    -8.65   0.36185   179.73
      20000   0.46498    63.49    2.9952   -62.17   0.18313   -10.24    0.3592   177.56

!  
! Device Noise Parameters
!  Freq-MHz   Fmin-dB  Gopt-mag  Gopt-arg   rn_normalized
	400	0.9743	0.47972	3.05	0.3215
	420	0.9746	0.47947	3.25	0.3214
	440	0.9748	0.47921	3.46	0.3212
	460	0.9751	0.47896	3.67	0.3210
	480	0.9753	0.47870	3.88	0.3209
	500	0.9756	0.47845	4.09	0.3207
	550	0.9762	0.47780	4.60	0.3203
	600	0.9769	0.47715	5.11	0.3198
	650	0.9776	0.47649	5.62	0.3194
	700	0.9783	0.47583	6.13	0.3189
	750	0.9790	0.47516	6.64	0.3185
	800	0.9797	0.47448	7.14	0.3180
	850	0.9804	0.47380	7.64	0.3175
	900	0.9812	0.47310	8.13	0.3170
	950	0.9820	0.47240	8.63	0.3166
	1000	0.9828	0.47170	9.12	0.3161
	1050	0.9836	0.47098	9.61	0.3156
	1100	0.9844	0.47025	10.10	0.3150
	1150	0.9852	0.46952	10.58	0.3145
	1200	0.9861	0.46877	11.07	0.3140
	1250	0.9869	0.46802	11.55	0.3135
	1300	0.9878	0.46726	12.03	0.3129
	1350	0.9887	0.46648	12.50	0.3124
	1400	0.9896	0.46570	12.98	0.3118
	1450	0.9906	0.46490	13.45	0.3113
	1500	0.9915	0.46410	13.92	0.3107
	1550	0.9925	0.46328	14.39	0.3102
	1600	0.9934	0.46246	14.86	0.3096
	1650	0.9944	0.46162	15.32	0.3090
	1700	0.9954	0.46077	15.79	0.3084
	1750	0.9964	0.45991	16.25	0.3078
	1800	0.9975	0.45903	16.71	0.3072
	1850	0.9985	0.45815	17.17	0.3066
	1900	0.9996	0.45725	17.63	0.3060
	1950	1.0007	0.45634	18.09	0.3054
	2000	1.0018	0.45542	18.54	0.3048
	2050	1.0029	0.45449	19.00	0.3041
	2100	1.0040	0.45355	19.45	0.3035
	2150	1.0052	0.45259	19.90	0.3029
	2200	1.0063	0.45162	20.35	0.3022
	2250	1.0075	0.45064	20.80	0.3016
	2300	1.0087	0.44965	21.25	0.3009
	2350	1.0099	0.44865	21.70	0.3003
	2400	1.0111	0.44763	22.15	0.2996
	2450	1.0123	0.44660	22.59	0.2989
	2500	1.0136	0.44556	23.04	0.2983
	2600	1.0161	0.44344	23.93	0.2969
	2700	1.0188	0.44127	24.81	0.2955
	2800	1.0214	0.43906	25.70	0.2941
	2900	1.0242	0.43680	26.58	0.2927
	3000	1.0270	0.43449	27.46	0.2913
	3100	1.0298	0.43213	28.34	0.2898
	3200	1.0327	0.42973	29.21	0.2883
	3300	1.0357	0.42729	30.09	0.2868
	3400	1.0388	0.42480	30.97	0.2853
	3500	1.0419	0.42227	31.85	0.2838
	3600	1.0450	0.41970	32.73	0.2823
	3700	1.0483	0.41709	33.61	0.2807
	3800	1.0516	0.41444	34.49	0.2792
	3900	1.0549	0.41175	35.37	0.2776
	4000	1.0583	0.40903	36.26	0.2760
	4100	1.0618	0.40627	37.15	0.2744
	4200	1.0653	0.40348	38.04	0.2728
	4300	1.0689	0.40065	38.93	0.2712
	4400	1.0726	0.39780	39.83	0.2696
	4500	1.0763	0.39492	40.73	0.2679
	4600	1.0801	0.39201	41.64	0.2663
	4700	1.0840	0.38907	42.54	0.2646
	4800	1.0879	0.38612	43.46	0.2629
	4900	1.0918	0.38314	44.38	0.2613
	5000	1.0959	0.38014	45.30	0.2596
	5200	1.1041	0.37409	47.17	0.2562
	5400	1.1126	0.36798	49.05	0.2528
	5600	1.1214	0.36183	50.97	0.2494
	5800	1.1303	0.35565	52.91	0.2459
	6000	1.1396	0.34945	54.88	0.2425
	6200	1.1491	0.34326	56.88	0.2390
	6400	1.1588	0.33708	58.92	0.2356
	6600	1.1688	0.33093	60.98	0.2321
	6800	1.1790	0.32482	63.09	0.2287
	7000	1.1895	0.31876	65.23	0.2253
	7200	1.2002	0.31277	67.40	0.2218
	7400	1.2112	0.30685	69.61	0.2184
	7600	1.2224	0.30102	71.86	0.2151
	7800	1.2338	0.29529	74.15	0.2117
	8000	1.2456	0.28965	76.47	0.2084
	8200	1.2575	0.28412	78.83	0.2051
	8400	1.2697	0.27870	81.22	0.2019
	8600	1.2822	0.27339	83.65	0.1987
	8800	1.2949	0.26820	86.11	0.1955
	9000	1.3078	0.26311	88.60	0.1924
	9200	1.3210	0.25812	91.12	0.1894
	9400	1.3344	0.25324	93.67	0.1864
	9600	1.3481	0.24845	96.26	0.1835
	9800	1.3620	0.24374	98.86	0.1806
	10000	1.3762	0.23910	101.50	0.1779
	10200	1.3907	0.23452	104.16	0.1752
	10400	1.4053	0.22998	106.84	0.1726
	10600	1.4203	0.22546	109.56	0.1700
	10800	1.4354	0.22096	112.30	0.1676
	11000	1.4508	0.21645	115.07	0.1653
	11200	1.4665	0.21191	117.87	0.1630
	11400	1.4824	0.20732	120.71	0.1609
	11600	1.4986	0.20267	123.60	0.1588
	11800	1.5150	0.19794	126.54	0.1569
	12000	1.5316	0.19311	129.54	0.1551
	12200	1.5485	0.18817	132.61	0.1534
	12400	1.5657	0.18311	135.77	0.1518
	12600	1.5831	0.17792	139.03	0.1504
	12800	1.6007	0.17260	142.42	0.1491
	13000	1.6186	0.16716	145.97	0.1479
	13200	1.6367	0.16160	149.70	0.1469
	13400	1.6551	0.15597	153.65	0.1460
	13600	1.6737	0.15030	157.87	0.1453
	13800	1.6926	0.14465	162.40	0.1447
	14000	1.7117	0.13911	167.31	0.1443