! Filename:  P:\Prog\Test\Noise\ATS_data\Testdata_Net\BFU710\BFU710_2W_A1_2.5V2mA_D.s2p
! Date/Time: Fri 29/Apr/2011 13:26:25
! BFU710_2W_A1_2.5V2mA
! bias mode 1: Vout= 2.5000 V, Iout= 2.0100 mA, Vin= 0.7978 V, Iin= 0.0059 mA
! Date/time Wed Mar 16 12:30:32 2011
! Device data file deembeded for feedlines and parallel
! Original file: \BFU710\BFU710_2W_A1_2.5V2mA_R.s2p
! Feed-files: PR003V01_101208_Feed1.s2p, PR003V01_101208_Feed2.s2p
! Parallel-file: PR003V01_101208_Par.s2p
# MHz S MA R 50
!  Freq-MHz   S11-mag  S11-arg   S21-mag  S21-arg   S12-mag  S12-arg   S22-mag  S22-arg
         40   0.97902    -0.76    6.0921   179.24 0.00052938    75.02   0.99901    -0.37
         50   0.97565    -1.05    6.1128   178.65 0.00076418   110.73   0.99842    -0.49
         60   0.97938    -0.95    6.0383   178.46 0.00095082    88.29   0.99929    -0.54
         70   0.97949    -1.23    6.0506   178.70 0.00095078    84.85   0.99936    -0.66
         80   0.97914    -1.44    6.0988   178.52 0.0011007    85.91   0.99944    -0.76
         90   0.97896    -1.64    6.1024   178.18 0.0012425    86.47    0.9993    -0.88
        100     0.979    -1.82    6.0711   178.14  0.001373    87.31   0.99913    -0.98
        120    0.9789    -2.23    6.0822   177.83 0.0016821    86.93   0.99936    -1.19
        140    0.9789    -2.58    6.0858   177.52 0.0019515    88.29   0.99946    -1.41
        160   0.97913    -2.95    6.0635   177.15 0.0022222    87.43   0.99929    -1.62
        180   0.97927    -3.34    6.0755   176.91 0.0025115    88.03   0.99942    -1.83
        200    0.9787    -3.72    6.0813   176.46 0.0028222    88.82   0.99932    -2.04
        220   0.97862    -4.12    6.0915   176.14 0.0031117    88.33   0.99928    -2.26
        240   0.97843    -4.49    6.1231   175.72 0.0034123    88.09   0.99936    -2.48
        260    0.9786    -4.85    6.0987   175.33 0.0036925    88.87   0.99925    -2.69
        280   0.97786    -5.24    6.1067   174.99 0.0040035    88.50    0.9993    -2.91
        300   0.97788    -5.64    6.1019   174.64 0.0043136    87.90   0.99932    -3.12
        320   0.97762    -6.00    6.0745   174.29 0.0045838    88.22   0.99929    -3.33
        340   0.97724    -6.38    6.0864   173.92 0.0048947    87.82   0.99909    -3.55
        360   0.97738    -6.74    6.0686   173.63 0.0051859    87.57   0.99884    -3.76
        380   0.97693    -7.11    6.0738   173.26 0.0055265    87.30   0.99873    -3.98
        400    0.9768    -7.48    6.0961   172.91 0.0058185    87.06   0.99834    -4.19
        420   0.97654    -7.87    6.1221   172.51 0.0061202    86.79   0.99849    -4.39
        440   0.97602    -8.24    6.1029   172.19 0.0064407    86.70   0.99836    -4.62
        460    0.9758    -8.62    6.1172   171.82 0.0067322    86.40   0.99804    -4.82
        480   0.97517    -9.02    6.1092   171.48 0.0070634    86.25   0.99824    -5.05
        500   0.97486    -9.38    6.0697   171.10 0.0073146    86.04   0.99783    -5.27
        550   0.97439   -10.33    6.0972   170.20 0.0081198    85.15   0.99718    -5.79
        600   0.97291   -11.27    6.1279   169.29 0.0088657    84.67    0.9966    -6.32
        650   0.97244   -12.22    6.0928   168.37 0.0096428    83.85   0.99592    -6.87
        700   0.97104   -13.11    6.0426   167.50  0.010388    83.09   0.99523    -7.42
        750   0.97001   -14.08    6.0584   166.62  0.011137    82.41   0.99426    -7.96
        800   0.96864   -15.05    6.1075   165.79  0.011907    81.84   0.99376    -8.45
        850   0.96728   -15.98    6.0975   164.87   0.01268    81.03   0.99312    -8.98
        900    0.9664   -16.89     6.037   163.99  0.013422    80.31     0.992    -9.52
        950   0.96503   -17.83    6.0378   163.17  0.014155    79.58    0.9909   -10.05
       1000   0.96334   -18.75     6.074   162.28  0.014923    78.97   0.98996   -10.58
       1050   0.96148   -19.66    6.0571   161.42  0.015678    78.26   0.98901   -11.10
       1100   0.96029   -20.57    6.0198   160.58  0.016396    77.52   0.98772   -11.65
       1150   0.95823   -21.53    6.0308   159.68  0.017112    76.89   0.98639   -12.15
       1200   0.95637   -22.45    6.0351   158.82  0.017855    76.23   0.98541   -12.64
       1250     0.955   -23.37    6.0127   157.95   0.01859    75.49   0.98439   -13.20
       1300   0.95336   -24.26    5.9796   157.08  0.019314    74.76   0.98306   -13.72
       1350   0.95106   -25.22    5.9939   156.24  0.020016    74.14   0.98127   -14.25
       1400    0.9492   -26.16    6.0011   155.37  0.020714    73.42   0.97994   -14.76
       1450   0.94739   -27.08    5.9825   154.54   0.02142    72.74   0.97885   -15.29
       1500   0.94521   -27.99    5.9629   153.70  0.022113    72.10   0.97724   -15.81
       1550   0.94311   -28.92    5.9691   152.81  0.022784    71.49   0.97607   -16.29
       1600   0.94128   -29.85    5.9714   152.00   0.02349    70.86   0.97475   -16.79
       1650   0.93904   -30.77    5.9406   151.14  0.024178    70.16   0.97285   -17.32
       1700   0.93708   -31.64    5.9195   150.29  0.024849    69.51   0.97099   -17.83
       1750   0.93487   -32.57    5.9206   149.44  0.025499    68.90   0.96927   -18.36
       1800   0.93239   -33.52    5.9132   148.59  0.026202    68.26   0.96815   -18.86
       1850   0.92997   -34.46    5.8922   147.70   0.02685    67.56   0.96623   -19.39
       1900   0.92749   -35.40    5.8907   146.88  0.027495    67.04   0.96455   -19.90
       1950   0.92507   -36.25    5.8599   146.08  0.028135    66.47   0.96326   -20.41
       2000   0.92277   -37.16    5.8414   145.22  0.028824    65.89   0.96164   -20.97
       2050   0.91957   -38.08    5.8347   144.39  0.029522    65.32   0.95959   -21.46
       2100   0.91702   -38.98    5.8291   143.56  0.030157    64.73   0.95735   -21.97
       2150   0.91478   -39.87    5.8188   142.81  0.030878    64.14   0.95483   -22.48
       2200   0.91166   -40.76    5.8013   141.99  0.031459    63.41   0.95274   -22.95
       2250   0.90837   -41.71    5.7967   141.12  0.032086    62.94   0.95092   -23.49
       2300   0.90594   -42.61    5.7817   140.30    0.0328    62.36    0.9492   -24.01
       2350   0.90264   -43.45     5.732   139.53  0.033551    61.76   0.94598   -24.59
       2400   0.89965   -44.37    5.7139   138.72  0.034211    61.01   0.94216   -25.05
       2450   0.89581   -45.27    5.7154   137.92  0.034926    60.28   0.93975   -25.49
       2500    0.8925   -46.10    5.6989   137.13  0.035566    59.31   0.93772   -25.99
       2600   0.88667   -47.83    5.6568   135.59  0.036695    57.90   0.93269   -26.95
       2700   0.87998   -49.64    5.6455   133.99  0.037789    56.50   0.92806   -27.82
       2800   0.87454   -51.34    5.5981   132.43  0.038738    54.99   0.92238   -28.74
       2900   0.86716   -53.10    5.5622   130.86  0.039648    53.62   0.91769   -29.62
       3000   0.86044   -54.79    5.5437   129.32  0.040443    52.41    0.9133   -30.49
       3100   0.85558   -56.43    5.4965   127.84  0.041262    51.40   0.90961   -31.42
       3200   0.84911   -58.09    5.4644   126.34  0.042147    50.34   0.90438   -32.29
       3300    0.8426   -59.85    5.4323   124.83  0.043022    49.22   0.89973   -33.28
       3400   0.83554   -61.49    5.4093   123.28  0.043854    48.30   0.89494   -34.18
       3500   0.82927   -63.13    5.3705   121.83  0.044755    47.27   0.88977   -35.03
       3600   0.82233   -64.88    5.3434   120.36  0.045545    46.24   0.88428   -35.86
       3700   0.81677   -66.41    5.2851   118.90  0.046295    45.12   0.87942   -36.76
       3800   0.80899   -68.17     5.278   117.39  0.047119    44.26   0.87522   -37.60
       3900   0.80224   -69.78    5.2435   115.92  0.047822    43.34   0.87005   -38.42
       4000   0.79482   -71.48    5.2205   114.45  0.048662    42.31   0.86517   -39.31
       4100   0.78838   -73.05    5.1671   113.03  0.049305    41.22   0.85916   -40.13
       4200   0.78179   -74.61    5.1359   111.61  0.049971    40.23   0.85458   -40.96
       4300   0.77577   -76.23    5.1034   110.19  0.050567    39.28   0.85002   -41.81
       4400   0.76818   -77.93    5.0877   108.65  0.051269    38.33   0.84596   -42.62
       4500   0.76241   -79.47    5.0391   107.32  0.051801    37.44    0.8404   -43.44
       4600   0.75491   -81.06    5.0008   105.91   0.05233    36.47   0.83488   -44.27
       4700   0.74945   -82.59    4.9551   104.56   0.05283    35.53   0.82955   -45.09
       4800   0.74141   -84.31    4.9316   103.04  0.053443    34.54   0.82526   -45.98
       4900   0.73483   -85.85    4.8896   101.69  0.053877    33.62   0.82028   -46.70
       5000   0.72746   -87.42    4.8625   100.37  0.054359    32.83   0.81462   -47.44
       5200   0.71386   -90.54    4.7927    97.51  0.055061    31.01   0.80467   -49.12
       5400    0.6998   -93.58    4.7196    94.95   0.05576    29.29   0.79535   -50.55
       5600    0.6862   -96.64    4.6485    92.23  0.056273    27.68   0.78489   -52.22
       5800   0.67274   -99.67    4.5761    89.63  0.056761    26.06   0.77605   -53.63
       6000   0.66123  -102.61    4.5035    87.07  0.056989    24.58   0.76627   -55.22
       6200   0.64971  -105.56    4.4354    84.54  0.057301    23.24   0.75762   -56.67
       6400   0.63816  -108.54     4.368    82.04  0.057595    21.87   0.74783   -58.14
       6600   0.62377  -111.41    4.3008    79.51  0.057502    20.45   0.73839   -59.54
       6800   0.61313  -114.25     4.239    77.18   0.05761    19.43   0.73129   -60.91
       7000   0.60153  -117.04    4.1763    74.63  0.057617    18.32   0.72128   -62.46
       7200   0.59261  -119.82    4.1155    72.40  0.057446    17.51   0.71392   -63.73
       7400   0.58225  -122.76    4.0601    69.92  0.057214    16.52    0.7055   -65.21
       7600   0.57335  -125.50    4.0041    67.64  0.057426    15.75   0.69936   -66.56
       7800   0.56263  -128.39    3.9435    65.28  0.056989    14.99   0.69043   -68.04
       8000   0.55239  -130.83    3.8886    63.22  0.056508    14.57   0.68363   -69.21
       8200   0.54622  -133.70    3.8454    60.84  0.056827    14.39   0.67835   -70.84
       8400   0.53757  -136.56    3.7866    58.60  0.056824    13.49   0.66953   -72.23
       8600   0.52762  -139.13    3.7355    56.46  0.055663    12.98   0.66325   -73.33
       8800   0.52028  -142.09    3.6939    53.95  0.056288    12.97   0.65731   -75.08
       9000   0.51473  -144.42     3.644    51.97  0.056196    13.31   0.65422   -76.55
       9200    0.5104  -147.55    3.6102    49.59  0.057001    13.26   0.64891   -78.32
       9400     0.499  -150.63    3.5501    47.08  0.056717    11.85   0.63963   -80.07
       9600   0.49001  -153.01    3.4877    45.24  0.056056    12.07   0.62941   -81.24
       9800   0.48144  -155.57    3.4457    43.15  0.055316    11.62   0.62359   -82.58
      10000   0.47792  -157.63     3.398    41.32   0.05522    12.33   0.61788   -83.84
      10200   0.47544  -160.58      3.38    39.12  0.055712    12.71   0.61356   -85.59
      10400   0.47373  -163.58    3.3471    36.67  0.056759    12.82   0.61235   -87.50
      10600   0.46402  -166.42    3.2954    34.36  0.056781    11.77   0.60002   -89.36
      10800   0.45819  -169.09    3.2445    32.08  0.056404    11.40   0.59379   -91.01
      11000   0.44642  -170.93    3.1852    30.54  0.053527    11.73     0.582   -91.68
      11200   0.45243  -173.62    3.1817    28.36  0.055815    14.78   0.58704   -93.67
      11400   0.44805  -176.47    3.1305    26.21  0.056437    14.52    0.5807   -95.38
      11600   0.44538  -179.20    3.1057    24.20  0.057674    15.20   0.57603   -97.43
      11800   0.44215   178.04    3.0584    21.99  0.057685    15.03   0.56777   -98.91
      12000   0.43499   175.38    3.0113    20.08  0.057942    14.68   0.55789  -100.97
      12200   0.43511   173.26    2.9838    18.31  0.058575    16.77    0.5528  -102.03
      12400   0.43078   170.23    2.9505    16.06  0.060113    15.54   0.54681  -104.03
      12600   0.42379   167.93    2.9051    14.45  0.058419    16.05   0.53576  -104.77
      12800   0.42615   165.97    2.8903    12.76  0.059522    18.23   0.53718  -105.94
      13000   0.42698   163.40      2.89    10.58  0.062808    19.57   0.54209  -108.07
      13200   0.42381   161.34     2.852     8.77  0.061586    20.56   0.53965  -109.22
      13400   0.42753   158.49    2.8223     6.49  0.066398    20.28   0.53567  -112.47
      13600   0.42892   155.88    2.8142     4.39  0.067274    20.64   0.53058  -114.34
      13800    0.4279   153.48    2.7689     2.11  0.069431    20.19   0.52242  -116.83
      14000   0.42559   150.25    2.7367     0.20  0.070561    19.73   0.51181  -118.92
      14200   0.42664   148.53    2.7035    -1.45  0.071602    20.73   0.50565  -120.21
      14400   0.42393   146.08    2.6961    -3.15  0.073881    20.95   0.50097  -122.26
      14600   0.42889   143.34    2.6781    -5.44  0.077265    20.85   0.49864  -123.96
      14800   0.42435   140.56    2.6437    -7.45  0.078785    19.69   0.49038  -126.57
      15000   0.42793   138.41     2.641    -9.29  0.080358    20.21   0.49141  -127.69
      15200    0.4281   136.30    2.6051   -11.39   0.08254    19.79   0.48849  -130.39
      15400   0.43488   133.98    2.6084   -13.14   0.08556    20.43   0.48824  -132.13
      15600   0.43975   131.72    2.5733   -15.60   0.08829    19.59   0.48581  -134.69
      15800   0.44217   129.25    2.5673   -17.43  0.091241    19.33   0.48688  -137.20
      16000   0.44841   126.43    2.5336   -19.83  0.094069    18.18   0.48109  -139.96
      16200   0.45383   124.14     2.517   -21.72  0.097002    18.05   0.47819  -142.23
      16400   0.45727   121.12    2.4947   -24.01   0.10033    16.96   0.47473  -144.55
      16600   0.45459   119.31     2.464   -25.57   0.10251    15.91   0.47092  -147.07
      16800   0.45745   117.24    2.4521   -27.42   0.10482    15.92   0.46718  -148.71
      17000   0.46174   114.78    2.4428   -29.56    0.1089    14.90   0.46905  -152.10
      17200   0.46233   112.70    2.4224   -31.38   0.11158    14.37   0.46104  -154.18
      17400   0.46988   109.78    2.4262   -33.98   0.11637    13.50   0.46537  -157.20
      17600   0.47214   107.58    2.4049   -35.97   0.12006    12.52   0.46018  -159.02
      17800   0.47473   105.74    2.3978   -38.11    0.1238    11.40   0.46279  -162.02
      18000   0.48728   103.15    2.3738   -40.77   0.12908     9.68   0.47022  -164.82
      18200   0.48787   100.15    2.3464   -43.17   0.13171     7.67   0.46701  -168.62
      18400   0.49354    97.86    2.3101   -45.31   0.13428     6.64    0.4646  -171.70
      18600   0.49467    95.91    2.2737   -46.92   0.13737     5.50   0.45902  -175.04
      18800   0.50058    93.50    2.2581   -49.16   0.14135     4.19   0.45926  -178.38
      19000   0.50237    91.76    2.2482   -50.63   0.14398     3.13   0.45477   178.98
      19200      0.51    89.57     2.244   -52.90   0.14929     2.25   0.45519   176.60
      19400   0.52441    86.93    2.2362   -55.58   0.15567     0.42   0.46012   173.44
      19600   0.52997    83.66    2.2058   -58.29   0.15854    -1.94   0.46383   170.00
      19800    0.5383    81.32    2.1763   -59.96   0.16191    -3.27   0.46084   166.36
      20000   0.53964    78.48    2.1588   -62.13   0.16604    -4.71   0.45821   163.91