! Filename:  P:\Prog\Test\Noise\ATS_data\Testdata_Net\BFU710\BFU710_2W_A1_2V6mA_D.s2p
! Date/Time: Fri 29/Apr/2011 13:26:59
! BFU710_2W_A1_2V6mA
! bias mode 1: Vout= 2.0000 V, Iout= 6.0300 mA, Vin= 0.8248 V, Iin= 0.0214 mA
! Date/time Wed Mar 16 10:31:57 2011
! Device data file deembeded for feedlines and parallel
! Original file: \BFU710\BFU710_2W_A1_2V6mA_R.s2p
! Feed-files: PR003V01_101208_Feed1.s2p, PR003V01_101208_Feed2.s2p
! Parallel-file: PR003V01_101208_Par.s2p
# MHz S MA R 50
!  Freq-MHz   S11-mag  S11-arg   S21-mag  S21-arg   S12-mag  S12-arg   S22-mag  S22-arg
         40   0.93691    -1.12     15.68   178.61 0.00055268    87.63   0.99823    -0.22
         50   0.93186    -1.62    15.733   177.98 0.0010584    63.91   0.99868    -0.47
         60   0.93725    -1.51    15.542   177.88 0.00068332    78.73   0.99947    -0.58
         70   0.93727    -1.93    15.577   178.02 0.00094164    89.34   0.99967    -0.78
         80   0.93678    -2.24     15.68   177.74 0.0011113    89.39   0.99987    -0.95
         90   0.93676    -2.56    15.681   177.31 0.0012328    87.73   0.99971    -1.13
        100   0.93695    -2.81    15.612   177.17 0.0013936    88.18   0.99963    -1.29
        120   0.93644    -3.44    15.659   176.68 0.0016525    88.55   0.99994    -1.62
        140   0.93645    -4.01    15.646   176.17 0.0019525    89.77   0.99995    -1.95
        160   0.93641    -4.58    15.607   175.60 0.0022231    88.80   0.99967    -2.26
        180   0.93641    -5.18    15.619   175.16 0.0025129    89.41   0.99972    -2.57
        200   0.93557    -5.77    15.631   174.51 0.0027941    88.52   0.99945    -2.88
        220   0.93523    -6.37    15.648   174.00 0.0030935    89.05   0.99921    -3.21
        240   0.93432    -6.95    15.695   173.37 0.0034041    88.58   0.99906    -3.53
        260    0.9342    -7.51    15.642   172.81 0.0036549    88.21   0.99871    -3.84
        280   0.93362    -8.12    15.647   172.26 0.0039863    87.79   0.99855    -4.14
        300   0.93326    -8.73    15.632   171.71 0.0042767    87.87   0.99816    -4.47
        320   0.93228    -9.29    15.575   171.16 0.0045973    87.36   0.99778    -4.77
        340   0.93164    -9.86    15.589   170.59 0.0048788    86.94   0.99726    -5.09
        360    0.9312   -10.44    15.543   170.11 0.0051505    86.50   0.99657    -5.39
        380   0.93024   -11.03    15.551   169.54 0.0054815    86.32    0.9962    -5.70
        400   0.92927   -11.61    15.574   169.00 0.0057739    85.85   0.99535    -6.01
        420   0.92834   -12.23    15.607   168.40 0.0060767    85.46   0.99507    -6.30
        440   0.92734   -12.78    15.558   167.89 0.0063779    85.02    0.9945    -6.62
        460   0.92628   -13.39    15.569   167.32 0.0066605    84.96   0.99376    -6.92
        480   0.92535   -13.96    15.538   166.79 0.0069722    84.31   0.99336    -7.25
        500   0.92397   -14.54    15.463   166.20 0.0072649    83.77   0.99226    -7.57
        550   0.92165   -15.98    15.478   164.81 0.0079922    82.89   0.98979    -8.30
        600   0.91781   -17.45    15.482   163.45 0.0087307    81.94   0.98766    -9.05
        650   0.91524   -18.86    15.367   162.07  0.009441    81.01   0.98508    -9.82
        700   0.91137   -20.24    15.232   160.77   0.01016    79.96   0.98229   -10.59
        750   0.90779   -21.69    15.207   159.45  0.010873    79.04    0.9791   -11.32
        800   0.90334   -23.17    15.223   158.16  0.011607    78.10   0.97655   -12.00
        850    0.8991   -24.57    15.139   156.83  0.012303    77.13   0.97373   -12.73
        900   0.89518   -25.91    14.988   155.54  0.012969    76.21   0.96993   -13.47
        950   0.89071   -27.33    14.933   154.33  0.013638    75.34   0.96622   -14.16
       1000   0.88568   -28.70    14.911   153.01   0.01433    74.49   0.96289   -14.86
       1050   0.88046   -30.08    14.819   151.75   0.01497    73.54   0.95929   -15.56
       1100     0.876   -31.39    14.694   150.55  0.015604    72.71   0.95504   -16.26
       1150    0.8703   -32.81    14.649   149.25  0.016244    71.91   0.95088   -16.90
       1200   0.86476   -34.14    14.574   148.05  0.016862    71.08   0.94725   -17.54
       1250   0.85963   -35.45    14.462   146.82   0.01751    70.21   0.94329   -18.25
       1300   0.85443   -36.75    14.349   145.61  0.018098    69.33   0.93869   -18.91
       1350   0.84851   -38.12    14.294   144.40  0.018686    68.54   0.93404   -19.54
       1400   0.84236   -39.46    14.229   143.20  0.019267    67.75    0.9298   -20.18
       1450    0.8367   -40.77    14.126   142.03  0.019826    66.98   0.92546   -20.81
       1500   0.83061   -42.04    14.024   140.87   0.02037    66.21   0.92079   -21.43
       1550    0.8248   -43.30     13.94   139.69  0.020924    65.51   0.91667   -21.99
       1600    0.8185   -44.57    13.848   138.55  0.021471    64.79   0.91251   -22.58
       1650   0.81196   -45.85    13.729   137.42  0.021987    64.04   0.90741   -23.20
       1700   0.80673   -47.06    13.628   136.29  0.022447    63.39   0.90243   -23.77
       1750    0.8003   -48.31     13.54   135.14  0.022956    62.64   0.89776   -24.37
       1800    0.7938   -49.58     13.44   134.02    0.0235    62.01   0.89359   -24.94
       1850   0.78741   -50.85    13.336   132.91   0.02394    61.29    0.8886   -25.52
       1900   0.78102   -52.10    13.252   131.77  0.024381    60.74   0.88428   -26.08
       1950   0.77487   -53.25     13.13   130.72  0.024846    60.13   0.88015   -26.64
       2000   0.76874   -54.43    13.011   129.63  0.025328    59.49   0.87529   -27.26
       2050   0.76193   -55.59    12.903   128.59  0.025789    58.96   0.87006   -27.81
       2100   0.75547   -56.75    12.799   127.55  0.026253    58.37   0.86475   -28.34
       2150   0.74951   -57.92      12.7   126.57  0.026711    57.81   0.85913   -28.88
       2200   0.74263   -59.06    12.594   125.56  0.027109    57.17   0.85433   -29.32
       2250   0.73582   -60.23    12.491   124.50  0.027532    56.68   0.85003   -29.88
       2300   0.72937   -61.39    12.378   123.49  0.027976    56.11    0.8452   -30.45
       2350   0.72319   -62.53     12.24   122.58  0.028427    55.60   0.83854   -31.04
       2400   0.71616   -63.70    12.141   121.62   0.02887    55.04   0.83163   -31.44
       2450   0.70855   -64.80    12.038   120.69  0.029328    54.38    0.8263   -31.85
       2500     0.701   -65.80    11.934   119.79  0.029724    53.55    0.8212   -32.28
       2600   0.68897   -67.90    11.721   118.00  0.030396    52.42   0.81089   -33.13
       2700   0.67577   -69.99     11.53   116.20  0.031003    51.21   0.80139   -33.87
       2800   0.66428   -72.00    11.333   114.47  0.031563    50.09    0.7915   -34.58
       2900   0.65139   -74.04    11.131   112.77  0.032034    49.09   0.78281   -35.22
       3000   0.63943   -75.88    10.958   111.12  0.032505    48.26     0.776   -35.90
       3100   0.62998   -77.75    10.778   109.48  0.032917    47.53   0.76933   -36.66
       3200   0.61924   -79.60    10.597   107.89  0.033406    46.83   0.76116   -37.35
       3300   0.60847   -81.59     10.43   106.29  0.033892    46.17    0.7538   -38.14
       3400   0.59748   -83.38    10.268   104.67  0.034352    45.58   0.74682   -38.89
       3500   0.58806   -85.18    10.101   103.18  0.034831    44.99   0.73917   -39.52
       3600    0.5776   -87.07    9.9392   101.65  0.035273    44.37   0.73186   -40.14
       3700   0.56872   -88.79    9.7771   100.16  0.035659    43.78   0.72509   -40.79
       3800    0.5582   -90.64    9.6381    98.63  0.036154    43.25   0.71893   -41.46
       3900   0.54877   -92.31    9.4799    97.18   0.03658    42.77   0.71251   -42.09
       4000   0.53945   -94.15    9.3323    95.73   0.03702    42.25   0.70569   -42.75
       4100   0.53045   -95.82     9.178    94.33  0.037381    41.69   0.69865   -43.30
       4200   0.52177   -97.44    9.0423    92.97  0.037757    41.18   0.69296   -43.89
       4300   0.51391   -99.12     8.906    91.60  0.038125    40.78   0.68768   -44.49
       4400   0.50533  -100.81    8.7748    90.19  0.038572    40.31   0.68278   -45.08
       4500   0.49827  -102.38    8.6338    88.90  0.038863    39.89   0.67693   -45.69
       4600   0.48984  -104.04     8.505    87.61  0.039217    39.46   0.67107   -46.27
       4700   0.48324  -105.67    8.3815    86.32  0.039537    39.08   0.66558   -46.85
       4800   0.47434  -107.39    8.2548    84.95  0.039889    38.64   0.66056   -47.51
       4900   0.46704  -109.00    8.1369    83.71   0.04021    38.28   0.65541   -47.99
       5000   0.45977  -110.54    8.0177    82.49  0.040532    37.99   0.64992   -48.48
       5200   0.44607  -113.60    7.7857    79.93  0.041105    37.25   0.64065   -49.69
       5400   0.43292  -116.70    7.5689    77.64  0.041677    36.63   0.63196   -50.63
       5600      0.42  -119.67    7.3629    75.25  0.042188    36.12   0.62257   -51.84
       5800   0.40807  -122.68    7.1628    72.96  0.042736    35.68   0.61509   -52.78
       6000    0.3981  -125.50    6.9797    70.72  0.043188    35.32   0.60718   -53.94
       6200   0.38909  -128.37    6.8039    68.54  0.043792    35.03    0.6004   -54.98
       6400   0.37994  -131.34    6.6356    66.37  0.044371    34.73   0.59227   -56.02
       6600   0.36866  -134.18    6.4676    64.25  0.044767    34.46   0.58556   -56.93
       6800   0.36126  -136.90    6.3214    62.28  0.045424    34.31   0.58099   -57.98
       7000   0.35325  -139.55    6.1736    60.14  0.046053    34.20   0.57296   -59.17
       7200   0.34818  -142.05     6.039    58.27  0.046658    34.18   0.56828   -60.07
       7400    0.3413  -145.20    5.9132    56.10   0.04727    34.11   0.56313   -61.10
       7600   0.33591  -147.66    5.7917    54.21  0.048164    33.92   0.55891   -62.26
       7800   0.32967  -150.72    5.6661    52.17  0.048639    33.92   0.55219   -63.35
       8000   0.32209  -152.95    5.5568    50.53  0.049514    34.11    0.5499   -64.18
       8200   0.31983  -155.72     5.462    48.42  0.050567    34.10    0.5458   -65.74
       8400   0.31564  -158.80    5.3552    46.54  0.051649    33.74   0.53987   -66.73
       8600   0.30971  -161.23    5.2522    44.75  0.051742    33.81   0.53689   -67.51
       8800   0.30582  -164.28    5.1617    42.54  0.053214    33.74   0.53224   -69.23
       9000   0.30406  -166.19    5.0758    40.92  0.054484    34.05   0.53164   -70.54
       9200   0.30373  -169.57    5.0026    38.74  0.056016    33.77   0.52712   -72.31
       9400   0.29708  -172.85    4.8913    36.64  0.056702    32.86   0.51887   -73.72
       9600   0.29222  -175.18    4.7868    35.22  0.057633    33.12   0.51145   -74.55
       9800   0.28693  -177.79    4.7172    33.47  0.058297    32.78   0.50826   -75.58
      10000   0.28631  -179.17    4.6416    31.94    0.0596    32.87   0.50459   -76.61
      10200   0.28765   177.85    4.6031    29.95  0.061142    32.61   0.50154   -78.39
      10400   0.28988   174.83    4.5433    27.72  0.063085    32.08   0.50131   -80.25
      10600   0.28436   171.91    4.4495    25.77  0.063963    31.11    0.4887   -81.85
      10800   0.28247   169.24    4.3719    23.82   0.06491    30.41   0.48499   -83.22
      11000   0.27288   167.98    4.2804    22.64  0.063649    30.79   0.47547   -83.43
      11200   0.28416   165.57    4.2707    20.70  0.067411    31.77   0.48179   -85.46
      11400   0.28381   162.67    4.1901    18.77  0.068982    30.92   0.47731   -86.93
      11600   0.28465   159.80     4.148    17.06  0.071185    30.42   0.47437   -89.07
      11800    0.2845   157.24     4.079    15.13  0.072197    29.61   0.46747   -90.22
      12000   0.28037   154.61    3.9992    13.49  0.073114    28.71   0.45773   -92.38
      12200   0.28348   153.17    3.9638    11.98  0.074847    29.39   0.45338   -93.20
      12400   0.28419   149.75    3.9076    10.05  0.077287    27.73   0.44659   -94.78
      12600   0.28011   147.33    3.8535     8.83  0.076906    27.21   0.43947   -94.83
      12800   0.28548   146.16    3.8317     7.31  0.078883    27.65   0.44363   -95.75
      13000   0.28819   143.58    3.8261     5.24  0.082178    27.47   0.45047   -98.33
      13200   0.28582   142.07    3.7767     3.65    0.0816    27.20   0.45071   -99.26
      13400   0.29437   139.76    3.7242     1.56  0.086278    26.41   0.44309  -102.96
      13600   0.29841   137.27    3.7103    -0.29  0.087672    25.88   0.43846  -104.54
      13800   0.30069   134.92    3.6433    -2.37  0.090288    24.86   0.42964  -106.87
      14000    0.3032   131.41    3.5978    -3.89  0.091846    23.80   0.41895  -108.75
      14200   0.30487   130.20    3.5613    -5.35   0.09349    23.48   0.41488  -109.46
      14400   0.30356   127.56    3.5475    -6.85  0.095838    22.83   0.41154  -111.48
      14600   0.31133   125.28    3.5264    -8.93  0.099142    21.94   0.41057  -113.03
      14800   0.30915   122.17    3.4784   -10.75   0.10086    20.33   0.40209  -115.56
      15000   0.31356   120.79    3.4801   -12.46   0.10194    19.80   0.40598  -116.54
      15200   0.31503   119.21    3.4273   -14.44   0.10406    18.96   0.40225  -119.43
      15400   0.32523   117.49    3.4324   -15.97   0.10651    18.85   0.40258  -121.06
      15600   0.33087   115.89    3.3856   -18.30   0.10923    17.67   0.39995  -123.57
      15800   0.33626   113.63    3.3732   -19.94   0.11152    17.04   0.40048  -126.43
      16000   0.34596   111.11    3.3273   -22.13   0.11473    15.78   0.39246  -128.99
      16200   0.35339   109.10     3.307   -23.77   0.11745    15.15   0.38901  -131.03
      16400   0.36028   106.08    3.2822   -25.94   0.12057    13.81   0.38683  -133.19
      16600   0.35794   104.59    3.2374   -27.25   0.12278    12.39   0.38202  -135.66
      16800   0.36157   102.77    3.2294   -28.89    0.1244    11.86   0.37914  -136.84
      17000   0.36731   100.63    3.2169   -30.92   0.12799    10.70   0.38011  -140.58
      17200    0.3691    98.78    3.1917   -32.53   0.13048     9.86   0.37137  -142.22
      17400    0.3785    96.01    3.2037   -35.06   0.13457     8.87   0.37599  -145.31
      17600   0.38031    94.12    3.1738   -36.99   0.13774     7.65   0.37275  -146.91
      17800   0.38485    92.69    3.1657   -38.89   0.14073     6.41   0.37382  -150.10
      18000   0.39981    90.65    3.1369   -41.57   0.14553     4.79   0.38272  -153.03
      18200   0.40262    87.55    3.0969   -43.86   0.14783     2.76    0.3798  -157.25
      18400   0.41062    85.81    3.0481   -45.77    0.1498     1.70   0.37557  -160.62
      18600   0.41403    83.90    3.0017   -47.08    0.1528     0.41   0.36757  -163.95
      18800   0.42045    81.80     2.985   -49.24   0.15593    -0.88   0.36705  -167.63
      19000    0.4227    80.27    2.9797   -50.46   0.15825    -2.14   0.36114  -169.98
      19200   0.43152    78.40    2.9821   -52.67    0.1625    -3.07   0.36266  -172.01
      19400      0.45    76.10    2.9756   -55.33   0.16829    -4.60   0.36934  -175.45
      19600   0.45761    72.62    2.9416   -57.96   0.17111    -6.91   0.37297  -179.15
      19800   0.46646    70.60    2.9004   -59.59   0.17414    -8.27   0.37015   176.78
      20000    0.4681    67.70    2.8805   -61.61   0.17799    -9.78   0.36699   174.55
!  
! Device Noise Parameters
!  Freq-MHz   Fmin-dB  Gopt-mag  Gopt-arg   rn_normalized
	400	0.8344	0.54752	2.28	0.3225
	420	0.8346	0.54733	2.50	0.3225
	440	0.8349	0.54714	2.73	0.3224
	460	0.8351	0.54695	2.95	0.3224
	480	0.8354	0.54676	3.18	0.3224
	500	0.8356	0.54657	3.40	0.3223
	550	0.8363	0.54608	3.95	0.3223
	600	0.8369	0.54559	4.51	0.3222
	650	0.8376	0.54509	5.06	0.3220
	700	0.8383	0.54459	5.60	0.3219
	750	0.8390	0.54407	6.14	0.3217
	800	0.8397	0.54355	6.68	0.3216
	850	0.8405	0.54302	7.22	0.3214
	900	0.8413	0.54247	7.75	0.3212
	950	0.8420	0.54192	8.28	0.3210
	1000	0.8428	0.54136	8.80	0.3207
	1050	0.8436	0.54078	9.33	0.3205
	1100	0.8445	0.54019	9.85	0.3202
	1150	0.8453	0.53959	10.36	0.3200
	1200	0.8462	0.53898	10.88	0.3197
	1250	0.8471	0.53836	11.39	0.3194
	1300	0.8480	0.53772	11.90	0.3190
	1350	0.8489	0.53706	12.41	0.3187
	1400	0.8498	0.53640	12.91	0.3184
	1450	0.8508	0.53572	13.41	0.3180
	1500	0.8517	0.53502	13.91	0.3176
	1550	0.8527	0.53431	14.41	0.3172
	1600	0.8537	0.53358	14.90	0.3168
	1650	0.8547	0.53284	15.40	0.3164
	1700	0.8557	0.53208	15.89	0.3160
	1750	0.8568	0.53131	16.38	0.3155
	1800	0.8579	0.53052	16.86	0.3150
	1850	0.8589	0.52972	17.35	0.3146
	1900	0.8600	0.52890	17.83	0.3141
	1950	0.8612	0.52806	18.31	0.3136
	2000	0.8623	0.52721	18.79	0.3131
	2050	0.8634	0.52634	19.27	0.3125
	2100	0.8646	0.52545	19.75	0.3120
	2150	0.8658	0.52454	20.22	0.3115
	2200	0.8670	0.52362	20.70	0.3109
	2250	0.8682	0.52269	21.17	0.3103
	2300	0.8694	0.52173	21.64	0.3097
	2350	0.8707	0.52076	22.11	0.3091
	2400	0.8720	0.51977	22.58	0.3085
	2450	0.8732	0.51877	23.05	0.3079
	2500	0.8745	0.51775	23.52	0.3073
	2600	0.8772	0.51565	24.45	0.3060
	2700	0.8799	0.51349	25.37	0.3046
	2800	0.8827	0.51127	26.30	0.3032
	2900	0.8856	0.50898	27.22	0.3018
	3000	0.8885	0.50662	28.14	0.3003
	3100	0.8915	0.50420	29.06	0.2988
	3200	0.8945	0.50172	29.98	0.2973
	3300	0.8977	0.49918	30.90	0.2957
	3400	0.9009	0.49658	31.81	0.2941
	3500	0.9041	0.49392	32.73	0.2924
	3600	0.9074	0.49120	33.65	0.2907
	3700	0.9108	0.48843	34.57	0.2890
	3800	0.9143	0.48561	35.49	0.2872
	3900	0.9178	0.48273	36.41	0.2854
	4000	0.9214	0.47981	37.34	0.2836
	4100	0.9251	0.47684	38.26	0.2817
	4200	0.9288	0.47383	39.19	0.2799
	4300	0.9326	0.47077	40.13	0.2779
	4400	0.9365	0.46767	41.06	0.2760
	4500	0.9404	0.46454	42.01	0.2740
	4600	0.9444	0.46137	42.95	0.2721
	4700	0.9485	0.45817	43.90	0.2700
	4800	0.9526	0.45494	44.86	0.2680
	4900	0.9568	0.45168	45.82	0.2660
	5000	0.9611	0.44839	46.79	0.2639
	5200	0.9699	0.44176	48.74	0.2597
	5400	0.9789	0.43505	50.72	0.2554
	5600	0.9882	0.42830	52.73	0.2511
	5800	0.9977	0.42153	54.76	0.2467
	6000	1.0075	0.41475	56.83	0.2423
	6200	1.0176	0.40798	58.93	0.2378
	6400	1.0280	0.40125	61.07	0.2334
	6600	1.0386	0.39458	63.24	0.2289
	6800	1.0495	0.38798	65.45	0.2244
	7000	1.0607	0.38147	67.69	0.2198
	7200	1.0721	0.37507	69.97	0.2153
	7400	1.0839	0.36879	72.29	0.2109
	7600	1.0958	0.36265	74.64	0.2064
	7800	1.1081	0.35665	77.02	0.2020
	8000	1.1206	0.35081	79.44	0.1976
	8200	1.1334	0.34512	81.88	0.1933
	8400	1.1465	0.33960	84.36	0.1890
	8600	1.1598	0.33424	86.86	0.1848
	8800	1.1734	0.32904	89.39	0.1807
	9000	1.1873	0.32400	91.93	0.1767
	9200	1.2014	0.31910	94.50	0.1727
	9400	1.2158	0.31433	97.08	0.1689
	9600	1.2305	0.30969	99.68	0.1651
	9800	1.2454	0.30515	102.29	0.1615
	10000	1.2607	0.30069	104.90	0.1580
	10200	1.2761	0.29630	107.52	0.1547
	10400	1.2919	0.29194	110.15	0.1515
	10600	1.3079	0.28759	112.79	0.1484
	10800	1.3242	0.28322	115.43	0.1455
	11000	1.3408	0.27880	118.08	0.1428
	11200	1.3576	0.27431	120.73	0.1402
	11400	1.3747	0.26970	123.40	0.1379
	11600	1.3921	0.26496	126.09	0.1357
	11800	1.4098	0.26004	128.79	0.1337
	12000	1.4277	0.25493	131.53	0.1320
	12200	1.4458	0.24959	134.30	0.1304
	12400	1.4643	0.24400	137.13	0.1291
	12600	1.4830	0.23814	140.01	0.1281
	12800	1.5020	0.23199	142.98	0.1272
	13000	1.5213	0.22554	146.05	0.1267
	13200	1.5408	0.21879	149.24	0.1264
	13400	1.5606	0.21174	152.59	0.1263
	13600	1.5807	0.20442	156.14	0.1266
	13800	1.6010	0.19687	159.92	0.1271
	14000	1.6216	0.18914	163.99	0.1279