! Filename:  P:\Prog\Test\Noise\ATS_data\Testdata_Net\BFU710\BFU710_2W_A1_2.5V3.5mA_D.s2p
! Date/Time: Fri 29/Apr/2011 13:26:29
! BFU710_2W_A1_2.5V3.5mA
! bias mode 1: Vout= 2.5000 V, Iout= 3.4750 mA, Vin= 0.8105 V, Iin= 0.0114 mA
! Date/time Wed Mar 16 12:27:15 2011
! Device data file deembeded for feedlines and parallel
! Original file: \BFU710\BFU710_2W_A1_2.5V3.5mA_R.s2p
! Feed-files: PR003V01_101208_Feed1.s2p, PR003V01_101208_Feed2.s2p
! Parallel-file: PR003V01_101208_Par.s2p
# MHz S MA R 50
!  Freq-MHz   S11-mag  S11-arg   S21-mag  S21-arg   S12-mag  S12-arg   S22-mag  S22-arg
         40   0.96255    -0.92    10.092   178.79 0.00054807    77.50   0.99826    -0.34
         50   0.96447    -1.56     10.12   178.21 0.0008667    47.77   0.99843    -0.52
         60   0.95932    -1.30    9.9999   178.14 0.00061291    77.76   0.99889    -0.57
         70   0.96255    -1.51    10.018   178.34 0.00091132    83.36     0.999    -0.72
         80   0.96232    -1.76     10.09   178.13 0.0010613    83.55   0.99913    -0.85
         90   0.96246    -1.98    10.094   177.76 0.0012033    83.44   0.99899    -0.99
        100    0.9623    -2.15    10.045   177.69 0.0013346    83.07   0.99884    -1.11
        120   0.96212    -2.70    10.068   177.32 0.0016225    86.33   0.99911    -1.36
        140   0.96199    -3.14    10.068   176.95 0.0019317    87.35   0.99921    -1.63
        160   0.96202    -3.59    10.038   176.48 0.0021928    86.96   0.99899    -1.87
        180   0.96233    -4.07    10.054   176.16 0.0024821    87.48   0.99913    -2.12
        200   0.96203    -4.55    10.063   175.63 0.0027728    87.47   0.99897    -2.37
        220    0.9615    -5.00    10.076   175.25 0.0030723    87.77    0.9989    -2.63
        240   0.96078    -5.46    10.118   174.74 0.0033431    87.54   0.99887    -2.89
        260   0.96095    -5.92    10.081   174.30 0.0036634    87.84   0.99876    -3.13
        280   0.96046    -6.39    10.092   173.86 0.0039644    87.39   0.99876    -3.39
        300   0.96042    -6.88    10.083   173.43 0.0042347    87.31    0.9987    -3.65
        320    0.9598    -7.31    10.043   173.00 0.0045551    87.10   0.99847    -3.90
        340   0.95939    -7.77    10.059   172.55 0.0048362    87.14   0.99812    -4.16
        360   0.95944    -8.23    10.029   172.18 0.0051276    86.99   0.99784    -4.40
        380   0.95905    -8.70    10.038   171.73 0.0054284    86.57   0.99756    -4.66
        400   0.95795    -9.15    10.065   171.29 0.0057506    86.02   0.99712    -4.91
        420   0.95738    -9.64    10.098   170.82 0.0060127    85.82   0.99716    -5.14
        440   0.95706   -10.07    10.068   170.42 0.0063434    85.54   0.99689    -5.41
        460   0.95659   -10.56    10.084   169.96 0.0066453    85.42   0.99639    -5.65
        480   0.95583   -11.02    10.067   169.55 0.0069266    85.13   0.99641    -5.92
        500   0.95526   -11.46    10.013   169.08 0.0072285    84.74   0.99576    -6.19
        550   0.95384   -12.62    10.048   167.96 0.0079444    83.79   0.99447    -6.79
        600   0.95164   -13.81     10.08   166.86 0.0087214    83.13   0.99337    -7.41
        650   0.95044   -14.92    10.015   165.74 0.0094497    82.45   0.99211    -8.06
        700   0.94836   -16.04    9.9325   164.70  0.010187    81.62   0.99074    -8.70
        750   0.94644   -17.20    9.9414   163.63  0.010887    80.79   0.98896    -9.32
        800   0.94391   -18.39    9.9954   162.61  0.011658    79.98   0.98773    -9.89
        850   0.94145   -19.54    9.9618   161.51  0.012383    79.24   0.98637   -10.50
        900   0.93944   -20.60    9.8666   160.45  0.013106    78.43   0.98438   -11.14
        950   0.93696   -21.76    9.8547   159.46  0.013802    77.69   0.98227   -11.74
       1000   0.93415   -22.89    9.8845   158.37  0.014532    76.92   0.98057   -12.34
       1050   0.93105   -23.99     9.847   157.35  0.015229    76.01   0.97871   -12.95
       1100   0.92872   -25.08    9.7781   156.35  0.015919    75.23   0.97628   -13.57
       1150   0.92513   -26.23    9.7783   155.27  0.016597    74.61   0.97381   -14.14
       1200    0.9219   -27.34    9.7622   154.25  0.017273    73.84   0.97192   -14.70
       1250   0.91882   -28.43    9.7116   153.21  0.017979    73.03   0.96986   -15.34
       1300   0.91573   -29.50    9.6516   152.19  0.018635    72.25   0.96734   -15.92
       1350   0.91218   -30.67    9.6537   151.18   0.01927    71.52   0.96435   -16.51
       1400   0.90873   -31.78    9.6426   150.16   0.01994    70.75   0.96187   -17.09
       1450   0.90525   -32.88    9.5993   149.16  0.020578    70.03   0.95952   -17.67
       1500   0.90179   -33.96    9.5559   148.18  0.021191    69.29   0.95664   -18.25
       1550   0.89798   -35.04    9.5388   147.14  0.021855    68.65   0.95431   -18.78
       1600   0.89432   -36.14    9.5176   146.16  0.022462    67.93   0.95188   -19.33
       1650    0.8901   -37.23    9.4567   145.16   0.02306    67.22    0.9487   -19.91
       1700   0.88699   -38.27    9.4109   144.19  0.023631    66.55   0.94552   -20.47
       1750   0.88292   -39.35    9.3895   143.19  0.024222    65.86   0.94251   -21.04
       1800   0.87871   -40.45    9.3541   142.19  0.024846    65.18   0.94021   -21.60
       1850   0.87427   -41.55     9.307   141.20  0.025411    64.52   0.93697   -22.16
       1900   0.87037   -42.66    9.2863   140.21  0.025946    63.91   0.93411   -22.71
       1950   0.86631   -43.68     9.224   139.28  0.026525    63.29   0.93151   -23.27
       2000   0.86204   -44.73    9.1735   138.29  0.027091    62.65   0.92849   -23.87
       2050   0.85715   -45.77    9.1363   137.34  0.027678    62.11   0.92508   -24.41
       2100   0.85275   -46.80    9.0992   136.38  0.028259    61.52   0.92141   -24.94
       2150   0.84879   -47.84    9.0636   135.50  0.028804    60.89   0.91754   -25.48
       2200   0.84408   -48.86     9.017   134.58  0.029342    60.18   0.91405   -25.97
       2250   0.83926   -49.93    8.9811   133.59  0.029842    59.62   0.91108   -26.53
       2300   0.83447   -51.00    8.9333   132.65  0.030429    59.06   0.90799   -27.09
       2350    0.8301   -51.96    8.8489   131.82  0.031032    58.45   0.90299   -27.70
       2400   0.82492   -53.02    8.8068   130.92  0.031554    57.75    0.8975   -28.17
       2450   0.81889   -54.03    8.7742   130.03  0.032152    57.08   0.89362   -28.61
       2500    0.8137   -54.96    8.7247   129.16  0.032672    56.09   0.88998   -29.10
       2600   0.80475   -56.91    8.6231   127.48  0.033554    54.79   0.88219   -30.05
       2700    0.7943   -58.91    8.5479   125.71  0.034421    53.40   0.87498   -30.91
       2800   0.78551   -60.80    8.4463   124.04  0.035129    51.98   0.86672   -31.78
       2900   0.77474   -62.72     8.347   122.36  0.035808    50.73   0.85967   -32.58
       3000     0.765   -64.54    8.2743   120.71  0.036383    49.67    0.8537   -33.39
       3100   0.75754   -66.34    8.1756   119.11   0.03698    48.70   0.84814   -34.28
       3200   0.74827   -68.11    8.0844   117.52  0.037647    47.78   0.84107   -35.10
       3300   0.73907   -70.04    8.0036   115.91  0.038251    46.83   0.83452   -36.03
       3400   0.72922   -71.80    7.9256   114.28  0.038866    46.06   0.82823   -36.89
       3500   0.72084   -73.55    7.8347   112.76    0.0395    45.14   0.82141   -37.67
       3600   0.71127   -75.38    7.7536   111.21  0.040088    44.31   0.81447   -38.42
       3700   0.70359   -77.04    7.6525   109.70  0.040615    43.38   0.80811   -39.23
       3800   0.69358   -78.89    7.5892   108.13  0.041204    42.62   0.80248   -40.02
       3900   0.68489   -80.57    7.5027   106.62  0.041703    41.92   0.79619   -40.76
       4000   0.67553   -82.33    7.4247   105.12  0.042277    41.05   0.78977   -41.57
       4100   0.66722   -84.02    7.3273   103.67  0.042696    40.17   0.78263   -42.28
       4200   0.65859   -85.64    7.2507   102.24   0.04317    39.40   0.77693   -43.01
       4300   0.65068   -87.31    7.1717   100.80  0.043589    38.71   0.77148   -43.76
       4400   0.64193   -89.01    7.1029    99.29  0.044068    37.97    0.7665   -44.48
       4500   0.63476   -90.65    7.0127    97.94  0.044432    37.25   0.76029   -45.21
       4600   0.62622   -92.25    6.9315    96.56  0.044803    36.56   0.75402   -45.93
       4700   0.61941   -93.85    6.8507    95.21  0.045121    35.89   0.74803   -46.64
       4800   0.60999   -95.58    6.7786    93.72  0.045547    35.16   0.74291   -47.42
       4900   0.60234   -97.19    6.7008    92.40  0.045811    34.47   0.73735   -48.03
       5000   0.59415   -98.74    6.6281    91.10  0.046151    33.93    0.7313   -48.65
       5200   0.57896  -101.89    6.4812    88.32  0.046618    32.66   0.72079   -50.11
       5400   0.56407  -104.95    6.3343    85.87  0.047119    31.50   0.71089   -51.30
       5600   0.54942  -108.02    6.1958    83.26  0.047447    30.48   0.70023   -52.74
       5800   0.53551  -111.02    6.0586    80.78  0.047824    29.45   0.69128   -53.91
       6000   0.52373  -113.91     5.929    78.35  0.048037    28.64    0.6819   -55.27
       6200   0.51261  -116.87    5.8057    75.96  0.048371    27.93   0.67356   -56.49
       6400   0.50129  -119.83    5.6853    73.60  0.048662    27.18   0.66405   -57.73
       6600   0.48739  -122.66    5.5642    71.25   0.04869    26.47   0.65548   -58.86
       6800   0.47767  -125.42    5.4554    69.09  0.048957    26.03   0.64932   -60.04
       7000   0.46703  -128.16     5.347    66.75  0.049166    25.60   0.63989   -61.39
       7200   0.45979  -130.79    5.2454    64.68  0.049313    25.37   0.63358   -62.44
       7400   0.45029  -133.81     5.152    62.34  0.049455    25.06   0.62649   -63.65
       7600   0.44294  -136.45    5.0594    60.25  0.049963    24.77   0.62123   -64.90
       7800   0.43371  -139.34    4.9617    58.07  0.049957    24.59   0.61322   -66.14
       8000   0.42444  -141.70    4.8758    56.21  0.050155    24.76   0.60864   -67.10
       8200   0.42041  -144.45    4.8037    53.98   0.05082    24.87    0.6041   -68.67
       8400   0.41299  -147.44     4.718    51.91  0.051407    24.46   0.59648   -69.83
       8600   0.40503  -149.91    4.6372    49.97  0.050901    24.56   0.59193   -70.73
       8800   0.39897  -152.87    4.5681    47.60  0.052005    24.69   0.58666   -72.46
       9000   0.39493  -155.03    4.4969    45.81  0.052674    25.29   0.58496   -73.80
       9200   0.39271  -158.25    4.4401    43.54   0.05392    25.25   0.58013   -75.55
       9400    0.3834  -161.38    4.3517    41.23  0.054166    24.30    0.5712   -77.12
       9600   0.37627  -163.75    4.2639    39.62  0.054435    24.74   0.56238   -78.08
       9800    0.3688  -166.30    4.2057    37.72  0.054539    24.63   0.55799   -79.22
      10000   0.36736  -167.95    4.1412    36.06  0.055336    25.20   0.55344   -80.35
      10200   0.36653  -171.00    4.1117    33.96   0.05652    25.30   0.55005   -82.09
      10400    0.3666  -174.03    4.0636    31.64  0.058153    25.16   0.54938   -83.97
      10600   0.35937  -176.85    3.9879    29.52  0.058651    24.27   0.53692   -85.68
      10800   0.35509  -179.50    3.9205    27.43  0.059106    23.85   0.53195   -87.16
      11000   0.34458   178.93    3.8411    26.07  0.057275    24.48    0.5214   -87.57
      11200   0.35377   176.40    3.8341    24.04  0.060601    26.33   0.52741   -89.54
      11400   0.35112   173.45    3.7659    22.01  0.061895    25.75   0.52207   -91.13
      11600   0.34988   170.66    3.7307    20.16  0.063796    25.73   0.51865   -93.19
      11800   0.34854   167.99     3.671    18.10  0.064496    25.23   0.51096   -94.51
      12000    0.3424   165.29    3.6047    16.34  0.065177    24.55   0.50149   -96.61
      12200   0.34453   163.50    3.5718    14.71  0.066655    25.85   0.49673   -97.54
      12400   0.34266   160.26    3.5245    12.65  0.068755    24.32   0.49042   -99.32
      12600   0.33661   157.99     3.473    11.27  0.067901    24.24   0.48137   -99.65
      12800   0.34143   156.34    3.4539     9.67  0.069679    25.36   0.48448  -100.67
      13000   0.34354   153.82    3.4508     7.55  0.073118    25.64   0.49092  -102.99
      13200   0.34042   152.05    3.4058     5.86  0.072372    25.89    0.4902  -104.03
      13400    0.3469   149.34    3.3633     3.69  0.077151    25.19   0.48456  -107.52
      13600   0.34938   146.83    3.3517     1.74  0.078417    24.95   0.47979  -109.23
      13800   0.35111   144.33    3.2924    -0.44  0.080861    24.08   0.47121  -111.64
      14000   0.35087   141.08    3.2533    -2.14   0.08235    23.26    0.4607  -113.62
      14200   0.35219   139.63    3.2163    -3.67  0.083807    23.42   0.45577  -114.57
      14400    0.3498   137.12    3.2059    -5.25  0.086175    23.00   0.45203  -116.56
      14600   0.35679   134.44     3.186    -7.43  0.089506    22.39   0.45077  -118.18
      14800    0.3529   131.59    3.1432    -9.33  0.091196    20.89    0.4424  -120.72
      15000   0.35773   129.77    3.1422   -11.09  0.092498    20.75   0.44536  -121.76
      15200   0.35808   127.85    3.0968   -13.13  0.094638    20.05   0.44217  -124.53
      15400   0.36687   125.87    3.1018   -14.74  0.097331    20.24   0.44258  -126.19
      15600   0.37268   123.90    3.0593   -17.13   0.10011    19.14   0.44006  -128.72
      15800   0.37672   121.54    3.0499   -18.85   0.10271    18.63    0.4412  -131.38
      16000   0.38509   118.82    3.0085   -21.14    0.1058    17.40   0.43422  -134.05
      16200   0.39155   116.66    2.9893   -22.88    0.1086    16.92   0.43111  -136.16
      16400   0.39627   113.64    2.9648   -25.11   0.11184    15.68   0.42849  -138.42
      16600   0.39396   111.93    2.9265   -26.53   0.11396    14.36   0.42412  -140.85
      16800   0.39719   110.11    2.9162   -28.24   0.11587    14.02   0.42116  -142.26
      17000   0.40213   107.75    2.9047   -30.33   0.11967    12.91   0.42269  -145.79
      17200   0.40341   105.72    2.8815   -32.04    0.1223    12.18   0.41444  -147.63
      17400   0.41235   102.86      2.89   -34.60   0.12666    11.23   0.41902  -150.66
      17600   0.41478   100.84    2.8636   -36.57   0.13001    10.13   0.41526  -152.33
      17800   0.41809    99.29    2.8558   -38.57   0.13336     8.93   0.41719  -155.38
      18000   0.43256    96.96     2.829   -41.22   0.13837     7.27   0.42581  -158.22
      18200   0.43405    93.88    2.7953   -43.57   0.14082     5.23   0.42278  -162.19
      18400   0.44099    91.86    2.7513   -45.58   0.14305     4.18   0.41955  -165.37
      18600   0.44319    89.91    2.7082   -47.01   0.14609     2.93   0.41253  -168.67
      18800   0.44915    87.74    2.6926   -49.22   0.14956     1.65   0.41258  -172.14
      19000   0.45101    86.09    2.6848   -50.54   0.15195     0.46   0.40717  -174.59
      19200   0.45955    84.08    2.6841   -52.78   0.15668    -0.44   0.40847  -176.74
      19400   0.47646    81.60    2.6776   -55.46   0.16279    -2.09   0.41467  -180.00
      19600   0.48289    78.15    2.6443   -58.13   0.16563    -4.43   0.41839   176.45
      19800   0.49159    75.94    2.6083   -59.78   0.16884    -5.78   0.41549   172.66
      20000   0.49383    73.10    2.5887   -61.87   0.17274    -7.28   0.41241   170.33