! Filename:  P:\Prog\Test\Noise\ATS_data\Testdata_Net\BFU710\BFU710_2W_A1_2V10mA_D.s2p
! Date/Time: Fri 29/Apr/2011 13:27:09
! BFU710_2W_A1_2V10mA
! bias mode 1: Vout= 2.0002 V, Iout= 9.9950 mA, Vin= 0.8342 V, Iin= 0.0390 mA
! Date/time Tue Mar 15 12:59:57 2011
! Device data file deembeded for feedlines and parallel
! Original file: \BFU710\BFU710_2W_A1_2V10mA_R.s2p
! Feed-files: PR003V01_101208_Feed1.s2p, PR003V01_101208_Feed2.s2p
! Parallel-file: PR003V01_101208_Par.s2p
# MHz S MA R 50
!  Freq-MHz   S11-mag  S11-arg   S21-mag  S21-arg   S12-mag  S12-arg   S22-mag  S22-arg
         40   0.89856    -1.45    22.422   178.37 0.00054337    87.78   0.99681     0.11
         50   0.90118    -2.08    22.505   177.65 0.0011596    75.23   0.99757    -0.26
         60   0.89723    -2.20    22.249   177.53 0.00079492    76.67   0.99913    -0.43
         70   0.89883    -2.52    22.301   177.61 0.00094261    88.13   0.99948    -0.71
         80   0.89826    -2.91    22.454   177.25 0.0011121    88.79   0.99981    -0.94
         90   0.89796    -3.30    22.448   176.72 0.0012532    87.88   0.99968    -1.19
        100   0.89754    -3.63     22.35   176.51 0.0014046    87.80   0.99963    -1.40
        120   0.89739    -4.47     22.44   175.85 0.0016533    88.15   0.99976    -1.82
        140   0.89717    -5.21    22.401   175.19 0.0019331    89.16   0.99981    -2.25
        160   0.89671    -5.97    22.358   174.43 0.0021944    88.17   0.99929    -2.64
        180   0.89658    -6.73    22.355   173.84 0.0024842    88.48   0.99913    -3.03
        200   0.89585    -7.52    22.368   173.02 0.0027858    88.16    0.9987    -3.41
        220   0.89467    -8.28     22.38   172.36  0.003055    88.00   0.99819    -3.82
        240   0.89343    -9.04    22.422   171.57 0.0033459    87.29   0.99772    -4.20
        260   0.89287    -9.79    22.351   170.86 0.0036171    87.30   0.99705    -4.58
        280   0.89166   -10.56    22.336   170.14 0.0039286    86.69   0.99659    -4.96
        300   0.89113   -11.35    22.314   169.42 0.0042092    86.58   0.99577    -5.36
        320   0.88963   -12.09    22.223   168.72 0.0045002    86.21   0.99496    -5.72
        340   0.88821   -12.84    22.226   167.99 0.0047922    85.56   0.99398    -6.09
        360   0.88714   -13.60     22.15   167.36 0.0050644    85.27   0.99292    -6.46
        380   0.88562   -14.37    22.141   166.62 0.0053557    84.66   0.99188    -6.85
        400   0.88338   -15.10     22.14   165.94 0.0056386    84.34   0.99058    -7.21
        420   0.88188   -15.87    22.155   165.20 0.0059122    83.88   0.98974    -7.56
        440   0.88058   -16.59    22.076   164.56 0.0062039    83.29   0.98855    -7.95
        460   0.87866   -17.35    22.063   163.84 0.0064571    82.94   0.98718    -8.31
        480   0.87679   -18.10    22.002   163.16 0.0067794    82.45   0.98613    -8.70
        500   0.87467   -18.84    21.886   162.41 0.0070533    82.12    0.9843    -9.07
        550   0.87007   -20.69    21.834   160.69  0.007742    80.81   0.97988    -9.93
        600   0.86422   -22.52     21.76   159.00  0.008412    79.63   0.97593   -10.79
        650    0.8586   -24.31    21.537   157.32 0.0090646    78.52   0.97156   -11.68
        700   0.85255   -26.09    21.307   155.68 0.0097557    77.52   0.96642   -12.56
        750   0.84675   -27.89    21.185   154.08   0.01039    76.42   0.96125   -13.38
        800   0.83946   -29.68     21.09   152.52  0.011056    75.45    0.9565   -14.16
        850   0.83282   -31.44    20.908   150.91  0.011705    74.40   0.95145   -14.97
        900    0.8259   -33.13    20.652   149.35  0.012292    73.28   0.94537   -15.78
        950   0.81866   -34.85    20.492   147.88  0.012904    72.34   0.93947   -16.52
       1000   0.81082   -36.50    20.351   146.34  0.013476    71.50     0.934   -17.27
       1050   0.80261   -38.16    20.138   144.85  0.014068    70.45   0.92807   -18.02
       1100   0.79559   -39.75    19.912   143.43  0.014623    69.53   0.92165   -18.74
       1150   0.78674   -41.43    19.754   141.92  0.015143    68.72   0.91536   -19.42
       1200   0.77847   -43.00    19.554   140.54  0.015672    67.82   0.90937   -20.08
       1250   0.77027   -44.59    19.326   139.12  0.016209    66.95   0.90318   -20.79
       1300   0.76223   -46.13     19.11   137.74  0.016706    66.13    0.8966   -21.45
       1350   0.75398   -47.67    18.935   136.38  0.017184    65.37   0.89024   -22.08
       1400    0.7453   -49.23    18.751   135.02  0.017662    64.61   0.88395   -22.69
       1450   0.73697   -50.72    18.538   133.70  0.018119    63.87    0.8777   -23.30
       1500   0.72863   -52.19    18.328   132.41   0.01856    63.12   0.87128   -23.88
       1550    0.7202   -53.63    18.125   131.11  0.019011    62.46   0.86526   -24.43
       1600   0.71219   -55.02    17.916   129.88  0.019423    61.70   0.85943   -24.97
       1650   0.70341   -56.49      17.7   128.63  0.019823    61.05   0.85294   -25.54
       1700   0.69562   -57.86    17.504   127.39   0.02021    60.51   0.84673   -26.06
       1750   0.68752   -59.21    17.303   126.18  0.020603    59.93   0.84083   -26.61
       1800   0.67908   -60.63    17.099   124.97  0.021011    59.26   0.83502   -27.14
       1850   0.67067   -62.04    16.895   123.78  0.021342    58.66   0.82892   -27.64
       1900   0.66284   -63.36    16.705   122.60  0.021717    58.17    0.8236   -28.14
       1950   0.65484   -64.61    16.488   121.47  0.022064    57.69   0.81807   -28.66
       2000   0.64695   -65.91    16.273   120.35  0.022406    57.11   0.81208   -29.20
       2050   0.63889   -67.17    16.064   119.28  0.022739    56.73   0.80556   -29.69
       2100   0.63174   -68.41    15.871   118.23  0.023111    56.30   0.79952   -30.12
       2150   0.62446   -69.66    15.682   117.23  0.023449    55.93   0.79329   -30.59
       2200   0.61661   -70.84    15.494   116.20  0.023746    55.34   0.78773   -30.94
       2250   0.60891   -72.11    15.303   115.13  0.024047    54.95   0.78285   -31.43
       2300   0.60198   -73.31    15.098   114.12  0.024378    54.56   0.77705   -31.94
       2350   0.59473   -74.58    14.889   113.18  0.024747    54.19   0.76969   -32.43
       2400   0.58715   -75.81    14.711   112.24  0.025037    53.75   0.76232   -32.74
       2450   0.57886   -76.98    14.526   111.35  0.025395    53.33   0.75625   -33.04
       2500   0.57071   -78.04     14.36   110.47  0.025729    52.70   0.75112   -33.33
       2600   0.55749   -80.15    14.011   108.72  0.026232    51.80   0.74038   -33.98
       2700   0.54427   -82.34    13.689   106.97  0.026723    50.99    0.7303   -34.50
       2800    0.5321   -84.42    13.382   105.30  0.027116    50.18   0.72081   -35.00
       2900   0.51919   -86.50     13.07   103.69  0.027504    49.58   0.71296   -35.39
       3000   0.50714   -88.36    12.796   102.15  0.027916    49.04   0.70684   -35.88
       3100   0.49754   -90.25     12.53   100.53  0.028234    48.60   0.70081   -36.47
       3200   0.48739   -92.17    12.259    99.03  0.028627    48.23   0.69321   -37.01
       3300   0.47728   -94.15    12.004    97.53  0.029058    47.90   0.68663   -37.64
       3400   0.46719   -95.95    11.762    96.02  0.029478    47.62   0.68062   -38.22
       3500   0.45834   -97.83     11.53    94.60  0.029902    47.33   0.67401   -38.70
       3600   0.44885   -99.72    11.296    93.17  0.030294    47.10   0.66761   -39.17
       3700   0.44065  -101.51    11.072    91.75  0.030694    46.74   0.66166   -39.67
       3800   0.43193  -103.39    10.868    90.34  0.031122    46.49   0.65637   -40.21
       3900   0.42384  -105.07    10.652    89.00  0.031535    46.31   0.65125   -40.72
       4000   0.41573  -106.90    10.449    87.66  0.031948    46.04    0.6455   -41.23
       4100   0.40739  -108.66    10.247    86.35  0.032348    45.79    0.6396   -41.64
       4200   0.40019  -110.32    10.061    85.09  0.032739    45.55   0.63502   -42.11
       4300    0.3935  -111.95    9.8794    83.83   0.03317    45.38   0.63113   -42.62
       4400   0.38652  -113.65    9.7036    82.54  0.033598    45.09   0.62756   -43.11
       4500    0.3803  -115.25    9.5259    81.34  0.033954    44.91   0.62287   -43.61
       4600   0.37375  -117.00    9.3609    80.16  0.034353    44.72   0.61807   -44.10
       4700   0.36853  -118.61    9.2014    78.97  0.034738    44.59   0.61359   -44.58
       4800   0.36154  -120.41     9.038    77.72  0.035145    44.34   0.60972   -45.15
       4900   0.35551  -122.04    8.8927    76.56  0.035513    44.17   0.60584   -45.54
       5000   0.34975  -123.55    8.7427    75.46  0.035944    44.08    0.6015   -45.96
       5200   0.33924  -126.72    8.4521    73.11  0.036686    43.72   0.59443   -47.00
       5400   0.32918  -129.85    8.1906    71.01  0.037453    43.41   0.58818   -47.84
       5600   0.31964  -132.92    7.9416    68.82   0.03819    43.24   0.58088   -48.90
       5800    0.3104  -135.99    7.7012    66.71  0.038977    43.04   0.57533   -49.77
       6000   0.30358  -138.89     7.487    64.65  0.039737    42.90   0.56968   -50.82
       6200   0.29735  -141.79    7.2805    62.63  0.040593    42.78   0.56424   -51.79
       6400   0.29145  -144.80    7.0844    60.62  0.041471    42.66   0.55838   -52.78
       6600   0.28346  -147.83    6.8909    58.67  0.042224    42.51   0.55348   -53.58
       6800   0.27853  -150.53     6.723    56.84  0.043179    42.37   0.55045   -54.67
       7000   0.27289  -153.28     6.554    54.88  0.044132    42.32   0.54391   -55.75
       7200   0.27035  -155.74    6.4013    53.10  0.045036    42.32   0.54045   -56.68
       7400   0.26638  -158.99    6.2573    51.11  0.046055    42.18   0.53721   -57.64
       7600   0.26324  -161.64    6.1202    49.29  0.047226    41.90   0.53375   -58.86
       7800   0.26049  -164.57    5.9796    47.41  0.048066    41.93   0.52863   -59.86
       8000   0.25513  -167.08    5.8591    45.87  0.049331    41.84   0.52778   -60.79
       8200   0.25509  -169.56    5.7516    43.88   0.05063    41.70   0.52449   -62.32
       8400   0.25331  -172.82    5.6335    42.10  0.052037    41.15   0.51972   -63.34
       8600   0.24935  -175.35    5.5196    40.43  0.052505    41.10   0.51837   -64.09
       8800   0.24792  -178.22    5.4176    38.32  0.054197    40.83   0.51414   -65.88
       9000   0.24748   179.73     5.325    36.78  0.055832    40.80   0.51428   -67.25
       9200   0.24979   176.53     5.241    34.69  0.057507    40.33   0.51037   -69.04
       9400   0.24601   173.16    5.1205    32.72   0.05846    39.36   0.50236   -70.40
       9600   0.24401   170.78    5.0068    31.40  0.059783    39.42   0.49662   -71.23
       9800   0.23961   168.26    4.9327    29.78  0.060798    38.87   0.49411   -72.18
      10000   0.24063   167.03    4.8537    28.29  0.062409    38.63   0.49123   -73.32
      10200   0.24285   164.29    4.8088    26.39  0.064085    38.15   0.48902   -75.05
      10400   0.24688   161.35    4.7425    24.22  0.066199    37.34   0.48806   -77.02
      10600   0.24356   158.51    4.6415    22.38   0.06727    36.30   0.47701   -78.54
      10800   0.24327   155.70    4.5593    20.52  0.068466    35.41   0.47269   -79.83
      11000   0.23512   154.44    4.4606    19.39  0.067583    35.60   0.46467   -80.11
      11200   0.24802   152.68    4.4516    17.55  0.071616    36.15   0.47112   -82.06
      11400   0.24865   149.56    4.3641    15.67  0.073373    35.05   0.46676   -83.69
      11600   0.25144   147.07    4.3198    14.03  0.075707    34.34   0.46477   -85.78
      11800   0.25232   144.51    4.2466    12.15  0.076903    33.29   0.45734   -87.00
      12000   0.25037   141.92    4.1608    10.60  0.077934    32.26   0.44843   -89.22
      12200   0.25411   140.81    4.1242     9.12  0.079846    32.67   0.44324   -89.94
      12400   0.25708   137.51    4.0624     7.28  0.082486    30.92   0.43744   -91.54
      12600   0.25488   135.36    4.0091     6.15  0.082426    30.16   0.43127   -91.42
      12800   0.26032   134.30    3.9865     4.62  0.084526    30.27   0.43641   -92.52
      13000   0.26474   132.11    3.9784     2.60  0.087778    29.76   0.44327   -95.21
      13200   0.26179   130.61    3.9289     1.03  0.087413    29.32   0.44483   -96.26
      13400   0.27197   128.63    3.8677    -0.98  0.091963    28.33   0.43498  -100.01
      13600   0.27722   126.64    3.8551    -2.77  0.093566    27.70    0.4319  -101.48
      13800   0.28125   124.23     3.782    -4.80  0.096205    26.49   0.42201  -103.85
      14000   0.28573   121.22    3.7358    -6.24  0.097904    25.37   0.41171  -105.52
      14200   0.28722   119.83    3.6994    -7.65   0.09977    24.87   0.40913  -106.27
      14400   0.28766   117.47    3.6836    -9.12   0.10213    23.96   0.40573  -108.16
      14600    0.2948   115.28    3.6642   -11.16   0.10548    22.97   0.40586  -109.86
      14800   0.29451   112.40     3.613   -12.93   0.10724    21.22   0.39635  -112.17
      15000   0.29724   111.31    3.6155   -14.60   0.10837    20.55   0.40166  -113.40
      15200   0.29972   109.77      3.56   -16.56   0.11038    19.54   0.39713  -116.15
      15400   0.30908   108.53    3.5662   -18.02   0.11287    19.34   0.39788  -117.85
      15600   0.31555   107.02    3.5168   -20.34   0.11564    18.02   0.39573  -120.40
      15800   0.32214   105.11    3.5021   -21.91   0.11783    17.33   0.39511  -123.21
      16000   0.33282   102.78     3.456   -24.09    0.1212    16.04   0.38709  -125.92
      16200   0.34153   100.96    3.4358   -25.68   0.12411    15.23   0.38358  -127.67
      16400   0.34797    98.09    3.4092   -27.82   0.12717    13.83   0.38158  -130.06
      16600   0.34736    96.51    3.3633   -29.10   0.12945    12.30   0.37641  -132.35
      16800   0.35075    94.94    3.3558   -30.72   0.13101    11.62   0.37436  -133.75
      17000   0.35789    92.77    3.3413   -32.72   0.13454    10.37   0.37398  -137.34
      17200   0.36139    91.04    3.3164   -34.34   0.13707     9.47   0.36646  -139.12
      17400   0.37157    88.49    3.3278   -36.82   0.14109     8.39   0.37006  -141.95
      17600   0.37299    86.81    3.2971   -38.77   0.14414     7.05   0.36883  -143.88
      17800   0.37725    85.74    3.2865   -40.60   0.14698     5.81    0.3686  -146.81
      18000   0.39104    83.91    3.2582   -43.26   0.15186     4.18   0.37822  -149.98
      18200   0.39542    80.93    3.2152   -45.53    0.1541     2.09   0.37532  -154.23
      18400    0.4016    79.37    3.1655   -47.38   0.15608     1.02   0.37005  -157.48
      18600   0.40774    77.52    3.1171   -48.60   0.15908    -0.32   0.36178  -160.95
      18800    0.4129    75.66    3.1014   -50.74   0.16215    -1.63    0.3606  -164.33
      19000   0.41682    74.03    3.0954   -51.94   0.16434    -2.97   0.35416  -166.86
      19200   0.42632    72.52     3.101   -54.13   0.16864    -3.97   0.35646  -168.62
      19400   0.44488    70.29    3.0954   -56.77   0.17442    -5.52   0.36347  -172.20
      19600   0.45262    66.99    3.0611   -59.39   0.17731    -7.84   0.36667  -176.00
      19800   0.46023    64.75    3.0208   -61.04   0.18039    -9.29   0.36512  -179.89
      20000   0.46414    61.86    2.9978   -63.02   0.18421   -10.83   0.36001   177.54

!  
! Device Noise Parameters
!  Freq-MHz   Fmin-dB  Gopt-mag  Gopt-arg   rn_normalized
	400	1.0343	0.45663	3.20	0.3167
	420	1.0344	0.45637	3.41	0.3166
	440	1.0346	0.45610	3.61	0.3164
	460	1.0348	0.45584	3.81	0.3163
	480	1.0349	0.45557	4.01	0.3162
	500	1.0351	0.45530	4.21	0.3161
	550	1.0356	0.45463	4.71	0.3158
	600	1.0361	0.45395	5.21	0.3155
	650	1.0366	0.45327	5.71	0.3151
	700	1.0371	0.45258	6.20	0.3148
	750	1.0376	0.45189	6.70	0.3144
	800	1.0382	0.45119	7.19	0.3141
	850	1.0387	0.45049	7.67	0.3137
	900	1.0393	0.44978	8.16	0.3133
	950	1.0399	0.44906	8.64	0.3130
	1000	1.0405	0.44834	9.12	0.3126
	1050	1.0412	0.44761	9.60	0.3122
	1100	1.0418	0.44687	10.08	0.3118
	1150	1.0425	0.44612	10.56	0.3113
	1200	1.0432	0.44537	11.03	0.3109
	1250	1.0439	0.44461	11.50	0.3105
	1300	1.0446	0.44384	11.97	0.3100
	1350	1.0453	0.44307	12.44	0.3096
	1400	1.0461	0.44228	12.91	0.3091
	1450	1.0469	0.44149	13.37	0.3087
	1500	1.0477	0.44069	13.83	0.3082
	1550	1.0485	0.43987	14.29	0.3077
	1600	1.0493	0.43905	14.76	0.3072
	1650	1.0501	0.43823	15.21	0.3067
	1700	1.0510	0.43739	15.67	0.3062
	1750	1.0519	0.43654	16.13	0.3057
	1800	1.0528	0.43568	16.58	0.3052
	1850	1.0537	0.43482	17.04	0.3046
	1900	1.0546	0.43394	17.49	0.3041
	1950	1.0556	0.43306	17.94	0.3036
	2000	1.0565	0.43216	18.39	0.3030
	2050	1.0575	0.43126	18.84	0.3024
	2100	1.0585	0.43034	19.28	0.3019
	2150	1.0595	0.42942	19.73	0.3013
	2200	1.0605	0.42848	20.18	0.3007
	2250	1.0616	0.42754	20.62	0.3001
	2300	1.0627	0.42659	21.07	0.2995
	2350	1.0637	0.42562	21.51	0.2989
	2400	1.0648	0.42465	21.95	0.2983
	2450	1.0660	0.42366	22.39	0.2977
	2500	1.0671	0.42267	22.83	0.2971
	2600	1.0694	0.42065	23.71	0.2958
	2700	1.0718	0.41860	24.59	0.2946
	2800	1.0743	0.41650	25.47	0.2933
	2900	1.0768	0.41437	26.34	0.2919
	3000	1.0794	0.41220	27.21	0.2906
	3100	1.0821	0.40999	28.09	0.2892
	3200	1.0848	0.40774	28.96	0.2878
	3300	1.0876	0.40545	29.83	0.2864
	3400	1.0905	0.40313	30.70	0.2850
	3500	1.0934	0.40078	31.57	0.2835
	3600	1.0964	0.39839	32.44	0.2820
	3700	1.0995	0.39596	33.31	0.2805
	3800	1.1026	0.39351	34.18	0.2790
	3900	1.1059	0.39102	35.06	0.2775
	4000	1.1091	0.38850	35.94	0.2760
	4100	1.1125	0.38595	36.81	0.2744
	4200	1.1159	0.38338	37.70	0.2728
	4300	1.1194	0.38077	38.58	0.2712
	4400	1.1230	0.37814	39.46	0.2696
	4500	1.1266	0.37548	40.35	0.2680
	4600	1.1303	0.37281	41.25	0.2664
	4700	1.1341	0.37010	42.14	0.2648
	4800	1.1379	0.36738	43.04	0.2631
	4900	1.1418	0.36464	43.95	0.2615
	5000	1.1458	0.36187	44.85	0.2598
	5200	1.1539	0.35630	46.69	0.2564
	5400	1.1624	0.35066	48.54	0.2531
	5600	1.1711	0.34497	50.41	0.2496
	5800	1.1800	0.33925	52.31	0.2462
	6000	1.1893	0.33350	54.23	0.2428
	6200	1.1988	0.32773	56.18	0.2393
	6400	1.2086	0.32195	58.15	0.2358
	6600	1.2187	0.31618	60.16	0.2324
	6800	1.2291	0.31041	62.20	0.2289
	7000	1.2397	0.30467	64.26	0.2255
	7200	1.2506	0.29895	66.37	0.2220
	7400	1.2618	0.29327	68.50	0.2186
	7600	1.2732	0.28763	70.67	0.2153
	7800	1.2850	0.28204	72.87	0.2119
	8000	1.2970	0.27650	75.12	0.2086
	8200	1.3093	0.27102	77.39	0.2053
	8400	1.3218	0.26559	79.71	0.2021
	8600	1.3347	0.26022	82.06	0.1990
	8800	1.3478	0.25492	84.45	0.1958
	9000	1.3612	0.24967	86.87	0.1928
	9200	1.3748	0.24448	89.34	0.1898
	9400	1.3888	0.23935	91.85	0.1869
	9600	1.4030	0.23427	94.40	0.1841
	9800	1.4175	0.22923	96.99	0.1814
	10000	1.4322	0.22423	99.62	0.1787
	10200	1.4473	0.21927	102.30	0.1762
	10400	1.4626	0.21433	105.03	0.1737
	10600	1.4782	0.20941	107.81	0.1714
	10800	1.4940	0.20450	110.65	0.1692
	11000	1.5102	0.19959	113.56	0.1670
	11200	1.5266	0.19467	116.53	0.1650
	11400	1.5433	0.18975	119.58	0.1632
	11600	1.5602	0.18481	122.72	0.1614
	11800	1.5775	0.17986	125.95	0.1598
	12000	1.5950	0.17489	129.31	0.1584
	12200	1.6128	0.16991	132.79	0.1571
	12400	1.6308	0.16494	136.42	0.1559
	12600	1.6492	0.15998	140.23	0.1549
	12800	1.6678	0.15508	144.24	0.1541
	13000	1.6867	0.15026	148.47	0.1534
	13200	1.7059	0.14558	152.97	0.1529
	13400	1.7253	0.14110	157.76	0.1526
	13600	1.7450	0.13690	162.88	0.1525
	13800	1.7650	0.13311	168.35	0.1525
	14000	1.7853	0.12983	174.21	0.1528