! Filename:  P:\Prog\Test\Noise\ATS_data\Testdata_Net\BFU710\BFU710_2W_A1_1V1mA_D.s2p
! Date/Time: Fri 29/Apr/2011 13:26:00
! BFU710_2W_A1_1V1mA
! bias mode 1: Vout= 1.0002 V, Iout= 1.0340 mA, Vin= 0.7842 V, Iin= 0.0030 mA
! Date/time Wed Mar 16 13:23:16 2011
! Device data file deembeded for feedlines and parallel
! Original file: \BFU710\BFU710_2W_A1_1V1mA_R.s2p
! Feed-files: PR003V01_101208_Feed1.s2p, PR003V01_101208_Feed2.s2p
! Parallel-file: PR003V01_101208_Par.s2p
# MHz S MA R 50
!  Freq-MHz   S11-mag  S11-arg   S21-mag  S21-arg   S12-mag  S12-arg   S22-mag  S22-arg
         40   0.98929    -0.65    3.3281   179.70 0.00061215    86.99   0.99967    -0.38
         50   0.98967    -0.80    3.3389   179.08 0.00056034   113.19   0.99905    -0.50
         60   0.98941    -0.92     3.303   178.89 0.00099098   100.31   0.99975    -0.52
         70   0.98947    -1.04    3.3119   179.07 0.0011104    91.71   0.99984    -0.63
         80   0.98933    -1.21     3.339   178.88 0.0012602    91.08   0.99995    -0.72
         90   0.98926    -1.38    3.3428   178.54 0.0014717    90.60   0.99981    -0.82
        100   0.98881    -1.52    3.3264   178.51 0.0015919    90.82   0.99968    -0.92
        120   0.98877    -1.88    3.3261   178.29 0.0019612    91.01   0.99987    -1.10
        140   0.98898    -2.19    3.3299   178.00 0.0023116    90.83   0.99991    -1.31
        160   0.98926    -2.51    3.3221   177.60 0.0026315    90.02   0.99972    -1.50
        180    0.9895    -2.84    3.3292   177.40 0.0029913    90.10   0.99984    -1.69
        200   0.98918    -3.17    3.3319   177.01 0.0032921    90.47   0.99965    -1.89
        220   0.98875    -3.50    3.3363   176.74 0.0036715    90.12   0.99969    -2.09
        240   0.98844    -3.81     3.354   176.36 0.0040319    89.79   0.99971    -2.29
        260   0.98867    -4.13    3.3388   176.06 0.0043522    90.03   0.99962    -2.48
        280   0.98836    -4.46    3.3443   175.75 0.0046933    89.70   0.99972    -2.68
        300   0.98835    -4.78    3.3415   175.45 0.0050635    89.56    0.9996    -2.88
        320   0.98784    -5.10    3.3267   175.14 0.0054435    88.94   0.99964    -3.07
        340    0.9877    -5.43    3.3342   174.82 0.0057844    88.92    0.9995    -3.28
        360    0.9877    -5.75    3.3245   174.58 0.0061156    88.67   0.99929    -3.46
        380   0.98767    -6.04    3.3279   174.25 0.0064962    88.65    0.9992    -3.67
        400    0.9875    -6.38    3.3396   173.96 0.0068583    88.10   0.99889    -3.86
        420   0.98728    -6.68    3.3539   173.62    0.0072    87.98   0.99909    -4.04
        440   0.98704    -7.01     3.344   173.35 0.0075804    87.68   0.99894    -4.25
        460   0.98675    -7.33    3.3519   173.03 0.0079419    87.51   0.99867    -4.44
        480   0.98639    -7.66    3.3486   172.75  0.008283    87.14   0.99883    -4.64
        500   0.98616    -7.99    3.3265   172.40 0.0086142    86.81   0.99858    -4.85
        550   0.98566    -8.78    3.3388   171.71 0.0095195    86.10   0.99823    -5.32
        600   0.98488    -9.58    3.3582   170.93  0.010446    85.51   0.99781    -5.81
        650   0.98482   -10.38    3.3404   170.15  0.011313    84.76   0.99732    -6.31
        700   0.98382   -11.18    3.3144   169.39  0.012218    84.07   0.99684    -6.81
        750    0.9833   -11.98    3.3251   168.64  0.013097    83.37   0.99628    -7.32
        800   0.98233   -12.78    3.3549   167.96  0.014018    82.76   0.99598    -7.77
        850   0.98176   -13.60    3.3529   167.16  0.014911    82.08   0.99555    -8.24
        900   0.98107   -14.37    3.3202   166.40  0.015803    81.36   0.99497    -8.74
        950    0.9804   -15.18    3.3231   165.68  0.016668    80.74   0.99435    -9.23
       1000   0.97974   -15.95    3.3469   164.94  0.017566    80.08   0.99381    -9.72
       1050   0.97845   -16.73    3.3406   164.20  0.018473    79.41   0.99316   -10.20
       1100   0.97778   -17.51    3.3213   163.46  0.019321    78.76    0.9924   -10.71
       1150   0.97659   -18.32    3.3289   162.69  0.020178    78.15   0.99163   -11.17
       1200   0.97542   -19.10    3.3355   161.95  0.021052    77.49   0.99097   -11.63
       1250   0.97492   -19.89    3.3273   161.20  0.021969    76.88    0.9904   -12.14
       1300   0.97398   -20.67    3.3106   160.42  0.022814    76.19   0.98969   -12.62
       1350   0.97278   -21.49    3.3207   159.73  0.023667    75.58   0.98857   -13.12
       1400   0.97162   -22.30     3.329   158.98  0.024529    74.94   0.98783   -13.59
       1450   0.97071   -23.09    3.3205   158.25  0.025388    74.32   0.98718   -14.08
       1500   0.96951   -23.87    3.3125   157.52  0.026233    73.67   0.98631   -14.57
       1550   0.96845   -24.68    3.3208   156.75  0.027087    73.11    0.9857   -15.02
       1600   0.96743   -25.44     3.326   156.07  0.027917    72.49   0.98499   -15.49
       1650   0.96614   -26.27    3.3127   155.30   0.02876    71.83   0.98379   -15.98
       1700   0.96505   -27.02    3.3029   154.55  0.029564    71.23   0.98264   -16.46
       1750   0.96386   -27.82    3.3077   153.83  0.030409    70.66    0.9816   -16.96
       1800    0.9625   -28.66    3.3089   153.07  0.031257    70.05   0.98102   -17.43
       1850   0.96108   -29.46    3.3013   152.28  0.032082    69.41   0.97996   -17.93
       1900   0.96005   -30.27    3.3017   151.58  0.032883    68.89   0.97893   -18.41
       1950    0.9582   -31.04    3.2883   150.86  0.033678    68.34   0.97826   -18.89
       2000   0.95708   -31.80    3.2821   150.13  0.034553    67.80   0.97741   -19.40
       2050   0.95495   -32.60    3.2844   149.39  0.035398    67.29   0.97611   -19.87
       2100   0.95375   -33.38    3.2873   148.67  0.036263    66.70   0.97479   -20.36
       2150   0.95287   -34.15    3.2856   148.02  0.037112    66.12   0.97327   -20.84
       2200   0.95093   -34.93    3.2792   147.30  0.037874    65.44   0.97191   -21.30
       2250   0.94894   -35.74    3.2826   146.53  0.038713    64.96   0.97081   -21.80
       2300   0.94762   -36.54    3.2794   145.80  0.039599    64.44   0.96969   -22.29
       2350   0.94525   -37.28    3.2541   145.09  0.040572    63.87    0.9678   -22.82
       2400   0.94377   -38.07    3.2444   144.37  0.041436    63.12   0.96541   -23.28
       2450   0.94177   -38.84    3.2528   143.67  0.042323    62.41   0.96402   -23.71
       2500    0.9394   -39.57    3.2502   142.96   0.04317    61.52   0.96297   -24.20
       2600   0.93632   -41.13    3.2337   141.56  0.044701    60.14   0.95993   -25.14
       2700   0.93271   -42.74    3.2414   140.15  0.046178    58.79   0.95709   -26.01
       2800   0.92971   -44.25    3.2209   138.70  0.047543    57.28   0.95378   -26.95
       2900   0.92503   -45.85     3.212   137.28  0.048865    55.91   0.95091   -27.86
       3000   0.92159   -47.38    3.2117   135.87  0.050037    54.70   0.94814   -28.77
       3100   0.91854   -48.88    3.1936   134.48  0.051239    53.59   0.94564   -29.70
       3200   0.91435   -50.37    3.1873   133.10  0.052532    52.51   0.94206   -30.59
       3300   0.91048   -51.97    3.1746   131.71  0.053858    51.33   0.93914   -31.60
       3400   0.90648   -53.46    3.1736   130.30   0.05511    50.33   0.93593   -32.54
       3500   0.90235   -54.96    3.1626   128.92  0.056374    49.22   0.93221   -33.42
       3600   0.89807   -56.55    3.1576   127.59  0.057598    48.16    0.9282   -34.27
       3700   0.89446   -57.97    3.1273   126.19  0.058796    46.97   0.92512   -35.21
       3800   0.88957   -59.57    3.1405   124.79  0.060021    45.97   0.92211   -36.09
       3900   0.88527   -61.05    3.1305   123.43  0.061143    44.95   0.91856   -36.96
       4000   0.88008   -62.59     3.133   122.04  0.062449    43.87   0.91495   -37.89
       4100   0.87598   -64.10    3.1071   120.68  0.063497    42.65   0.91063   -38.77
       4200   0.87167   -65.53    3.1002   119.33  0.064612    41.54   0.90744   -39.66
       4300   0.86816   -67.05    3.0909   117.99  0.065623    40.45   0.90416   -40.58
       4400   0.86307   -68.62    3.0988   116.55  0.066732    39.42   0.90115   -41.46
       4500   0.85926   -70.11     3.077   115.26  0.067651    38.33   0.89675   -42.35
       4600     0.854   -71.61    3.0647   113.88  0.068634    37.24    0.8924   -43.24
       4700   0.85017   -73.04    3.0418   112.55  0.069515    36.13   0.88834   -44.15
       4800   0.84461   -74.66    3.0428   111.11  0.070551    35.04   0.88524   -45.10
       4900   0.83969   -76.13    3.0263   109.75  0.071447    33.94   0.88153   -45.92
       5000   0.83425   -77.62    3.0238   108.50  0.072285    32.97    0.8768   -46.74
       5200   0.82491   -80.60    2.9978   105.69  0.073781    30.79   0.86888   -48.59
       5400   0.81434   -83.59    2.9782   103.12  0.075274    28.67   0.86115   -50.24
       5600   0.80398   -86.57     2.952   100.39  0.076477    26.57   0.85235   -52.11
       5800   0.79338   -89.50    2.9262    97.78   0.07767    24.48   0.84483   -53.75
       6000   0.78433   -92.38     2.896    95.19  0.078553    22.45    0.8362   -55.56
       6200   0.77497   -95.32    2.8686    92.62  0.079429    20.55   0.82855   -57.22
       6400   0.76566   -98.24    2.8429    90.05  0.080329    18.58   0.81966   -58.94
       6600    0.7535  -101.11    2.8161    87.45  0.080698    16.52   0.81099   -60.61
       6800   0.74396  -103.98    2.7967    84.98  0.081138    14.89   0.80332   -62.23
       7000   0.73409  -106.83    2.7702    82.34    0.0816    13.02   0.79403   -64.02
       7200   0.72537  -109.65    2.7477    79.97  0.081582    11.44   0.78627   -65.57
       7400   0.71587  -112.55    2.7239    77.40  0.081664     9.59   0.77738   -67.35
       7600    0.7076  -115.34    2.7001    74.99  0.082034     8.13   0.77114   -68.89
       7800   0.69748  -118.25    2.6747    72.52  0.081712     6.47    0.7619   -70.66
       8000   0.68789  -120.82    2.6482    70.26  0.080944     5.00   0.75329   -72.16
       8200   0.68131  -123.73    2.6327    67.78   0.08123     4.05   0.74736   -73.92
       8400   0.67265  -126.52    2.6004    65.39  0.081162     2.25   0.73792   -75.60
       8600   0.66297  -129.25    2.5798    63.10  0.079693     0.74   0.73046   -77.01
       8800   0.65506  -132.22    2.5634    60.46   0.08015    -0.13   0.72352   -78.89
       9000   0.64961  -134.68    2.5365    58.30  0.079416    -0.88   0.71941   -80.55
       9200   0.64403  -137.75    2.5238    55.81  0.079998    -1.65   0.71316   -82.46
       9400   0.63212  -140.80    2.4934    53.12  0.079625    -3.93   0.70444   -84.42
       9600   0.62276  -143.34    2.4608    51.07   0.07819    -4.98   0.69276   -85.96
       9800   0.61384  -145.94    2.4356    48.78  0.076787    -6.52   0.68609   -87.58
      10000   0.60951  -148.26    2.4084    46.77  0.075611    -6.92   0.67931   -89.10
      10200   0.60554  -151.26    2.4022    44.43  0.075311    -7.38   0.67324   -91.01
      10400   0.60245  -154.26    2.3849    41.88  0.075632    -7.96   0.67111   -93.04
      10600    0.5918  -157.12    2.3591    39.36  0.075209    -9.79   0.65896   -95.13
      10800   0.58499  -159.83    2.3278    36.89  0.073876   -11.23   0.65157   -97.06
      11000   0.57312  -162.08     2.293    35.14  0.069804   -12.66   0.63845   -98.12
      11200   0.57566  -164.81    2.2927    32.80  0.069765   -10.47   0.64186  -100.25
      11400    0.5703  -167.60    2.2625    30.53  0.069281   -11.35   0.63439  -102.19
      11600   0.56695  -170.27    2.2495    28.34  0.068828   -11.04   0.62792  -104.38
      11800   0.56208  -173.22    2.2181    25.95  0.067601   -11.96   0.61912  -106.12
      12000   0.55349  -175.98    2.1924    23.86  0.066805   -12.67   0.60848  -108.26
      12200   0.55234  -178.41    2.1738    21.94  0.065319   -11.25   0.60259  -109.57
      12400   0.54579   178.64    2.1553    19.46  0.065732   -12.53   0.59707  -111.87
      12600    0.5373   176.31    2.1217    17.59  0.061995   -13.06   0.58371  -113.12
      12800    0.5385   174.10    2.1118    15.76  0.060589   -10.80   0.58282  -114.61
      13000     0.538   171.44    2.1135    13.52  0.061972    -8.10   0.58402  -116.71
      13200   0.53472   169.15    2.0858    11.55  0.058913    -7.56   0.57952  -118.14
      13400   0.53577   166.23     2.071     9.16  0.062551    -6.24   0.57629  -121.19
      13600    0.5348   163.54    2.0659     6.88  0.061835    -5.58   0.57074  -123.36
      13800   0.53282   161.03    2.0375     4.48  0.062568    -5.41   0.56301  -126.01
      14000   0.52831   157.99    2.0154     2.33  0.062303    -5.17   0.55227  -128.33
      14200   0.52911   155.99    1.9886     0.52  0.061206    -3.13   0.54498  -130.07
      14400   0.52553   153.60    1.9853    -1.33   0.06209    -1.62   0.53856  -132.36
      14600   0.52927   150.67      1.97    -3.75  0.064041    -0.09   0.53496  -134.28
      14800   0.52377   147.96     1.946    -5.87  0.064778    -0.31   0.52672  -137.05
      15000   0.52662   145.45    1.9407    -7.83  0.065493     1.56   0.52444  -138.48
      15200   0.52565   143.11    1.9184    -9.98  0.066997     2.09     0.522  -141.15
      15400   0.52984   140.57    1.9193   -11.92  0.068964     4.13   0.52008  -143.13
      15600    0.5335   138.15     1.894   -14.41  0.070926     4.19   0.51795  -145.83
      15800   0.53453   135.49    1.8908   -16.38  0.073381     4.90    0.5179  -148.32
      16000   0.53842   132.65    1.8675   -18.90  0.075279     4.48   0.51386  -151.25
      16200   0.54197   130.25     1.855   -20.98  0.077302     5.53   0.51117  -153.75
      16400   0.54354   127.31    1.8357   -23.35  0.080325     5.43   0.50641  -156.28
      16600   0.54129   125.31     1.816   -25.09  0.082055     5.25   0.50384  -158.98
      16800   0.54355   122.98    1.8032   -27.06  0.084137     6.23   0.49862  -161.04
      17000   0.54555   120.45    1.7952   -29.27  0.087981     5.95   0.50103  -164.40
      17200   0.54582   118.19    1.7797   -31.22  0.090353     6.11    0.4934  -166.84
      17400   0.55175   115.30    1.7788   -33.83  0.094765     6.01   0.49702  -169.95
      17600   0.55346   112.91    1.7629   -35.85    0.0986     5.67   0.49008  -172.13
      17800   0.55545   110.73    1.7557   -38.16   0.10244     4.99   0.49296  -175.17
      18000   0.56525   108.02    1.7368   -40.74   0.10771     3.61   0.49756  -177.91
      18200    0.5646   105.08    1.7176   -43.19    0.1104     1.98   0.49519   178.36
      18400   0.56829   102.62     1.689   -45.45   0.11306     1.30   0.49397   175.31
      18600   0.56801   100.62    1.6613   -47.23   0.11597     0.68    0.4912   171.85
      18800   0.57322    97.99    1.6485   -49.44   0.12043    -0.45    0.4913   168.58
      19000   0.57547    96.14    1.6376   -51.09   0.12314    -1.06   0.48916   165.68
      19200    0.5809    93.72    1.6301   -53.36   0.12862    -1.66   0.48846   162.90
      19400   0.59089    90.99    1.6208   -55.95   0.13479    -3.43    0.4914   159.84
      19600   0.59581    88.04    1.5972   -58.61   0.13769    -5.58   0.49524   156.58
      19800   0.60417    85.57    1.5766   -60.29   0.14131    -6.65   0.49323   153.04
      20000   0.60576    82.75    1.5621   -62.50   0.14543    -7.75   0.49176   150.38