! Filename:  P:\Prog\Test\Noise\ATS_data\Testdata_Net\BFU710\BFU710_2W_A1_2.5V7.5mA_D.s2p
! Date/Time: Fri 29/Apr/2011 13:26:41
! BFU710_2W_A1_2.5V7.5mA
! bias mode 1: Vout= 2.5000 V, Iout= 7.5050 mA, Vin= 0.8237 V, Iin= 0.0280 mA
! Date/time Wed Mar 16 12:23:33 2011
! Device data file deembeded for feedlines and parallel
! Original file: \BFU710\BFU710_2W_A1_2.5V7.5mA_R.s2p
! Feed-files: PR003V01_101208_Feed1.s2p, PR003V01_101208_Feed2.s2p
! Parallel-file: PR003V01_101208_Par.s2p
# MHz S MA R 50
!  Freq-MHz   S11-mag  S11-arg   S21-mag  S21-arg   S12-mag  S12-arg   S22-mag  S22-arg
         40   0.92103    -1.21    18.353   178.16 0.00055746    79.68   0.99713    -0.10
         50   0.91649    -1.64    18.409   177.59 0.00069733   115.88   0.99703    -0.40
         60   0.92135    -1.66    18.197   177.53 0.00094246    92.87   0.99861    -0.50
         70   0.92141    -2.09    18.233   177.69 0.00093213    86.09     0.999    -0.74
         80   0.92062    -2.43    18.345   177.40 0.0010418    86.44   0.99919    -0.93
         90   0.92058    -2.78    18.343   176.96  0.001213    87.40   0.99908    -1.13
        100   0.92062    -3.09    18.263   176.81 0.0013041    87.89    0.9989    -1.31
        120   0.92028    -3.78    18.326   176.29 0.0016031    87.31    0.9992    -1.66
        140   0.92047    -4.41    18.304   175.74 0.0018824    87.36   0.99928    -2.02
        160   0.92018    -5.04    18.266   175.12 0.0021438    87.53   0.99886    -2.35
        180   0.92008    -5.71    18.272   174.63 0.0024134    86.95   0.99889    -2.69
        200   0.91924    -6.36    18.284   173.93 0.0026847    88.19   0.99861    -3.02
        220   0.91876    -7.01    18.301   173.38 0.0029939    87.44   0.99828    -3.36
        240   0.91765    -7.65    18.344   172.69 0.0032748    87.16   0.99802    -3.70
        260   0.91788    -8.28     18.29   172.09 0.0035457    87.09    0.9976    -4.03
        280    0.9164    -8.96     18.29   171.48  0.003807    86.73   0.99735    -4.36
        300   0.91613    -9.63    18.274   170.87 0.0041274    86.56   0.99685    -4.70
        320   0.91521   -10.25    18.214   170.27 0.0043982    86.12   0.99628    -5.03
        340   0.91423   -10.90    18.221   169.64 0.0046798    85.99   0.99565    -5.36
        360   0.91373   -11.53    18.169   169.10 0.0049517    85.36   0.99482    -5.68
        380   0.91266   -12.18    18.174   168.47 0.0052528    85.13   0.99429    -6.02
        400   0.91108   -12.82    18.184   167.88 0.0055554    84.71   0.99331    -6.34
        420   0.90982   -13.49    18.211   167.23 0.0058184    84.20   0.99279    -6.65
        440   0.90897   -14.11    18.154   166.67 0.0060997    84.06   0.99206    -6.99
        460   0.90752   -14.78    18.156   166.05 0.0063824    83.65   0.99113    -7.31
        480   0.90639   -15.42    18.115   165.46 0.0066943    83.23   0.99049    -7.65
        500   0.90483   -16.04    18.035   164.82 0.0069272    82.79   0.98915    -7.99
        550   0.90174   -17.65    18.028   163.30 0.0076549    81.75   0.98611    -8.76
        600   0.89691   -19.25    18.002   161.80 0.0083337    80.77   0.98339    -9.53
        650   0.89319   -20.79    17.855   160.32 0.0090347    79.84   0.98022   -10.34
        700   0.88873   -22.34    17.695   158.89 0.0097142    78.93   0.97673   -11.14
        750   0.88432   -23.91    17.638   157.46  0.010357    77.92   0.97294   -11.90
        800   0.87867   -25.53    17.613   156.05  0.011041    77.02   0.96968   -12.61
        850   0.87339   -27.04      17.5   154.62  0.011698    75.99    0.9661   -13.35
        900   0.86873   -28.53    17.316   153.23  0.012324    74.96   0.96148   -14.11
        950   0.86325   -30.06    17.226   151.90  0.012944    74.10   0.95716   -14.82
       1000   0.85702   -31.55    17.161   150.49  0.013606    73.26   0.95307   -15.53
       1050   0.85052   -33.01    17.031   149.13  0.014196    72.28   0.94863   -16.24
       1100   0.84514   -34.45    16.873   147.85  0.014759    71.43   0.94373   -16.95
       1150   0.83837   -35.96    16.789   146.46  0.015359    70.63   0.93884   -17.60
       1200   0.83158   -37.40     16.67   145.17  0.015917    69.76   0.93443   -18.24
       1250   0.82521   -38.83     16.52   143.86  0.016504    68.87   0.92955   -18.95
       1300   0.81896   -40.23    16.374   142.58  0.017051    68.06   0.92434   -19.59
       1350    0.8119   -41.68    16.275   141.30  0.017558    67.29   0.91911   -20.23
       1400   0.80483   -43.10    16.167   140.02  0.018077    66.48   0.91409   -20.86
       1450   0.79805   -44.47    16.024   138.79  0.018594    65.80   0.90912   -21.47
       1500   0.79093   -45.84    15.884   137.57  0.019087    65.01   0.90368   -22.08
       1550   0.78414   -47.18    15.758   136.33  0.019578    64.29   0.89892   -22.63
       1600   0.77691   -48.48     15.62   135.15  0.020063    63.58   0.89418   -23.20
       1650   0.76965   -49.84    15.469   133.96  0.020506    62.92   0.88858   -23.79
       1700   0.76312   -51.13    15.334   132.77  0.020944    62.23   0.88331   -24.34
       1750   0.75587   -52.44    15.202   131.59   0.02137    61.60   0.87806   -24.92
       1800   0.74851   -53.76    15.066   130.43   0.02185    60.95   0.87329   -25.47
       1850   0.74124   -55.07    14.925   129.27  0.022246    60.23   0.86786   -26.01
       1900   0.73403   -56.35    14.795   128.11  0.022643    59.74   0.86314   -26.54
       1950   0.72725   -57.57     14.64   127.02  0.023034    59.13   0.85847   -27.09
       2000   0.72012   -58.80    14.482   125.91   0.02342    58.58    0.8531   -27.68
       2050   0.71235   -60.00    14.337   124.84  0.023848    58.05   0.84737   -28.19
       2100   0.70565   -61.19    14.197   123.79  0.024266    57.54   0.84185   -28.69
       2150     0.699   -62.42    14.063   122.78  0.024649    57.09   0.83588   -29.19
       2200   0.69168   -63.58    13.924   121.77  0.024991    56.45   0.83091   -29.59
       2250    0.6842   -64.78    13.786   120.69  0.025348    55.98   0.82627   -30.13
       2300   0.67737   -65.97    13.635   119.68  0.025715    55.49   0.82104   -30.66
       2350   0.67077   -67.14     13.47   118.74   0.02612    55.06   0.81405   -31.21
       2400   0.66307   -68.35    13.338   117.78  0.026507    54.53   0.80698   -31.58
       2450   0.65513   -69.46      13.2   116.87  0.026889    54.01   0.80141   -31.94
       2500   0.64765   -70.49    13.072   115.97  0.027249    53.22   0.79617   -32.31
       2600   0.63464   -72.60    12.801   114.18  0.027841    52.18   0.78568   -33.07
       2700   0.62095   -74.73    12.555   112.39  0.028347    51.14   0.77595   -33.71
       2800   0.60903   -76.80    12.312   110.68   0.02881    50.11   0.76624   -34.32
       2900   0.59573   -78.81    12.061   109.01  0.029211    49.26    0.7578   -34.85
       3000   0.58345   -80.65    11.845   107.39  0.029623    48.60   0.75136   -35.44
       3100   0.57384   -82.54    11.629   105.75  0.030012    48.02    0.7451   -36.13
       3200   0.56286   -84.39    11.409   104.19  0.030399    47.50   0.73721   -36.73
       3300   0.55208   -86.40    11.203   102.63  0.030848    46.94   0.73018   -37.44
       3400   0.54139   -88.18    11.005   101.05  0.031245    46.56    0.7236   -38.12
       3500   0.53194   -90.00    10.809    99.58  0.031702    46.08   0.71649   -38.68
       3600   0.52171   -91.90    10.615    98.08  0.032103    45.65   0.70963   -39.23
       3700     0.513   -93.61    10.426    96.63  0.032449    45.17   0.70334   -39.80
       3800   0.50301   -95.49    10.256    95.15  0.032899    44.81   0.69763   -40.40
       3900   0.49426   -97.09    10.071    93.74  0.033303    44.49   0.69179   -40.97
       4000   0.48517   -98.93    9.8991    92.34   0.03372    44.03   0.68537   -41.57
       4100   0.47645  -100.63    9.7219    90.98  0.034048    43.67   0.67907   -42.04
       4200    0.4679  -102.29    9.5646    89.65  0.034436    43.28   0.67395   -42.57
       4300   0.46062  -103.90    9.4067    88.33  0.034814    42.99   0.66933   -43.12
       4400   0.45231  -105.59    9.2551    86.97  0.035198    42.64   0.66503   -43.67
       4500   0.44576  -107.18    9.0975    85.72  0.035523    42.34   0.65972   -44.22
       4600   0.43779  -108.85    8.9512    84.47  0.035878    42.06   0.65445   -44.75
       4700   0.43187  -110.43    8.8109    83.22   0.03622    41.78   0.64944   -45.28
       4800   0.42362  -112.18    8.6668    81.90  0.036594    41.44   0.64502   -45.90
       4900   0.41689  -113.80    8.5366    80.69  0.036897    41.21   0.64051   -46.33
       5000   0.40978  -115.32    8.4016    79.53  0.037252    41.01   0.63553   -46.78
       5200   0.39738  -118.40    8.1415    77.06  0.037863    40.52    0.6275   -47.92
       5400   0.38531  -121.50    7.9035    74.85  0.038473    40.07      0.62   -48.78
       5600   0.37396  -124.54    7.6772    72.54  0.039088    39.80   0.61166   -49.94
       5800   0.36282  -127.48    7.4573    70.34  0.039719    39.49    0.6053   -50.82
       6000   0.35419  -130.33    7.2586    68.18  0.040299    39.34    0.5984   -51.93
       6200   0.34665  -133.22    7.0671    66.08  0.041021    39.22   0.59251   -52.93
       6400    0.3386  -136.15    6.8861    63.97   0.04172    39.03   0.58552   -53.93
       6600   0.32857  -139.05    6.7044    61.93  0.042235    38.90   0.57969   -54.80
       6800   0.32214  -141.75    6.5482    60.02  0.043026    38.80   0.57622   -55.84
       7000   0.31521  -144.45    6.3891    57.96  0.043788    38.78    0.5688   -56.99
       7200   0.31106  -146.90    6.2453    56.14  0.044516    38.86   0.56507   -57.89
       7400   0.30516  -150.10    6.1111    54.05  0.045339    38.81   0.56087   -58.88
       7600   0.30084  -152.62    5.9813    52.20  0.046337    38.62   0.55715   -60.08
       7800   0.29581  -155.70    5.8488    50.22     0.047    38.73   0.55139   -61.12
       8000   0.28938  -157.91    5.7331    48.65  0.048015    38.87   0.54977   -61.97
       8200   0.28797  -160.66    5.6329    46.59  0.049217    38.77   0.54636   -63.54
       8400   0.28457  -163.76    5.5195    44.75  0.050459    38.37   0.54097   -64.51
       8600   0.27976  -166.15    5.4115    43.03  0.050732    38.48   0.53891   -65.30
       8800   0.27683  -169.20     5.315    40.86   0.05232    38.32   0.53459   -67.04
       9000    0.2755  -171.22    5.2255    39.28  0.053758    38.52   0.53434   -68.37
       9200   0.27612  -174.48    5.1472    37.15  0.055405    38.21   0.53027   -70.15
       9400   0.27074  -177.89    5.0304    35.10  0.056196    37.27   0.52227   -71.54
       9600   0.26731   179.77    4.9215    33.72  0.057358    37.47   0.51553   -72.36
       9800   0.26224   177.21    4.8496    32.04  0.058184    37.05   0.51286   -73.38
      10000   0.26241   175.93    4.7712    30.54  0.059638    37.03   0.50958   -74.42
      10200   0.26403   172.97    4.7303    28.60  0.061251    36.68   0.50714   -76.19
      10400   0.26704   169.97    4.6676    26.38  0.063282    36.01   0.50698   -78.09
      10600   0.26274   167.13    4.5701    24.48  0.064263    35.03   0.49488   -79.66
      10800   0.26125   164.36    4.4898    22.57  0.065326    34.25   0.49125   -81.02
      11000    0.2522   163.12    4.3941    21.42  0.064266    34.64   0.48237   -81.22
      11200   0.26438   161.00    4.3855    19.52  0.068246    35.41   0.48906   -83.24
      11400   0.26453   158.10    4.3006    17.62  0.069904    34.42   0.48481   -84.77
      11600   0.26605   155.22    4.2571    15.95  0.072225    33.81   0.48212   -86.88
      11800   0.26684   152.76     4.186    14.04  0.073292    32.93   0.47538   -88.06
      12000   0.26286   150.07    4.1032    12.45   0.07426    31.94   0.46576   -90.19
      12200   0.26673   148.79    4.0673    10.95  0.076159    32.56   0.46145   -90.99
      12400   0.26836   145.43    4.0083     9.07  0.078708    30.78   0.45525   -92.56
      12600   0.26419   143.00    3.9539     7.89  0.078433    30.15   0.44851   -92.56
      12800   0.27021   141.98    3.9318     6.38  0.080554    30.51   0.45363   -93.55
      13000   0.27376   139.49    3.9264     4.34  0.083875    30.16   0.46075   -96.13
      13200   0.27091   138.09    3.8753     2.76  0.083379    29.83   0.46152   -97.14
      13400   0.28026   135.79      3.82     0.71  0.088082    28.95   0.45334  -100.79
      13600   0.28481   133.51    3.8059    -1.12  0.089605    28.36   0.44906  -102.34
      13800   0.28794   131.20    3.7368    -3.18  0.092307    27.27    0.4401  -104.64
      14000   0.29155   127.84    3.6912    -4.67  0.093962    26.15   0.42946  -106.46
      14200   0.29266   126.52    3.6538    -6.09  0.095662    25.76   0.42591  -107.15
      14400   0.29232   123.98    3.6402    -7.56  0.098105    24.92   0.42298  -109.09
      14600   0.30013   121.76    3.6195    -9.64   0.10147    23.97   0.42237  -110.68
      14800    0.2989   118.67      3.57   -11.44   0.10321    22.27   0.41373  -113.14
      15000   0.30302   117.44    3.5723   -13.12   0.10428    21.71   0.41851  -114.16
      15200   0.30441   115.79    3.5172   -15.11   0.10636    20.78   0.41426  -117.03
      15400    0.3142   114.30    3.5242   -16.59   0.10893    20.67   0.41534  -118.64
      15600   0.32058   112.72    3.4758   -18.92   0.11169    19.41    0.4125  -121.15
      15800   0.32644   110.67    3.4625   -20.53   0.11405    18.74   0.41311  -123.98
      16000   0.33661   108.29    3.4158   -22.71   0.11737    17.47   0.40477  -126.52
      16200   0.34439   106.34    3.3955   -24.33   0.12021    16.71   0.40157  -128.47
      16400   0.35134   103.39    3.3709   -26.49   0.12336    15.37   0.39965  -130.66
      16600   0.34982   101.80    3.3247   -27.78    0.1256    13.84   0.39458  -133.03
      16800   0.35321   100.11    3.3179   -29.39   0.12724    13.25   0.39234  -134.24
      17000   0.35916    98.00    3.3051   -31.42   0.13084    12.03   0.39296  -137.89
      17200   0.36177    96.17    3.2797   -33.01   0.13342    11.19   0.38458  -139.45
      17400   0.37179    93.42    3.2912   -35.55   0.13757    10.10   0.38931  -142.57
      17600    0.3733    91.69    3.2619   -37.48   0.14074     8.85   0.38675  -144.14
      17800   0.37775    90.45    3.2531   -39.34   0.14368     7.61   0.38765  -147.27
      18000   0.39294    88.50     3.225   -42.03   0.14863     5.94   0.39713  -150.25
      18200   0.39617    85.43    3.1839   -44.28   0.15089     3.88   0.39354  -154.41
      18400   0.40378    83.75    3.1346   -46.19   0.15293     2.80   0.38906  -157.70
      18600   0.40815    81.83    3.0872   -47.46   0.15595     1.45    0.3804  -160.96
      18800   0.41388    79.92    3.0706   -49.64   0.15907     0.18   0.37971  -164.55
      19000   0.41695    78.29    3.0662   -50.82   0.16143    -1.14   0.37345  -166.75
      19200    0.4256    76.63    3.0705   -53.02   0.16574    -2.10    0.3755  -168.73
      19400   0.44463    74.34    3.0651   -55.70   0.17166    -3.68   0.38258  -172.22
      19600   0.45223    70.87    3.0297   -58.35   0.17454    -6.02   0.38584  -175.93
      19800   0.46104    68.81    2.9876   -59.98   0.17751    -7.41   0.38236  -179.91
      20000   0.46383    65.86    2.9667   -61.98   0.18151    -8.97   0.37923   177.87