! Filename:  P:\Prog\Test\Noise\ATS_data\Testdata_Net\BFU710\BFU710_2W_A1_1V5mA_D.s2p
! Date/Time: Fri 29/Apr/2011 13:26:11
! BFU710_2W_A1_1V5mA
! bias mode 1: Vout= 1.0001 V, Iout= 5.0400 mA, Vin= 0.8283 V, Iin= 0.0172 mA
! Date/time Wed Mar 16 13:17:32 2011
! Device data file deembeded for feedlines and parallel
! Original file: \BFU710\BFU710_2W_A1_1V5mA_R.s2p
! Feed-files: PR003V01_101208_Feed1.s2p, PR003V01_101208_Feed2.s2p
! Parallel-file: PR003V01_101208_Par.s2p
# MHz S MA R 50
!  Freq-MHz   S11-mag  S11-arg   S21-mag  S21-arg   S12-mag  S12-arg   S22-mag  S22-arg
         40    0.9473    -1.09    13.826   179.20 0.00064142    89.89   0.99777    -0.32
         50   0.95009    -1.75    13.876   178.49 0.00050946    62.09   0.99783    -0.57
         60   0.94457    -1.60    13.714   178.34 0.00080226    99.50   0.99874    -0.65
         70   0.94738    -1.86    13.747   178.44 0.0011114    91.04   0.99904    -0.84
         80   0.94682    -2.14    13.846   178.13 0.0012611    89.91   0.99925    -1.01
         90   0.94695    -2.42    13.852   177.68 0.0014223    90.05   0.99914    -1.19
        100   0.94636    -2.64     13.79   177.53 0.0015533    88.72   0.99911    -1.35
        120    0.9466    -3.27    13.828   177.02 0.0019022    89.69   0.99932    -1.68
        140   0.94639    -3.81    13.824   176.51 0.0022623    89.59   0.99941    -2.02
        160   0.94617    -4.36    13.783   175.93 0.0025828    89.37   0.99914    -2.33
        180   0.94647    -4.92    13.799   175.51 0.0029128    89.23   0.99917    -2.65
        200   0.94591    -5.50     13.81   174.87  0.003214    89.05   0.99887    -2.97
        220   0.94525    -6.05    13.825   174.39 0.0035933    88.95   0.99874    -3.29
        240    0.9443    -6.61    13.875   173.78  0.003924    88.31   0.99852    -3.62
        260   0.94461    -7.14    13.823   173.23 0.0042448    88.23   0.99827    -3.93
        280   0.94404    -7.72    13.831   172.70 0.0046063    87.93   0.99811    -4.25
        300   0.94375    -8.30    13.816   172.17 0.0049366    87.25   0.99791    -4.58
        320   0.94275    -8.83     13.76   171.65 0.0052873    87.04   0.99744    -4.89
        340    0.9421    -9.37    13.777   171.10 0.0055988    86.79   0.99688    -5.22
        360   0.94197    -9.93    13.733   170.64 0.0059507    86.59    0.9963    -5.52
        380   0.94099   -10.49    13.739   170.10 0.0063219    86.02   0.99584    -5.85
        400   0.93974   -11.04    13.769   169.58 0.0066846    85.71   0.99503    -6.16
        420   0.93936   -11.59    13.807   169.02 0.0069874    85.16   0.99472    -6.45
        440   0.93859   -12.15     13.76   168.52 0.0073487    84.95   0.99419    -6.79
        460   0.93772   -12.72    13.774   167.99 0.0077013    84.44   0.99344    -7.09
        480    0.9366   -13.29    13.746   167.48 0.0080433    84.06    0.9932    -7.42
        500   0.93569   -13.81    13.671   166.93  0.008356    83.61   0.99213    -7.75
        550   0.93303   -15.21    13.696   165.60 0.0091841    82.75    0.9896    -8.51
        600   0.93011   -16.58    13.716   164.31  0.010043    81.69   0.98761    -9.27
        650   0.92755   -17.93    13.614   163.00  0.010875    80.84   0.98526   -10.07
        700   0.92423   -19.26    13.488   161.75  0.011715    79.83   0.98259   -10.86
        750   0.92116   -20.64     13.48   160.50  0.012508    78.83   0.97957   -11.61
        800   0.91708   -22.04     13.52   159.30  0.013364    78.03   0.97716   -12.32
        850   0.91355   -23.39     13.45   158.02  0.014172    77.10   0.97455   -13.06
        900   0.91009   -24.68    13.312   156.77   0.01494    76.09   0.97092   -13.84
        950   0.90637   -26.03    13.274   155.62  0.015731    75.19   0.96734   -14.55
       1000   0.90187   -27.35    13.274   154.37  0.016526    74.45   0.96428   -15.27
       1050   0.89734   -28.66    13.201   153.17  0.017279    73.52   0.96077   -15.99
       1100   0.89332   -29.92    13.093   152.02  0.018035    72.58   0.95674   -16.73
       1150    0.8883   -31.28     13.07   150.78  0.018768    71.77   0.95257   -17.40
       1200    0.8834   -32.55    13.017   149.64    0.0195    70.92   0.94916   -18.07
       1250   0.87889   -33.84    12.922   148.43  0.020242    70.04   0.94552   -18.82
       1300   0.87435   -35.09    12.826   147.29  0.020944    69.18   0.94115   -19.51
       1350   0.86874   -36.41    12.798   146.13  0.021615    68.44   0.93655   -20.18
       1400   0.86354   -37.70    12.752   144.97  0.022301    67.61   0.93241   -20.84
       1450   0.85854   -38.97    12.671   143.84  0.022966    66.85   0.92818   -21.51
       1500   0.85331   -40.21    12.592   142.74  0.023615    66.00    0.9237   -22.17
       1550   0.84771   -41.44    12.529   141.57  0.024264    65.32   0.91956   -22.77
       1600   0.84258   -42.66    12.465   140.48  0.024907    64.58   0.91558   -23.39
       1650   0.83669   -43.93    12.365   139.38  0.025551    63.84   0.91061   -24.04
       1700    0.8317   -45.08    12.282   138.29  0.026097    63.10   0.90564   -24.66
       1750   0.82611   -46.31    12.222   137.17  0.026713    62.40   0.90115   -25.30
       1800   0.82023   -47.58    12.143   136.08  0.027343    61.68   0.89709   -25.92
       1850   0.81437   -48.78    12.057   134.99  0.027891    60.89   0.89209   -26.53
       1900   0.80861   -50.03        12   133.88   0.02842    60.31   0.88768   -27.13
       1950   0.80302   -51.16    11.896   132.86  0.028971    59.68    0.8834   -27.74
       2000   0.79698   -52.30    11.801   131.78  0.029571    59.05   0.87872   -28.40
       2050   0.79047   -53.48    11.719   130.76   0.03011    58.46   0.87352   -28.98
       2100     0.785   -54.60    11.637   129.74  0.030661    57.84   0.86838   -29.55
       2150   0.77973   -55.76    11.563   128.78  0.031198    57.27   0.86278   -30.13
       2200   0.77322   -56.87    11.477   127.78  0.031685    56.52   0.85774   -30.63
       2250   0.76698   -58.04    11.399   126.72  0.032186    55.99   0.85344   -31.23
       2300   0.76074   -59.20    11.307   125.72  0.032762    55.42   0.84867   -31.85
       2350   0.75519   -60.30    11.183   124.83  0.033302    54.82   0.84202   -32.49
       2400    0.7485   -61.47    11.105   123.87  0.033783    54.18   0.83497   -32.95
       2450   0.74131   -62.59    11.028   122.94  0.034372    53.55   0.82958   -33.40
       2500   0.73465   -63.57    10.939   122.05  0.034828    52.68    0.8246   -33.89
       2600   0.72297   -65.66    10.765   120.27   0.03567    51.42   0.81394   -34.85
       2700   0.71034   -67.77    10.611   118.44  0.036425    50.19   0.80409   -35.69
       2800   0.69936   -69.79    10.444   116.72  0.037101    48.99   0.79352   -36.52
       2900   0.68688   -71.80    10.274   115.01  0.037727    47.87   0.78438   -37.27
       3000    0.6753   -73.70    10.137   113.34  0.038288    46.94   0.77684   -38.03
       3100   0.66633   -75.59    9.9805   111.69  0.038815    46.04   0.76945   -38.89
       3200    0.6558   -77.46    9.8267   110.08  0.039463    45.23   0.76063   -39.68
       3300   0.64522   -79.45    9.6875   108.46  0.040025    44.39   0.75248   -40.58
       3400   0.63464   -81.27    9.5506   106.83  0.040624    43.70   0.74489   -41.41
       3500   0.62509   -83.06    9.4067   105.31  0.041211    42.93   0.73653   -42.14
       3600   0.61477   -85.02    9.2689   103.76  0.041728    42.21   0.72846   -42.83
       3700    0.6061   -86.74    9.1263   102.25  0.042222    41.43    0.7209   -43.59
       3800   0.59568   -88.64     9.008   100.69  0.042772    40.77   0.71384   -44.32
       3900   0.58635   -90.33     8.873    99.20  0.043254    40.21   0.70682   -45.02
       4000   0.57704   -92.18    8.7467    97.73  0.043813    39.52   0.69921   -45.77
       4100   0.56777   -93.89    8.6084    96.30   0.04422    38.82   0.69124   -46.39
       4200   0.55912   -95.56    8.4891    94.91  0.044693    38.19   0.68477   -47.06
       4300   0.55122   -97.21    8.3696    93.51  0.045106    37.61   0.67867   -47.73
       4400   0.54212   -98.98    8.2571    92.05  0.045573    37.04   0.67289   -48.38
       4500   0.53506  -100.57    8.1312    90.74  0.045938    36.49   0.66629   -49.04
       4600   0.52654  -102.27     8.014    89.42  0.046313    35.92   0.65958   -49.70
       4700   0.51996  -103.91    7.9028    88.10  0.046674    35.42   0.65319   -50.33
       4800   0.51088  -105.67    7.7915    86.70  0.047078    34.82   0.64744   -51.05
       4900   0.50336  -107.30    7.6847    85.41  0.047419    34.33    0.6415   -51.58
       5000   0.49568  -108.83     7.579    84.17  0.047792    33.89   0.63527   -52.13
       5200    0.4811  -112.02    7.3705    81.54  0.048401    32.97   0.62448   -53.44
       5400   0.46787  -115.11    7.1742    79.18  0.048986    32.07    0.6141   -54.48
       5600   0.45418  -118.22    6.9873    76.71  0.049477    31.31   0.60334   -55.77
       5800   0.44158  -121.26    6.8037    74.37  0.050036    30.54   0.59418   -56.80
       6000   0.43117  -124.20    6.6351    72.07  0.050496    29.93   0.58496   -58.02
       6200   0.42199  -127.13    6.4736    69.82  0.051054    29.46   0.57669   -59.13
       6400   0.41234  -130.12    6.3183    67.58  0.051604    28.85   0.56725   -60.25
       6600   0.40031  -133.02     6.163    65.39  0.051928    28.35   0.55912   -61.19
       6800   0.39247  -135.75    6.0277    63.36  0.052548    27.96   0.55301   -62.31
       7000   0.38331  -138.52      5.89    61.16   0.05306    27.62   0.54386   -63.54
       7200   0.37789  -141.15     5.764    59.20  0.053553    27.38   0.53778   -64.51
       7400    0.3703  -144.26    5.6461    57.00  0.054053    27.06   0.53102   -65.54
       7600   0.36463  -146.92    5.5328    55.02  0.054898    26.73   0.52594   -66.78
       7800   0.35794  -149.91    5.4149    52.95  0.055222    26.54   0.51801   -67.86
       8000   0.35041  -152.24    5.3114    51.23  0.055877    26.57   0.51427   -68.73
       8200   0.34743  -155.01    5.2224    49.08   0.05687    26.44   0.50941   -70.31
       8400   0.34234  -158.11    5.1202    47.14  0.057739    25.94   0.50236   -71.32
       8600   0.33621  -160.66    5.0233    45.30  0.057721    25.84   0.49816   -72.13
       8800     0.332  -163.65    4.9372    43.04  0.059051    25.72    0.4929   -73.86
       9000   0.32978  -165.77    4.8563    41.36  0.060153    25.93   0.49145   -75.21
       9200   0.32908  -169.04    4.7861    39.15  0.061535    25.62   0.48635   -77.00
       9400   0.32203  -172.32    4.6814    37.00  0.062095    24.67   0.47752   -78.46
       9600   0.31678  -174.71    4.5816    35.52  0.062817    24.86   0.46958   -79.34
       9800   0.31092  -177.29    4.5143    33.73  0.063348    24.46   0.46558   -80.38
      10000   0.31066  -178.81    4.4435    32.15  0.064499    24.56   0.46118   -81.50
      10200   0.31118   178.16    4.4053    30.12  0.065883    24.25   0.45748   -83.30
      10400   0.31285   175.10    4.3466    27.85  0.067698    23.76   0.45601   -85.22
      10600   0.30713   172.13    4.2576    25.85  0.068487    22.74   0.44373   -86.91
      10800   0.30452   169.38    4.1823    23.89   0.06923    22.08   0.43887   -88.29
      11000    0.2954   167.97    4.0951    22.62  0.067894    22.16     0.429   -88.59
      11200   0.30584   165.64    4.0841    20.68  0.071218    23.23   0.43388   -90.60
      11400   0.30489   162.61    4.0069    18.71  0.072596    22.41   0.42887   -92.13
      11600    0.3054   159.83    3.9666    16.96  0.074593    22.04   0.42565   -94.32
      11800    0.3055   157.16    3.8999    15.00  0.075455    21.25   0.41816   -95.55
      12000   0.30077   154.49    3.8242    13.32  0.076294    20.37   0.40911   -97.83
      12200   0.30412   152.90    3.7889    11.76  0.077714    21.02   0.40369   -98.70
      12400   0.30388   149.64    3.7343     9.81  0.080015    19.58   0.39678  -100.40
      12600   0.29954   147.31    3.6819     8.55  0.079511    18.99   0.38841  -100.42
      12800   0.30437   145.93    3.6592     6.98  0.081177    19.44    0.3915  -101.39
      13000   0.30763   143.39    3.6527     4.90  0.084264    19.36   0.39707  -103.93
      13200   0.30494   141.66    3.6049     3.27  0.083689    18.99   0.39689  -104.89
      13400   0.31289   139.22    3.5543     1.16  0.088007    18.34   0.39002  -108.79
      13600   0.31681   136.71    3.5383    -0.72  0.089141    17.83   0.38487  -110.50
      13800   0.31898   134.34    3.4742    -2.80  0.091438    16.93   0.37613  -112.99
      14000   0.32125   131.02      3.43    -4.37  0.092892    15.99   0.36606  -114.99
      14200   0.32239   129.61    3.3939    -5.84  0.094203    15.81   0.36133  -115.83
      14400   0.32156   127.10    3.3799    -7.39  0.096395    15.19   0.35763  -117.91
      14600   0.32845   124.69    3.3575    -9.48  0.099439    14.53   0.35575  -119.57
      14800   0.32644   121.74    3.3125   -11.31   0.10119    13.03   0.34776  -122.25
      15000   0.33031   120.13      3.31   -13.04   0.10229    12.48      0.35  -123.28
      15200   0.33182   118.46    3.2606   -15.04   0.10416    11.62   0.34686  -126.31
      15400   0.34162   116.65    3.2625   -16.61   0.10629    11.54   0.34628  -128.05
      15600   0.34685   114.84    3.2172   -18.92   0.10879    10.42   0.34376  -130.70
      15800   0.35185   112.67    3.2034   -20.59   0.11084     9.79   0.34418  -133.68
      16000   0.36157   110.17    3.1593   -22.77   0.11363     8.68    0.3365  -136.56
      16200   0.36854   108.16    3.1387   -24.45   0.11602     8.13   0.33308  -138.62
      16400   0.37471   105.18    3.1123   -26.62   0.11887     7.00    0.3307  -140.98
      16600   0.37239   103.48    3.0699   -27.99    0.1211     5.65   0.32678  -143.60
      16800   0.37622   101.71    3.0606   -29.65    0.1225     5.10   0.32307  -145.12
      17000   0.38134    99.42    3.0459   -31.70   0.12573     4.08   0.32429  -149.00
      17200    0.3836    97.50    3.0213   -33.32   0.12796     3.32   0.31547  -151.00
      17400   0.39328    94.75    3.0272   -35.84   0.13174     2.46    0.3192  -154.08
      17600     0.395    92.87     2.999   -37.79   0.13482     1.35   0.31538  -155.84
      17800   0.39881    91.46    2.9863   -39.70    0.1376     0.16   0.31635  -159.15
      18000   0.41301    89.40    2.9592   -42.34   0.14206    -1.32   0.32422  -161.82
      18200   0.41518    86.33      2.92   -44.61   0.14431    -3.24   0.32369  -166.31
      18400   0.42212    84.49    2.8725   -46.52   0.14612    -4.27    0.3209  -169.83
      18600   0.42497    82.62    2.8271   -47.81   0.14876    -5.43   0.31548  -173.67
      18800   0.43148    80.58    2.8098   -49.96   0.15191    -6.70   0.31528  -177.44
      19000   0.43388    78.95    2.8028   -51.20   0.15395    -7.89   0.31081   179.85
      19200   0.44197    77.04    2.8029   -53.40    0.1579    -8.75   0.31074   177.69
      19400     0.459    74.68    2.7919   -55.99    0.1631   -10.15   0.31759   174.44
      19600   0.46512    71.39      2.76   -58.52    0.1659   -12.32   0.32204   170.74
      19800   0.47374    69.30    2.7241   -60.18   0.16875   -13.56   0.32179   166.51
      20000   0.47608    66.51    2.7035   -62.20   0.17248   -14.96    0.3191   163.99