! Filename:  P:\Prog\Test\Noise\ATS_data\Testdata_Net\BFU710\BFU710_2W_A1_2.5V10mA_D.s2p
! Date/Time: Fri 29/Apr/2011 13:26:44
! BFU710_2W_A1_2.5V10mA
! bias mode 1: Vout= 2.5000 V, Iout=10.0000 mA, Vin= 0.8276 V, Iin= 0.0398 mA
! Date/time Wed Mar 16 12:12:55 2011
! Device data file deembeded for feedlines and parallel
! Original file: \BFU710\BFU710_2W_A1_2.5V10mA_R.s2p
! Feed-files: PR003V01_101208_Feed1.s2p, PR003V01_101208_Feed2.s2p
! Parallel-file: PR003V01_101208_Par.s2p
# MHz S MA R 50
!  Freq-MHz   S11-mag  S11-arg   S21-mag  S21-arg   S12-mag  S12-arg   S22-mag  S22-arg
         40   0.89705    -1.38    22.275   178.03 0.00056584    83.31    0.9966     0.12
         50   0.89301    -1.83    22.351   177.41 0.00098201    54.30   0.99749    -0.26
         60    0.8981    -1.98    22.101   177.33 0.00062458    78.06   0.99874    -0.42
         70   0.89769    -2.43    22.151   177.45 0.0009127    86.33   0.99911    -0.69
         80   0.89691    -2.83    22.287   177.12 0.0010523    86.23   0.99942    -0.92
         90   0.89663    -3.25    22.279   176.62 0.0012037    85.16   0.99933    -1.16
        100    0.8965    -3.60    22.189   176.43 0.0013153    85.14   0.99916    -1.37
        120   0.89629    -4.39    22.278   175.81 0.0015835    87.34   0.99944    -1.78
        140    0.8962    -5.13    22.239   175.17 0.0018829    87.92   0.99947    -2.20
        160   0.89566    -5.86    22.203   174.45 0.0021246    87.01   0.99893    -2.57
        180   0.89572    -6.63    22.196   173.87 0.0023942    87.70   0.99878    -2.95
        200   0.89456    -7.39    22.207   173.07 0.0026656    87.14   0.99843    -3.33
        220   0.89386    -8.16    22.224   172.42 0.0029748    87.23   0.99791    -3.72
        240   0.89246    -8.89    22.257   171.65 0.0032359    86.76   0.99737    -4.09
        260   0.89222    -9.65    22.198   170.95  0.003477    86.79   0.99687    -4.46
        280   0.89087   -10.39    22.184   170.24 0.0037583    86.10   0.99628    -4.83
        300   0.89006   -11.18    22.164   169.54 0.0040489    86.20   0.99564    -5.21
        320   0.88867   -11.92    22.085   168.85 0.0043299    85.50   0.99478    -5.57
        340   0.88737   -12.64    22.081   168.13 0.0046219    85.14   0.99379    -5.94
        360   0.88686   -13.40    22.013   167.51  0.004854    85.07   0.99287    -6.29
        380   0.88521   -14.15    22.009   166.79 0.0051852    84.36   0.99199    -6.66
        400   0.88328   -14.88        22   166.11 0.0054781    84.17   0.99062    -7.02
        420   0.88161   -15.64     22.01   165.37 0.0057417    83.44   0.98982    -7.36
        440   0.88033   -16.36    21.937   164.73 0.0060232    83.07   0.98869    -7.73
        460   0.87832   -17.13    21.922   164.03 0.0062864    82.58   0.98738    -8.08
        480   0.87646   -17.85    21.864   163.35 0.0065685    82.29   0.98632    -8.46
        500   0.87413   -18.58    21.764   162.61 0.0068423    81.82   0.98455    -8.82
        550   0.86998   -20.42    21.708   160.90 0.0075007    80.88   0.98047    -9.66
        600   0.86418   -22.26    21.626   159.21 0.0081603    79.58   0.97666   -10.51
        650   0.85921   -24.03    21.418   157.56 0.0088225    78.62   0.97236   -11.38
        700   0.85293   -25.76    21.202   155.94  0.009453    77.55   0.96755   -12.22
        750   0.84691   -27.54    21.076   154.34  0.010087    76.45   0.96257   -13.02
        800   0.83984   -29.34    20.976   152.78  0.010733    75.47     0.958   -13.78
        850   0.83317   -31.07    20.799   151.19   0.01136    74.43   0.95304   -14.57
        900   0.82659   -32.73    20.554   149.64  0.011937    73.43    0.9472   -15.36
        950   0.81941   -34.45    20.394   148.17  0.012518    72.54   0.94161   -16.09
       1000   0.81164   -36.09    20.251   146.63   0.01309    71.55    0.9362   -16.83
       1050   0.80378   -37.74    20.048   145.14  0.013651    70.66   0.93053   -17.55
       1100   0.79658   -39.32    19.825   143.74  0.014185    69.75   0.92441   -18.26
       1150   0.78803   -40.98    19.667   142.24  0.014705    68.93   0.91845   -18.92
       1200   0.77997   -42.55    19.471   140.85  0.015223    68.02   0.91273   -19.56
       1250   0.77197   -44.11    19.248   139.44  0.015748    67.17   0.90659   -20.26
       1300   0.76403   -45.66    19.037   138.06  0.016245    66.36   0.90028   -20.89
       1350   0.75555   -47.19    18.859   136.71  0.016661    65.60   0.89402   -21.52
       1400   0.74698   -48.75    18.679   135.34  0.017149    64.79   0.88793   -22.14
       1450   0.73876   -50.24    18.468   134.04  0.017615    64.08   0.88202   -22.73
       1500   0.73042   -51.69    18.259   132.74  0.018046    63.34   0.87571   -23.31
       1550   0.72234   -53.13    18.065   131.45  0.018455    62.69    0.8701   -23.83
       1600   0.71421   -54.51    17.857   130.23  0.018897    62.11   0.86454   -24.37
       1650   0.70553   -55.97    17.642   128.98  0.019287    61.40   0.85811   -24.92
       1700   0.69766   -57.33    17.448   127.74  0.019662    60.81   0.85216   -25.44
       1750   0.68971   -58.67    17.246   126.52  0.020034    60.23   0.84617   -25.98
       1800   0.68148   -60.08    17.046   125.32  0.020421    59.59   0.84064   -26.49
       1850   0.67288   -61.48    16.847   124.13  0.020762    58.96   0.83465   -27.00
       1900   0.66534   -62.79    16.655   122.95  0.021116    58.49   0.82947   -27.49
       1950   0.65738   -64.06    16.444   121.83  0.021452    58.01   0.82438   -27.99
       2000   0.64959   -65.33    16.232   120.71  0.021794    57.51   0.81846   -28.54
       2050   0.64138   -66.63    16.025   119.64  0.022127    57.05   0.81227   -29.01
       2100   0.63427   -67.84    15.832   118.58  0.022478    56.67   0.80634   -29.45
       2150   0.62721   -69.10    15.644   117.58  0.022815    56.22   0.79993   -29.90
       2200    0.6192   -70.29    15.456   116.56  0.023102    55.68   0.79477   -30.24
       2250   0.61143   -71.52    15.265   115.48  0.023402    55.34   0.78986   -30.73
       2300   0.60429   -72.73    15.064   114.48  0.023763    54.93   0.78431   -31.23
       2350   0.59718   -73.97    14.857   113.54   0.02406    54.53   0.77704   -31.73
       2400   0.58966   -75.21    14.681   112.60  0.024412    54.12   0.76993   -32.02
       2450   0.58151   -76.35    14.497   111.72  0.024749    53.74   0.76418   -32.32
       2500   0.57322   -77.40    14.334   110.83  0.025072    53.04   0.75886   -32.61
       2600   0.56015   -79.54    13.986   109.07  0.025564    52.22   0.74837   -33.25
       2700    0.5467   -81.69    13.665   107.34  0.026033    51.31   0.73868   -33.76
       2800     0.535   -83.77    13.359   105.67  0.026403    50.55   0.72937   -34.25
       2900   0.52183   -85.84    13.051   104.06  0.026767    49.96    0.7216   -34.65
       3000      0.51   -87.68    12.779   102.51  0.027177    49.42   0.71578   -35.14
       3100   0.50045   -89.58    12.514   100.91  0.027504    49.03      0.71   -35.72
       3200   0.48986   -91.48    12.245    99.40  0.027874    48.67   0.70267   -36.25
       3300   0.47992   -93.46    11.992    97.89  0.028274    48.31   0.69616   -36.86
       3400    0.4694   -95.25    11.751    96.38  0.028683    48.04   0.69029   -37.47
       3500   0.46083   -97.10    11.521    94.97  0.029107    47.83   0.68399   -37.93
       3600   0.45124   -99.01    11.284    93.54  0.029509    47.57   0.67762   -38.39
       3700   0.44328  -100.74    11.064    92.12  0.029888    47.25   0.67198   -38.89
       3800   0.43405  -102.62    10.862    90.71  0.030316    46.99   0.66691   -39.44
       3900   0.42632  -104.27    10.648    89.37  0.030676    46.88   0.66189   -39.93
       4000   0.41788  -106.12    10.445    88.03  0.031121    46.59    0.6561   -40.46
       4100    0.4098  -107.82    10.242    86.73    0.0315    46.33   0.65043   -40.86
       4200   0.40227  -109.48     10.06    85.46  0.031869    46.09   0.64604   -41.34
       4300   0.39563  -111.11    9.8801    84.20  0.032301    45.92   0.64227   -41.84
       4400   0.38842  -112.81    9.7051    82.91  0.032717    45.70   0.63868   -42.33
       4500   0.38256  -114.40    9.5266    81.72  0.033074    45.53   0.63398   -42.84
       4600   0.37577  -116.14    9.3623    80.52  0.033441    45.36   0.62931   -43.33
       4700    0.3703  -117.71    9.2043    79.33  0.033817    45.21   0.62513   -43.82
       4800   0.36325  -119.51    9.0432    78.09  0.034244    45.01    0.6214   -44.39
       4900   0.35756  -121.17    8.8968    76.93  0.034592    44.83   0.61758   -44.77
       5000   0.35163  -122.65    8.7466    75.83   0.03498    44.76    0.6132   -45.18
       5200   0.34055  -125.78    8.4585    73.47  0.035713    44.41   0.60639   -46.28
       5400    0.3308  -128.89     8.197    71.38   0.03648    44.16   0.60024   -47.07
       5600   0.32108  -131.95    7.9487    69.18  0.037187    44.03   0.59299   -48.19
       5800   0.31198  -135.03    7.7104    67.08  0.037953    43.83     0.588   -49.02
       6000   0.30452  -137.91    7.4947    65.01  0.038682    43.70   0.58194   -50.10
       6200   0.29872  -140.79    7.2891    63.00  0.039562    43.70   0.57717   -51.07
       6400   0.29261  -143.85    7.0928    60.99   0.04041    43.59   0.57107   -52.03
       6600   0.28423  -146.77    6.8997    59.03  0.041154    43.50   0.56641   -52.90
       6800   0.27945  -149.52    6.7335    57.21  0.042076    43.41   0.56369   -53.93
       7000   0.27357  -152.16    6.5638    55.24  0.043002    43.36   0.55704   -55.07
       7200   0.27104  -154.63    6.4121    53.49  0.043929    43.38    0.5543   -55.96
       7400   0.26683  -157.90    6.2677    51.47  0.044939    43.32   0.55085   -56.95
       7600   0.26372  -160.38    6.1317    49.69  0.046073    43.02   0.54777   -58.15
       7800   0.26037  -163.51    5.9911    47.79  0.046906    43.13    0.5426   -59.18
       8000   0.25524  -165.91    5.8709    46.27  0.048139    43.10   0.54195   -60.07
       8200   0.25508  -168.43    5.7641    44.27  0.049464    42.98   0.53866   -61.63
       8400   0.25317  -171.66    5.6461    42.49  0.050887    42.46   0.53403   -62.62
       8600   0.24909  -174.15    5.5333    40.82  0.051345    42.48   0.53282   -63.41
       8800    0.2477  -177.13    5.4305    38.71  0.053034    42.19   0.52857   -65.18
       9000   0.24735  -179.03     5.339    37.18  0.054677    42.21   0.52885   -66.53
       9200   0.24881   177.71    5.2548    35.10  0.056371    41.81   0.52484   -68.31
       9400   0.24504   174.32    5.1339    33.11  0.057323    40.81   0.51726   -69.71
       9600   0.24257   171.95    5.0215    31.81  0.058626    40.91   0.51108   -70.51
       9800   0.23893   169.30    4.9467    30.15   0.05965    40.34   0.50884   -71.55
      10000   0.23923   168.22    4.8673    28.71  0.061254    40.21   0.50595   -72.58
      10200   0.24195   165.37    4.8227    26.79  0.062931    39.69   0.50349   -74.38
      10400   0.24592   162.45    4.7576    24.61  0.065061    38.90   0.50364   -76.31
      10600   0.24244   159.62    4.6559    22.77  0.066125    37.88   0.49151   -77.84
      10800   0.24238   156.84     4.574    20.91  0.067318    36.97   0.48836   -79.22
      11000   0.23401   155.68    4.4757    19.81  0.066434    37.30   0.47986   -79.38
      11200   0.24699   153.80    4.4673    17.94  0.070531    37.81   0.48675   -81.47
      11400   0.24792   150.99    4.3798    16.07  0.072308    36.73   0.48284   -82.99
      11600   0.24998   148.17    4.3344    14.44  0.074669    35.97   0.48022   -85.13
      11800   0.25137   145.85    4.2623    12.56  0.075828    34.99   0.47377   -86.30
      12000    0.2486   143.19    4.1754    11.02  0.076867    33.97   0.46397   -88.42
      12200   0.25247   142.12    4.1397     9.54  0.078878    34.44   0.45988   -89.24
      12400   0.25535   138.81    4.0794     7.71  0.081526    32.64   0.45394   -90.74
      12600   0.25277   136.42    4.0253     6.56  0.081431    31.93   0.44786   -90.74
      12800   0.25824   135.56    4.0033     5.07  0.083634    32.06   0.45348   -91.75
      13000   0.26225   133.21    3.9955     3.04  0.086932    31.56   0.46043   -94.42
      13200   0.25944   131.67    3.9449     1.49   0.08654    31.15   0.46166   -95.46
      13400   0.26948   129.81    3.8865    -0.52  0.091212    30.22   0.45285   -99.11
      13600   0.27516   127.66    3.8726    -2.33  0.092775    29.54   0.44873  -100.65
      13800   0.27812   125.43    3.8014    -4.36  0.095533    28.37   0.43973  -102.91
      14000   0.28323   122.19    3.7543    -5.82  0.097293    27.17   0.42886  -104.72
      14200   0.28482   120.99    3.7183    -7.23  0.099156    26.68   0.42609  -105.39
      14400   0.28483   118.36     3.703    -8.68   0.10153    25.79   0.42305  -107.35
      14600   0.29307   116.27    3.6832   -10.74   0.10498    24.75    0.4228  -108.95
      14800   0.29175   113.35    3.6323   -12.51   0.10678    22.98   0.41403  -111.41
      15000   0.29607   112.07    3.6346   -14.19   0.10776    22.33   0.41918  -112.49
      15200   0.29755   110.74    3.5783   -16.15   0.10988    21.37   0.41472  -115.34
      15400    0.3083   109.39    3.5845   -17.62   0.11245    21.16    0.4159  -116.98
      15600   0.31428   107.95    3.5355   -19.92   0.11523    19.86     0.413  -119.50
      15800    0.3208   106.00    3.5212   -21.51   0.11753    19.18   0.41331  -122.35
      16000   0.33176   103.76    3.4747   -23.67   0.12096    17.87   0.40495  -124.84
      16200   0.33977   101.97     3.454   -25.26   0.12389    17.07   0.40173  -126.77
      16400   0.34686    99.06    3.4289   -27.42   0.12706    15.64       0.4  -128.98
      16600   0.34533    97.55    3.3816   -28.69   0.12931    14.10   0.39484  -131.34
      16800   0.34907    95.93    3.3751   -30.28   0.13097    13.44    0.3927  -132.48
      17000   0.35568    93.84    3.3619   -32.30   0.13457    12.16   0.39335  -136.22
      17200   0.35865    92.06    3.3362   -33.88   0.13714    11.27   0.38482  -137.72
      17400   0.36882    89.40    3.3485   -36.41   0.14131    10.14   0.38976  -140.87
      17600   0.37048    87.78    3.3174   -38.30    0.1444     8.85   0.38723  -142.39
      17800   0.37493    86.54    3.3085   -40.17   0.14737     7.57     0.388  -145.59
      18000   0.39027    84.80      3.28   -42.83    0.1523     5.92   0.39776  -148.59
      18200   0.39394    81.84    3.2375   -45.09    0.1545     3.80   0.39382  -152.82
      18400   0.40206    80.28    3.1876   -46.95   0.15652     2.74   0.38903  -156.10
      18600   0.40622    78.43    3.1399   -48.21   0.15958     1.37   0.37992  -159.31
      18800   0.41279    76.52    3.1228   -50.38   0.16264     0.04   0.37933  -162.95
      19000   0.41591    74.98    3.1189   -51.53   0.16501    -1.29   0.37251  -165.11
      19200   0.42489    73.30    3.1242   -53.75   0.16935    -2.29   0.37541  -167.06
      19400   0.44434    71.24     3.119   -56.42    0.1752    -3.85   0.38198  -170.58
      19600   0.45228    67.75    3.0834   -59.07   0.17809    -6.22   0.38537  -174.35
      19800   0.46122    65.77    3.0409   -60.67   0.18119    -7.64   0.38175  -178.33
      20000   0.46423    62.84     3.019   -62.67   0.18501    -9.23   0.37862   179.46