! Filename:  P:\Prog\Test\Noise\ATS_data\Testdata_Net\BFU710\BFU710_2W_A1_2.5V5mA_D.s2p
! Date/Time: Fri 29/Apr/2011 13:26:37
! BFU710_2W_A1_2.5V5mA
! bias mode 1: Vout= 2.5000 V, Iout= 5.0000 mA, Vin= 0.8173 V, Iin= 0.0173 mA
! Date/time Wed Mar 16 12:24:47 2011
! Device data file deembeded for feedlines and parallel
! Original file: \BFU710\BFU710_2W_A1_2.5V5mA_R.s2p
! Feed-files: PR003V01_101208_Feed1.s2p, PR003V01_101208_Feed2.s2p
! Parallel-file: PR003V01_101208_Par.s2p
# MHz S MA R 50
!  Freq-MHz   S11-mag  S11-arg   S21-mag  S21-arg   S12-mag  S12-arg   S22-mag  S22-arg
         40    0.9463    -1.01     13.53   178.48 0.00052928    75.94   0.99784    -0.27
         50   0.94877    -1.36    13.568   177.90 0.00062674   116.22   0.99741    -0.49
         60   0.94549    -1.53    13.404   177.86 0.00092173    91.26   0.99866    -0.56
         70   0.94661    -1.73    13.432   178.04 0.00093172    83.26   0.99891    -0.75
         80   0.94629    -2.02    13.521   177.80 0.0010614    85.79   0.99904    -0.90
         90   0.94614    -2.28    13.522   177.41 0.0012229    86.47   0.99895    -1.06
        100    0.9456    -2.52    13.457   177.31 0.0013237    87.23   0.99881    -1.21
        120   0.94581    -3.12    13.494   176.88 0.0016326    87.33   0.99909    -1.50
        140   0.94589    -3.64    13.488   176.44 0.0019219    87.07   0.99916    -1.80
        160   0.94578    -4.17    13.453   175.91 0.0021632    87.04   0.99888    -2.08
        180    0.9459    -4.72    13.465   175.53 0.0024526    87.21   0.99895    -2.37
        200   0.94565    -5.26    13.476   174.94 0.0027436    88.23   0.99881    -2.65
        220   0.94493    -5.81    13.492   174.48 0.0030429    87.22   0.99865    -2.94
        240   0.94407    -6.35    13.537   173.90 0.0033238    87.27   0.99852    -3.24
        260   0.94416    -6.88    13.494   173.38 0.0036143    87.02   0.99829    -3.52
        280   0.94355    -7.44    13.503   172.88 0.0039055    87.32   0.99817    -3.80
        300   0.94342    -7.96    13.492   172.38 0.0041857    86.95   0.99799    -4.09
        320   0.94264    -8.50    13.443   171.88 0.0044763    86.58   0.99768    -4.37
        340   0.94243    -9.03    13.456   171.36 0.0047576    86.46   0.99728    -4.67
        360   0.94178    -9.55    13.417   170.92 0.0050492    86.05   0.99681    -4.94
        380   0.94111   -10.09    13.426   170.39 0.0053601    85.83   0.99643    -5.23
        400   0.94026   -10.63    13.451   169.88 0.0056725    85.41   0.99577    -5.52
        420   0.93922   -11.18    13.485   169.35 0.0059349    85.19   0.99563    -5.78
        440   0.93845   -11.70    13.444   168.88 0.0062559    84.95   0.99519    -6.08
        460   0.93778   -12.27    13.458   168.36 0.0065181    84.63   0.99453    -6.35
        480   0.93712   -12.78    13.434   167.87 0.0068396    84.16   0.99432    -6.65
        500   0.93577   -13.30    13.368   167.33  0.007082    83.98   0.99348    -6.95
        550   0.93374   -14.65    13.393   166.04 0.0078286    82.99   0.99146    -7.62
        600   0.93095   -16.01    13.411   164.78 0.0085564    82.25   0.98985    -8.32
        650   0.92851   -17.30    13.319   163.51 0.0092758    81.29   0.98791    -9.03
        700   0.92563   -18.58    13.209   162.30 0.0099938    80.34   0.98567    -9.75
        750   0.92289   -19.92    13.201   161.08  0.010685    79.56   0.98313   -10.43
        800   0.91918   -21.27    13.236   159.90  0.011428    78.76   0.98112   -11.07
        850   0.91574   -22.59    13.175   158.65  0.012123    77.86     0.979   -11.74
        900   0.91257   -23.83     13.05   157.44  0.012808    76.89   0.97597   -12.44
        950   0.90876   -25.15    13.016   156.31  0.013476    76.10   0.97296   -13.09
       1000   0.90467   -26.44    13.017   155.08  0.014157    75.35   0.97037   -13.75
       1050   0.90037   -27.71    12.949   153.90  0.014836    74.39   0.96745   -14.41
       1100    0.8968   -28.93    12.851   152.78  0.015477    73.62   0.96406   -15.08
       1150   0.89165   -30.25    12.826   151.56  0.016096    72.78    0.9606   -15.69
       1200   0.88717   -31.49    12.778   150.43  0.016733    72.01   0.95767   -16.30
       1250   0.88288   -32.73    12.693   149.26   0.01739    71.18   0.95452   -16.98
       1300   0.87868   -33.95    12.603   148.13  0.018007    70.36   0.95082   -17.61
       1350   0.87345   -35.25    12.575   146.99  0.018593    69.62   0.94682   -18.23
       1400   0.86843   -36.50    12.533   145.85  0.019194    68.85   0.94332   -18.83
       1450   0.86357   -37.73    12.456   144.74  0.019761    68.11   0.93983   -19.44
       1500   0.85862   -38.94    12.382   143.65  0.020346    67.31   0.93589   -20.05
       1550    0.8534   -40.15    12.328   142.51  0.020909    66.67   0.93245   -20.60
       1600   0.84814   -41.35    12.265   141.43  0.021495    65.97   0.92906   -21.17
       1650   0.84269   -42.57    12.174   140.34  0.022022    65.16   0.92473   -21.77
       1700   0.83787   -43.70    12.099   139.26  0.022533    64.50    0.9205   -22.34
       1750   0.83229   -44.89    12.039   138.16  0.023062    63.84   0.91656   -22.93
       1800   0.82674   -46.12    11.967   137.08  0.023605    63.10   0.91308   -23.50
       1850    0.8213   -47.32    11.888   136.01  0.024097    62.40   0.90876   -24.08
       1900   0.81578   -48.52    11.832   134.91  0.024569    61.84   0.90502   -24.63
       1950   0.81033   -49.63    11.734   133.91  0.025045    61.18   0.90148   -25.20
       2000   0.80448   -50.77    11.644   132.84  0.025537    60.63   0.89734   -25.81
       2050   0.79835   -51.90    11.567   131.82  0.026041    60.06   0.89272   -26.35
       2100   0.79268   -53.02    11.492   130.82  0.026546    59.42   0.88808   -26.88
       2150   0.78741   -54.14    11.418   129.87  0.027037    58.90   0.88314   -27.43
       2200   0.78165   -55.25    11.338   128.87  0.027478    58.20   0.87883   -27.88
       2250   0.77544   -56.39    11.265   127.83  0.027892    57.60   0.87498   -28.45
       2300   0.76933   -57.51    11.175   126.85   0.02837    57.08   0.87073   -29.02
       2350   0.76366   -58.60    11.061   125.95  0.028896    56.55   0.86471   -29.62
       2400   0.75727   -59.74    10.987   125.01  0.029351    55.92   0.85831   -30.05
       2450   0.75036   -60.81    10.912   124.08  0.029853    55.27   0.85348   -30.47
       2500   0.74332   -61.76    10.828   123.19  0.030293    54.39   0.84895   -30.92
       2600   0.73198   -63.84    10.662   121.42     0.031    53.13   0.83946   -31.82
       2700   0.71995   -65.90    10.515   119.61  0.031735    51.89   0.83061   -32.60
       2800   0.70917   -67.88    10.357   117.89  0.032273    50.61   0.82128   -33.37
       2900   0.69693   -69.89    10.194   116.19  0.032812    49.54   0.81321   -34.07
       3000   0.68527   -71.74    10.061   114.53  0.033295    48.62   0.80665   -34.79
       3100   0.67649   -73.59     9.912   112.89  0.033758    47.78   0.80024   -35.61
       3200   0.66592   -75.44    9.7647   111.28   0.03427    47.01   0.79242   -36.35
       3300   0.65536   -77.40    9.6298   109.66  0.034759    46.25   0.78525   -37.19
       3400   0.64467   -79.19     9.499   108.03  0.035256    45.63   0.77855   -37.97
       3500   0.63539   -80.97     9.361   106.52  0.035786    44.88   0.77113   -38.66
       3600   0.62495   -82.86    9.2282   104.97  0.036244    44.21   0.76387   -39.33
       3700   0.61632   -84.57    9.0902   103.46   0.03668    43.46   0.75724   -40.04
       3800   0.60598   -86.40    8.9771   101.91  0.037152    42.86   0.75115   -40.75
       3900   0.59684   -88.10    8.8454   100.42  0.037577    42.35   0.74478   -41.41
       4000   0.58709   -89.89    8.7229    98.95  0.038071    41.66   0.73798   -42.13
       4100   0.57795   -91.58    8.5886    97.52  0.038422    41.02   0.73091   -42.74
       4200   0.56924   -93.25    8.4745    96.13  0.038815    40.41   0.72517   -43.37
       4300    0.5612   -94.86    8.3582    94.73   0.03917    39.95   0.71989   -44.02
       4400   0.55234   -96.59    8.2489    93.27  0.039606    39.36   0.71489   -44.66
       4500   0.54498   -98.17    8.1254    91.96  0.039895    38.85   0.70881   -45.31
       4600   0.53624   -99.82    8.0126    90.62  0.040225    38.33   0.70282   -45.94
       4700   0.52952  -101.43    7.9033    89.31  0.040543    37.88   0.69713   -46.56
       4800   0.52028  -103.16    7.7952    87.90  0.040903    37.34    0.6921   -47.26
       4900   0.51277  -104.78    7.6908    86.62  0.041169    36.87   0.68672   -47.78
       5000   0.50485  -106.28    7.5873    85.37  0.041466    36.49   0.68102   -48.32
       5200   0.49058  -109.43    7.3846    82.73   0.04197    35.62   0.67128   -49.62
       5400   0.47635  -112.48    7.1911    80.37  0.042458    34.87   0.66217   -50.63
       5600   0.46275  -115.52    7.0084    77.88  0.042878    34.24   0.65238   -51.92
       5800   0.44973  -118.46     6.827    75.54  0.043341    33.63   0.64434   -52.93
       6000   0.43898  -121.37    6.6616    73.23  0.043698    33.14   0.63602   -54.16
       6200   0.42914  -124.23    6.5022    70.97  0.044174    32.81   0.62866   -55.25
       6400   0.41922  -127.17    6.3499    68.73  0.044628    32.38   0.62019   -56.36
       6600   0.40694  -129.98    6.1971    66.53  0.044871    32.05   0.61287   -57.34
       6800   0.39843  -132.71    6.0628    64.49  0.045394    31.86   0.60781   -58.44
       7000   0.38929  -135.44    5.9276    62.28  0.045871    31.69   0.59934   -59.68
       7200   0.38328  -137.98    5.8027    60.33  0.046298    31.68   0.59414   -60.63
       7400   0.37547  -141.10    5.6879    58.11  0.046754    31.61   0.58847   -61.72
       7600   0.36949  -143.65    5.5749    56.14  0.047527    31.42    0.5839   -62.92
       7800   0.36225  -146.54     5.458    54.06  0.047837    31.46   0.57688   -64.05
       8000   0.35421  -148.90    5.3559    52.34  0.048483    31.74   0.57394   -64.94
       8200   0.35113  -151.60     5.268    50.19  0.049448    31.82   0.56983   -66.50
       8400   0.34592  -154.65    5.1678    48.24  0.050355    31.48   0.56333   -67.56
       8600   0.33912  -157.08    5.0712    46.40  0.050279    31.59   0.55996   -68.39
       8800   0.33445  -160.03    4.9876    44.14  0.051618    31.69   0.55524   -70.12
       9000   0.33189  -162.12    4.9065    42.45  0.052764    32.12   0.55425   -71.44
       9200   0.33079  -165.43    4.8381    40.25  0.054224    31.97   0.54995   -73.21
       9400    0.3232  -168.60    4.7338    38.08  0.054747    31.06   0.54132   -74.67
       9600   0.31773  -171.03    4.6336    36.58  0.055498    31.48   0.53363   -75.56
       9800   0.31136  -173.53     4.568    34.79  0.055986    31.20   0.53004   -76.62
      10000   0.31092  -175.09    4.4951    33.21  0.057176    31.51   0.52613   -77.69
      10200   0.31132  -178.01      4.46    31.20  0.058604    31.35   0.52336   -79.45
      10400    0.3127   178.96    4.4037    28.93  0.060488    30.99   0.52283   -81.33
      10600   0.30626   176.06    4.3158    26.92  0.061243    30.03    0.5107   -82.99
      10800    0.3039   173.31    4.2402    24.92  0.062016    29.43   0.50625   -84.38
      11000   0.29411   171.92    4.1518    23.67   0.06065    29.92   0.49664   -84.68
      11200   0.30462   169.53    4.1445    21.71  0.064388    31.22   0.50306   -86.68
      11400   0.30387   166.57    4.0668    19.73  0.065844    30.41   0.49829   -88.23
      11600   0.30332   163.77    4.0273    17.98  0.068011    30.06   0.49538   -90.32
      11800    0.3029   161.17    3.9603    16.00  0.068932    29.34   0.48815   -91.56
      12000   0.29825   158.41    3.8846    14.33  0.069801    28.52    0.4787   -93.70
      12200   0.30145   156.87    3.8505    12.78  0.071501    29.43   0.47417   -94.54
      12400   0.30055   153.56    3.7969    10.80  0.073859    27.75   0.46783   -96.24
      12600   0.29592   151.25     3.743     9.53  0.073344    27.36   0.45993   -96.37
      12800    0.3008   149.82    3.7223     7.97   0.07527    28.03   0.46415   -97.37
      13000    0.3041   147.34    3.7177     5.90   0.07868    27.95   0.47104   -99.83
      13200   0.30094   145.70    3.6688     4.27  0.078126    27.89   0.47126  -100.83
      13400   0.30916   143.27    3.6198     2.15  0.082789    27.05   0.46437  -104.43
      13600   0.31323   140.76    3.6066     0.26  0.084215    26.62   0.45998  -106.07
      13800   0.31488   138.28    3.5419    -1.86  0.086783    25.62   0.45105  -108.43
      14000   0.31652   134.91    3.4977    -3.44  0.088371    24.63   0.44064  -110.31
      14200   0.31784   133.49    3.4608    -4.91  0.089975    24.46   0.43637  -111.15
      14400   0.31638   130.99    3.4484    -6.43  0.092336    23.81   0.43311  -113.10
      14600   0.32356   128.47    3.4276    -8.56  0.095682    23.03   0.43235  -114.72
      14800   0.32138   125.66    3.3821   -10.40  0.097414    21.38   0.42382  -117.20
      15000   0.32488   124.07    3.3827   -12.11  0.098557    21.00   0.42786  -118.23
      15200   0.32663   122.23    3.3319   -14.13   0.10067    20.17    0.4243  -121.04
      15400   0.33577   120.52    3.3374   -15.67   0.10327    20.20   0.42505  -122.69
      15600   0.34237   118.73    3.2913   -18.04   0.10604    19.02   0.42243  -125.21
      15800    0.3469   116.46      3.28   -19.70    0.1085    18.43   0.42344  -127.95
      16000   0.35693   113.80    3.2359   -21.94   0.11171    17.17   0.41584  -130.58
      16200   0.36342   111.81    3.2156   -23.60   0.11451    16.54    0.4127  -132.58
      16400   0.36928   108.72    3.1906   -25.80   0.11766    15.20   0.41059  -134.83
      16600   0.36722   107.10    3.1481   -27.14   0.11985    13.81   0.40588  -137.21
      16800   0.37042   105.39    3.1391   -28.81   0.12159    13.33   0.40326  -138.51
      17000   0.37623   103.07    3.1269   -30.86   0.12524    12.14   0.40446  -142.10
      17200   0.37818   101.11    3.1019   -32.51   0.12782    11.36   0.39609  -143.83
      17400   0.38761    98.40    3.1123   -35.05   0.13203    10.35   0.40079  -146.84
      17600   0.38926    96.57    3.0844   -36.98   0.13526     9.17   0.39772  -148.46
      17800   0.39353    95.12    3.0756   -38.92   0.13841     7.95   0.39922  -151.52
      18000   0.40821    92.96    3.0483   -41.59   0.14333     6.31   0.40845  -154.41
      18200    0.4111    89.82      3.01   -43.88   0.14569     4.25    0.4053  -158.50
      18400   0.41769    87.99    2.9637   -45.84   0.14781     3.20   0.40158  -161.71
      18600    0.4208    86.07    2.9176   -47.19   0.15076     1.91   0.39379  -165.01
      18800   0.42714    83.96    2.9018   -49.38   0.15405     0.61   0.39358  -168.51
      19000   0.42949    82.34    2.8952   -50.62   0.15635    -0.63   0.38762  -170.87
      19200   0.43823    80.54    2.8976   -52.85   0.16087    -1.55   0.38935  -172.86
      19400   0.45612    78.13    2.8915   -55.51   0.16686    -3.12   0.39611  -176.21
      19600   0.46324    74.66    2.8566   -58.18   0.16968    -5.47   0.39962  -179.85
      19800   0.47167    72.56    2.8181   -59.81   0.17281    -6.86   0.39677   176.30
      20000   0.47357    69.62    2.7974   -61.85   0.17667    -8.38   0.39335   174.01