! Filename:  P:\Prog\Test\Noise\ATS_data\Testdata_Net\BFU710\BFU710_2W_A1_1.5V7.5mA_D.s2p
! Date/Time: Fri 29/Apr/2011 13:25:49
! BFU710_2W_A1_1.5V7.5mA
! bias mode 1: Vout= 1.5000 V, Iout= 7.4850 mA, Vin= 0.8344 V, Iin= 0.0273 mA
! Date/time Wed Mar 16 12:39:11 2011
! Device data file deembeded for feedlines and parallel
! Original file: \BFU710\BFU710_2W_A1_1.5V7.5mA_R.s2p
! Feed-files: PR003V01_101208_Feed1.s2p, PR003V01_101208_Feed2.s2p
! Parallel-file: PR003V01_101208_Par.s2p
# MHz S MA R 50
!  Freq-MHz   S11-mag  S11-arg   S21-mag  S21-arg   S12-mag  S12-arg   S22-mag  S22-arg
         40   0.92261    -1.30    18.611   178.77 0.00058287    87.90   0.99718    -0.12
         50   0.92046    -2.13    18.677   178.07 0.0012221    94.61   0.99742    -0.40
         60   0.92012    -1.76    18.467   177.92 0.00097327    81.85   0.99899    -0.55
         70   0.92285    -2.21    18.512   178.00 0.00099201    90.15   0.99931    -0.79
         80   0.92243    -2.57    18.636   177.66 0.0011716    89.68   0.99957    -0.99
         90   0.92244    -2.91    18.637   177.17 0.0013227    89.26   0.99945    -1.21
        100   0.92251    -3.16    18.559   176.98 0.0014737    89.34   0.99941    -1.39
        120    0.9219    -3.90    18.618   176.39 0.0017427    88.93   0.99967    -1.77
        140   0.92171    -4.54      18.6   175.80 0.0020427    89.18   0.99973    -2.15
        160   0.92146    -5.17    18.553   175.13 0.0023237    88.29   0.99939    -2.50
        180   0.92154    -5.86    18.563   174.62 0.0026135    88.98    0.9993    -2.86
        200   0.92063    -6.54    18.572   173.89 0.0029249    88.83   0.99895    -3.22
        220   0.91999    -7.19    18.592   173.31 0.0032241    88.19   0.99862    -3.58
        240   0.91884    -7.86    18.636   172.60 0.0035349    87.96   0.99829    -3.94
        260    0.9187    -8.49    18.574   171.98  0.003846    87.64   0.99788    -4.28
        280   0.91803    -9.18    18.574   171.35 0.0041374    87.49   0.99759    -4.64
        300   0.91739    -9.86    18.552   170.72 0.0044479    87.15   0.99706    -5.00
        320   0.91616   -10.50    18.482   170.10 0.0047587    86.61   0.99644    -5.34
        340   0.91519   -11.16    18.492   169.46 0.0050605    86.33   0.99579    -5.69
        360   0.91452   -11.79    18.433   168.91 0.0053524    85.85   0.99489    -6.03
        380   0.91344   -12.46    18.436   168.27 0.0056636    85.53   0.99424    -6.39
        400     0.912   -13.10    18.454   167.66 0.0059764    85.09   0.99305    -6.72
        420   0.91065   -13.80    18.481   167.00 0.0062897    84.62   0.99262    -7.05
        440   0.90953   -14.42    18.418   166.43 0.0065611    84.36   0.99179    -7.41
        460   0.90828   -15.10    18.423   165.80 0.0068941    83.89    0.9907    -7.75
        480   0.90682   -15.75    18.378   165.20 0.0071961    83.36   0.99009    -8.11
        500   0.90546   -16.39    18.287   164.54 0.0074994    82.96   0.98863    -8.47
        550   0.90177   -18.02    18.281   162.99 0.0082176    81.72   0.98516    -9.28
        600   0.89732   -19.64    18.258   161.48 0.0089974    80.72   0.98219   -10.10
        650    0.8933   -21.23    18.103   159.97 0.0097193    79.76    0.9788   -10.96
        700   0.88868   -22.78    17.926   158.52   0.01045    78.70   0.97504   -11.80
        750   0.88408   -24.38    17.869   157.08  0.011164    77.66   0.97076   -12.60
        800   0.87811   -26.02     17.85   155.66  0.011869    76.69   0.96721   -13.35
        850   0.87308   -27.58    17.723   154.21  0.012588    75.67   0.96333   -14.14
        900   0.86789   -29.06    17.526   152.80  0.013255    74.71   0.95841   -14.94
        950   0.86235   -30.62    17.435   151.47  0.013916    73.76    0.9536   -15.68
       1000   0.85608   -32.14    17.372   150.04    0.0146    72.86   0.94912   -16.42
       1050   0.84958   -33.62    17.237   148.67  0.015262    71.91   0.94439   -17.16
       1100   0.84362   -35.07    17.069   147.37  0.015857    71.08   0.93897   -17.92
       1150   0.83681   -36.61    16.986   145.97  0.016469    70.19   0.93363   -18.60
       1200   0.83007   -38.05    16.865   144.68  0.017089    69.29   0.92885   -19.27
       1250   0.82339   -39.51    16.704   143.35  0.017698    68.44   0.92365   -20.02
       1300   0.81703   -40.93    16.552   142.06  0.018267    67.58   0.91802   -20.70
       1350   0.80964   -42.39    16.453   140.77  0.018837    66.81   0.91236   -21.36
       1400   0.80252   -43.84    16.342   139.49  0.019398    65.99   0.90699   -22.01
       1450   0.79529   -45.24    16.194   138.25  0.019928    65.21   0.90152   -22.65
       1500   0.78839   -46.62     16.05   137.02  0.020443    64.45   0.89576   -23.29
       1550   0.78129   -47.97    15.918   135.77  0.020956    63.76   0.89058   -23.86
       1600   0.77416   -49.29     15.78   134.58  0.021473    63.07   0.88545   -24.45
       1650   0.76659   -50.65    15.622   133.38  0.021969    62.25   0.87945   -25.07
       1700   0.75985   -51.95    15.483   132.19   0.02242    61.61   0.87366   -25.65
       1750   0.75254   -53.27     15.35   131.00  0.022888    61.01   0.86811   -26.25
       1800   0.74514   -54.63    15.207   129.83   0.02338    60.26   0.86297   -26.82
       1850   0.73769   -55.95    15.061   128.68  0.023798    59.58   0.85713   -27.40
       1900   0.73048   -57.24    14.932   127.50  0.024229    59.03   0.85202   -27.94
       1950   0.72351   -58.48    14.769   126.41  0.024661    58.49   0.84698   -28.50
       2000   0.71598   -59.70    14.608   125.29   0.02507    57.87   0.84124   -29.11
       2050   0.70837   -60.93    14.458   124.22  0.025499    57.36   0.83521   -29.65
       2100   0.70164   -62.13    14.314   123.17  0.025908    56.84   0.82936   -30.16
       2150   0.69479   -63.35    14.177   122.16  0.026323    56.37   0.82303   -30.69
       2200   0.68749   -64.53    14.035   121.14  0.026688    55.76   0.81772   -31.10
       2250   0.68012   -65.73    13.894   120.06  0.027076    55.24   0.81282   -31.65
       2300   0.67313   -66.94     13.74   119.04  0.027486    54.72   0.80731   -32.21
       2350   0.66638   -68.13    13.569   118.11  0.027892    54.31   0.80001   -32.77
       2400   0.65875   -69.35    13.435   117.15  0.028291    53.78   0.79255   -33.15
       2450   0.65065   -70.46    13.295   116.24  0.028695    53.27   0.78662   -33.52
       2500   0.64308   -71.50    13.161   115.34  0.029087    52.49   0.78108   -33.91
       2600   0.62981   -73.64    12.887   113.54  0.029693    51.49   0.77004   -34.69
       2700   0.61639   -75.78    12.634   111.75  0.030234    50.37   0.75976   -35.35
       2800   0.60405   -77.84    12.385   110.04  0.030754    49.42   0.74941   -35.97
       2900   0.59101   -79.88    12.131   108.37  0.031201    48.57   0.74043   -36.52
       3000    0.5788   -81.73    11.911   106.76  0.031631    47.82   0.73347   -37.13
       3100     0.569   -83.66     11.69   105.12  0.032024    47.24   0.72662   -37.83
       3200    0.5584   -85.51    11.465   103.56  0.032487    46.68   0.71839   -38.45
       3300   0.54777   -87.51    11.257   101.99  0.032938    46.11   0.71071   -39.18
       3400   0.53681   -89.33    11.055   100.42  0.033379    45.68   0.70375   -39.86
       3500    0.5271   -91.15    10.856    98.95  0.033837    45.21   0.69622   -40.43
       3600   0.51714   -93.06    10.658    97.46  0.034314    44.71     0.689   -40.99
       3700   0.50846   -94.81    10.467    95.99  0.034692    44.24   0.68221   -41.57
       3800   0.49858   -96.66    10.295    94.52  0.035143    43.84   0.67602   -42.18
       3900   0.48993   -98.33    10.107    93.11  0.035569    43.50   0.66988   -42.76
       4000   0.48069  -100.16    9.9315    91.71  0.036017    43.03   0.66309   -43.36
       4100   0.47199  -101.86    9.7522    90.35  0.036419    42.57   0.65631   -43.84
       4200   0.46388  -103.55    9.5926    89.04  0.036819    42.26   0.65088   -44.37
       4300   0.45647  -105.16    9.4321    87.72  0.037188    41.89   0.64593   -44.93
       4400   0.44817  -106.89    9.2785    86.35  0.037636    41.54   0.64125   -45.47
       4500   0.44148  -108.49    9.1192    85.09  0.037981    41.20   0.63565   -46.03
       4600   0.43415  -110.14    8.9711    83.85  0.038326    40.89   0.63011   -46.56
       4700   0.42801  -111.78    8.8288    82.62  0.038678    40.59    0.6248   -47.09
       4800   0.41989  -113.50     8.683    81.30  0.039095    40.23   0.62012   -47.70
       4900   0.41316  -115.16    8.5504    80.09   0.03945    39.95   0.61526   -48.13
       5000   0.40625  -116.68    8.4148    78.93  0.039837    39.74   0.61012   -48.58
       5200   0.39421  -119.79    8.1525    76.47    0.0405    39.20   0.60155   -49.72
       5400   0.38182  -122.89    7.9116    74.26  0.041184    38.66   0.59355   -50.58
       5600   0.37096  -125.92    7.6835    71.96  0.041819    38.34   0.58474   -51.72
       5800   0.35991  -129.00    7.4618    69.76  0.042491    37.94   0.57793   -52.61
       6000   0.35176  -131.80    7.2619    67.61  0.043134    37.68   0.57065   -53.71
       6200   0.34411  -134.70    7.0694    65.50  0.043885    37.47   0.56432   -54.71
       6400   0.33626  -137.71    6.8866    63.40  0.044588    37.21   0.55688   -55.71
       6600   0.32659  -140.61    6.7038    61.37   0.04522    37.00   0.55078   -56.55
       6800   0.32017  -143.34    6.5466    59.46  0.046032    36.81   0.54679   -57.61
       7000   0.31312  -146.07    6.3863    57.41  0.046806    36.72   0.53911   -58.74
       7200   0.30939  -148.54    6.2411    55.58  0.047633    36.64   0.53492   -59.65
       7400   0.30398  -151.76    6.1056    53.50   0.04844    36.51   0.53037   -60.61
       7600    0.2996  -154.30    5.9747    51.64  0.049473    36.25   0.52625   -61.82
       7800   0.29503  -157.35    5.8415    49.67  0.050133    36.21    0.5201   -62.85
       8000   0.28875  -159.71    5.7254    48.09  0.051192    36.26   0.51825   -63.70
       8200   0.28757  -162.41    5.6234    46.03  0.052396    36.12   0.51434   -65.28
       8400   0.28432  -165.58    5.5101    44.20  0.053648    35.65   0.50889   -66.24
       8600   0.27927  -168.02     5.401    42.46  0.053952    35.59   0.50631   -67.02
       8800   0.27704  -171.03    5.3036    40.31  0.055545    35.41   0.50189   -68.79
       9000   0.27563  -172.97    5.2137    38.72  0.056983    35.53   0.50132   -70.12
       9200   0.27653  -176.34    5.1343    36.58  0.058584    35.14   0.49703   -71.93
       9400   0.27144  -179.67    5.0177    34.54  0.059417    34.14   0.48881   -73.32
       9600    0.2677   177.95    4.9077    33.17  0.060552    34.28   0.48203   -74.15
       9800     0.263   175.34    4.8354    31.48  0.061394    33.82   0.47916   -75.16
      10000   0.26322   174.02    4.7567    29.98   0.06286    33.70   0.47556   -76.22
      10200   0.26502   171.09    4.7153    28.03  0.064426    33.30   0.47277   -78.03
      10400   0.26804   168.08    4.6514    25.82   0.06644    32.62   0.47211   -79.95
      10600   0.26366   165.18    4.5526    23.91  0.067469    31.60   0.45998   -81.56
      10800   0.26246   162.38    4.4717    22.03  0.068527    30.77   0.45616   -82.90
      11000   0.25369   161.10     4.376    20.87  0.067451    30.96   0.44721   -83.09
      11200   0.26615   159.10    4.3667    18.97   0.07128    31.72   0.45319   -85.15
      11400   0.26638   156.14    4.2818    17.07  0.072908    30.71   0.44895   -86.67
      11600   0.26776   153.42     4.238    15.39  0.075166    30.10   0.44607   -88.86
      11800   0.26895   150.75    4.1657    13.49  0.076242    29.14   0.43926   -90.03
      12000   0.26519   148.08    4.0825    11.88  0.077207    28.17    0.4298   -92.26
      12200   0.26899   146.85    4.0463    10.40  0.078971    28.69   0.42514   -93.06
      12400   0.27058   143.50    3.9868     8.52    0.0815    27.00   0.41861   -94.65
      12600   0.26707   141.11    3.9326     7.34  0.081271    26.34   0.41161   -94.56
      12800   0.27213   140.00    3.9098     5.82  0.083245    26.56   0.41632   -95.56
      13000   0.27586   137.49     3.903     3.77  0.086445    26.20   0.42275   -98.21
      13200   0.27331   136.05    3.8523     2.19   0.08597    25.78   0.42357   -99.21
      13400   0.28301   133.86    3.7963     0.14  0.090519    24.94   0.41539  -103.02
      13600   0.28753   131.57    3.7805    -1.68  0.091877    24.34   0.41088  -104.61
      13800   0.29033   129.28    3.7117    -3.73  0.094475    23.24    0.4018  -107.00
      14000   0.29393   125.82    3.6642    -5.21  0.096078    22.12    0.3915  -108.82
      14200   0.29536   124.63    3.6273    -6.64  0.097639    21.73   0.38766  -109.55
      14400   0.29538   122.00    3.6129    -8.12  0.099998    20.95   0.38477  -111.55
      14600   0.30268   119.78    3.5913   -10.18   0.10328    20.06   0.38357  -113.19
      14800   0.30134   116.77    3.5416   -11.97   0.10502    18.40   0.37524  -115.71
      15000   0.30539   115.46    3.5422   -13.65   0.10609    17.74   0.37932  -116.76
      15200     0.307   113.89     3.488   -15.64   0.10803    16.79   0.37536  -119.72
      15400   0.31688   112.43    3.4935   -17.13   0.11043    16.65   0.37587  -121.39
      15600   0.32317   110.87     3.444   -19.45   0.11304    15.41   0.37311  -123.94
      15800   0.32852   108.75    3.4301   -21.06   0.11523    14.71    0.3736  -126.90
      16000   0.33958   106.39    3.3831   -23.22   0.11833    13.48   0.36524  -129.54
      16200   0.34725   104.52    3.3621   -24.84   0.12101    12.78   0.36191  -131.50
      16400   0.35379   101.56    3.3362   -26.99   0.12401    11.48   0.35993  -133.77
      16600   0.35216    99.95    3.2903   -28.29   0.12625    10.01   0.35522  -136.20
      16800   0.35562    98.22    3.2826   -29.89   0.12779     9.36    0.3525  -137.52
      17000   0.36192    96.11    3.2679   -31.94   0.13117     8.21   0.35323  -141.29
      17200   0.36458    94.27    3.2429   -33.51   0.13355     7.39   0.34452  -142.99
      17400   0.37378    91.60    3.2523   -36.02   0.13749     6.36    0.3489  -146.07
      17600   0.37576    89.83    3.2225   -37.96   0.14057     5.11   0.34605  -147.71
      17800    0.3798    88.55    3.2112   -39.81   0.14338     3.89   0.34667  -150.93
      18000   0.39473    86.66    3.1827   -42.48   0.14808     2.30   0.35567  -153.79
      18200   0.39828    83.64     3.141   -44.72   0.15028     0.29    0.3533  -158.17
      18400   0.40543    81.94    3.0916   -46.61   0.15217    -0.78   0.34953  -161.56
      18600   0.40958    80.10    3.0435   -47.86   0.15501    -2.06   0.34184  -165.09
      18800    0.4154    78.14    3.0263   -50.00   0.15806    -3.35   0.34113  -168.76
      19000   0.41875    76.56    3.0216   -51.19   0.16029    -4.63   0.33541  -171.14
      19200   0.42725    74.85     3.024   -53.37   0.16435    -5.57   0.33653  -173.10
      19400   0.44519    72.65    3.0166   -56.02   0.16988    -7.06   0.34386  -176.55
      19600   0.45277    69.21    2.9822   -58.59   0.17272    -9.31   0.34738   179.73
      19800   0.46104    67.21    2.9419   -60.23   0.17561   -10.67   0.34547   175.59
      20000   0.46401    64.31    2.9209   -62.21   0.17949   -12.17   0.34223   173.28