! Filename:  P:\Prog\Test\Noise\ATS_data\Testdata_Net\BFU710\BFU710_2W_A1_2V2mA_D.s2p
! Date/Time: Fri 29/Apr/2011 13:26:50
! BFU710_2W_A1_2V2mA
! bias mode 1: Vout= 2.0001 V, Iout= 2.0100 mA, Vin= 0.7999 V, Iin= 0.0063 mA
! Date/time Wed Mar 16 11:21:20 2011
! Device data file deembeded for feedlines and parallel
! Original file: \BFU710\BFU710_2W_A1_2V2mA_R.s2p
! Feed-files: PR003V01_101208_Feed1.s2p, PR003V01_101208_Feed2.s2p
! Parallel-file: PR003V01_101208_Par.s2p
# MHz S MA R 50
!  Freq-MHz   S11-mag  S11-arg   S21-mag  S21-arg   S12-mag  S12-arg   S22-mag  S22-arg
         40   0.97838    -0.77    6.2668   179.37 0.00051307    85.35   0.99945    -0.37
         50   0.98182    -1.36    6.2859   178.76 0.0008586   115.53   0.99888    -0.50
         60    0.9756    -1.10    6.2138   178.53 0.00096081    92.73   0.99975    -0.55
         70   0.97879    -1.27    6.2266   178.77 0.0009706    89.37   0.99988    -0.68
         80   0.97844    -1.48     6.276   178.57 0.0011204    90.83   0.99992    -0.78
         90   0.97873    -1.66    6.2796   178.21 0.0012819    89.78   0.99976    -0.90
        100   0.97833    -1.80    6.2474   178.17 0.0014021    90.80   0.99962    -1.00
        120   0.97837    -2.24    6.2604   177.84 0.0017215    90.47   0.99987    -1.21
        140   0.97821    -2.61    6.2634   177.53 0.0020218    90.61   0.99996    -1.44
        160   0.97843    -2.98    6.2429   177.14 0.0022918    89.86    0.9998    -1.65
        180   0.97873    -3.38    6.2536   176.90 0.0025915    89.95   0.99996    -1.87
        200   0.97827    -3.78    6.2602   176.43 0.0028825    90.33   0.99984    -2.08
        220   0.97789    -4.16    6.2694   176.12 0.0032118    89.53   0.99977    -2.30
        240   0.97738    -4.53    6.2991   175.69 0.0035022    89.53   0.99979    -2.53
        260   0.97757    -4.92    6.2756   175.30 0.0038126    89.50   0.99966    -2.74
        280   0.97705    -5.29    6.2827   174.95 0.0041438    89.51   0.99975    -2.96
        300   0.97735    -5.69     6.277   174.59 0.0044339    89.16   0.99974    -3.19
        320   0.97694    -6.06    6.2495   174.24  0.004754    88.76   0.99961    -3.40
        340   0.97667    -6.43    6.2625   173.86  0.005045    88.66   0.99942    -3.62
        360   0.97658    -6.80    6.2443   173.57 0.0053561    88.23   0.99917    -3.83
        380   0.97629    -7.19    6.2499   173.20 0.0056868    88.13   0.99908    -4.06
        400   0.97572    -7.55    6.2711   172.84 0.0059787    87.73   0.99868    -4.27
        420   0.97575    -7.94    6.2965   172.44 0.0063005    87.67   0.99886    -4.48
        440   0.97507    -8.33    6.2777   172.11 0.0066111    87.17   0.99867    -4.70
        460   0.97484    -8.72    6.2912   171.73 0.0069428    87.07   0.99839    -4.91
        480   0.97454    -9.11    6.2835   171.40 0.0072539    86.70   0.99853    -5.14
        500   0.97434    -9.47    6.2435   171.01 0.0075453    86.38   0.99813    -5.37
        550   0.97344   -10.43    6.2711   170.09 0.0083406    85.66   0.99744    -5.91
        600   0.97169   -11.40    6.3006   169.18 0.0091368    84.79    0.9969    -6.44
        650   0.97139   -12.33    6.2661   168.24  0.009894    84.02    0.9962    -7.01
        700   0.97002   -13.25    6.2164   167.37   0.01068    83.44   0.99537    -7.56
        750   0.96907   -14.22    6.2312   166.48  0.011459    82.67   0.99443    -8.11
        800   0.96737   -15.20    6.2796   165.65  0.012269    81.93   0.99379    -8.61
        850    0.9662   -16.15    6.2683   164.71  0.013042    81.19    0.9931    -9.14
        900   0.96513   -17.05    6.2067   163.83  0.013805    80.46     0.992    -9.70
        950   0.96361   -18.01    6.2067   163.00  0.014559    79.74   0.99087   -10.23
       1000   0.96211   -18.94     6.242   162.10  0.015357    79.02   0.98991   -10.77
       1050   0.96041   -19.85    6.2262   161.24  0.016103    78.35   0.98888   -11.31
       1100   0.95891   -20.77    6.1864   160.39  0.016852    77.63   0.98756   -11.86
       1150   0.95717   -21.74    6.1963   159.48  0.017588    76.88   0.98617   -12.38
       1200   0.95496   -22.67    6.1988   158.62  0.018353    76.23    0.9851   -12.88
       1250   0.95353   -23.59    6.1773   157.74  0.019128    75.43     0.984   -13.44
       1300    0.9517   -24.50    6.1434   156.86  0.019863    74.78   0.98264   -13.98
       1350   0.94971   -25.47    6.1574   156.02  0.020565    74.10   0.98074   -14.51
       1400   0.94757   -26.41    6.1632   155.14  0.021305    73.39   0.97943   -15.04
       1450   0.94574   -27.34    6.1433   154.29  0.022022    72.77   0.97819   -15.57
       1500   0.94382   -28.26    6.1245   153.46  0.022726    72.03   0.97651   -16.11
       1550   0.94166   -29.19    6.1292   152.55  0.023418    71.42   0.97526   -16.59
       1600   0.93925   -30.11    6.1303   151.73  0.024145    70.78   0.97392   -17.09
       1650    0.9368   -31.05    6.0993   150.87  0.024845    70.11   0.97193   -17.63
       1700   0.93504   -31.93    6.0769   150.01  0.025516    69.42   0.96996   -18.15
       1750   0.93276   -32.87    6.0768   149.16  0.026198    68.85   0.96812   -18.68
       1800   0.93006   -33.84     6.068   148.30  0.026923    68.14   0.96694   -19.20
       1850   0.92755   -34.78    6.0472   147.41  0.027582    67.45   0.96495   -19.74
       1900   0.92552   -35.73    6.0451   146.58  0.028208    66.93   0.96319   -20.25
       1950    0.9225   -36.60    6.0137   145.77    0.0289    66.37   0.96193   -20.77
       2000   0.92018   -37.51    5.9942   144.91   0.02959    65.75   0.96022   -21.33
       2050   0.91705   -38.43    5.9863   144.07  0.030299    65.20   0.95813   -21.84
       2100   0.91438   -39.34     5.978   143.24  0.030997    64.60   0.95569   -22.36
       2150   0.91229   -40.22    5.9661   142.48  0.031698    64.02   0.95315   -22.87
       2200   0.90884   -41.14    5.9479   141.67  0.032301    63.27    0.9509   -23.35
       2250    0.9058   -42.06    5.9417   140.79  0.032919    62.74     0.949   -23.89
       2300   0.90311   -43.00    5.9254   139.96  0.033645    62.18   0.94718   -24.42
       2350   0.89997   -43.83     5.876   139.18  0.034407    61.58    0.9439   -25.00
       2400   0.89683   -44.76    5.8568   138.37  0.035099    60.80   0.94003   -25.47
       2450   0.89286   -45.65    5.8564   137.57  0.035825    60.11   0.93758   -25.92
       2500   0.88926   -46.50     5.839   136.78  0.036488    59.15   0.93534   -26.42
       2600   0.88331   -48.25    5.7948   135.23  0.037609    57.72   0.93006   -27.39
       2700   0.87651   -50.06    5.7817   133.63  0.038727    56.30   0.92535   -28.27
       2800   0.87116   -51.77    5.7321   132.06    0.0397    54.83   0.91943   -29.21
       2900   0.86329   -53.56    5.6938   130.49  0.040665    53.44   0.91459   -30.10
       3000   0.85675   -55.25    5.6732   128.94  0.041476    52.23   0.91009   -30.98
       3100   0.85152   -56.90    5.6246   127.44  0.042288    51.19   0.90611   -31.91
       3200   0.84501   -58.57      5.59   125.94  0.043219    50.13   0.90068   -32.79
       3300   0.83844   -60.33    5.5564   124.42  0.044108    49.01   0.89586   -33.79
       3400   0.83132   -62.00    5.5321   122.87  0.044954    48.06   0.89101   -34.71
       3500    0.8249   -63.62    5.4904   121.43  0.045847    47.04   0.88561   -35.57
       3600   0.81785   -65.38    5.4616   119.95  0.046671    46.02   0.87997   -36.40
       3700   0.81223   -66.92     5.402   118.48  0.047412    44.89   0.87497   -37.30
       3800   0.80425   -68.67    5.3926   116.96  0.048293    43.99   0.87051   -38.15
       3900    0.7975   -70.31    5.3563   115.50  0.049019    43.07   0.86525   -38.99
       4000   0.78956   -72.00    5.3306   114.01  0.049861    42.06   0.86007   -39.87
       4100   0.78331   -73.58    5.2767   112.59  0.050495    40.96   0.85387   -40.70
       4200   0.77679   -75.15    5.2439   111.18  0.051195    39.96   0.84919   -41.53
       4300   0.77042   -76.78    5.2092   109.76  0.051826    39.02   0.84448   -42.39
       4400    0.7627   -78.48    5.1898   108.23  0.052518    38.10   0.84013   -43.21
       4500     0.757   -80.04    5.1395   106.89  0.053084    37.16   0.83442   -44.03
       4600   0.74943   -81.63    5.0997   105.47  0.053592    36.21   0.82875   -44.86
       4700   0.74389   -83.16    5.0535   104.12  0.054104    35.25   0.82323   -45.69
       4800   0.73557   -84.87    5.0278   102.61  0.054729    34.31   0.81881   -46.58
       4900   0.72896   -86.43     4.984   101.25  0.055196    33.38   0.81369   -47.31
       5000   0.72177   -87.99    4.9545    99.93  0.055668    32.56   0.80783   -48.05
       5200   0.70811   -91.11     4.881    97.08  0.056425    30.75   0.79775   -49.73
       5400   0.69386   -94.20     4.805    94.52  0.057136    29.03   0.78808   -51.16
       5600   0.68021   -97.25    4.7303    91.80   0.05766    27.39   0.77738   -52.83
       5800   0.66689  -100.27    4.6551    89.21  0.058136    25.80   0.76824   -54.24
       6000   0.65528  -103.21      4.58    86.65  0.058442    24.35   0.75832   -55.83
       6200   0.64341  -106.17    4.5092    84.13  0.058785    22.99   0.74946   -57.27
       6400   0.63177  -109.15    4.4392    81.63  0.059099    21.61   0.73943   -58.74
       6600   0.61765  -112.03    4.3689    79.11  0.059005    20.20   0.72986   -60.13
       6800    0.6068  -114.87    4.3044    76.79  0.059144    19.18   0.72228   -61.49
       7000   0.59524  -117.68    4.2391    74.26  0.059193    18.06   0.71225   -63.05
       7200   0.58652  -120.43    4.1764    72.03  0.059022    17.21   0.70466   -64.31
       7400    0.5761  -123.42    4.1192    69.55  0.058856    16.19   0.69608   -65.77
       7600   0.56742  -126.11    4.0615    67.30  0.059065    15.42   0.68983   -67.11
       7800    0.5568  -128.99    3.9992    64.94  0.058678    14.64   0.68066   -68.58
       8000   0.54599  -131.46    3.9418    62.89  0.058207    14.20   0.67376   -69.73
       8200      0.54  -134.28    3.8977    60.52  0.058546    13.96   0.66829   -71.36
       8400   0.53172  -137.20    3.8371    58.29  0.058584    13.06   0.65936   -72.73
       8600   0.52186  -139.77    3.7843    56.17  0.057446    12.52   0.65289   -73.82
       8800    0.5144  -142.72    3.7408    53.67  0.058085    12.42   0.64671   -75.56
       9000    0.5093  -145.01    3.6899    51.71  0.057981    12.75   0.64368   -77.00
       9200    0.5047  -148.18    3.6544    49.31  0.058822    12.64   0.63807   -78.79
       9400    0.4937  -151.24    3.5933    46.82  0.058557    11.22   0.62881   -80.51
       9600   0.48466  -153.63    3.5305    45.00  0.057941    11.36   0.61826   -81.68
       9800     0.476  -156.20    3.4869    42.94  0.057237    10.90   0.61247   -82.99
      10000   0.47261  -158.24     3.438    41.11  0.057141    11.46   0.60675   -84.24
      10200   0.47007  -161.19      3.42    38.90  0.057639    11.80   0.60213   -86.00
      10400   0.46862  -164.25    3.3857    36.47  0.058726    11.82   0.60076   -87.88
      10600   0.45917  -167.08    3.3319    34.17  0.058732    10.76   0.58815   -89.74
      10800   0.45307  -169.73    3.2806    31.91  0.058353    10.32   0.58198   -91.37
      11000   0.44143  -171.58    3.2206    30.39  0.055511    10.54   0.57005   -92.01
      11200   0.44775  -174.21    3.2165    28.22  0.057705    13.37   0.57484   -94.01
      11400   0.44379  -177.06     3.165    26.07  0.058323    13.09    0.5684   -95.68
      11600     0.441  -179.80    3.1395    24.07  0.059539    13.70   0.56377   -97.74
      11800   0.43791   177.42    3.0914    21.88  0.059505    13.43   0.55547   -99.19
      12000   0.43051   174.78    3.0433    19.98  0.059774    13.07   0.54551  -101.27
      12200   0.43079   172.72    3.0158    18.23  0.060394    15.00   0.54026  -102.32
      12400   0.42634   169.59    2.9814    15.97  0.061926    13.77    0.5339  -104.30
      12600   0.41908   167.31    2.9357    14.40   0.06021    14.14   0.52286  -104.99
      12800   0.42227   165.40    2.9205    12.71  0.061184    16.23   0.52399  -106.14
      13000   0.42294   162.76    2.9201    10.53  0.064365    17.53   0.52878  -108.29
      13200    0.4203   160.76    2.8811     8.73  0.063111    18.34   0.52607  -109.42
      13400    0.4241   157.93    2.8507     6.45  0.067778    18.13    0.5219  -112.70
      13600   0.42482   155.28    2.8424     4.37   0.06861    18.49    0.5166  -114.55
      13800   0.42479   152.89    2.7971     2.10  0.070642    17.98   0.50842  -117.06
      14000   0.42208   149.69    2.7639     0.22  0.071764    17.57   0.49765  -119.15
      14200    0.4231   147.98    2.7304    -1.43  0.072698    18.51   0.49143  -120.41
      14400   0.42028   145.56    2.7231    -3.12  0.074895    18.73   0.48653  -122.48
      14600   0.42532   142.83    2.7049    -5.39  0.078167    18.67    0.4842  -124.18
      14800   0.42089   139.99    2.6696    -7.40  0.079665    17.56   0.47586  -126.81
      15000   0.42522   137.82    2.6666    -9.24  0.081141    18.03   0.47648  -127.91
      15200   0.42531   135.78    2.6305   -11.34   0.08327    17.61   0.47367  -130.63
      15400   0.43206   133.49    2.6339   -13.08  0.086102    18.26   0.47296  -132.39
      15600   0.43649   131.32    2.5989   -15.52  0.088727    17.45   0.47056  -134.95
      15800    0.4393   128.81    2.5923   -17.35  0.091536    17.22   0.47133  -137.51
      16000   0.44553   125.95    2.5587   -19.75  0.094368    16.11   0.46553  -140.26
      16200   0.45085   123.74    2.5419   -21.61  0.097172    16.05   0.46228  -142.57
      16400   0.45467   120.68    2.5192   -23.89   0.10044    15.02   0.45882  -144.87
      16600    0.4518   118.92    2.4882   -25.46   0.10254    13.99   0.45498  -147.43
      16800   0.45492   116.85    2.4767   -27.29   0.10472    13.98   0.45083  -149.07
      17000   0.45826   114.41    2.4663   -29.42   0.10871    13.03   0.45274  -152.52
      17200   0.45934   112.31    2.4463   -31.24   0.11136    12.52   0.44449  -154.62
      17400    0.4669   109.47    2.4504   -33.83   0.11598    11.72   0.44868  -157.66
      17600    0.4692   107.30    2.4294   -35.83   0.11964    10.79   0.44337  -159.51
      17800   0.47218   105.40    2.4223   -37.97    0.1233     9.66   0.44572  -162.57
      18000   0.48452   102.79    2.3974   -40.62   0.12847     8.00   0.45292  -165.36
      18200   0.48507    99.75      2.37   -43.01   0.13103     6.03   0.45003  -169.22
      18400   0.49148    97.49     2.332   -45.15   0.13352     5.05   0.44764  -172.38
      18600   0.49226    95.53    2.2951   -46.74   0.13656     3.93   0.44209  -175.76
      18800   0.49813    93.12    2.2796   -48.98   0.14051     2.64   0.44237  -179.17
      19000   0.49987    91.45      2.27   -50.43   0.14307     1.60   0.43813   178.13
      19200   0.50708    89.20    2.2663   -52.70    0.1482     0.76   0.43839   175.70
      19400   0.52197    86.55    2.2572   -55.35   0.15441    -1.00   0.44332   172.53
      19600   0.52732    83.32    2.2273   -58.06   0.15726    -3.32   0.44719   169.07
      19800   0.53622    80.93    2.1969   -59.73   0.16063    -4.62   0.44478   165.35
      20000    0.5373    78.20    2.1797   -61.90   0.16467    -6.02   0.44208   162.87

!  
! Device Noise Parameters
!  Freq-MHz   Fmin-dB  Gopt-mag  Gopt-arg   rn_normalized
	400	0.5593	0.73145	2.90	0.4233
	420	0.5603	0.73065	3.14	0.4231
	440	0.5614	0.72985	3.38	0.4229
	460	0.5624	0.72906	3.62	0.4228
	480	0.5634	0.72827	3.86	0.4226
	500	0.5644	0.72749	4.10	0.4225
	550	0.5670	0.72555	4.70	0.4220
	600	0.5696	0.72365	5.30	0.4216
	650	0.5722	0.72176	5.89	0.4211
	700	0.5748	0.71990	6.48	0.4206
	750	0.5774	0.71807	7.07	0.4201
	800	0.5801	0.71626	7.66	0.4195
	850	0.5827	0.71446	8.24	0.4190
	900	0.5853	0.71269	8.83	0.4184
	950	0.5880	0.71095	9.41	0.4178
	1000	0.5907	0.70922	9.99	0.4172
	1050	0.5934	0.70750	10.57	0.4166
	1100	0.5961	0.70581	11.14	0.4159
	1150	0.5988	0.70413	11.71	0.4153
	1200	0.6015	0.70247	12.29	0.4146
	1250	0.6042	0.70082	12.86	0.4139
	1300	0.6069	0.69919	13.42	0.4132
	1350	0.6097	0.69757	13.99	0.4124
	1400	0.6124	0.69597	14.55	0.4117
	1450	0.6152	0.69437	15.12	0.4109
	1500	0.6180	0.69279	15.68	0.4101
	1550	0.6208	0.69122	16.23	0.4093
	1600	0.6236	0.68966	16.79	0.4085
	1650	0.6264	0.68811	17.35	0.4076
	1700	0.6292	0.68657	17.90	0.4068
	1750	0.6320	0.68503	18.45	0.4059
	1800	0.6349	0.68351	19.00	0.4050
	1850	0.6377	0.68199	19.55	0.4041
	1900	0.6406	0.68048	20.09	0.4032
	1950	0.6435	0.67897	20.64	0.4022
	2000	0.6463	0.67747	21.18	0.4013
	2050	0.6492	0.67597	21.72	0.4003
	2100	0.6521	0.67448	22.26	0.3993
	2150	0.6551	0.67300	22.80	0.3983
	2200	0.6580	0.67151	23.33	0.3973
	2250	0.6609	0.67003	23.87	0.3963
	2300	0.6639	0.66855	24.40	0.3952
	2350	0.6668	0.66708	24.94	0.3942
	2400	0.6698	0.66561	25.47	0.3931
	2450	0.6728	0.66413	26.00	0.3920
	2500	0.6758	0.66266	26.52	0.3909
	2600	0.6818	0.65973	27.58	0.3886
	2700	0.6878	0.65679	28.62	0.3863
	2800	0.6939	0.65385	29.67	0.3840
	2900	0.7001	0.65090	30.70	0.3816
	3000	0.7063	0.64795	31.74	0.3791
	3100	0.7125	0.64500	32.77	0.3766
	3200	0.7188	0.64203	33.79	0.3741
	3300	0.7251	0.63905	34.82	0.3715
	3400	0.7314	0.63606	35.84	0.3689
	3500	0.7378	0.63305	36.85	0.3662
	3600	0.7443	0.63003	37.87	0.3634
	3700	0.7508	0.62700	38.88	0.3607
	3800	0.7573	0.62395	39.89	0.3579
	3900	0.7638	0.62088	40.90	0.3550
	4000	0.7705	0.61780	41.91	0.3522
	4100	0.7771	0.61470	42.91	0.3492
	4200	0.7838	0.61158	43.92	0.3463
	4300	0.7905	0.60845	44.93	0.3433
	4400	0.7973	0.60530	45.93	0.3403
	4500	0.8042	0.60213	46.94	0.3372
	4600	0.8110	0.59894	47.94	0.3342
	4700	0.8179	0.59575	48.95	0.3311
	4800	0.8249	0.59253	49.95	0.3280
	4900	0.8319	0.58930	50.96	0.3248
	5000	0.8389	0.58606	51.97	0.3216
	5200	0.8531	0.57954	53.99	0.3152
	5400	0.8675	0.57298	56.02	0.3087
	5600	0.8820	0.56638	58.06	0.3022
	5800	0.8967	0.55975	60.11	0.2956
	6000	0.9116	0.55312	62.17	0.2889
	6200	0.9267	0.54647	64.25	0.2822
	6400	0.9419	0.53984	66.34	0.2755
	6600	0.9573	0.53323	68.45	0.2688
	6800	0.9729	0.52664	70.58	0.2620
	7000	0.9886	0.52010	72.73	0.2553
	7200	1.0045	0.51361	74.89	0.2486
	7400	1.0206	0.50719	77.08	0.2419
	7600	1.0368	0.50085	79.29	0.2352
	7800	1.0533	0.49458	81.52	0.2286
	8000	1.0698	0.48842	83.77	0.2221
	8200	1.0866	0.48235	86.05	0.2156
	8400	1.1035	0.47640	88.34	0.2093
	8600	1.1206	0.47056	90.66	0.2030
	8800	1.1379	0.46484	93.00	0.1968
	9000	1.1554	0.45925	95.36	0.1907
	9200	1.1730	0.45378	97.75	0.1847
	9400	1.1908	0.44843	100.15	0.1789
	9600	1.2087	0.44321	102.57	0.1732
	9800	1.2268	0.43812	105.01	0.1677
	10000	1.2451	0.43314	107.47	0.1624
	10400	1.2822	0.42350	112.45	0.1522
	11000	1.3392	0.40974	120.04	0.1384
	11400	1.3780	0.40090	125.19	0.1304
	12000	1.4374	0.38787	133.08	0.1202
	12400	1.4780	0.37918	138.46	0.1149
	13000	1.5400	0.36592	146.80	0.1091
	13400	1.5822	0.35685	152.59	0.1069
	14000	1.6468	0.34293	161.77	0.1064
	14400	1.6907	0.33361	168.32	0.1079
	15000	1.7579	0.32028	179.01	0.1133
	15400	1.8035	0.31255	186.86	0.1191
	15800	1.8498	0.30663	195.36	0.1268
	16000	1.8733	0.30465	199.87	0.1313
	16400	1.9206	0.30345	209.39	0.1419
	16800	1.9686	0.30701	219.46	0.1545
	17000	1.9929	0.31102	224.64	0.1616
	17400	2.0419	0.32427	235.07	0.1775
	17800	2.0916	0.34538	245.30	0.1957
	18000	2.1167	0.35910	250.24	0.2056