! Filename:  P:\Prog\Test\Noise\ATS_data\Testdata_Net\BFU710\BFU710_2W_A1_2V3mA_D.s2p
! Date/Time: Fri 29/Apr/2011 13:26:53
! BFU710_2W_A1_2V3mA
! bias mode 1: Vout= 2.0001 V, Iout= 3.0050 mA, Vin= 0.8097 V, Iin= 0.0098 mA
! Date/time Wed Mar 16 11:08:29 2011
! Device data file deembeded for feedlines and parallel
! Original file: \BFU710\BFU710_2W_A1_2V3mA_R.s2p
! Feed-files: PR003V01_101208_Feed1.s2p, PR003V01_101208_Feed2.s2p
! Parallel-file: PR003V01_101208_Par.s2p
# MHz S MA R 50
!  Freq-MHz   S11-mag  S11-arg   S21-mag  S21-arg   S12-mag  S12-arg   S22-mag  S22-arg
         40    0.9677    -0.85    8.9234   179.11 0.00057289    86.20    0.9992    -0.36
         50   0.96712    -1.07    8.9542   178.45 0.00060644    49.13   0.99918    -0.54
         60   0.96842    -1.24    8.8432   178.35 0.0006411    95.41   0.99964    -0.58
         70    0.9681    -1.44    8.8622   178.55 0.00096086    90.24   0.99975    -0.72
         80   0.96776    -1.67    8.9291   178.33 0.0010807    88.51   0.99984    -0.84
         90   0.96772    -1.89     8.933   177.95 0.0012523    88.41    0.9997    -0.97
        100    0.9675    -2.10    8.8895   177.89  0.001363    88.16   0.99961    -1.08
        120   0.96751    -2.56    8.9121   177.52 0.0016618    89.47   0.99985    -1.34
        140   0.96753    -2.98    8.9088   177.16 0.0019919    90.18   0.99987    -1.59
        160   0.96756    -3.42     8.882   176.71 0.0022721    89.46   0.99969    -1.83
        180   0.96799    -3.86     8.896   176.41 0.0025819    89.49   0.99984    -2.07
        200   0.96762    -4.31    8.9046   175.90 0.0028528    89.42   0.99967    -2.32
        220   0.96708    -4.76    8.9185   175.53 0.0031923    89.61   0.99965    -2.56
        240    0.9665    -5.19    8.9571   175.04 0.0034927    89.12   0.99965    -2.81
        260   0.96661    -5.61    8.9241   174.61 0.0037632    88.70   0.99955    -3.05
        280   0.96612    -6.06    8.9327   174.20 0.0040944    88.90   0.99962    -3.30
        300   0.96614    -6.52     8.925   173.79 0.0044046    88.67   0.99947    -3.55
        320   0.96578    -6.93    8.8885   173.39 0.0046948    88.29   0.99929    -3.79
        340   0.96545    -7.37    8.9043   172.95  0.005016    88.17   0.99913    -4.04
        360   0.96525    -7.80    8.8777   172.61 0.0052973    87.73   0.99875    -4.27
        380   0.96478    -8.24    8.8854   172.18  0.005618    87.72   0.99861    -4.53
        400   0.96421    -8.67    8.9124   171.76 0.0059401    87.20   0.99803    -4.77
        420   0.96364    -9.12    8.9425   171.31 0.0062322    86.92   0.99808    -5.00
        440   0.96335    -9.55    8.9164   170.93 0.0065429    86.74   0.99787    -5.25
        460   0.96315    -9.99    8.9313   170.51 0.0068547    86.37   0.99746    -5.49
        480   0.96225   -10.43    8.9185   170.11 0.0071761    86.01   0.99755    -5.75
        500   0.96173   -10.87    8.8675   169.66 0.0074878    85.47   0.99697    -6.00
        550   0.96062   -11.95    8.9032   168.61 0.0082337    84.75   0.99587    -6.60
        600   0.95867   -13.07    8.9355   167.56 0.0090306    84.03   0.99496    -7.19
        650   0.95747   -14.14      8.88   166.50 0.0097988    83.33   0.99383    -7.82
        700   0.95556   -15.19    8.8076   165.51  0.010556    82.37   0.99261    -8.45
        750   0.95405   -16.29    8.8191   164.50  0.011306    81.62   0.99105    -9.05
        800   0.95191   -17.42    8.8732   163.53  0.012087    80.83   0.99004    -9.61
        850   0.94977   -18.49    8.8479   162.48  0.012841    79.99   0.98896   -10.20
        900   0.94817   -19.52    8.7628   161.47  0.013585    79.21   0.98717   -10.83
        950   0.94594   -20.61    8.7559   160.53  0.014331    78.39   0.98542   -11.41
       1000   0.94351   -21.69    8.7889   159.50    0.0151    77.70   0.98389   -12.00
       1050   0.94077   -22.73     8.758   158.52  0.015828    76.91   0.98227   -12.59
       1100    0.9389   -23.77    8.6998   157.57  0.016538    76.11   0.98017   -13.20
       1150   0.93601   -24.87    8.7043   156.54  0.017256    75.36   0.97809   -13.77
       1200   0.93304   -25.91    8.6949   155.57  0.017972    74.64   0.97638   -14.31
       1250   0.93053   -26.96    8.6545   154.57  0.018709    73.84   0.97464   -14.94
       1300   0.92791   -27.99     8.603   153.59  0.019405    73.08   0.97241   -15.52
       1350   0.92471   -29.09    8.6107   152.63   0.02008    72.31   0.96979   -16.10
       1400   0.92168   -30.16     8.606   151.65  0.020801    71.63   0.96767   -16.66
       1450   0.91903   -31.20    8.5723   150.71  0.021449    70.89    0.9656   -17.24
       1500    0.9158   -32.23     8.537   149.77  0.022134    70.19   0.96308   -17.82
       1550   0.91263   -33.30    8.5285   148.76  0.022797    69.49   0.96104   -18.34
       1600   0.90925   -34.34    8.5161   147.82  0.023455    68.83   0.95899   -18.88
       1650   0.90581   -35.38    8.4665   146.87  0.024095    68.12   0.95608   -19.46
       1700   0.90295   -36.35    8.4282   145.93  0.024707    67.35    0.9532   -20.02
       1750   0.89917   -37.42    8.4171   144.96  0.025339    66.74   0.95054   -20.59
       1800   0.89583   -38.48    8.3907   144.01  0.026005    66.09   0.94855   -21.14
       1850   0.89219   -39.51    8.3517   143.05  0.026613    65.37   0.94569   -21.71
       1900    0.8886   -40.59    8.3377   142.10  0.027189    64.79   0.94317   -22.25
       1950   0.88529   -41.55    8.2865   141.21    0.0278    64.19   0.94091   -22.80
       2000   0.88111   -42.55    8.2474   140.26  0.028449    63.57   0.93824   -23.40
       2050   0.87661   -43.59     8.222   139.33  0.029068    62.94   0.93517   -23.94
       2100   0.87307   -44.58    8.1956   138.40  0.029682    62.36   0.93178   -24.49
       2150    0.8695   -45.59    8.1677   137.56  0.030322    61.76   0.92819   -25.03
       2200   0.86546   -46.57    8.1325   136.66  0.030841    61.04   0.92506   -25.52
       2250   0.86072   -47.63    8.1076   135.70  0.031416    60.46   0.92236   -26.08
       2300   0.85673   -48.63    8.0708   134.80  0.032046    59.92   0.91968   -26.64
       2350   0.85255   -49.56    7.9969   133.98  0.032713    59.27   0.91515   -27.25
       2400   0.84809   -50.58    7.9627   133.11   0.03331    58.53   0.91008   -27.73
       2450   0.84268   -51.58     7.943   132.23  0.033932    57.84   0.90652   -28.18
       2500   0.83786   -52.48    7.9033   131.38  0.034507    56.86   0.90321   -28.68
       2600    0.8296   -54.37    7.8221   129.73  0.035488    55.50   0.89603   -29.66
       2700   0.82035   -56.33    7.7692   128.00  0.036444    54.09    0.8894   -30.54
       2800   0.81268   -58.18    7.6855   126.36  0.037238    52.67   0.88165   -31.44
       2900   0.80249   -60.07    7.6072   124.70  0.038012    51.34   0.87508   -32.29
       3000   0.79394   -61.85    7.5522   123.08  0.038669    50.23   0.86934   -33.14
       3100   0.78678   -63.61    7.4693   121.50  0.039351    49.25   0.86406   -34.05
       3200   0.77828   -65.36    7.3972   119.92  0.040077    48.22   0.85725   -34.91
       3300   0.76976   -67.27    7.3324   118.33  0.040802    47.22   0.85103   -35.88
       3400   0.76048   -68.99    7.2723   116.72  0.041478    46.38   0.84497   -36.77
       3500   0.75263   -70.71    7.1954   115.22  0.042206    45.42   0.83818   -37.59
       3600   0.74393   -72.54    7.1329   113.67  0.042857    44.47   0.83148   -38.38
       3700   0.73657   -74.17    7.0448   112.18  0.043445    43.49   0.82537   -39.23
       3800   0.72701   -76.01    6.9991   110.62  0.044142    42.67   0.81985   -40.05
       3900   0.71852   -77.68    6.9286   109.11  0.044706    41.89   0.81356   -40.83
       4000    0.7096   -79.43    6.8667   107.60   0.04539    40.96   0.80731   -41.68
       4100   0.70161   -81.10    6.7837   106.14  0.045865    40.00   0.80028   -42.43
       4200    0.6936   -82.71    6.7214   104.72  0.046382    39.13   0.79468   -43.20
       4300   0.68602   -84.39    6.6558   103.28  0.046877    38.35   0.78908   -43.99
       4400   0.67744   -86.11    6.6017   101.74  0.047422    37.54   0.78404   -44.75
       4500   0.67027   -87.69    6.5233   100.40  0.047818    36.76   0.77773   -45.52
       4600   0.66196   -89.31    6.4558    98.99  0.048245    35.95   0.77155   -46.27
       4700   0.65549   -90.90    6.3855    97.63  0.048607    35.21   0.76549   -47.02
       4800   0.64625   -92.63    6.3268    96.13  0.049068    34.38   0.76022   -47.85
       4900   0.63883   -94.23    6.2579    94.80  0.049418    33.65   0.75451   -48.50
       5000   0.63055   -95.81    6.1983    93.49  0.049781    32.96   0.74834   -49.17
       5200   0.61578   -98.95    6.0737    90.68  0.050335    31.54   0.73765   -50.69
       5400    0.6007  -102.04    5.9465    88.18  0.050846    30.20   0.72734   -51.97
       5600   0.58612  -105.11    5.8267    85.54  0.051228    28.98    0.7164   -53.47
       5800   0.57186  -108.14    5.7054    83.01  0.051613    27.76   0.70686   -54.72
       6000   0.55976  -111.05    5.5923    80.54  0.051864    26.70   0.69709   -56.14
       6200   0.54824  -113.99    5.4825    78.11  0.052138    25.83   0.68825   -57.41
       6400    0.5366  -117.00    5.3757    75.70  0.052458    24.85   0.67826   -58.74
       6600   0.52268  -119.82    5.2685    73.31  0.052435    23.94   0.66917   -59.93
       6800   0.51235  -122.62    5.1713    71.09  0.052623    23.34   0.66224   -61.16
       7000   0.50159  -125.37    5.0743    68.70  0.052793    22.65   0.65255   -62.56
       7200   0.49384  -127.99    4.9827    66.59  0.052838    22.26   0.64546   -63.66
       7400   0.48375  -131.04    4.8991    64.21  0.052866    21.74    0.6378   -64.94
       7600   0.47567  -133.65    4.8152    62.08   0.05326    21.28   0.63199   -66.18
       7800   0.46586  -136.57    4.7264    59.84  0.053139    20.95   0.62348   -67.49
       8000   0.45636  -138.94    4.6477    57.94  0.053163    20.97   0.61807   -68.47
       8200   0.45162  -141.73    4.5824    55.67  0.053711    20.96   0.61307   -70.07
       8400   0.44417  -144.66    4.5033    53.56  0.054122    20.42   0.60498   -71.26
       8600   0.43552  -147.18    4.4292    51.56  0.053452    20.31   0.59959   -72.20
       8800   0.42892  -150.16    4.3665    49.17   0.05439    20.43   0.59401   -73.91
       9000    0.4245  -152.32    4.3003    47.34  0.054835    20.91   0.59173   -75.26
       9200   0.42145  -155.59    4.2499    45.02   0.05596    20.86   0.58661   -77.04
       9400   0.41163  -158.66    4.1678    42.69  0.056091    19.84   0.57732   -78.61
       9600   0.40421  -161.06    4.0863    41.01  0.056108    20.23   0.56801   -79.62
       9800   0.39633  -163.56     4.031    39.07  0.055983    20.01   0.56309   -80.78
      10000   0.39441  -165.36    3.9699    37.37  0.056538    20.60    0.5581   -81.94
      10200   0.39243  -168.35    3.9434    35.25  0.057564    20.74   0.55416   -83.67
      10400   0.39271  -171.42    3.8984    32.90  0.059024    20.67   0.55319   -85.53
      10600   0.38436  -174.24    3.8288    30.72  0.059413    19.72   0.54058   -87.28
      10800   0.37976  -176.84    3.7646    28.61  0.059662    19.34   0.53524   -88.79
      11000   0.36895  -178.50    3.6905    27.20   0.05754    19.84   0.52414   -89.25
      11200   0.37741   178.92    3.6835    25.14  0.060614    21.95   0.52961   -91.22
      11400   0.37428   175.99    3.6194    23.07  0.061669    21.43    0.5239   -92.80
      11600   0.37262   173.27    3.5868    21.20   0.06343    21.60   0.52013   -94.85
      11800   0.37074   170.55    3.5291    19.11  0.063932    21.14   0.51226   -96.18
      12000   0.36484   167.89    3.4686    17.31  0.064547    20.57   0.50258   -98.29
      12200   0.36637   165.95    3.4365    15.66  0.065735    21.95   0.49761   -99.23
      12400   0.36311   162.81    3.3922    13.54  0.067702    20.56   0.49088  -101.06
      12600   0.35717   160.53    3.3422    12.12  0.066653    20.55    0.4813  -101.47
      12800   0.36062   158.74    3.3242    10.49  0.068157    21.84   0.48366  -102.49
      13000   0.36333   156.18    3.3211     8.36  0.071518    22.38   0.48956  -104.78
      13200   0.36018   154.44    3.2772     6.65  0.070642    22.69   0.48807  -105.78
      13400   0.36628   151.67    3.2387     4.45  0.075331    22.12   0.48281  -109.25
      13600   0.36863   149.09    3.2266     2.46   0.07649    22.07   0.47772  -110.99
      13800   0.36871   146.64    3.1717     0.28  0.078829    21.28   0.46916  -113.45
      14000   0.36817   143.36    3.1335    -1.46   0.08012    20.59   0.45861  -115.45
      14200   0.36965   141.79    3.0974    -3.01  0.081423    20.94   0.45315  -116.48
      14400   0.36692   139.41    3.0881    -4.62  0.083699    20.65   0.44898  -118.50
      14600   0.37347   136.67    3.0677    -6.82  0.087015    20.18   0.44727  -120.12
      14800   0.36952   133.85    3.0267    -8.75  0.088652    18.82   0.43893  -122.72
      15000   0.37404   131.96    3.0256   -10.53  0.089938    18.75   0.44098  -123.74
      15200   0.37478   129.99    2.9824   -12.58   0.09208    18.13   0.43792  -126.53
      15400   0.38256   127.92    2.9865   -14.23  0.094774    18.41   0.43765  -128.22
      15600   0.38854   125.90    2.9457   -16.62  0.097425    17.40   0.43523  -130.75
      15800   0.39212   123.40    2.9368   -18.37  0.099994    16.97   0.43607  -133.42
      16000   0.40007   120.64    2.8983   -20.68   0.10294    15.82   0.42934  -136.11
      16200   0.40593   118.54    2.8789   -22.45   0.10567    15.43   0.42594  -138.31
      16400   0.41065   115.47    2.8552   -24.68   0.10892    14.27   0.42309  -140.55
      16600   0.40862   113.79    2.8181   -26.14   0.11104    13.01   0.41886  -143.07
      16800   0.41127   111.78    2.8075   -27.89   0.11296    12.77   0.41538  -144.54
      17000   0.41603   109.53    2.7963   -29.97   0.11672    11.72   0.41691  -148.10
      17200   0.41704   107.50    2.7739   -31.71    0.1193    11.06   0.40842  -150.02
      17400   0.42531   104.64     2.781   -34.27   0.12366    10.19   0.41282  -153.06
      17600   0.42755   102.60    2.7565   -36.24   0.12706     9.14   0.40845  -154.80
      17800   0.43125   100.87    2.7484   -38.29   0.13044     7.96   0.41035  -157.89
      18000    0.4452    98.45    2.7215   -40.95    0.1354     6.33   0.41835  -160.71
      18200   0.44608    95.35     2.689   -43.31   0.13791     4.34   0.41569  -164.70
      18400   0.45278    93.26    2.6469   -45.36   0.14009     3.32    0.4127  -167.95
      18600   0.45552    91.32    2.6054   -46.81   0.14308     2.13   0.40628  -171.34
      18800    0.4608    89.06    2.5893   -49.02   0.14665     0.84   0.40625  -174.84
      19000    0.4634    87.38    2.5808   -50.38   0.14904    -0.30   0.40145  -177.41
      19200   0.47119    85.35    2.5794   -52.62   0.15376    -1.16   0.40202  -179.68
      19400   0.48711    82.75    2.5714   -55.29   0.15979    -2.79   0.40796   177.07
      19600   0.49319    79.43    2.5396   -57.95   0.16262    -5.09   0.41188   173.54
      19800   0.50227    77.18    2.5044   -59.61   0.16575    -6.42   0.40951   169.67
      20000   0.50351    74.30    2.4856   -61.72   0.16973    -7.86   0.40669   167.29

!  
! Device Noise Parameters
!  Freq-MHz   Fmin-dB  Gopt-mag  Gopt-arg   rn_normalized
	400	0.5942	0.70000	3.13	0.3747
	420	0.5951	0.69913	3.35	0.3746
	440	0.5960	0.69826	3.58	0.3744
	460	0.5969	0.69740	3.80	0.3743
	480	0.5978	0.69654	4.03	0.3742
	500	0.5987	0.69569	4.25	0.3740
	550	0.6009	0.69358	4.81	0.3737
	600	0.6032	0.69149	5.37	0.3734
	650	0.6055	0.68942	5.93	0.3730
	700	0.6078	0.68738	6.49	0.3726
	750	0.6101	0.68536	7.04	0.3722
	800	0.6124	0.68336	7.59	0.3718
	850	0.6147	0.68138	8.15	0.3713
	900	0.6171	0.67942	8.70	0.3709
	950	0.6194	0.67748	9.25	0.3704
	1000	0.6218	0.67556	9.79	0.3699
	1050	0.6241	0.67365	10.34	0.3694
	1100	0.6265	0.67176	10.88	0.3689
	1150	0.6289	0.66989	11.43	0.3684
	1200	0.6313	0.66804	11.97	0.3678
	1250	0.6337	0.66620	12.51	0.3673
	1300	0.6361	0.66438	13.05	0.3667
	1350	0.6385	0.66257	13.59	0.3661
	1400	0.6410	0.66077	14.12	0.3655
	1450	0.6434	0.65899	14.66	0.3649
	1500	0.6459	0.65721	15.19	0.3643
	1550	0.6483	0.65546	15.72	0.3636
	1600	0.6508	0.65371	16.26	0.3630
	1650	0.6533	0.65197	16.79	0.3623
	1700	0.6558	0.65025	17.31	0.3616
	1750	0.6583	0.64853	17.84	0.3609
	1800	0.6608	0.64682	18.37	0.3602
	1850	0.6633	0.64512	18.89	0.3595
	1900	0.6659	0.64344	19.41	0.3588
	1950	0.6684	0.64175	19.94	0.3580
	2000	0.6710	0.64008	20.46	0.3573
	2050	0.6735	0.63842	20.98	0.3565
	2100	0.6761	0.63676	21.49	0.3557
	2150	0.6787	0.63510	22.01	0.3549
	2200	0.6813	0.63346	22.53	0.3541
	2250	0.6839	0.63182	23.04	0.3533
	2300	0.6865	0.63018	23.56	0.3524
	2350	0.6891	0.62855	24.07	0.3516
	2400	0.6918	0.62693	24.58	0.3507
	2450	0.6944	0.62530	25.09	0.3499
	2500	0.6971	0.62369	25.60	0.3490
	2600	0.7024	0.62046	26.62	0.3472
	2700	0.7078	0.61725	27.63	0.3454
	2800	0.7132	0.61405	28.64	0.3435
	2900	0.7187	0.61086	29.64	0.3416
	3000	0.7242	0.60768	30.64	0.3396
	3100	0.7297	0.60450	31.64	0.3376
	3200	0.7353	0.60132	32.64	0.3356
	3300	0.7409	0.59815	33.63	0.3335
	3400	0.7466	0.59497	34.62	0.3314
	3500	0.7523	0.59180	35.61	0.3292
	3600	0.7580	0.58862	36.60	0.3270
	3700	0.7638	0.58544	37.58	0.3248
	3800	0.7696	0.58226	38.56	0.3225
	3900	0.7755	0.57907	39.54	0.3203
	4000	0.7814	0.57588	40.53	0.3180
	4100	0.7873	0.57269	41.51	0.3156
	4200	0.7933	0.56949	42.48	0.3132
	4300	0.7993	0.56628	43.46	0.3108
	4400	0.8054	0.56307	44.44	0.3084
	4500	0.8114	0.55985	45.42	0.3060
	4600	0.8176	0.55663	46.40	0.3035
	4700	0.8238	0.55340	47.38	0.3010
	4800	0.8300	0.55016	48.36	0.2985
	4900	0.8362	0.54692	49.34	0.2959
	5000	0.8425	0.54368	50.32	0.2934
	5200	0.8552	0.53717	52.28	0.2882
	5400	0.8681	0.53065	54.26	0.2829
	5600	0.8812	0.52412	56.24	0.2776
	5800	0.8943	0.51759	58.23	0.2723
	6000	0.9077	0.51106	60.23	0.2669
	6200	0.9212	0.50453	62.24	0.2614
	6400	0.9349	0.49802	64.27	0.2560
	6600	0.9487	0.49154	66.31	0.2505
	6800	0.9627	0.48508	68.36	0.2450
	7000	0.9768	0.47866	70.43	0.2395
	7200	0.9912	0.47228	72.52	0.2341
	7400	1.0056	0.46596	74.63	0.2286
	7600	1.0202	0.45969	76.76	0.2232
	7800	1.0350	0.45348	78.91	0.2177
	8000	1.0500	0.44735	81.07	0.2124
	8200	1.0651	0.44129	83.26	0.2071
	8400	1.0804	0.43531	85.47	0.2018
	8600	1.0958	0.42942	87.70	0.1966
	8800	1.1114	0.42361	89.95	0.1915
	9000	1.1271	0.41790	92.22	0.1864
	9200	1.1430	0.41227	94.51	0.1815
	9400	1.1591	0.40673	96.82	0.1767
	9600	1.1753	0.40128	99.15	0.1719
	9800	1.1917	0.39592	101.51	0.1673
	10000	1.2082	0.39064	103.88	0.1628
	10400	1.2418	0.38032	108.70	0.1542
	11000	1.2933	0.36532	116.08	0.1424
	11400	1.3285	0.35555	121.12	0.1354
	12000	1.3824	0.34107	128.88	0.1264
	12400	1.4192	0.33141	134.21	0.1214
	13000	1.4755	0.31678	142.54	0.1158
	13400	1.5138	0.30687	148.37	0.1132
	14000	1.5726	0.29188	157.68	0.1115
	14400	1.6125	0.28197	164.39	0.1119
	15000	1.6736	0.26793	175.45	0.1148
	15400	1.7152	0.25981	183.63	0.1184
	15800	1.7573	0.25351	192.56	0.1235
	16000	1.7787	0.25134	197.31	0.1265
	16400	1.8218	0.24965	207.37	0.1339
	16800	1.8656	0.25253	218.00	0.1428
	17000	1.8877	0.25607	223.45	0.1478
	17400	1.9324	0.26799	234.36	0.1593
	17800	1.9778	0.28703	244.96	0.1725
	18000	2.0007	0.29936	250.02	0.1797