! Filename:  P:\Prog\Test\Noise\ATS_data\Testdata_Net\BFU710\BFU710_2W_A1_2V1mA_D.s2p
! Date/Time: Fri 29/Apr/2011 13:26:47
! BFU710_2W_A1_2V1mA
! bias mode 1: Vout= 2.0002 V, Iout= 0.9600 mA, Vin= 0.7820 V, Iin= 0.0029 mA
! Date/time Wed Mar 16 13:25:12 2011
! Device data file deembeded for feedlines and parallel
! Original file: \BFU710\BFU710_2W_A1_2V1mA_R.s2p
! Feed-files: PR003V01_101208_Feed1.s2p, PR003V01_101208_Feed2.s2p
! Parallel-file: PR003V01_101208_Par.s2p
# MHz S MA R 50
!  Freq-MHz   S11-mag  S11-arg   S21-mag  S21-arg   S12-mag  S12-arg   S22-mag  S22-arg
         40   0.98953    -0.66    3.2397   179.58  0.000552    87.09   0.99969    -0.37
         50   0.98529    -0.98    3.2535   179.00 0.00056684    49.81   0.99955    -0.49
         60   0.98909    -0.77    3.2135   178.79 0.00067062    97.58    0.9998    -0.50
         70   0.98981    -1.05    3.2217   179.00 0.00095032    89.41   0.99991    -0.60
         80   0.98944    -1.21    3.2487   178.82 0.0011202    90.14         1    -0.69
         90   0.98954    -1.39    3.2524   178.49 0.0012518    89.40   0.99982    -0.79
        100   0.98955    -1.52    3.2358   178.47 0.0013924    88.52   0.99969    -0.88
        120   0.98908    -1.87    3.2355   178.26 0.0017014    89.88   0.99995    -1.05
        140   0.98932    -2.16    3.2388   177.99 0.0020416    90.61   0.99993    -1.25
        160   0.98931    -2.48    3.2309   177.60 0.0023114    90.38   0.99981    -1.43
        180    0.9898    -2.82     3.238   177.41 0.0026211    90.54   0.99995    -1.62
        200   0.98912    -3.14    3.2411   177.02 0.0029119    90.11   0.99977    -1.80
        220   0.98912    -3.46    3.2442   176.77 0.0032414    90.60   0.99985    -1.99
        240   0.98863    -3.76    3.2627   176.40 0.0035517    90.04    0.9999    -2.19
        260   0.98888    -4.07    3.2475   176.11  0.003802    90.37    0.9998    -2.37
        280   0.98843    -4.39    3.2531   175.81  0.004153    89.86   0.99991    -2.56
        300    0.9886    -4.73    3.2499   175.50 0.0044831    89.68   0.99992    -2.75
        320   0.98831    -5.03    3.2361   175.21 0.0047531    89.72   0.99989    -2.93
        340   0.98818    -5.35    3.2434   174.90 0.0051039    89.16   0.99978    -3.12
        360   0.98812    -5.65    3.2337   174.66 0.0054049    89.05   0.99957    -3.31
        380   0.98784    -5.97    3.2374   174.33 0.0057355    88.67   0.99956    -3.50
        400   0.98767    -6.27    3.2477   174.06 0.0060472    88.47   0.99919    -3.68
        420   0.98756    -6.60    3.2626   173.73 0.0063487    88.29    0.9995    -3.85
        440   0.98741    -6.91    3.2536   173.46 0.0067092    88.09   0.99929    -4.05
        460   0.98711    -7.22    3.2616   173.14 0.0070105    87.80   0.99906    -4.23
        480   0.98716    -7.55    3.2584   172.87 0.0073214    87.54   0.99925    -4.43
        500   0.98648    -7.87    3.2369   172.52 0.0076425    87.33   0.99899    -4.62
        550   0.98593    -8.66    3.2492   171.85 0.0084171    86.49   0.99876    -5.08
        600   0.98555    -9.45    3.2686   171.08 0.0092224    85.89   0.99838    -5.54
        650   0.98519   -10.23    3.2507   170.31  0.010009    85.24   0.99798    -6.03
        700   0.98421   -11.00    3.2252   169.56  0.010834    84.62   0.99764    -6.51
        750   0.98399   -11.80    3.2358   168.83  0.011621    83.95   0.99708    -6.99
        800   0.98278   -12.59    3.2656   168.15   0.01244    83.28   0.99686    -7.42
        850    0.9824   -13.38    3.2634   167.37  0.013242    82.65   0.99648    -7.88
        900   0.98173   -14.15    3.2317   166.62  0.014023    81.98   0.99598    -8.35
        950   0.98106   -14.94    3.2347   165.92  0.014785    81.37    0.9955    -8.82
       1000   0.98042   -15.71    3.2585   165.18  0.015602    80.80   0.99509    -9.29
       1050   0.97929   -16.47    3.2521   164.45  0.016386    80.10   0.99446    -9.75
       1100   0.97851   -17.24    3.2336   163.73  0.017172    79.46   0.99386   -10.24
       1150   0.97748   -18.04    3.2415   162.96  0.017946    78.80   0.99319   -10.68
       1200   0.97643   -18.80    3.2483   162.25  0.018728    78.25   0.99265   -11.12
       1250   0.97565   -19.60    3.2403   161.50  0.019542    77.58    0.9921   -11.61
       1300   0.97477   -20.35    3.2245   160.74  0.020304    76.89   0.99152   -12.07
       1350   0.97365   -21.16    3.2341   160.05  0.021033    76.31   0.99049   -12.55
       1400   0.97258   -21.94    3.2426   159.31  0.021831    75.64   0.98987   -13.01
       1450   0.97196   -22.73    3.2344   158.59  0.022595    75.08   0.98939   -13.47
       1500   0.97069   -23.50    3.2272   157.87  0.023346    74.45    0.9886   -13.95
       1550   0.96964   -24.29    3.2356   157.11  0.024086    73.85   0.98811   -14.38
       1600   0.96854   -25.06     3.241   156.44  0.024851    73.27   0.98745   -14.83
       1650   0.96734   -25.87    3.2279   155.68  0.025609    72.68   0.98633   -15.30
       1700   0.96642   -26.62    3.2188   154.94  0.026338    72.11    0.9854   -15.76
       1750   0.96529   -27.39    3.2237   154.22  0.027078    71.50   0.98444   -16.24
       1800   0.96399   -28.21    3.2249   153.49   0.02785    70.93   0.98395   -16.69
       1850   0.96246   -29.02    3.2173   152.70  0.028598    70.27   0.98299   -17.17
       1900   0.96153   -29.82    3.2182   152.01  0.029262    69.80   0.98207   -17.63
       1950   0.95984   -30.57    3.2052   151.29  0.030013    69.26   0.98159   -18.10
       2000   0.95867   -31.34    3.1989   150.58  0.030781    68.77   0.98081   -18.59
       2050   0.95646   -32.10     3.201   149.86   0.03157    68.26   0.97967   -19.04
       2100   0.95524   -32.89    3.2044   149.13  0.032338    67.63   0.97843   -19.52
       2150    0.9544   -33.63     3.203   148.49  0.033109    67.12   0.97704   -19.98
       2200    0.9527   -34.40    3.1971   147.79  0.033804    66.40   0.97586   -20.42
       2250   0.95101   -35.21    3.2011   147.02  0.034544    65.93   0.97491   -20.90
       2300    0.9495   -36.00    3.1984   146.31  0.035373    65.47   0.97393   -21.37
       2350   0.94727   -36.71    3.1737   145.60  0.036227    64.90   0.97214   -21.88
       2400   0.94587   -37.50     3.165   144.89  0.037023    64.14   0.96995   -22.33
       2450    0.9438   -38.24    3.1732   144.20  0.037862    63.41   0.96867   -22.75
       2500    0.9421   -39.00    3.1713   143.49  0.038598    62.53   0.96779   -23.21
       2600   0.93885   -40.50    3.1554   142.11  0.039969    61.15   0.96506   -24.12
       2700   0.93507   -42.10    3.1632   140.72  0.041318    59.73   0.96251   -24.96
       2800   0.93228   -43.60    3.1437   139.29  0.042528    58.26   0.95947   -25.87
       2900   0.92785   -45.15    3.1355   137.88  0.043688    56.85   0.95693   -26.74
       3000   0.92455   -46.66    3.1355   136.49  0.044716    55.68   0.95439   -27.61
       3100   0.92145   -48.16    3.1196   135.11  0.045767    54.60   0.95222   -28.52
       3200   0.91747   -49.64     3.114   133.75  0.046916    53.52   0.94896   -29.38
       3300   0.91345   -51.20     3.102   132.38  0.048066    52.43   0.94631   -30.34
       3400   0.90986   -52.68    3.1015   130.98  0.049183    51.43   0.94339   -31.25
       3500   0.90576   -54.16    3.0914   129.62  0.050347    50.34   0.94014   -32.10
       3600   0.90167   -55.72    3.0865   128.31  0.051403    49.30   0.93643   -32.92
       3700   0.89813   -57.11    3.0579   126.91  0.052425    48.15   0.93358   -33.83
       3800   0.89341   -58.72    3.0724   125.53  0.053535    47.14   0.93099   -34.68
       3900   0.88922   -60.16    3.0628   124.19  0.054575    46.19   0.92763   -35.53
       4000   0.88468   -61.68    3.0667   122.81  0.055723    45.11   0.92454   -36.42
       4100   0.88053   -63.18    3.0415   121.46  0.056676    43.90   0.92058   -37.27
       4200   0.87666   -64.59    3.0351   120.13  0.057663    42.83   0.91759   -38.12
       4300   0.87282   -66.10    3.0269   118.80  0.058556    41.74   0.91468   -39.02
       4400   0.86786   -67.66     3.035   117.37   0.05955    40.74   0.91216   -39.87
       4500   0.86405   -69.13    3.0148   116.08  0.060388    39.70   0.90812   -40.73
       4600   0.85901   -70.61    3.0036   114.72  0.061243    38.63   0.90423   -41.59
       4700   0.85537   -72.06    2.9814   113.41  0.062054    37.54    0.9004   -42.47
       4800   0.84984   -73.62    2.9825   111.98  0.062949    36.43   0.89762   -43.39
       4900   0.84508   -75.08    2.9674   110.63  0.063709    35.37    0.8942   -44.19
       5000   0.83995   -76.54    2.9659   109.39  0.064486    34.40   0.88992   -44.99
       5200    0.8308   -79.48    2.9413   106.61  0.065717    32.26   0.88241   -46.79
       5400   0.82054   -82.45    2.9242   104.05  0.067028    30.17   0.87567   -48.39
       5600   0.81004   -85.41       2.9   101.34  0.068067    28.10   0.86741   -50.20
       5800   0.80005   -88.28     2.876    98.75  0.069076    26.02   0.86053   -51.79
       6000   0.79092   -91.16    2.8474    96.17  0.069778    24.08   0.85255   -53.55
       6200   0.78197   -94.05    2.8212    93.62  0.070531    22.22   0.84543   -55.18
       6400   0.77259   -96.97    2.7988    91.06  0.071247    20.29   0.83733   -56.85
       6600   0.76094   -99.80    2.7734    88.48  0.071473    18.29   0.82914   -58.48
       6800   0.75108  -102.64     2.755    86.02  0.071786    16.67   0.82244   -60.05
       7000   0.74133  -105.45    2.7301    83.39  0.072115    14.88   0.81366   -61.79
       7200   0.73319  -108.28    2.7089    81.02  0.071982    13.38   0.80667   -63.30
       7400   0.72358  -111.12    2.6875    78.47  0.071908    11.65    0.7986   -65.03
       7600   0.71549  -113.93    2.6653    76.07  0.072185    10.28    0.7927   -66.55
       7800   0.70504  -116.78    2.6413    73.60  0.071736     8.71   0.78426   -68.27
       8000   0.69598  -119.36    2.6166    71.35   0.07097     7.35   0.77633   -69.73
       8200   0.68922  -122.23    2.6025    68.88  0.071142     6.56   0.77104   -71.45
       8400   0.68105  -125.03    2.5711    66.50   0.07102     4.84   0.76235   -73.11
       8600   0.67106  -127.71    2.5518    64.21  0.069456     3.42   0.75533   -74.49
       8800   0.66295  -130.68    2.5376    61.59  0.069865     2.75   0.74919   -76.32
       9000   0.65771  -133.10    2.5113    59.42  0.069059     2.20   0.74527   -77.97
       9200    0.6522  -136.16     2.501    56.95  0.069605     1.68   0.73988   -79.82
       9400   0.64032  -139.21    2.4711    54.25  0.069165    -0.59    0.7313   -81.77
       9600   0.63072  -141.72      2.44    52.19  0.067737    -1.50   0.72024   -83.27
       9800   0.62194  -144.31    2.4156    49.92  0.066215    -2.92   0.71371   -84.87
      10000   0.61705  -146.63    2.3894    47.89  0.064994    -3.01    0.7073   -86.35
      10200   0.61318  -149.59    2.3847    45.60  0.064723    -3.13   0.70199   -88.19
      10400   0.61026  -152.56    2.3688    43.02  0.064994    -3.39   0.70024   -90.19
      10600   0.59976  -155.44    2.3444    40.52  0.064613    -5.21   0.68867   -92.21
      10800   0.59276  -158.11    2.3144    38.02  0.063167    -6.39   0.68138   -94.12
      11000   0.58062  -160.38    2.2793    36.28  0.059007    -7.57   0.66887   -95.14
      11200     0.583  -163.08    2.2803    33.95  0.059261    -4.44   0.67267   -97.23
      11400   0.57769  -165.84    2.2508    31.67  0.058912    -4.98   0.66552   -99.14
      11600   0.57426  -168.54     2.239    29.48  0.058663    -4.22   0.65945  -101.27
      11800   0.56941  -171.45    2.2084    27.07  0.057516    -4.75   0.65073  -102.97
      12000   0.56109  -174.16    2.1837    24.99  0.056881    -5.25   0.64034  -105.06
      12200   0.55934  -176.59    2.1652    23.06  0.055685    -2.99   0.63481  -106.31
      12400   0.55249  -179.52    2.1486    20.56  0.056254    -4.17      0.63  -108.58
      12600   0.54374   178.12    2.1148    18.69  0.052641    -3.99   0.61683  -109.82
      12800   0.54511   175.96    2.1051    16.88  0.051692    -0.66    0.6161  -111.29
      13000   0.54467   173.26    2.1083    14.64  0.053858     2.69   0.61817  -113.32
      13200   0.54078   170.93    2.0811    12.67  0.051162     4.24   0.61378  -114.73
      13400   0.54195   168.06    2.0673    10.26  0.055469     5.35   0.61093  -117.70
      13600   0.54097   165.37    2.0632     7.98  0.055274     6.62   0.60579  -119.79
      13800   0.53903   162.87    2.0358     5.56  0.056499     6.84   0.59793  -122.39
      14000   0.53444   159.80    2.0147     3.39  0.056683     7.26   0.58733  -124.67
      14200   0.53495   157.79    1.9876     1.59  0.056431     9.95   0.57982  -126.36
      14400   0.53133   155.43    1.9849    -0.24  0.057981    11.56   0.57361  -128.55
      14600   0.53432   152.52    1.9706    -2.68  0.060842    12.96   0.57013  -130.43
      14800   0.52915   149.79    1.9471    -4.83  0.061946    12.64   0.56163  -133.12
      15000   0.53203   147.27    1.9421    -6.78  0.063438    14.65   0.55982  -134.48
      15200   0.53059   144.90    1.9201    -8.93  0.065543    15.01   0.55719  -137.09
      15400   0.53493   142.38    1.9218   -10.85  0.068515    16.93   0.55569  -138.99
      15600   0.53869   139.92    1.8971   -13.38  0.071087    16.68   0.55334  -141.63
      15800   0.53953   137.34    1.8952   -15.35  0.074215    17.09   0.55375  -144.04
      16000   0.54339   134.46    1.8724   -17.90  0.076697    16.31   0.54942  -146.90
      16200   0.54681   132.02    1.8602   -19.97  0.079558    17.07   0.54676  -149.37
      16400   0.54837   129.05    1.8415   -22.35  0.083032    16.42   0.54182  -151.83
      16600   0.54558   127.05    1.8215   -24.08  0.085103    16.02   0.53873  -154.47
      16800   0.54798   124.74    1.8094   -26.07  0.087953    16.75   0.53378  -156.44
      17000   0.55015   122.21    1.8017   -28.28  0.092331    16.00   0.53555  -159.71
      17200   0.55004   119.95    1.7869   -30.25  0.095226    15.88   0.52813  -162.05
      17400   0.55595   117.01     1.787   -32.86   0.10034    15.28   0.53172  -165.13
      17600   0.55821   114.61    1.7716   -34.89   0.10457    14.59   0.52498  -167.20
      17800    0.5603   112.46    1.7653   -37.19   0.10885    13.62   0.52794  -170.18
      18000   0.56981   109.69    1.7465   -39.80   0.11451    11.82   0.53322  -172.97
      18200   0.56916   106.82    1.7289   -42.26   0.11737     9.94    0.5296  -176.64
      18400   0.57291   104.25     1.701   -44.54   0.12037     9.04   0.52779  -179.64
      18600   0.57279   102.26    1.6732   -46.36   0.12363     8.11   0.52377   176.93
      18800   0.57801    99.61    1.6602   -48.61   0.12837     6.79   0.52361   173.74
      19000   0.57936    97.70    1.6496   -50.25   0.13143     5.97   0.52033   170.88
      19200   0.58551    95.31    1.6425   -52.51   0.13751     5.10   0.51979   168.19
      19400   0.59639    92.59    1.6348   -55.16    0.1441     3.01    0.5226   165.09
      19600   0.60108    89.55    1.6103   -57.90   0.14705     0.66   0.52595   161.76
      19800   0.60943    87.05    1.5889   -59.57   0.15084    -0.65   0.52244   158.32
      20000   0.61043    84.21    1.5751   -61.82    0.1553    -1.96   0.52036   155.68

!  
! Device Noise Parameters
!  Freq-MHz   Fmin-dB  Gopt-mag  Gopt-arg   Rn-Ohm_normalized
	400	0.5713	0.78195	3.97	0.5795
	420	0.5724	0.78143	4.21	0.5794
	440	0.5734	0.78092	4.44	0.5793
	460	0.5745	0.78040	4.67	0.5792
	480	0.5756	0.77989	4.91	0.5791
	500	0.5767	0.77937	5.14	0.5789
	550	0.5794	0.77808	5.72	0.5785
	600	0.5822	0.77679	6.29	0.5781
	650	0.5849	0.77549	6.87	0.5777
	700	0.5877	0.77419	7.44	0.5772
	750	0.5905	0.77289	8.01	0.5767
	800	0.5933	0.77158	8.58	0.5762
	850	0.5962	0.77026	9.14	0.5756
	900	0.5990	0.76894	9.70	0.5750
	950	0.6019	0.76762	10.26	0.5743
	1000	0.6048	0.76628	10.82	0.5737
	1050	0.6077	0.76494	11.38	0.5729
	1100	0.6106	0.76359	11.94	0.5722
	1150	0.6136	0.76224	12.49	0.5714
	1200	0.6165	0.76087	13.04	0.5706
	1250	0.6195	0.75950	13.59	0.5698
	1300	0.6225	0.75811	14.14	0.5689
	1350	0.6256	0.75672	14.69	0.5680
	1400	0.6286	0.75531	15.23	0.5671
	1450	0.6317	0.75390	15.77	0.5661
	1500	0.6347	0.75247	16.32	0.5651
	1550	0.6378	0.75104	16.86	0.5641
	1600	0.6409	0.74959	17.40	0.5630
	1650	0.6441	0.74813	17.94	0.5619
	1700	0.6472	0.74666	18.47	0.5608
	1750	0.6504	0.74518	19.01	0.5597
	1800	0.6536	0.74369	19.55	0.5585
	1850	0.6568	0.74218	20.08	0.5573
	1900	0.6600	0.74066	20.61	0.5561
	1950	0.6633	0.73913	21.15	0.5548
	2000	0.6665	0.73759	21.68	0.5535
	2050	0.6698	0.73604	22.21	0.5522
	2100	0.6731	0.73447	22.74	0.5509
	2150	0.6765	0.73289	23.27	0.5495
	2200	0.6798	0.73130	23.80	0.5481
	2250	0.6832	0.72970	24.33	0.5467
	2300	0.6865	0.72808	24.85	0.5452
	2350	0.6899	0.72645	25.38	0.5438
	2400	0.6933	0.72481	25.91	0.5423
	2450	0.6968	0.72316	26.43	0.5407
	2500	0.7002	0.72150	26.96	0.5392
	2600	0.7072	0.71813	28.01	0.5360
	2700	0.7142	0.71472	29.06	0.5328
	2800	0.7213	0.71127	30.11	0.5294
	2900	0.7285	0.70777	31.16	0.5260
	3000	0.7358	0.70423	32.22	0.5224
	3100	0.7431	0.70065	33.27	0.5188
	3200	0.7505	0.69702	34.32	0.5151
	3300	0.7580	0.69337	35.38	0.5113
	3400	0.7655	0.68967	36.44	0.5074
	3500	0.7731	0.68595	37.50	0.5035
	3600	0.7808	0.68219	38.56	0.4995
	3700	0.7886	0.67841	39.62	0.4954
	3800	0.7965	0.67460	40.69	0.4912
	3900	0.8044	0.67077	41.77	0.4870
	4000	0.8124	0.66692	42.84	0.4827
	4100	0.8205	0.66306	43.92	0.4783
	4200	0.8286	0.65918	45.01	0.4739
	4300	0.8368	0.65529	46.10	0.4694
	4400	0.8451	0.65139	47.19	0.4648
	4500	0.8535	0.64749	48.29	0.4602
	4600	0.8620	0.64359	49.40	0.4556
	4700	0.8705	0.63969	50.51	0.4509
	4800	0.8791	0.63580	51.63	0.4461
	4900	0.8877	0.63191	52.75	0.4413
	5000	0.8965	0.62804	53.88	0.4365
	5200	0.9142	0.62033	56.15	0.4267
	5400	0.9322	0.61271	58.45	0.4167
	5600	0.9505	0.60520	60.78	0.4067
	5800	0.9691	0.59781	63.14	0.3965
	6000	0.9880	0.59058	65.52	0.3862
	6200	1.0072	0.58351	67.92	0.3758
	6400	1.0267	0.57663	70.36	0.3654
	6600	1.0465	0.56996	72.81	0.3550
	6800	1.0666	0.56350	75.30	0.3445
	7000	1.0869	0.55727	77.80	0.3340
	7200	1.1076	0.55127	80.33	0.3235
	7400	1.1286	0.54551	82.87	0.3131
	7600	1.1499	0.53998	85.43	0.3027
	7800	1.1715	0.53469	88.01	0.2924
	8000	1.1933	0.52963	90.60	0.2822
	8200	1.2155	0.52478	93.20	0.2721
	8400	1.2380	0.52014	95.81	0.2621
	8600	1.2607	0.51568	98.43	0.2522
	8800	1.2838	0.51139	101.05	0.2426
	9000	1.3072	0.50724	103.68	0.2331
	9200	1.3308	0.50321	106.30	0.2237
	9400	1.3548	0.49927	108.94	0.2146
	9600	1.3790	0.49538	111.57	0.2058
	9800	1.4036	0.49152	114.20	0.1972
	10000	1.4284	0.48765	116.84	0.1888
	10200	1.4536	0.48374	119.48	0.1808
	10400	1.4790	0.47976	122.13	0.1730
	10600	1.5047	0.47566	124.78	0.1656
	10800	1.5308	0.47142	127.45	0.1585
	11000	1.5571	0.46701	130.13	0.1518
	11200	1.5837	0.46240	132.84	0.1455
	11400	1.6107	0.45755	135.58	0.1395
	11600	1.6379	0.45246	138.35	0.1340
	11800	1.6654	0.44710	141.16	0.1289
	12000	1.6932	0.44147	144.03	0.1242
	12200	1.7214	0.43555	146.97	0.1201
	12400	1.7498	0.42936	149.98	0.1164
	12600	1.7785	0.42291	153.08	0.1132
	12800	1.8075	0.41623	156.29	0.1105
	13000	1.8368	0.40937	159.63	0.1084
	13200	1.8664	0.40239	163.11	0.1068
	13400	1.8963	0.39537	166.75	0.1058
	13600	1.9265	0.38841	170.58	0.1054
	13800	1.9570	0.38166	174.62	0.1057
	14000	1.9878	0.37529	178.88	0.1065