! Filename:  P:\Prog\Test\Noise\ATS_data\Testdata_Net\BFU710\BFU710_2W_A1_1.5V2mA_D.s2p
! Date/Time: Fri 29/Apr/2011 13:25:37
! BFU710_2W_A1_1.5V2mA
! bias mode 1: Vout= 1.5002 V, Iout= 2.0250 mA, Vin= 0.8015 V, Iin= 0.0063 mA
! Date/time Wed Mar 16 12:49:18 2011
! Device data file deembeded for feedlines and parallel
! Original file: \BFU710\BFU710_2W_A1_1.5V2mA_R.s2p
! Feed-files: PR003V01_101208_Feed1.s2p, PR003V01_101208_Feed2.s2p
! Parallel-file: PR003V01_101208_Par.s2p
# MHz S MA R 50
!  Freq-MHz   S11-mag  S11-arg   S21-mag  S21-arg   S12-mag  S12-arg   S22-mag  S22-arg
         40   0.97859    -0.77    6.2772   179.48 0.00060064    90.18   0.99942    -0.38
         50   0.97548    -1.00    6.3007   178.84 0.00090405    56.15   0.99946    -0.53
         60     0.979    -1.01    6.2271   178.63 0.00065077    88.79   0.99973    -0.56
         70   0.97884    -1.26    6.2413   178.84 0.0010106    90.37   0.99981    -0.69
         80    0.9786    -1.45    6.2896   178.63 0.0011505    89.15   0.99996    -0.79
         90   0.97843    -1.67    6.2937   178.28 0.0013222    88.34   0.99987    -0.91
        100   0.97856    -1.85    6.2657   178.22 0.0014727    88.25    0.9997    -1.02
        120   0.97802    -2.25    6.2764   177.89 0.0017616    89.88   0.99987    -1.23
        140    0.9782    -2.62    6.2794   177.56 0.0021118    90.65   0.99999    -1.46
        160   0.97841    -2.98    6.2569   177.17 0.0024217    90.25   0.99977    -1.68
        180   0.97853    -3.39    6.2688   176.92 0.0027115    90.32   0.99992    -1.90
        200   0.97819    -3.77    6.2747   176.45 0.0030324    89.85    0.9999    -2.12
        220   0.97787    -4.16    6.2845   176.12 0.0033619    90.19   0.99982    -2.34
        240   0.97746    -4.53    6.3152   175.70 0.0036823    89.52   0.99986    -2.57
        260   0.97784    -4.91    6.2913   175.30 0.0039827    89.53    0.9997    -2.79
        280   0.97703    -5.31    6.2987   174.95 0.0043038    89.32   0.99976    -3.01
        300   0.97731    -5.70    6.2933   174.59  0.004624    89.30   0.99975    -3.24
        320    0.9769    -6.07    6.2662   174.24 0.0049542    89.06   0.99968    -3.46
        340   0.97665    -6.45    6.2782   173.86 0.0052952    88.57   0.99948    -3.68
        360   0.97653    -6.83    6.2599   173.56 0.0055864    88.50   0.99928    -3.90
        380   0.97621    -7.20    6.2646   173.19 0.0059271    88.19   0.99918    -4.13
        400   0.97622    -7.57    6.2872   172.83 0.0062891    87.83    0.9987    -4.35
        420   0.97548    -7.96     6.312   172.43  0.006591    87.35   0.99889    -4.55
        440   0.97562    -8.35    6.2936   172.10 0.0069316    87.21   0.99871    -4.79
        460   0.97485    -8.73    6.3063   171.72 0.0072433    87.00   0.99833    -5.00
        480   0.97494    -9.13    6.2988   171.38 0.0075745    86.64   0.99858    -5.23
        500   0.97414    -9.51    6.2586   170.99  0.007916    86.29   0.99801    -5.47
        550   0.97341   -10.46    6.2866   170.07 0.0087015    85.44   0.99741    -6.01
        600    0.9723   -11.41    6.3161   169.17 0.0095079    85.05   0.99684    -6.55
        650   0.97126   -12.36    6.2813   168.22  0.010336    84.13    0.9961    -7.12
        700   0.97013   -13.27    6.2302   167.34  0.011162    83.29   0.99531    -7.69
        750   0.96908   -14.25    6.2457   166.45  0.011961    82.51   0.99428    -8.25
        800   0.96766   -15.23    6.2946   165.62  0.012782    81.88   0.99356    -8.76
        850   0.96633   -16.18    6.2823   164.69  0.013606    81.15   0.99287    -9.30
        900   0.96516   -17.09    6.2215   163.80  0.014419    80.38   0.99172    -9.87
        950   0.96362   -18.05     6.221   162.97  0.015194    79.63   0.99059   -10.41
       1000   0.96214   -18.97    6.2565   162.06  0.016003    78.91    0.9896   -10.97
       1050    0.9604   -19.91    6.2401   161.20   0.01679    78.17    0.9886   -11.51
       1100   0.95912   -20.82    6.2013   160.35  0.017569    77.44   0.98718   -12.07
       1150   0.95712   -21.78    6.2125   159.44  0.018356    76.77   0.98578   -12.59
       1200   0.95515   -22.72    6.2148   158.58  0.019142    76.14   0.98474   -13.10
       1250   0.95341   -23.66    6.1921   157.69  0.019959    75.34   0.98355   -13.67
       1300   0.95182   -24.55    6.1586   156.81  0.020714    74.63   0.98211   -14.21
       1350   0.94963   -25.51    6.1721   155.97  0.021458    73.95   0.98022   -14.77
       1400   0.94758   -26.48    6.1781   155.08  0.022209    73.25   0.97878   -15.30
       1450   0.94605   -27.40     6.159   154.24  0.022968    72.54   0.97753   -15.84
       1500   0.94377   -28.32     6.138   153.40  0.023703    71.89   0.97585   -16.39
       1550   0.94166   -29.25    6.1434   152.50  0.024447    71.19   0.97463   -16.88
       1600   0.93944   -30.19    6.1449   151.67  0.025206    70.56   0.97317   -17.39
       1650   0.93696   -31.14    6.1138   150.81  0.025907    69.90   0.97112   -17.94
       1700   0.93508   -32.01    6.0909   149.95    0.0266    69.23   0.96907   -18.47
       1750   0.93282   -32.96    6.0916   149.10  0.027304    68.58   0.96716   -19.01
       1800   0.93033   -33.91    6.0826   148.24  0.028071    67.92     0.966   -19.53
       1850   0.92767   -34.86    6.0609   147.34  0.028762    67.28   0.96392   -20.08
       1900   0.92544   -35.81    6.0584   146.51  0.029431    66.70   0.96206   -20.60
       1950   0.92274   -36.69    6.0278   145.70  0.030144    66.10    0.9607   -21.14
       2000   0.92039   -37.60    6.0084   144.83  0.030867    65.52   0.95891   -21.71
       2050   0.91709   -38.52    6.0001   144.00  0.031589    64.96   0.95682   -22.22
       2100   0.91439   -39.43    5.9923   143.16  0.032298    64.35   0.95439   -22.75
       2150   0.91226   -40.33     5.981   142.41  0.033002    63.74   0.95166   -23.27
       2200   0.90913   -41.25    5.9627   141.59  0.033679    62.99    0.9494   -23.76
       2250   0.90589   -42.17    5.9554   140.71  0.034318    62.46   0.94738   -24.30
       2300   0.90294   -43.10    5.9395   139.87  0.035088    61.93   0.94555   -24.84
       2350   0.89988   -43.95    5.8895   139.09  0.035862    61.30   0.94221   -25.43
       2400   0.89668   -44.87    5.8702   138.29  0.036587    60.54   0.93821   -25.92
       2450   0.89295   -45.79    5.8714   137.47  0.037326    59.84   0.93568   -26.38
       2500   0.88943   -46.62    5.8541   136.68  0.038011    58.89    0.9335   -26.88
       2600   0.88335   -48.39    5.8087   135.14   0.03921    57.47    0.9282   -27.87
       2700   0.87654   -50.19    5.7951   133.53  0.040374    56.09   0.92314   -28.77
       2800   0.87071   -51.91    5.7449   131.95  0.041405    54.56   0.91705   -29.72
       2900   0.86336   -53.70    5.7065   130.38  0.042396    53.17   0.91206   -30.63
       3000    0.8564   -55.40    5.6864   128.83  0.043264    52.00   0.90754   -31.52
       3100   0.85163   -57.04    5.6372   127.35  0.044124    50.90   0.90338   -32.47
       3200   0.84477   -58.71    5.6016   125.83  0.045102    49.84   0.89761   -33.36
       3300   0.83843   -60.49    5.5684   124.31  0.046028    48.71   0.89269   -34.39
       3400   0.83097   -62.15    5.5432   122.75  0.046943    47.76   0.88775   -35.33
       3500   0.82468   -63.79    5.5016   121.30  0.047863    46.71   0.88213   -36.19
       3600   0.81757   -65.55    5.4724   119.83  0.048723    45.69   0.87636   -37.03
       3700   0.81165   -67.09     5.413   118.35  0.049523    44.56   0.87116   -37.96
       3800   0.80386   -68.87    5.4033   116.82   0.05042    43.60    0.8665   -38.84
       3900   0.79728   -70.50    5.3674   115.35  0.051194    42.69   0.86118   -39.68
       4000   0.78942   -72.19    5.3413   113.87  0.052062    41.65    0.8558   -40.59
       4100   0.78285   -73.79    5.2865   112.45  0.052744    40.54   0.84934   -41.42
       4200   0.77634   -75.36    5.2533   111.03  0.053504    39.53   0.84452   -42.28
       4300   0.77032   -76.97    5.2192   109.60   0.05414    38.59    0.8397   -43.15
       4400   0.76269   -78.71    5.2012   108.07  0.054902    37.63   0.83522   -43.99
       4500   0.75659   -80.23    5.1503   106.74  0.055471    36.69   0.82935   -44.82
       4600   0.74915   -81.84    5.1088   105.32   0.05606    35.74   0.82336   -45.66
       4700   0.74362   -83.39    5.0624   103.95  0.056577    34.78   0.81776   -46.52
       4800   0.73519   -85.07     5.037   102.44  0.057227    33.83   0.81322   -47.42
       4900   0.72845   -86.64    4.9934   101.09  0.057742    32.86   0.80804   -48.16
       5000   0.72116   -88.22    4.9632    99.78  0.058249    32.06   0.80185   -48.90
       5200   0.70739   -91.34    4.8887    96.91  0.059015    30.20   0.79148   -50.62
       5400   0.69352   -94.42    4.8131    94.35  0.059809    28.48   0.78149   -52.07
       5600   0.67964   -97.48    4.7371    91.61  0.060381    26.80   0.77026   -53.78
       5800   0.66607  -100.51     4.663    89.02  0.060963    25.14   0.76099   -55.21
       6000   0.65452  -103.46    4.5859    86.46  0.061272    23.67    0.7506   -56.83
       6200   0.64303  -106.45     4.516    83.92  0.061688    22.27   0.74153   -58.30
       6400   0.63141  -109.41    4.4453    81.43  0.062037    20.84   0.73112   -59.79
       6600   0.61728  -112.31    4.3744    78.90  0.061979    19.39   0.72124   -61.22
       6800   0.60642  -115.14    4.3105    76.58  0.062133    18.34   0.71348   -62.59
       7000   0.59466  -117.97    4.2441    74.03  0.062212    17.13   0.70293   -64.18
       7200   0.58571  -120.72    4.1825    71.80  0.062079    16.26   0.69524   -65.47
       7400   0.57525  -123.66    4.1227    69.33   0.06191    15.17   0.68597   -66.94
       7600   0.56645  -126.47    4.0658    67.05  0.062198    14.33   0.67967   -68.33
       7800   0.55615  -129.33    4.0023    64.71  0.061759    13.44   0.66999   -69.80
       8000   0.54563  -131.81    3.9449    62.63  0.061356    12.91   0.66278   -71.00
       8200   0.53957  -134.65    3.9002    60.27  0.061682    12.59   0.65709   -72.64
       8400   0.53097  -137.50    3.8388    58.03  0.061722    11.61   0.64774   -74.04
       8600   0.52161  -140.14    3.7868    55.91  0.060636    11.00   0.64126   -75.15
       8800   0.51402  -143.08    3.7421    53.41  0.061228    10.81   0.63463   -76.92
       9000   0.50846  -145.40    3.6917    51.43  0.061141    10.97   0.63147   -78.39
       9200   0.50449  -148.54    3.6552    49.05  0.061915    10.79   0.62553   -80.18
       9400   0.49265  -151.65    3.5937    46.54  0.061707     9.31   0.61618   -81.94
       9600   0.48439  -154.05    3.5298    44.72  0.061075     9.34   0.60545   -83.11
       9800    0.4755  -156.62    3.4859    42.63  0.060324     8.79   0.59941   -84.46
      10000   0.47217  -158.64     3.438    40.82  0.060213     9.18   0.59358   -85.74
      10200   0.46955  -161.62    3.4183    38.60  0.060701     9.40   0.58856   -87.52
      10400   0.46757  -164.65    3.3845    36.17  0.061723     9.32   0.58717   -89.45
      10600   0.45831  -167.44      3.33    33.87  0.061713     8.25   0.57431   -91.33
      10800   0.45265  -170.11     3.278    31.60  0.061316     7.68   0.56801   -92.99
      11000   0.44118  -171.93    3.2178    30.08  0.058419     7.72   0.55587   -93.65
      11200   0.44733  -174.66    3.2123    27.89  0.060467    10.34   0.56042   -95.68
      11400   0.44282  -177.45    3.1611    25.76  0.061033     9.98    0.5539   -97.38
      11600   0.44057   179.75    3.1344    23.74  0.062086    10.52   0.54904   -99.46
      11800   0.43708   176.97     3.087    21.54  0.062012    10.16   0.54058  -100.96
      12000   0.42982   174.33    3.0383    19.65  0.062218     9.75    0.5307  -103.05
      12200    0.4306   172.18    3.0114    17.88   0.06266    11.50   0.52525  -104.15
      12400   0.42566   169.13    2.9755    15.65  0.064142    10.33   0.51882  -106.15
      12600   0.41836   166.81    2.9305    14.06  0.062333    10.53   0.50748  -106.88
      12800   0.42183   164.88    2.9146    12.38  0.063129    12.47   0.50857  -108.02
      13000   0.42257   162.33    2.9133    10.20  0.066124    13.79   0.51298  -110.18
      13200   0.41927   160.30    2.8755     8.38  0.064719    14.39   0.51034  -111.33
      13400   0.42385   157.45    2.8443     6.12  0.069296    14.36   0.50626  -114.65
      13600   0.42408   154.82    2.8356     4.02  0.069976    14.63   0.50073  -116.56
      13800   0.42381   152.30    2.7885     1.75  0.071881    14.21   0.49269  -119.09
      14000   0.42163   149.20    2.7558    -0.13   0.07289    13.80   0.48196  -121.24
      14200    0.4229   147.48    2.7226    -1.77  0.073599    14.74   0.47592  -122.50
      14400   0.41966   145.05    2.7144    -3.48  0.075635    14.96   0.47087  -124.63
      14600   0.42513   142.28    2.6963    -5.76  0.078707    15.04   0.46845  -126.34
      14800    0.4203   139.53    2.6611    -7.75  0.080212    13.95   0.46034  -129.03
      15000   0.42391   137.36    2.6572    -9.60  0.081557    14.39    0.4607  -130.14
      15200   0.42438   135.20    2.6216   -11.69  0.083572    14.02   0.45804  -132.91
      15400   0.43148   132.89    2.6237   -13.45  0.086147    14.72    0.4573  -134.68
      15600   0.43589   130.73    2.5882   -15.87  0.088651    13.97   0.45489  -137.28
      15800   0.43865   128.18    2.5811   -17.70  0.091286    13.76   0.45582  -139.85
      16000   0.44473   125.39    2.5479   -20.08  0.093959    12.72   0.45009  -142.67
      16200   0.45024   123.12    2.5301   -21.95  0.096523    12.73   0.44688  -144.97
      16400   0.45392   120.15    2.5068   -24.23  0.099665    11.81   0.44347  -147.31
      16600   0.45131   118.28    2.4758   -25.79   0.10177    10.82   0.43993  -149.91
      16800   0.45367   116.26     2.464   -27.61   0.10374    10.83   0.43574  -151.57
      17000   0.45776   113.80    2.4533   -29.76   0.10759     9.97   0.43799  -155.09
      17200   0.45866   111.67    2.4328   -31.56   0.11003     9.51   0.42963  -157.21
      17400   0.46624   108.77    2.4362   -34.16   0.11447     8.81   0.43386  -160.28
      17600   0.46814   106.63    2.4147   -36.15   0.11805     7.96   0.42847  -162.13
      17800   0.47169   104.79    2.4061   -38.29   0.12154     6.87   0.43085  -165.20
      18000   0.48394   102.22    2.3819   -40.93   0.12658     5.31   0.43779  -167.91
      18200   0.48427    99.23     2.354   -43.31   0.12916     3.43   0.43555  -171.80
      18400   0.48958    96.95    2.3165   -45.42   0.13151     2.47   0.43355  -174.95
      18600   0.49051    94.96    2.2787   -46.99   0.13443     1.43   0.42865  -178.37
      18800   0.49649    92.56    2.2638   -49.22   0.13829     0.17    0.4291   178.19
      19000   0.49812    90.83     2.254   -50.67   0.14071    -0.81   0.42511   175.49
      19200   0.50591    88.64    2.2497   -52.95    0.1457    -1.61   0.42535   173.04
      19400   0.52008    85.98    2.2401   -55.58   0.15172    -3.27    0.4302   169.95
      19600   0.52518    82.79    2.2104   -58.25   0.15453    -5.54   0.43448   166.51
      19800   0.53434    80.49    2.1812   -59.92   0.15784    -6.78   0.43227   162.80
      20000   0.53505    77.62    2.1643   -62.07   0.16183    -8.11   0.43017   160.32