! Filename:  P:\Prog\Test\Noise\ATS_data\Testdata_Net\BFU710\BFU710_2W_A1_1V7.5mA_D.s2p
! Date/Time: Fri 29/Apr/2011 13:26:14
! BFU710_2W_A1_1V7.5mA
! bias mode 1: Vout= 1.0001 V, Iout= 7.4850 mA, Vin= 0.8394 V, Iin= 0.0270 mA
! Date/time Wed Mar 16 13:16:08 2011
! Device data file deembeded for feedlines and parallel
! Original file: \BFU710\BFU710_2W_A1_1V7.5mA_R.s2p
! Feed-files: PR003V01_101208_Feed1.s2p, PR003V01_101208_Feed2.s2p
! Parallel-file: PR003V01_101208_Par.s2p
# MHz S MA R 50
!  Freq-MHz   S11-mag  S11-arg   S21-mag  S21-arg   S12-mag  S12-arg   S22-mag  S22-arg
         40   0.92163    -1.42    18.597   179.02 0.00065274    88.30   0.99595    -0.16
         50   0.92455    -2.11    18.662   178.22 0.0011175    64.77    0.9967    -0.48
         60   0.91902    -2.12    18.398   178.01 0.00079325    82.12   0.99773    -0.62
         70   0.92153    -2.43    18.451   178.04 0.0011021    89.34   0.99809    -0.87
         80   0.92137    -2.79     18.63   177.67 0.0012816    88.95   0.99843    -1.08
         90    0.9212    -3.14    18.645   177.14 0.0014431    87.07   0.99834    -1.31
        100   0.92054    -3.44     18.56   176.91 0.0016142    87.13   0.99826    -1.51
        120    0.9207    -4.25      18.6   176.25 0.0019229    88.24   0.99845    -1.91
        140    0.9202    -4.91    18.607   175.61 0.0022728    89.10   0.99857    -2.33
        160   0.91975    -5.65    18.524   174.86 0.0025738    88.33   0.99819    -2.71
        180   0.91997    -6.33    18.572   174.32 0.0029337    88.36   0.99811    -3.09
        200   0.91927    -7.06    18.581   173.54 0.0032552    87.97   0.99774    -3.47
        220   0.91817    -7.77    18.602   172.92 0.0036045    87.97    0.9973    -3.87
        240   0.91703    -8.46    18.671   172.20 0.0039254    87.24   0.99688    -4.25
        260   0.91642    -9.18    18.582   171.51 0.0042265    86.82   0.99639    -4.63
        280   0.91573    -9.91    18.582   170.85 0.0046181    86.73   0.99605    -5.01
        300   0.91533   -10.65    18.554   170.17 0.0049387    86.38    0.9954    -5.40
        320   0.91301   -11.42    18.429   169.46 0.0052798    85.87   0.99471    -5.77
        340   0.91234   -12.05    18.476   168.82 0.0056317    85.71   0.99383    -6.15
        360   0.91172   -12.78    18.394   168.21 0.0059541    85.32   0.99284    -6.51
        380   0.91002   -13.54    18.384   167.52 0.0063155    84.78   0.99201    -6.90
        400   0.90861   -14.14     18.44   166.95 0.0066787    84.35   0.99078    -7.27
        420   0.90726   -14.80    18.486   166.30 0.0069822    83.76   0.99012    -7.61
        440   0.90573   -15.51    18.402   165.66  0.007324    83.37   0.98919    -8.01
        460   0.90449   -16.20    18.409   165.03 0.0076573    83.07   0.98791    -8.36
        480   0.90314   -16.85    18.369   164.43 0.0079997    82.53    0.9873    -8.75
        500   0.90057   -17.69    18.221   163.64 0.0083336    82.03   0.98558    -9.14
        550   0.89692   -19.30    18.246   162.09 0.0091231    80.93   0.98148   -10.01
        600   0.89264   -20.91    18.258   160.62  0.009954    79.84   0.97814   -10.89
        650   0.88775   -22.59    18.066   159.04  0.010748    78.77   0.97427   -11.80
        700   0.88196   -24.40    17.835   157.43   0.01156    77.67   0.96998   -12.72
        750   0.87719   -26.00    17.794   156.01  0.012306    76.52   0.96507   -13.56
        800   0.87228   -27.55    17.814   154.65  0.013113    75.60   0.96105   -14.35
        850   0.86639   -29.23    17.666   153.13  0.013864    74.50   0.95678   -15.19
        900   0.85984   -30.89    17.432   151.61  0.014614    73.62   0.95124   -16.06
        950   0.85447   -32.44    17.355   150.30  0.015338    72.61   0.94564   -16.84
       1000   0.84812   -33.91    17.305   148.90  0.016054    71.62   0.94071   -17.62
       1050   0.84056   -35.55     17.14   147.47  0.016739    70.64   0.93545   -18.40
       1100   0.83463   -37.07    16.961   146.12  0.017447    69.73   0.92939   -19.20
       1150   0.82745   -38.60    16.892   144.74  0.018101    68.84   0.92329   -19.92
       1200   0.82064   -40.04    16.769   143.49  0.018754    67.94   0.91797   -20.62
       1250   0.81317   -41.63    16.581   142.08  0.019417    67.09    0.9125   -21.41
       1300   0.80627   -43.10    16.417   140.76  0.020029    66.20   0.90623   -22.14
       1350   0.79938   -44.53    16.334   139.50  0.020651    65.40   0.89984   -22.82
       1400   0.79201   -45.97     16.22   138.24  0.021225    64.57    0.8938   -23.50
       1450   0.78459   -47.43    16.064   136.97  0.021799    63.73   0.88789   -24.17
       1500   0.77737   -48.87    15.912   135.72  0.022367    62.96   0.88158   -24.84
       1550   0.77006   -50.26    15.774   134.45  0.022904    62.20   0.87584   -25.43
       1600   0.76289   -51.56    15.645   133.30  0.023453    61.54   0.87031   -26.04
       1650   0.75543   -52.94    15.481   132.10  0.023982    60.79    0.8638   -26.69
       1700   0.74812   -54.31    15.332   130.87  0.024456    60.15   0.85731   -27.29
       1750   0.74102   -55.62    15.197   129.70  0.024946    59.46   0.85133   -27.90
       1800   0.73306   -57.06     15.04   128.50  0.025462    58.75   0.84578   -28.51
       1850   0.72536   -58.44    14.886   127.33  0.025933    58.08   0.83946   -29.09
       1900   0.71798   -59.72    14.761   126.19  0.026376    57.48   0.83382   -29.66
       1950   0.71087   -60.99    14.592   125.07   0.02679    56.92   0.82829   -30.24
       2000   0.70321   -62.25    14.426   123.95  0.027241    56.36   0.82241   -30.87
       2050    0.6958   -63.45    14.281   122.91  0.027724    55.81   0.81591   -31.42
       2100   0.68917   -64.65    14.137   121.86  0.028144    55.24   0.80967   -31.93
       2150   0.68291   -65.87    14.002   120.87  0.028581    54.77   0.80299   -32.47
       2200   0.67522   -67.07    13.857   119.84  0.028958    54.13   0.79714   -32.90
       2250    0.6675   -68.31    13.714   118.76  0.029337    53.63   0.79192   -33.45
       2300    0.6605   -69.54    13.555   117.75  0.029769    53.11   0.78618   -34.03
       2350   0.65358   -70.80    13.374   116.80  0.030238    52.69   0.77852   -34.62
       2400   0.64638   -72.05    13.239   115.84  0.030628    52.12   0.77068   -35.01
       2450   0.63816   -73.14    13.104   114.95  0.031024    51.59   0.76441   -35.38
       2500   0.63065   -74.21    12.967   114.03  0.031428    50.91   0.75878   -35.78
       2600   0.61768   -76.40    12.693   112.25  0.032059    49.86   0.74715   -36.58
       2700   0.60385   -78.56    12.435   110.47  0.032666    48.82   0.73629   -37.25
       2800   0.59217   -80.67    12.187   108.77  0.033204    47.87   0.72536   -37.89
       2900   0.57914   -82.76    11.933   107.11   0.03368    47.03   0.71602   -38.45
       3000   0.56718   -84.58    11.716   105.52   0.03417    46.31   0.70853   -39.05
       3100   0.55779   -86.57    11.488   103.87   0.03459    45.67   0.70121   -39.75
       3200   0.54714   -88.48    11.264   102.32  0.035046    45.08   0.69249   -40.39
       3300   0.53679   -90.50    11.058   100.76  0.035541    44.50    0.6843   -41.14
       3400   0.52594   -92.35    10.855    99.20  0.036036    44.03   0.67695   -41.83
       3500   0.51676   -94.18    10.659    97.74  0.036515    43.50   0.66907   -42.39
       3600    0.5068   -96.15    10.459    96.25   0.03695    43.04   0.66147   -42.95
       3700   0.49826   -97.95    10.267    94.79  0.037412    42.55   0.65427   -43.54
       3800   0.48856   -99.85    10.095    93.33  0.037842    42.11   0.64776   -44.14
       3900   0.48037  -101.50    9.9115    91.94  0.038298    41.76   0.64139   -44.72
       4000    0.4714  -103.41    9.7369    90.54  0.038775    41.32   0.63437   -45.32
       4100   0.46306  -105.14    9.5574    89.19  0.039177    40.89   0.62727   -45.78
       4200   0.45502  -106.85    9.3967    87.87   0.03961    40.48   0.62154   -46.32
       4300   0.44761  -108.48    9.2388    86.56      0.04    40.15   0.61631   -46.88
       4400   0.44011  -110.27    9.0868    85.21  0.040478    39.73   0.61144   -47.41
       4500   0.43375  -111.88    8.9285    83.97  0.040853    39.44   0.60573   -47.96
       4600   0.42616  -113.61    8.7804    82.73   0.04124    39.07   0.59985   -48.50
       4700   0.42046  -115.24    8.6397    81.49  0.041612    38.77   0.59432   -49.01
       4800   0.41253  -117.05    8.4961    80.19  0.042027    38.38   0.58941   -49.63
       4900   0.40632  -118.71    8.3641    78.98  0.042381    38.13   0.58447   -50.05
       5000   0.39991  -120.26     8.231    77.83  0.042798    37.85   0.57912   -50.50
       5200   0.38785  -123.46    7.9701    75.37    0.0435    37.25   0.57005   -51.62
       5400   0.37658  -126.66    7.7347    73.19  0.044224    36.76   0.56186   -52.47
       5600   0.36586  -129.77    7.5081    70.89  0.044886    36.33   0.55271   -53.62
       5800    0.3557  -132.89    7.2904    68.70   0.04563    35.91   0.54564   -54.48
       6000   0.34796  -135.80    7.0916    66.55  0.046301    35.58   0.53806   -55.58
       6200   0.34081  -138.70    6.9027    64.45  0.047099    35.29   0.53149   -56.57
       6400   0.33347  -141.78    6.7216    62.37  0.047878    34.94    0.5237   -57.56
       6600   0.32424  -144.78    6.5423    60.33  0.048505    34.70   0.51743   -58.38
       6800   0.31858  -147.55    6.3877    58.42  0.049359    34.45   0.51306   -59.43
       7000   0.31183  -150.37    6.2295    56.37  0.050204    34.28   0.50516   -60.57
       7200   0.30844  -152.82    6.0877    54.55   0.05103    34.11    0.5008   -61.46
       7400   0.30367  -156.21    5.9526    52.46  0.051861    33.88   0.49561   -62.40
       7600   0.29985  -158.76    5.8253    50.60  0.052959    33.54   0.49155   -63.63
       7800   0.29571  -161.87    5.6933    48.64  0.053608    33.44   0.48496   -64.62
       8000   0.28986  -164.29    5.5804    47.05  0.054719    33.40   0.48301   -65.48
       8200   0.28893  -166.92    5.4786    45.00   0.05588    33.17   0.47875   -67.04
       8400   0.28608  -170.12     5.367    43.16  0.057167    32.70   0.47316   -67.99
       8600   0.28194  -172.61    5.2605    41.43  0.057494    32.58   0.47037   -68.75
       8800   0.27968  -175.63    5.1636    39.27  0.059079    32.32   0.46549   -70.52
       9000   0.27891  -177.70     5.076    37.68  0.060521    32.35   0.46489   -71.89
       9200   0.27988   178.99     4.996    35.55  0.062112    31.91   0.46009   -73.70
       9400    0.2752   175.66    4.8828    33.52  0.062951    30.97   0.45214   -75.11
       9600   0.27251   173.30    4.7766    32.14  0.064082    31.00    0.4453   -75.94
       9800    0.2682   170.58    4.7046    30.45  0.065016    30.49   0.44228   -76.96
      10000   0.26903   169.31    4.6284    28.93  0.066491    30.36   0.43846   -78.06
      10200     0.271   166.34    4.5851    26.97  0.068024    29.84   0.43516   -79.89
      10400   0.27408   163.50    4.5207    24.77  0.070049    29.19   0.43396   -81.85
      10600   0.27018   160.53    4.4241    22.88  0.071051    28.13   0.42199   -83.48
      10800   0.26941   157.73     4.345    20.99  0.072151    27.30   0.41786   -84.82
      11000    0.2611   156.37    4.2532    19.82  0.071159    27.31   0.40887   -85.03
      11200   0.27297   154.44    4.2403    17.92  0.074784    27.95   0.41402   -87.10
      11400   0.27348   151.53    4.1583    16.03  0.076424    26.96    0.4096   -88.62
      11600   0.27568   148.75    4.1143    14.33  0.078586    26.34   0.40668   -90.88
      11800    0.2768   146.27    4.0448    12.44  0.079735    25.40   0.39965   -92.07
      12000   0.27371   143.68    3.9635    10.85  0.080662    24.40   0.39057   -94.37
      12200   0.27757   142.35     3.927     9.33  0.082346    24.82   0.38553   -95.20
      12400   0.27939   139.19    3.8686     7.47  0.084887    23.24   0.37884   -96.79
      12600   0.27692   136.72    3.8158     6.28  0.084665    22.47   0.37178   -96.69
      12800   0.28229   135.61    3.7923     4.74  0.086598    22.65   0.37559   -97.66
      13000   0.28556   133.20     3.783     2.69  0.089699    22.21   0.38114  -100.41
      13200   0.28362   131.60     3.734     1.10  0.089291    21.64   0.38158  -101.40
      13400   0.29245   129.51    3.6786    -0.93  0.093606    20.90   0.37355  -105.40
      13600   0.29767   127.23    3.6616    -2.77  0.094868    20.19   0.36862  -107.05
      13800   0.30016   125.00    3.5946    -4.80   0.09733    19.17   0.35981  -109.49
      14000   0.30525   121.73    3.5476    -6.29  0.098947    18.11   0.34974  -111.48
      14200   0.30646   120.51    3.5132    -7.74   0.10051    17.69   0.34578  -112.17
      14400   0.30603   117.94    3.4976    -9.24   0.10279    16.93   0.34232  -114.32
      14600   0.31401   115.83    3.4747   -11.30   0.10594    16.05   0.34065  -115.98
      14800   0.31305   112.85    3.4259   -13.09   0.10776    14.44   0.33252  -118.66
      15000   0.31724   111.53     3.424   -14.79   0.10884    13.68   0.33532  -119.75
      15200   0.31899   109.84    3.3719   -16.75   0.11068    12.72   0.33177  -122.85
      15400   0.32897   108.45    3.3736   -18.28   0.11288    12.49   0.33132  -124.60
      15600    0.3343   106.91     3.327   -20.56   0.11543    11.27   0.32862  -127.27
      15800   0.34058   104.89    3.3106   -22.19   0.11736    10.51   0.32868  -130.37
      16000   0.35101   102.56    3.2655   -24.32    0.1203     9.33   0.32048  -133.21
      16200   0.35826   100.80    3.2446   -25.95   0.12279     8.67   0.31712  -135.22
      16400   0.36559    97.98    3.2174   -28.10   0.12566     7.45    0.3149  -137.58
      16600   0.36379    96.28    3.1731   -29.41   0.12799     6.00   0.31088  -140.24
      16800   0.36776    94.65    3.1638   -31.04   0.12935     5.30   0.30725  -141.69
      17000   0.37362    92.46     3.148   -33.07   0.13257     4.20   0.30809  -145.73
      17200   0.37666    90.62    3.1229   -34.65   0.13487     3.35   0.29917  -147.61
      17400   0.38643    87.95    3.1281   -37.16   0.13859     2.37   0.30283  -150.80
      17600   0.38828    86.26    3.0993   -39.08   0.14164     1.16   0.29934  -152.53
      17800   0.39231    85.02    3.0856   -40.97    0.1443    -0.12   0.29978  -155.98
      18000   0.40663    83.14     3.057   -43.59    0.1488    -1.59   0.30802  -158.71
      18200   0.40965    80.17    3.0154   -45.81   0.15089    -3.57   0.30733  -163.36
      18400   0.41707    78.58    2.9657   -47.69   0.15267    -4.64     0.304  -167.02
      18600   0.42052    76.77    2.9199   -48.89   0.15539    -5.85   0.29801  -170.93
      18800   0.42696    74.76    2.9021   -51.03    0.1584    -7.18   0.29749  -174.84
      19000   0.42982    73.19    2.8967   -52.23   0.16043    -8.44   0.29265  -177.53
      19200   0.43854    71.46    2.8968   -54.43   0.16437    -9.40   0.29286  -179.63
      19400   0.45576    69.25    2.8854   -56.99   0.16947   -10.80   0.29969   176.98
      19600   0.46254    66.02    2.8531   -59.50   0.17225   -13.00    0.3042   173.16
      19800   0.47163    64.07     2.816   -61.14   0.17506   -14.28   0.30391   168.79
      20000   0.47417    61.24    2.7942   -63.14   0.17876   -15.73   0.30128   166.26