! Filename:  P:\Prog\Test\Noise\ATS_data\Testdata_Net\BFU710\BFU710_2W_A1_2.5V1mA_D.s2p
! Date/Time: Fri 29/Apr/2011 13:26:21
! BFU710_2W_A1_2.5V1mA
! bias mode 1: Vout= 2.5000 V, Iout= 1.0280 mA, Vin= 0.7817 V, Iin= 0.0028 mA
! Date/time Wed Mar 16 12:33:11 2011
! Device data file deembeded for feedlines and parallel
! Original file: \BFU710\BFU710_2W_A1_2.5V1mA_R.s2p
! Feed-files: PR003V01_101208_Feed1.s2p, PR003V01_101208_Feed2.s2p
! Parallel-file: PR003V01_101208_Par.s2p
# MHz S MA R 50
!  Freq-MHz   S11-mag  S11-arg   S21-mag  S21-arg   S12-mag  S12-arg   S22-mag  S22-arg
         40   0.98963    -0.66    3.2933   179.50 0.00052808    76.79   0.99956    -0.36
         50   0.98555    -0.94    3.3069   178.91 0.00099431    56.40    0.9996    -0.47
         60   0.98976    -0.80    3.2652   178.72 0.00062237    76.52   0.99967    -0.50
         70   0.98993    -1.06    3.2736   178.96 0.00093046    85.63   0.99971    -0.60
         80   0.98959    -1.21    3.3016   178.77 0.0011005    85.79   0.99982    -0.69
         90   0.98948    -1.39    3.3066   178.45 0.0012525    85.60   0.99968    -0.79
        100   0.98984    -1.54    3.2889   178.43  0.001393    86.35   0.99953    -0.87
        120   0.98932    -1.88    3.2889   178.23 0.0016519    87.43   0.99977    -1.05
        140   0.98944    -2.18    3.2934   177.96 0.0019713    89.13   0.99979    -1.24
        160   0.98967    -2.49    3.2844   177.57 0.0022317    88.64   0.99959    -1.43
        180   0.98999    -2.82    3.2915   177.39 0.0025511    89.11   0.99977    -1.61
        200   0.98928    -3.15    3.2946   177.00 0.0028417    89.01   0.99966    -1.79
        220   0.98909    -3.47    3.2984   176.75 0.0031513    89.38   0.99967    -1.99
        240   0.98909    -3.78    3.3178   176.38 0.0034317    88.91   0.99976    -2.18
        260   0.98896    -4.09    3.3009   176.09 0.0037419    89.54   0.99967    -2.36
        280   0.98893    -4.42    3.3066   175.79 0.0040528    89.19   0.99975    -2.55
        300    0.9886    -4.75    3.3041   175.49  0.004353    89.57   0.99976    -2.73
        320    0.9883    -5.05     3.289   175.19  0.004643    88.74   0.99979    -2.92
        340   0.98831    -5.36    3.2964   174.88 0.0049437    88.48   0.99957    -3.11
        360   0.98828    -5.67    3.2862   174.63 0.0052348    88.41   0.99945    -3.29
        380   0.98813    -5.99    3.2902   174.31 0.0055653    88.40   0.99939    -3.49
        400   0.98815    -6.28    3.3018   174.04 0.0058971    88.07   0.99905    -3.67
        420    0.9878    -6.61    3.3179   173.70 0.0061786    87.95   0.99926    -3.84
        440   0.98768    -6.94    3.3078   173.43 0.0064989    87.76   0.99918    -4.04
        460   0.98718    -7.26    3.3163   173.12 0.0068002    87.36   0.99892    -4.21
        480   0.98709    -7.57    3.3141   172.85 0.0071211    87.18   0.99916    -4.41
        500   0.98657    -7.91    3.2905   172.50 0.0074322    86.99   0.99881    -4.61
        550    0.9864    -8.69    3.3038   171.81 0.0081866    86.33   0.99862    -5.06
        600   0.98541    -9.47    3.3246   171.05 0.0089418    85.76   0.99835    -5.52
        650   0.98522   -10.26    3.3057   170.27  0.009738    85.03   0.99787    -6.00
        700   0.98436   -11.04    3.2787   169.53  0.010533    84.36   0.99747    -6.48
        750   0.98399   -11.84    3.2897   168.79   0.01128    83.70   0.99694    -6.96
        800   0.98298   -12.65    3.3216   168.11  0.012089    83.14   0.99672    -7.39
        850   0.98271   -13.43    3.3193   167.32   0.01285    82.43   0.99634    -7.84
        900   0.98201   -14.20    3.2856   166.57  0.013621    81.86   0.99578    -8.32
        950   0.98116   -15.01    3.2895   165.87  0.014383    81.21   0.99527    -8.78
       1000   0.98045   -15.77    3.3143   165.12  0.015159    80.65   0.99479    -9.25
       1050   0.97912   -16.52    3.3077   164.39  0.015933    79.92   0.99438    -9.72
       1100   0.97858   -17.30    3.2882   163.67  0.016678    79.32    0.9937   -10.20
       1150   0.97759   -18.12    3.2966   162.91  0.017433    78.67   0.99303   -10.64
       1200   0.97628   -18.87    3.3035   162.18  0.018193    78.19   0.99248   -11.07
       1250   0.97561   -19.66    3.2948   161.43  0.018987    77.51   0.99191   -11.56
       1300   0.97481   -20.43    3.2784   160.66  0.019728    76.84   0.99137   -12.01
       1350   0.97366   -21.24    3.2885   159.98  0.020437    76.23   0.99026   -12.50
       1400   0.97271   -22.03    3.2985   159.22  0.021204    75.59   0.98959   -12.96
       1450   0.97163   -22.81    3.2892   158.52  0.021947    75.00   0.98914   -13.42
       1500   0.97054   -23.59    3.2817   157.79  0.022688    74.34   0.98831   -13.89
       1550   0.96968   -24.38    3.2909   157.03  0.023427    73.79   0.98798   -14.32
       1600   0.96824   -25.15    3.2966   156.35  0.024161    73.25   0.98732   -14.77
       1650   0.96691   -25.97     3.283   155.59  0.024867    72.64   0.98619   -15.23
       1700   0.96621   -26.70     3.273   154.85  0.025565    72.05   0.98513   -15.69
       1750   0.96501   -27.51     3.278   154.13  0.026294    71.46   0.98411   -16.17
       1800   0.96377   -28.33    3.2793   153.39  0.027055    70.87   0.98374   -16.62
       1850   0.96227   -29.11     3.272   152.61  0.027762    70.25   0.98271   -17.10
       1900   0.96105   -29.91    3.2717   151.91  0.028446    69.73   0.98177   -17.56
       1950   0.95957   -30.67    3.2591   151.19  0.029164    69.21    0.9813   -18.03
       2000   0.95827   -31.44    3.2528   150.47  0.029912    68.71   0.98056   -18.51
       2050   0.95642   -32.22    3.2562   149.74  0.030648    68.20   0.97956   -18.96
       2100   0.95523   -32.99    3.2601   149.02  0.031425    67.64   0.97823   -19.43
       2150   0.95407   -33.75    3.2588   148.37  0.032175    67.13   0.97677   -19.89
       2200   0.95238   -34.53    3.2522   147.67  0.032848    66.41   0.97563   -20.32
       2250   0.95016   -35.32    3.2555   146.90  0.033546    65.90   0.97448   -20.81
       2300   0.94881   -36.11    3.2528   146.19  0.034343    65.43   0.97366   -21.28
       2350   0.94683   -36.86    3.2264   145.48  0.035186    64.87   0.97177   -21.79
       2400   0.94528   -37.63    3.2174   144.77   0.03597    64.10   0.96948   -22.23
       2450   0.94323   -38.38    3.2265   144.07  0.036776    63.45   0.96834   -22.65
       2500   0.94127   -39.12    3.2245   143.37  0.037511    62.48   0.96744   -23.11
       2600   0.93812   -40.64    3.2087   141.98  0.038828    61.12   0.96466   -24.01
       2700   0.93421   -42.24    3.2173   140.59   0.04011    59.76   0.96216   -24.84
       2800   0.93146   -43.76    3.1964   139.16  0.041286    58.22   0.95894   -25.74
       2900   0.92682   -45.31    3.1888   137.73  0.042402    56.83   0.95647   -26.61
       3000   0.92342   -46.82    3.1887   136.34  0.043375    55.66   0.95402   -27.49
       3100   0.92058   -48.31     3.171   134.97    0.0444    54.60   0.95185   -28.37
       3200   0.91675   -49.81    3.1655   133.60  0.045504    53.56   0.94843   -29.22
       3300   0.91276   -51.36    3.1534   132.22   0.04663    52.40   0.94576   -30.19
       3400   0.90867   -52.86    3.1528   130.82  0.047689    51.45   0.94291   -31.09
       3500   0.90444   -54.34    3.1431   129.47  0.048805    50.38   0.93964   -31.93
       3600    0.9002   -55.90    3.1382   128.14  0.049837    49.31   0.93584   -32.74
       3700   0.89683   -57.30    3.1071   126.75  0.050812    48.17   0.93289   -33.65
       3800    0.8916   -58.91    3.1225   125.36  0.051916    47.18   0.93054   -34.50
       3900   0.88775   -60.37    3.1128   124.01  0.052877    46.21   0.92718   -35.34
       4000   0.88278   -61.89    3.1169   122.64  0.054008    45.19   0.92414   -36.21
       4100   0.87845   -63.36    3.0898   121.29  0.054901    43.98   0.91997   -37.06
       4200   0.87441   -64.79    3.0837   119.95  0.055839    42.89   0.91699   -37.92
       4300   0.87081   -66.30    3.0752   118.61  0.056695    41.81   0.91417   -38.80
       4400   0.86605   -67.88    3.0841   117.18  0.057651    40.84   0.91172   -39.64
       4500   0.86205   -69.33    3.0625   115.90  0.058428    39.77   0.90765   -40.49
       4600   0.85669   -70.81    3.0506   114.54  0.059244    38.72   0.90356   -41.35
       4700    0.8531   -72.24    3.0282   113.22  0.060006    37.61   0.89982   -42.23
       4800   0.84751   -73.82    3.0297   111.78  0.060873    36.55   0.89726   -43.14
       4900   0.84258   -75.30    3.0139   110.44  0.061605    35.47   0.89386   -43.92
       5000   0.83788   -76.78    3.0122   109.20  0.062343    34.53   0.88934   -44.70
       5200   0.82796   -79.70     2.987   106.41  0.063517    32.39   0.88185   -46.51
       5400   0.81757   -82.68    2.9691   103.87  0.064738    30.32   0.87543   -48.07
       5600   0.80709   -85.63    2.9435   101.14  0.065664    28.25   0.86676   -49.88
       5800   0.79705   -88.53    2.9194    98.54  0.066651    26.25   0.86035   -51.45
       6000   0.78797   -91.40     2.889    95.97  0.067284    24.30     0.852   -53.21
       6200   0.77863   -94.30    2.8626    93.40  0.067914    22.47   0.84512   -54.83
       6400   0.76927   -97.20    2.8378    90.87  0.068606    20.61   0.83705   -56.46
       6600   0.75748  -100.03    2.8125    88.27  0.068742    18.57   0.82881   -58.10
       6800   0.74784  -102.89    2.7941    85.83  0.069048    17.06   0.82252   -59.62
       7000   0.73796  -105.68    2.7677    83.20  0.069252    15.27   0.81341   -61.37
       7200   0.72937  -108.54    2.7471    80.83  0.069099    13.83   0.80694   -62.85
       7400   0.72018  -111.38    2.7245    78.29  0.068972    12.16   0.79867   -64.57
       7600   0.71187  -114.15     2.702    75.89  0.069209    10.82   0.79311   -66.06
       7800   0.70135  -117.01    2.6766    73.43  0.068765     9.33   0.78462   -67.76
       8000   0.69226  -119.57    2.6514    71.18  0.067916     8.02   0.77702   -69.21
       8200   0.68526  -122.44     2.637    68.71  0.068048     7.34   0.77189   -70.90
       8400   0.67713  -125.24     2.604    66.33  0.067926     5.62   0.76312   -72.57
       8600   0.66749  -127.93    2.5854    64.06  0.066326     4.31   0.75644   -73.91
       8800   0.65938  -130.87    2.5697    61.44  0.066736     3.69   0.75021   -75.74
       9000   0.65395  -133.30    2.5431    59.27  0.065918     3.27   0.74658   -77.37
       9200   0.64824  -136.39    2.5318    56.80  0.066487     2.82   0.74108   -79.19
       9400   0.63616  -139.42    2.5016    54.10  0.066042     0.58   0.73286   -81.16
       9600   0.62675  -141.90      2.47    52.06    0.0646    -0.17   0.72189   -82.60
       9800   0.61811  -144.53    2.4447    49.78  0.063023    -1.58    0.7154   -84.22
      10000   0.61339  -146.80    2.4188    47.78  0.061901    -1.46   0.70909   -85.65
      10200   0.60969  -149.75    2.4127    45.46  0.061576    -1.49   0.70375   -87.50
      10400   0.60653  -152.73    2.3971    42.91  0.061935    -1.62   0.70247   -89.48
      10600   0.59601  -155.61    2.3719    40.41  0.061488    -3.36   0.69056   -91.47
      10800   0.58867  -158.31    2.3418    37.91  0.060155    -4.40   0.68373   -93.38
      11000   0.57692  -160.51    2.3067    36.19  0.056013    -5.44   0.67103   -94.35
      11200   0.57953  -163.19    2.3075    33.84  0.056433    -1.96   0.67524   -96.46
      11400   0.57399  -165.98    2.2776    31.57  0.056125    -2.42   0.66817   -98.32
      11600   0.57053  -168.71    2.2645    29.37  0.056073    -1.43   0.66219  -100.45
      11800   0.56541  -171.61    2.2345    26.99  0.055002    -1.87   0.65367  -102.14
      12000    0.5574  -174.33    2.2087    24.93  0.054426    -2.23    0.6432  -104.19
      12200   0.55537  -176.75     2.191    22.98  0.053428     0.30   0.63806  -105.45
      12400   0.54912  -179.71    2.1738    20.50  0.054068    -0.84   0.63316  -107.68
      12600   0.54029   177.99    2.1393    18.62  0.050585    -0.39   0.62017  -108.91
      12800   0.54177   175.74    2.1301    16.82   0.04998     3.22   0.61975  -110.34
      13000   0.54102   173.15    2.1327    14.58  0.052366     6.59   0.62217  -112.37
      13200   0.53746   170.81    2.1056    12.61    0.0499     8.45   0.61763  -113.77
      13400    0.5389   167.93    2.0907    10.22  0.054497     9.34    0.6151  -116.73
      13600   0.53775   165.29    2.0879     7.94  0.054451    10.65   0.60985  -118.81
      13800   0.53553   162.76    2.0588     5.52  0.055896    10.89   0.60225  -121.37
      14000   0.53092   159.70    2.0377     3.35  0.056225    11.24   0.59149  -123.65
      14200   0.53164   157.75     2.011     1.55  0.056338    13.97   0.58417  -125.29
      14400    0.5277   155.32    2.0081    -0.27  0.058087    15.52   0.57808  -127.48
      14600    0.5321   152.34     1.994    -2.71  0.061174    16.67   0.57463  -129.32
      14800   0.52573   149.68    1.9696    -4.86  0.062445    16.25   0.56614  -132.02
      15000   0.52876   147.18     1.965    -6.80  0.064144    18.17   0.56448  -133.34
      15200   0.52801   144.89     1.943    -8.95  0.066374    18.41   0.56205  -135.94
      15400   0.53211   142.33    1.9441   -10.87   0.06963    20.15   0.56061  -137.85
      15600    0.5354   139.89    1.9193   -13.39  0.072264    19.78   0.55818  -140.45
      15800   0.53635   137.27    1.9172   -15.36  0.075555    20.09   0.55876  -142.87
      16000   0.54049   134.40    1.8948   -17.90  0.078166    19.15   0.55445  -145.67
      16200   0.54429   131.94    1.8821   -19.97  0.081252    19.75   0.55167  -148.14
      16400   0.54575   128.99    1.8634   -22.35  0.084815    18.98   0.54685  -150.57
      16600   0.54363   127.00     1.843   -24.07  0.086985    18.46   0.54366  -153.21
      16800   0.54513   124.70    1.8302   -26.06  0.089955    19.10   0.53873  -155.10
      17000    0.5476   122.16    1.8243   -28.26  0.094438    18.17    0.5407  -158.40
      17200   0.54757   119.92    1.8087   -30.23  0.097452    17.98   0.53292  -160.68
      17400   0.55343   117.01    1.8091   -32.85   0.10272    17.25   0.53687  -163.77
      17600   0.55562   114.61    1.7934   -34.86     0.107    16.49    0.5299  -165.76
      17800    0.5575   112.43    1.7881   -37.18   0.11135    15.41    0.5332  -168.76
      18000   0.56708   109.65    1.7685   -39.77   0.11706    13.51   0.53878  -171.57
      18200   0.56652   106.77    1.7507   -42.25    0.1199    11.58    0.5347  -175.22
      18400   0.57083   104.23    1.7234   -44.52   0.12297    10.61   0.53285  -178.23
      18600   0.57048   102.16    1.6948   -46.35   0.12635     9.62   0.52836   178.42
      18800   0.57589    99.53    1.6817   -48.60   0.13105     8.23   0.52856   175.17
      19000   0.57785    97.68    1.6716   -50.23   0.13417     7.37   0.52478   172.36
      19200   0.58339    95.29    1.6644   -52.53   0.14032     6.44    0.5245   169.69
      19400   0.59437    92.56    1.6572   -55.16   0.14706     4.29   0.52715   166.62
      19600   0.59884    89.49    1.6325   -57.92   0.14997     1.89    0.5305   163.26
      19800   0.60774    86.98    1.6103   -59.59   0.15378     0.55   0.52681   159.78
      20000   0.60855    84.18    1.5967   -61.84   0.15819    -0.80   0.52459   157.22